!Agilent Technologies,N5242A,MY51221714,A.09.90.19
!Agilent N5242A: A.09.90.19
!Date: Tuesday, March 26, 2024 16:05:52
!Correction: S11(Full 2 Port(1,2)) 
!S21(Full 2 Port(1,2)) 
!S12(Full 2 Port(1,2)) 
!S22(Full 2 Port(1,2)) 
!S2P File: Measurements: S11, S21, S12, S22:
# Hz S  dB   R 50
9200000000 -0.98671329 135.3844 -9.1622372 -72.677063 -9.1431026 -73.42263 0.0017483179 -101.39596
9200062500 -0.9930867 135.39743 -9.1545076 -72.742714 -9.1531134 -73.401207 0.0015831637 -101.3086
9200125000 -0.98823816 135.33868 -9.153079 -72.705605 -9.137579 -73.379372 0.0073870933 -101.27932
9200187500 -0.99773145 135.39482 -9.1530027 -72.632927 -9.1528492 -73.499519 0.011427575 -101.34064
9200250000 -0.98716331 135.32819 -9.1518755 -72.734154 -9.1443768 -73.370346 0.014017013 -101.33556
9200312500 -0.99491584 135.31947 -9.1576347 -72.673187 -9.1536207 -73.451843 -0.00040174372 -101.31499
9200375000 -0.99292845 135.27885 -9.1531115 -72.708878 -9.1448088 -73.502686 0.013470101 -101.28939
9200437500 -0.98819196 135.31674 -9.1416454 -72.705292 -9.1436186 -73.411911 0.0082368748 -101.25703
9200500000 -0.98467392 135.28047 -9.1601505 -72.682602 -9.145854 -73.399048 -0.0021597773 -101.22589
9200562500 -0.98936975 135.24864 -9.1547394 -72.71109 -9.15483 -73.434792 0.0053102365 -101.26335
9200625000 -0.99390262 135.22295 -9.1543322 -72.744736 -9.1402102 -73.393425 0.0057540284 -101.22732
9200687500 -0.98449397 135.26445 -9.1509361 -72.659309 -9.1430454 -73.380264 0.0048651095 -101.145
9200750000 -0.99538487 135.1908 -9.1484718 -72.712906 -9.1433334 -73.317528 0.0058009354 -101.18294
9200812500 -1.0065629 135.19127 -9.1614094 -72.670135 -9.1486368 -73.419846 -0.0046225907 -101.18168
9200875000 -0.98931199 135.27119 -9.1474972 -72.639801 -9.1547165 -73.342278 0.0016843207 -101.18164
9200937500 -0.99344522 135.19345 -9.1504793 -72.742393 -9.1346407 -73.365776 0.011852078 -101.08466
9201000000 -0.99147892 135.15733 -9.1472893 -72.740997 -9.1404438 -73.364555 0.0062682754 -101.07843
9201062500 -0.9851318 135.14197 -9.1437969 -72.693878 -9.1402912 -73.403404 0.0036229237 -101.10231
9201125000 -0.98998654 135.18384 -9.1473093 -72.621338 -9.1363316 -73.389496 0.0030520489 -101.02934
9201187500 -0.99173993 135.08589 -9.1355867 -72.645729 -9.1354094 -73.400612 0.0058331196 -100.96962
9201250000 -0.99491382 135.14395 -9.1383686 -72.649117 -9.1347198 -73.359001 0.00078279478 -101.00731
9201312500 -1.0039805 135.12469 -9.1465139 -72.636986 -9.1412745 -73.402756 0.0077184495 -101.02888
9201375000 -1.000645 135.12488 -9.1505108 -72.618782 -9.1491737 -73.31263 -0.010481901 -100.95968
9201437500 -0.99764824 135.10542 -9.1568584 -72.661346 -9.1463327 -73.428452 -0.00364877 -101.0682
9201500000 -0.99487734 135.10814 -9.1351175 -72.603981 -9.1444683 -73.364014 -0.003122974 -100.98436
9201562500 -0.99788117 135.05757 -9.1452246 -72.608673 -9.1444168 -73.292137 -0.0087125935 -100.97354
9201625000 -0.99327999 135.06378 -9.1418657 -72.575783 -9.1287374 -73.335159 -0.0036397832 -100.89573
9201687500 -1.0016278 135.0023 -9.1445322 -72.608467 -9.1302786 -73.297615 0.0039028006 -100.83763
9201750000 -0.99565142 135.0052 -9.1419039 -72.696358 -9.1295948 -73.390686 0.012413772 -100.8637
9201812500 -0.99168956 135.01341 -9.1440058 -72.652603 -9.131361 -73.31369 -0.00439463 -100.92496
9201875000 -0.99508065 134.97878 -9.1300793 -72.703789 -9.1302843 -73.365044 0.0084399432 -100.87464
9201937500 -1.0067445 134.91936 -9.1501827 -72.700859 -9.1360073 -73.363808 0.0005451843 -100.86748
9202000000 -0.99686378 134.93817 -9.1368828 -72.650063 -9.137455 -73.414818 0.0026001059 -100.8461
9202062500 -0.99807298 134.94023 -9.1257925 -72.641525 -9.1263628 -73.350975 0.0052086152 -100.81882
9202125000 -0.99521261 134.92316 -9.1442242 -72.720703 -9.130681 -73.275391 -0.00096969242 -100.81646
9202187500 -0.99300301 134.94403 -9.1289568 -72.702522 -9.1315145 -73.365829 -0.0047995383 -100.77158
9202250000 -0.99263579 134.9178 -9.1306448 -72.665451 -9.1251612 -73.307999 -0.0066742133 -100.74478
9202312500 -0.99211657 134.91386 -9.1333456 -72.593727 -9.1183205 -73.314217 0.0070521021 -100.7209
9202375000 -0.99560964 134.89305 -9.1451426 -72.655319 -9.1259451 -73.376938 -0.008677246 -100.70179
9202437500 -0.98958719 134.93558 -9.1312857 -72.605133 -9.12537 -73.391991 0.00755083 -100.7505
9202500000 -1.0000293 134.85121 -9.1348553 -72.673378 -9.1288052 -73.30455 -0.001899354 -100.7273
9202562500 -0.98705024 134.85054 -9.1284132 -72.5951 -9.1332407 -73.320099 -0.0061684563 -100.72697
9202625000 -0.99196941 134.91281 -9.1357059 -72.60289 -9.1157703 -73.32238 0.0020529977 -100.64135
9202687500 -0.99520928 134.88702 -9.1293364 -72.543053 -9.1237125 -73.325432 0.0031550389 -100.60863
9202750000 -0.98494399 134.76772 -9.1200485 -72.636154 -9.1289387 -73.401146 -0.00049109804 -100.67881
9202812500 -0.9948737 134.8082 -9.1334419 -72.553696 -9.1174593 -73.380577 0.0025796667 -100.57284
9202875000 -0.98659796 134.75865 -9.1212349 -72.611488 -9.1152039 -73.324257 0.0043553272 -100.52323
9202937500 -0.99176794 134.78899 -9.131525 -72.639297 -9.1157818 -73.282333 -0.0022802213 -100.52293
9203000000 -0.99314535 134.7959 -9.1254816 -72.616112 -9.1278038 -73.31636 -0.0021230893 -100.49275
9203062500 -0.98915184 134.71355 -9.1106625 -72.618736 -9.1200562 -73.342384 -0.0039262185 -100.56901
9203125000 -0.99587834 134.74391 -9.1320906 -72.567299 -9.1153879 -73.349731 -0.0011555827 -100.51736
9203187500 -0.98823404 134.69456 -9.1285858 -72.629524 -9.1168804 -73.425102 0.004587112 -100.54356
9203250000 -1.0001744 134.69376 -9.1310844 -72.639893 -9.1137838 -73.305061 0.00057550723 -100.49503
9203312500 -1.002232 134.70172 -9.1230812 -72.627335 -9.1088295 -73.35791 0.0056503871 -100.46072
9203375000 -0.99381709 134.7081 -9.1204987 -72.556664 -9.114255 -73.30217 0.0041720429 -100.40189
9203437500 -0.99792612 134.69124 -9.1243629 -72.655212 -9.1203156 -73.251846 -0.00062889932 -100.4524
9203500000 -0.99481791 134.60713 -9.12358 -72.636063 -9.1172676 -73.346405 0.0025291573 -100.4713
9203562500 -1.005098 134.62701 -9.1309633 -72.623123 -9.1273975 -73.330246 -0.012513846 -100.43633
9203625000 -0.99825823 134.62814 -9.1334991 -72.613899 -9.1211166 -73.318161 -0.0069170445 -100.44629
9203687500 -0.99678379 134.60643 -9.1293316 -72.623161 -9.1218758 -73.314278 -0.0083546201 -100.40787
9203750000 -0.9875682 134.58289 -9.112071 -72.633652 -9.1179256 -73.306641 0.003571003 -100.33736
9203812500 -0.99784601 134.58409 -9.1240416 -72.645821 -9.124301 -73.313614 -0.012093455 -100.35104
9203875000 -0.9922359 134.58353 -9.1177835 -72.556602 -9.1194935 -73.354515 -0.018405229 -100.34249
9203937500 -1.001241 134.57945 -9.1217289 -72.581482 -9.1120434 -73.304504 -0.0039550071 -100.33718
9204000000 -0.99680024 134.55293 -9.1137943 -72.594528 -9.1103325 -73.253815 0.00091865944 -100.29218
9204062500 -0.99013025 134.56197 -9.1196613 -72.548477 -9.1040897 -73.35247 -0.0041500968 -100.26614
9204125000 -0.99612093 134.52612 -9.1177197 -72.588326 -9.108201 -73.271645 -0.00076957251 -100.2289
9204187500 -1.0066336 134.45651 -9.1278906 -72.625923 -9.1143456 -73.267059 -0.012695049 -100.19271
9204250000 -0.99841535 134.54436 -9.1147461 -72.513565 -9.1060534 -73.339256 0.00066306291 -100.23413
9204312500 -0.99931866 134.4953 -9.1172504 -72.563148 -9.0996971 -73.303284 -0.014418703 -100.12102
9204375000 -0.98797518 134.45929 -9.118063 -72.582573 -9.1095028 -73.300644 -0.0050246334 -100.20135
9204437500 -1.001555 134.48341 -9.1201258 -72.609764 -9.1011171 -73.246773 -0.0012535667 -100.17236
9204500000 -1.005062 134.45692 -9.1211271 -72.613777 -9.1146383 -73.277184 -0.011133892 -100.15854
9204562500 -0.9949652 134.43256 -9.1170673 -72.647202 -9.1107588 -73.302696 0.0017863845 -100.17473
9204625000 -0.9928121 134.3949 -9.1151505 -72.567299 -9.102602 -73.338959 -0.008882341 -100.07031
9204687500 -0.99826968 134.4203 -9.1127949 -72.530853 -9.1010208 -73.293282 -0.0050903177 -100.04954
9204750000 -1.0038648 134.37494 -9.1088915 -72.546783 -9.1196527 -73.23143 -0.025373716 -100.04343
9204812500 -0.99016964 134.37398 -9.1091423 -72.48571 -9.1101637 -73.245461 -0.008053991 -100.05508
9204875000 -0.99746406 134.38579 -9.1039896 -72.594505 -9.1223946 -73.235779 -0.017101472 -100.07645
9204937500 -0.9934873 134.34897 -9.0998058 -72.611641 -9.099535 -73.297256 -0.0016811779 -100.06516
9205000000 -0.98616576 134.28966 -9.1059761 -72.533722 -9.1073036 -73.257332 -0.022617415 -100.01386
9205062500 -0.99623019 134.29634 -9.1138964 -72.568192 -9.0832214 -73.293518 -0.0062633674 -99.957153
9205125000 -0.99083096 134.29205 -9.1014214 -72.480339 -9.1039457 -73.263954 -0.016328288 -99.898659
9205187500 -0.99924028 134.32761 -9.1089411 -72.511612 -9.1064806 -73.290031 -0.015873535 -99.967621
9205250000 -0.99580377 134.28682 -9.1075153 -72.610115 -9.1116028 -73.238457 -0.019617055 -99.979713
9205312500 -1.0017287 134.34618 -9.1090097 -72.519844 -9.0992441 -73.205513 -0.018908206 -99.929855
9205375000 -0.99760526 134.23944 -9.1093102 -72.52124 -9.10886 -73.278877 -0.010517259 -99.909584
9205437500 -0.99402481 134.25319 -9.1030064 -72.482285 -9.0881224 -73.189407 -0.0055932333 -99.878601
9205500000 -0.99934226 134.18547 -9.0988598 -72.510597 -9.0993872 -73.298645 -0.00090286671 -99.783524
9205562500 -0.99996191 134.18214 -9.101675 -72.625351 -9.0969524 -73.253426 -0.0063525699 -99.816162
9205625000 -1.0072945 134.18109 -9.1081314 -72.487648 -9.0935488 -73.197464 -0.012191293 -99.811066
9205687500 -0.99279743 134.18597 -9.096139 -72.514633 -9.0911455 -73.331497 -0.011480382 -99.822922
9205750000 -0.99682832 134.1655 -9.1029549 -72.5494 -9.1021299 -73.245636 -0.014402068 -99.765045
9205812500 -0.99742776 134.11264 -9.0928469 -72.603745 -9.1010199 -73.246895 -0.011987215 -99.751961
9205875000 -0.98950613 134.1608 -9.0979633 -72.459671 -9.099061 -73.220398 -0.011188144 -99.820168
9205937500 -0.99740916 134.1265 -9.0989914 -72.531204 -9.0895205 -73.192383 -0.0087278029 -99.734413
9206000000 -1.0025561 134.13045 -9.0965309 -72.529701 -9.10291 -73.206505 -0.011701601 -99.664154
9206062500 -0.98908508 134.12723 -9.0921726 -72.577301 -9.1019001 -73.233849 -0.018259291 -99.741371
9206125000 -0.99161154 134.09666 -9.0875149 -72.51033 -9.0879526 -73.190498 -0.013235596 -99.588356
9206187500 -0.9982298 134.11682 -9.0941153 -72.524788 -9.0925522 -73.236397 -0.0075621908 -99.722282
9206250000 -0.9997319 134.04097 -9.1108046 -72.538834 -9.0856323 -73.220612 -0.015675142 -99.655807
9206312500 -0.9970867 134.00894 -9.1017971 -72.556175 -9.0874329 -73.27858 -0.014243681 -99.634697
9206375000 -0.9993614 134.04276 -9.0937281 -72.466911 -9.0866127 -73.163452 -0.0052319965 -99.589653
9206437500 -0.99506718 133.98586 -9.0978956 -72.554474 -9.0983419 -73.19677 -0.017317418 -99.653313
9206500000 -0.99630463 134.00888 -9.0943851 -72.584801 -9.088789 -73.221222 -0.017723087 -99.621735
9206562500 -0.99720025 133.97318 -9.088192 -72.612114 -9.0937529 -73.213104 -0.012976514 -99.619659
9206625000 -0.99514204 133.91797 -9.0817022 -72.533813 -9.0932302 -73.289124 -0.014354961 -99.584541
9206687500 -0.99715728 133.96437 -9.0889778 -72.554779 -9.0874624 -73.220322 -0.0051956731 -99.575188
9206750000 -0.99432647 133.92323 -9.0906048 -72.521088 -9.1004791 -73.205154 -0.018769437 -99.507225
9206812500 -0.9934696 133.95567 -9.0952158 -72.503136 -9.0856705 -73.243805 -0.012449345 -99.56501
9206875000 -1.0027039 133.96562 -9.0919886 -72.490837 -9.0844755 -73.20755 -0.0093024326 -99.424103
9206937500 -0.99807686 133.91019 -9.0949774 -72.58075 -9.0920916 -73.179642 -0.016804554 -99.467979
9207000000 -0.99539828 133.92372 -9.0941801 -72.543152 -9.0802422 -73.191208 -0.014957375 -99.477074
9207062500 -0.99604249 133.88171 -9.0785799 -72.456711 -9.0743771 -73.198387 -0.012029278 -99.386757
9207125000 -1.0053631 133.84583 -9.0810528 -72.570518 -9.080905 -73.233391 -0.014451251 -99.381607
9207187500 -0.99466413 133.85242 -9.0814495 -72.569595 -9.0867443 -73.241783 -0.016628319 -99.435562
9207250000 -0.99758422 133.85783 -9.0813503 -72.476906 -9.0812807 -73.195808 -0.0041981335 -99.445274
9207312500 -0.99097914 133.83179 -9.0826092 -72.498703 -9.0836105 -73.190498 -0.011014216 -99.407928
9207375000 -1.0062402 133.80164 -9.0886269 -72.51564 -9.0878496 -73.274033 -0.014177597 -99.358192
9207437500 -0.99132472 133.86493 -9.0831528 -72.432358 -9.1016064 -73.170525 -0.016135382 -99.345276
9207500000 -1.0032598 133.81133 -9.0926323 -72.482498 -9.0803261 -73.186897 -0.031192422 -99.321724
9207562500 -0.9930687 133.80486 -9.0791206 -72.525665 -9.0776615 -73.146584 -0.023625743 -99.312737
9207625000 -0.99855065 133.75868 -9.0829201 -72.43679 -9.0868044 -73.270638 -0.019367674 -99.242462
9207687500 -0.99867094 133.73219 -9.0837812 -72.48571 -9.0856447 -73.204521 -0.012053947 -99.24662
9207750000 -1.0007545 133.75336 -9.0865135 -72.43644 -9.0818539 -73.156609 -0.012529353 -99.215088
9207812500 -1.0037023 133.76714 -9.0823765 -72.482689 -9.0672855 -73.13829 -0.020775635 -99.260841
9207875000 -0.9950062 133.74225 -9.0884256 -72.397873 -9.0743065 -73.207794 -0.015698865 -99.184113
9207937500 -1.0000991 133.67299 -9.0905046 -72.470413 -9.075243 -73.180031 -0.021576341 -99.214073
9208000000 -1.0061162 133.71025 -9.0815735 -72.46228 -9.0796146 -73.120041 -0.012161613 -99.141006
9208062500 -1.00454 133.67825 -9.0925941 -72.473526 -9.0756197 -73.234634 -0.02364536 -99.210022
9208125000 -1.001317 133.6716 -9.0836544 -72.458984 -9.0717993 -73.187935 -0.013757235 -99.10701
9208187500 -0.99377227 133.68208 -9.0774956 -72.500214 -9.0840225 -73.174706 -0.023742791 -99.155853
9208250000 -1.0024614 133.63705 -9.078084 -72.39164 -9.0754547 -73.170784 -0.018794019 -99.106445
9208312500 -0.99606276 133.61403 -9.0852699 -72.493279 -9.0631809 -73.230949 -0.016313082 -99.134438
9208375000 -1.0034889 133.63626 -9.0761518 -72.466072 -9.0677242 -73.162354 -0.015134355 -99.083656
9208437500 -1.0041938 133.53825 -9.0788202 -72.536171 -9.0727749 -73.157227 -0.023749333 -99.092789
9208500000 -0.99631524 133.5587 -9.0759153 -72.415596 -9.0676279 -73.179207 -0.012639347 -99.033524
9208562500 -1.0022515 133.59248 -9.0743389 -72.463097 -9.0745077 -73.152672 -0.021796381 -98.971313
9208625000 -0.99824429 133.502 -9.0629883 -72.478844 -9.0614643 -73.134499 -0.017338552 -99.01442
9208687500 -0.98780864 133.49779 -9.0559587 -72.524704 -9.0696077 -73.161079 -0.019143825 -99.002037
9208750000 -0.99399179 133.56638 -9.0721197 -72.489967 -9.0641499 -73.117958 -0.020602176 -98.977219
9208812500 -1.0024724 133.5811 -9.0788784 -72.45108 -9.0669775 -73.11264 -0.020808235 -98.928352
9208875000 -1.0023619 133.45163 -9.0583754 -72.549248 -9.074378 -73.150948 -0.020453481 -98.918228
9208937500 -0.99855149 133.49321 -9.0620861 -72.451263 -9.0644245 -73.08786 -0.020747796 -98.898178
9209000000 -0.99193734 133.4922 -9.076354 -72.453094 -9.0706682 -73.099968 -0.033055335 -98.937897
9209062500 -0.9993329 133.46989 -9.0791054 -72.468582 -9.0708542 -73.128944 -0.024210189 -98.875671
9209125000 -1.0075314 133.45772 -9.0686131 -72.492981 -9.0578671 -73.196808 -0.013565612 -98.891266
9209187500 -0.99934596 133.48752 -9.0657415 -72.41246 -9.0658016 -73.114212 -0.022110533 -98.876495
9209250000 -0.99310583 133.38809 -9.0668211 -72.459404 -9.0685349 -73.166451 -0.019899961 -98.800117
9209312500 -0.99825865 133.34308 -9.0640469 -72.414551 -9.0548992 -73.140381 -0.028567608 -98.819115
9209375000 -0.99571395 133.40302 -9.0692396 -72.430565 -9.0743475 -73.051918 -0.037430588 -98.767815
9209437500 -1.0035406 133.36371 -9.0735598 -72.421799 -9.064497 -73.186005 -0.024253072 -98.728752
9209500000 -0.99324155 133.32294 -9.0595741 -72.486923 -9.0593824 -73.140388 -0.02004279 -98.720642
9209562500 -1.0036558 133.34746 -9.0685778 -72.413185 -9.0640364 -73.135666 -0.028950116 -98.719627
9209625000 -1.0068272 133.3196 -9.0604382 -72.422272 -9.0592461 -73.165413 -0.018935425 -98.671196
9209687500 -0.99738997 133.26686 -9.055562 -72.380043 -9.0565414 -73.072327 -0.024129566 -98.665298
9209750000 -0.99819905 133.28506 -9.0592346 -72.428772 -9.0656633 -73.136894 -0.014008599 -98.701286
9209812500 -0.99450868 133.25775 -9.0487738 -72.445732 -9.064045 -73.126976 -0.027977796 -98.665024
9209875000 -0.99667811 133.28967 -9.0578384 -72.41925 -9.0522413 -73.079262 -0.024780478 -98.679504
9209937500 -0.99767262 133.33771 -9.0712795 -72.460106 -9.0669622 -73.071457 -0.037357111 -98.705643
9210000000 -0.98970568 133.23773 -9.0509109 -72.366516 -9.0571461 -73.12027 -0.042153187 -98.588081
9210062500 -1.00366 133.27824 -9.0618763 -72.377769 -9.0562344 -73.132042 -0.02622099 -98.621628
9210125000 -0.99839854 133.22096 -9.0576925 -72.431633 -9.052063 -73.097282 -0.025693962 -98.613571
9210187500 -1.0014644 133.24738 -9.0551958 -72.346161 -9.0494576 -73.068405 -0.021164279 -98.507965
9210250000 -0.9991402 133.22682 -9.0598059 -72.435135 -9.0493145 -73.046791 -0.02922005 -98.577126
9210312500 -1.0070065 133.20212 -9.059001 -72.329262 -9.0560369 -73.158859 -0.028405517 -98.5868
9210375000 -0.99052948 133.21809 -9.0561066 -72.344429 -9.0521088 -73.10556 -0.023751393 -98.473007
9210437500 -0.99706191 133.13881 -9.063693 -72.406342 -9.040391 -73.161041 -0.011806015 -98.556305
9210500000 -0.99567509 133.16756 -9.0450344 -72.349609 -9.0360689 -73.076195 -0.014090937 -98.463753
9210562500 -0.99916339 133.14403 -9.0484419 -72.352516 -9.0514488 -73.122757 -0.031717025 -98.453522
9210625000 -0.99616432 133.12047 -9.0660486 -72.424706 -9.0582237 -73.03154 -0.029927675 -98.464188
9210687500 -0.99776143 133.12489 -9.060194 -72.412621 -9.0544424 -73.09272 -0.032865934 -98.41124
9210750000 -1.0015572 133.11453 -9.0558643 -72.395302 -9.0407438 -73.077881 -0.020388205 -98.441238
9210812500 -1.0040987 133.07161 -9.0534697 -72.417992 -9.0453081 -73.012291 -0.03172572 -98.378052
9210875000 -0.99924743 133.07082 -9.0523748 -72.385269 -9.0419397 -73.014252 -0.027793216 -98.38295
9210937500 -0.9977262 133.08357 -9.055337 -72.419456 -9.0510292 -73.010826 -0.033513699 -98.316063
9211000000 -1.0020133 133.05217 -9.0569344 -72.377586 -9.0591335 -73.053993 -0.030134171 -98.412735
9211062500 -0.99236912 133.04729 -9.0518732 -72.309372 -9.0550241 -72.999657 -0.03357302 -98.297745
9211125000 -0.99942118 133.01285 -9.0497875 -72.376564 -9.0430298 -73.058647 -0.023463808 -98.341591
9211187500 -1.0132935 133.00511 -9.05231 -72.407234 -9.0383072 -73.038406 -0.025526049 -98.264671
9211250000 -1.0051234 133.01584 -9.0562 -72.331444 -9.0472593 -73.001816 -0.023752633 -98.25634
9211312500 -0.99971092 133.0257 -9.0611506 -72.244049 -9.0520058 -73.004166 -0.037491012 -98.281784
9211375000 -1.0006186 132.91704 -9.0392609 -72.369461 -9.0446177 -73.114868 -0.031348605 -98.223145
9211437500 -1.0023386 132.93105 -9.0419979 -72.360764 -9.0440321 -73.079422 -0.029926073 -98.18972
9211500000 -1.0073385 132.93065 -9.0485706 -72.354591 -9.0481148 -73.114067 -0.032769337 -98.285965
9211562500 -1.0126671 132.92316 -9.0519142 -72.370506 -9.0387182 -73.047997 -0.034411639 -98.236923
9211625000 -1.0027735 132.86299 -9.0449781 -72.443443 -9.0334301 -73.098068 -0.024840692 -98.207108
9211687500 -1.0045681 132.92705 -9.0433817 -72.361404 -9.0340605 -73.078629 -0.03480297 -98.143105
9211750000 -1.0007592 132.88052 -9.0399914 -72.312065 -9.0415001 -73.03624 -0.025609629 -98.094337
9211812500 -1.0045295 132.90131 -9.0539751 -72.343773 -9.0443401 -73.003563 -0.04056415 -98.120659
9211875000 -1.0096202 132.82727 -9.0491695 -72.409721 -9.0369053 -73.020058 -0.027504079 -98.052246
9211937500 -0.99810398 132.90105 -9.0412884 -72.343895 -9.0351 -73.097046 -0.037406854 -98.109474
9212000000 -1.0013725 132.77568 -9.0414324 -72.300331 -9.0306969 -73.026649 -0.03326001 -98.076462
9212062500 -0.99818188 132.78596 -9.0347614 -72.264244 -9.0282345 -73.036324 -0.034866922 -98.018707
9212125000 -0.99781317 132.72939 -9.0375357 -72.42157 -9.0459709 -73.026772 -0.03135458 -97.979706
