!Agilent Technologies,N5242A,MY51221714,A.09.90.19
!Agilent N5242A: A.09.90.19
!Date: Tuesday, March 26, 2024 16:06:46
!Correction: S11(Full 2 Port(1,2)) 
!S21(Full 2 Port(1,2)) 
!S12(Full 2 Port(1,2)) 
!S22(Full 2 Port(1,2)) 
!S2P File: Measurements: S11, S21, S12, S22:
# Hz S  dB   R 50
9200000000 -0.99103427 135.65506 -9.1694889 -72.818672 -9.1560869 -73.517494 -0.002766741 -101.84299
9200062500 -0.98733622 135.66254 -9.1624546 -72.824089 -9.1548834 -73.568542 0.011947051 -101.81153
9200125000 -0.9847334 135.62334 -9.1559916 -72.814316 -9.1505136 -73.462448 0.0037991968 -101.74467
9200187500 -0.99318188 135.62921 -9.1574125 -72.729225 -9.1546593 -73.539978 0.014891736 -101.7077
9200250000 -0.98169279 135.60123 -9.1518688 -72.821449 -9.1551104 -73.421402 0.0068524368 -101.75722
9200312500 -0.99444097 135.61768 -9.158 -72.741577 -9.1637411 -73.499863 0.0044771307 -101.72414
9200375000 -0.99000496 135.56276 -9.1577024 -72.794434 -9.1484509 -73.56366 0.015154503 -101.71057
9200437500 -0.98736852 135.60306 -9.1586847 -72.733131 -9.1391563 -73.472717 0.020534799 -101.66422
9200500000 -0.99010831 135.53218 -9.167573 -72.782524 -9.150548 -73.411118 0.00063933397 -101.62327
9200562500 -0.98646921 135.54318 -9.1566706 -72.785881 -9.1631079 -73.466789 0.010821257 -101.68293
9200625000 -0.99638897 135.55 -9.1643276 -72.738159 -9.1357689 -73.450516 0.011633164 -101.61867
9200687500 -0.98748487 135.52068 -9.1625986 -72.739479 -9.149251 -73.445534 0.0097090807 -101.58058
9200750000 -0.989622 135.45874 -9.1510277 -72.773888 -9.154479 -73.464272 0.0049811248 -101.60178
9200812500 -1.0004121 135.49724 -9.1569986 -72.732414 -9.1536875 -73.425705 0.0038862724 -101.572
9200875000 -0.98156828 135.58681 -9.1518412 -72.721245 -9.1482716 -73.389549 0.0050691841 -101.56414
9200937500 -0.98495084 135.49211 -9.1478643 -72.77475 -9.1397791 -73.454681 0.011697887 -101.52996
9201000000 -0.98744667 135.47067 -9.1661501 -72.806015 -9.1391087 -73.441429 0.012166839 -101.48534
9201062500 -0.98687619 135.41309 -9.151392 -72.693184 -9.1483202 -73.512184 0.00032958455 -101.51611
9201125000 -0.99021637 135.40991 -9.1558084 -72.750923 -9.1547432 -73.486916 -0.0014123262 -101.47545
9201187500 -0.99269825 135.35475 -9.1496477 -72.763985 -9.1457844 -73.412689 0.00094933098 -101.3682
9201250000 -0.99150479 135.4427 -9.1470804 -72.747238 -9.1491365 -73.441833 0.0023868801 -101.41645
9201312500 -1.0017291 135.39961 -9.1580677 -72.732437 -9.1445913 -73.485359 0.0081375288 -101.45648
9201375000 -0.99569952 135.36778 -9.1542473 -72.714035 -9.140317 -73.415443 -0.0047875387 -101.40463
9201437500 -0.98962212 135.37074 -9.1528111 -72.693207 -9.1557341 -73.45343 -0.0036238334 -101.46925
9201500000 -0.99192005 135.34908 -9.151083 -72.706108 -9.151062 -73.437698 -0.00041230669 -101.40431
9201562500 -0.99644226 135.31999 -9.1604128 -72.708382 -9.1553431 -73.330231 -0.0099944193 -101.34534
9201625000 -0.98695612 135.31328 -9.1479578 -72.705719 -9.1359177 -73.434578 0.00086846977 -101.31437
9201687500 -0.99340039 135.31796 -9.1457119 -72.600204 -9.1485529 -73.407715 -0.0026913257 -101.30999
9201750000 -0.99058747 135.32394 -9.1564341 -72.688293 -9.1363831 -73.510727 0.0095769344 -101.32318
9201812500 -0.98737836 135.29311 -9.1490746 -72.747032 -9.1398611 -73.383621 -0.011983383 -101.3721
9201875000 -0.99235046 135.28127 -9.1436253 -72.711502 -9.1426706 -73.483315 0.0053713908 -101.26022
9201937500 -1.0005704 135.22284 -9.1524048 -72.709007 -9.1431494 -73.499496 0.0016848042 -101.29914
9202000000 -0.99176413 135.24394 -9.1368399 -72.689499 -9.1382923 -73.453377 0.0035381441 -101.25279
9202062500 -0.99808782 135.2543 -9.1406784 -72.708382 -9.1307154 -73.49086 0.0065328898 -101.2354
9202125000 -0.99605948 135.27974 -9.1606693 -72.707901 -9.1377001 -73.416679 -0.004313312 -101.28294
9202187500 -0.99341792 135.24092 -9.1512527 -72.707947 -9.1427612 -73.410812 0.00036761316 -101.13397
9202250000 -0.99732786 135.18317 -9.1463652 -72.773384 -9.1281595 -73.436531 -0.0047408938 -101.19629
9202312500 -0.99143422 135.20593 -9.1474533 -72.636497 -9.1301384 -73.384705 -0.00076313259 -101.13742
9202375000 -0.98930001 135.11729 -9.1502218 -72.727859 -9.1211643 -73.455513 -0.0037352017 -101.11793
9202437500 -0.99184406 135.19933 -9.1435509 -72.722427 -9.137145 -73.449745 0.0010955294 -101.16003
9202500000 -0.99842954 135.14014 -9.1401577 -72.735786 -9.1430321 -73.454437 -0.0069403439 -101.17399
9202562500 -0.98494035 135.06821 -9.1381769 -72.69397 -9.141715 -73.403641 -0.010332654 -101.08936
9202625000 -0.99924636 135.15804 -9.1540642 -72.728889 -9.1318588 -73.411301 -0.0021435795 -101.09527
9202687500 -0.99432659 135.11594 -9.1346941 -72.674011 -9.1278887 -73.36869 0.0048942175 -100.994
9202750000 -0.98085022 135.05087 -9.1297789 -72.713127 -9.1315937 -73.41571 0.0016882741 -101.02146
9202812500 -0.99367529 135.05019 -9.146121 -72.781685 -9.1297436 -73.460419 0.0071314014 -101.01377
9202875000 -0.99093378 135.04454 -9.128089 -72.723534 -9.1225643 -73.413567 0.0052541019 -100.98214
9202937500 -0.98861915 135.05013 -9.1412258 -72.739975 -9.1193657 -73.344414 0.0049413312 -100.93517
9203000000 -0.99519706 135.0703 -9.1307411 -72.709366 -9.1297626 -73.397301 -0.00030695563 -100.93326
9203062500 -0.98784071 134.98367 -9.137701 -72.684952 -9.1309891 -73.315231 -0.01056639 -100.96542
9203125000 -0.9896419 134.99648 -9.1320238 -72.678711 -9.1211157 -73.430595 -0.0001368986 -100.94766
9203187500 -0.98967677 134.99774 -9.1409931 -72.718643 -9.1237926 -73.430168 -0.0048538269 -100.94157
9203250000 -0.99408948 134.94177 -9.1269884 -72.700775 -9.1246519 -73.341934 0.00087029178 -100.88113
9203312500 -1.0010198 134.98347 -9.1468935 -72.640739 -9.1211996 -73.442253 0.0022889094 -100.90991
9203375000 -0.98685497 134.95271 -9.125411 -72.681267 -9.1223783 -73.424492 0.0085276039 -100.85398
9203437500 -1.0008348 135.01085 -9.1414385 -72.671631 -9.1333084 -73.3536 -0.0070477636 -100.8719
9203500000 -0.99152064 134.92694 -9.1270113 -72.705727 -9.1215601 -73.451897 -0.0024578352 -100.89361
9203562500 -1.0008467 134.90962 -9.1434221 -72.672127 -9.1317034 -73.410126 -0.01781266 -100.84977
9203625000 -0.99324131 134.92227 -9.1220045 -72.736328 -9.1245508 -73.348351 -0.0052043372 -100.84829
9203687500 -1.0021042 134.87216 -9.1357088 -72.738373 -9.1232376 -73.333382 -0.0058259745 -100.79591
9203750000 -0.99320441 134.85759 -9.138834 -72.674583 -9.1252098 -73.389442 0.0024446691 -100.7476
9203812500 -0.99902529 134.85185 -9.1165543 -72.675117 -9.1234684 -73.369385 -0.0032419071 -100.70216
9203875000 -0.99596089 134.83928 -9.1398277 -72.660889 -9.1285019 -73.370407 -0.018253133 -100.76397
9203937500 -0.9967953 134.81355 -9.1318111 -72.739166 -9.1286364 -73.370461 -0.0063107279 -100.75972
9204000000 -1.0024216 134.84642 -9.1236506 -72.629944 -9.120863 -73.327271 -0.0055142809 -100.66179
9204062500 -0.98378581 134.83405 -9.1219635 -72.52565 -9.11308 -73.42411 -0.010001946 -100.66051
9204125000 -0.99571776 134.7897 -9.1215611 -72.660858 -9.1211586 -73.342407 -0.0010316923 -100.65675
9204187500 -0.99928784 134.76459 -9.1282492 -72.655228 -9.1179447 -73.377701 -0.0074675847 -100.63737
9204250000 -0.99605036 134.74083 -9.118968 -72.697403 -9.1271009 -73.374611 -0.0043626828 -100.65275
9204312500 -1.000676 134.78728 -9.1291895 -72.650963 -9.1199722 -73.437675 -0.0099283969 -100.61032
9204375000 -0.98406124 134.73413 -9.1288252 -72.658951 -9.1193876 -73.375443 -0.013208156 -100.6336
9204437500 -1.0030837 134.74622 -9.124651 -72.676544 -9.1234026 -73.281418 -0.0010463884 -100.5649
9204500000 -1.0029162 134.70354 -9.124362 -72.723068 -9.1207447 -73.390045 -0.011240908 -100.63695
9204562500 -0.98813117 134.67548 -9.1277676 -72.731308 -9.1149578 -73.371765 -0.0031552685 -100.62386
9204625000 -0.98934311 134.68929 -9.1188984 -72.645309 -9.1073551 -73.378387 -0.0033662182 -100.51373
9204687500 -0.99287146 134.67738 -9.1214571 -72.601608 -9.1085119 -73.366058 -0.00013660941 -100.48161
9204750000 -1.0033706 134.66141 -9.1187534 -72.601379 -9.1131983 -73.354591 -0.013953606 -100.48854
9204812500 -0.98973459 134.64774 -9.1247578 -72.590988 -9.1202631 -73.352829 -0.0072300322 -100.48544
9204875000 -0.99715275 134.68019 -9.1203346 -72.622223 -9.1262865 -73.288498 -0.015234163 -100.47051
9204937500 -0.99160832 134.61314 -9.1131563 -72.662689 -9.1055555 -73.448517 -0.0024512117 -100.47183
9205000000 -0.98396748 134.57504 -9.1127357 -72.580444 -9.1159477 -73.302757 -0.02137929 -100.38351
9205062500 -0.99777353 134.59372 -9.1241713 -72.648453 -9.0966368 -73.350533 -0.0084359664 -100.40946
9205125000 -0.98897338 134.59171 -9.1078892 -72.590508 -9.1003628 -73.291626 -0.0041707782 -100.3192
9205187500 -0.99639589 134.60222 -9.1151514 -72.571236 -9.1001711 -73.317703 -0.0052834358 -100.36379
9205250000 -0.99131322 134.55386 -9.1159096 -72.665421 -9.1159668 -73.359268 -0.019201288 -100.429
9205312500 -0.9921158 134.59998 -9.1116676 -72.612671 -9.1098099 -73.292107 -0.017781265 -100.30629
9205375000 -0.99883199 134.50624 -9.1262054 -72.626099 -9.1133404 -73.318848 -0.010411199 -100.32681
9205437500 -0.98908091 134.52019 -9.1180801 -72.591034 -9.1104097 -73.314301 -0.011902431 -100.31578
9205500000 -0.99714476 134.45927 -9.1038399 -72.553131 -9.1079044 -73.393753 -0.0071072956 -100.21541
9205562500 -0.99310279 134.51129 -9.0984097 -72.617287 -9.1032257 -73.29805 -0.0043011182 -100.24997
9205625000 -1.0075775 134.48227 -9.1177206 -72.613625 -9.0995979 -73.341446 -0.0093987882 -100.22549
9205687500 -0.99239093 134.49521 -9.1035795 -72.545296 -9.097085 -73.396187 -0.0029910433 -100.22346
9205750000 -0.99084556 134.38379 -9.0976563 -72.644241 -9.1040459 -73.334114 -0.0024583617 -100.18466
9205812500 -1.0045979 134.40292 -9.1094484 -72.625923 -9.1089106 -73.346176 -0.0097728213 -100.17492
9205875000 -0.99230248 134.4649 -9.1127434 -72.573395 -9.1100273 -73.333641 -0.015751585 -100.22513
9205937500 -0.99350309 134.40121 -9.1026125 -72.579185 -9.1006737 -73.313263 -0.011498815 -100.16889
9206000000 -0.99634165 134.36409 -9.0955868 -72.534134 -9.0968132 -73.283424 -0.0051241978 -100.10618
9206062500 -0.99347144 134.39041 -9.1014786 -72.659386 -9.1002665 -73.305771 -0.01730244 -100.15821
9206125000 -0.99394882 134.34763 -9.099843 -72.623116 -9.0912809 -73.256996 -0.012860103 -100.04477
9206187500 -0.99518806 134.37874 -9.1034832 -72.596375 -9.0838871 -73.333809 -0.00043111594 -100.07756
9206250000 -1.0046159 134.29065 -9.1147699 -72.619682 -9.0924273 -73.254944 -0.0055969767 -100.04787
9206312500 -0.98866761 134.26187 -9.0959864 -72.580666 -9.1018305 -73.422844 -0.0062401341 -100.14243
9206375000 -0.9986667 134.28651 -9.1085234 -72.563904 -9.097271 -73.221222 -0.012093283 -100.02548
9206437500 -0.99197233 134.24934 -9.1044369 -72.612373 -9.0997915 -73.346947 -0.012035344 -100.08194
9206500000 -0.99953276 134.25638 -9.1038227 -72.623222 -9.0990934 -73.236549 -0.018777188 -99.981613
9206562500 -0.99466664 134.27647 -9.107255 -72.642761 -9.0962038 -73.237419 -0.0088056307 -100.03653
9206625000 -0.99952191 134.14975 -9.1019497 -72.707855 -9.0982113 -73.343254 -0.016245225 -100.03659
9206687500 -0.99961215 134.20712 -9.097064 -72.637245 -9.0844383 -73.341988 -0.0053558559 -100.06248
9206750000 -0.99653679 134.29472 -9.0908861 -72.580887 -9.0968513 -73.2948 -0.018263582 -99.988815
9206812500 -0.99349964 134.20697 -9.0927067 -72.652336 -9.102704 -73.301147 -0.011394554 -99.984528
9206875000 -1.0007015 134.20688 -9.0998583 -72.654671 -9.0915699 -73.211716 -0.012742614 -99.816689
9206937500 -0.9943037 134.15263 -9.0978737 -72.633606 -9.1011515 -73.298332 -0.016430261 -99.862267
9207000000 -0.99528658 134.17039 -9.0985861 -72.615768 -9.0909634 -73.296501 -0.0143861 -99.846771
9207062500 -0.99753451 134.14488 -9.0927572 -72.527313 -9.0962887 -73.240845 -0.014902752 -99.757103
9207125000 -1.0038546 134.12454 -9.0888023 -72.608818 -9.0748024 -73.334938 -0.007338196 -99.83065
9207187500 -1.0005479 134.0972 -9.0941286 -72.641304 -9.086319 -73.266418 -0.013373849 -99.824516
9207250000 -0.99531877 134.10933 -9.087553 -72.547676 -9.095727 -73.284477 -0.0054626879 -99.89743
9207312500 -0.99005306 134.07803 -9.0909939 -72.602852 -9.0808287 -73.279724 -0.0044675474 -99.809311
9207375000 -1.0047138 134.06839 -9.0955276 -72.603638 -9.0865202 -73.285164 -0.0057378504 -99.739983
9207437500 -0.99278909 134.10425 -9.0912046 -72.63028 -9.0974197 -73.236809 -0.019226123 -99.735291
9207500000 -0.99549115 134.08931 -9.0954981 -72.559753 -9.0875578 -73.171051 -0.02602081 -99.73175
9207562500 -0.99188465 134.10416 -9.094451 -72.535889 -9.0856628 -73.191704 -0.021891551 -99.718544
9207625000 -0.99726671 133.95044 -9.0798159 -72.594353 -9.0828724 -73.29348 -0.014957337 -99.648369
9207687500 -1.0038414 134.03151 -9.0871058 -72.591965 -9.0793781 -73.260994 -0.011772648 -99.698723
9207750000 -1.0074444 133.98892 -9.0907116 -72.574364 -9.0845261 -73.301308 -0.010436788 -99.705177
9207812500 -0.99847275 133.97202 -9.0934782 -72.55806 -9.0875101 -73.255768 -0.021869252 -99.698509
9207875000 -0.99994278 134.0264 -9.0966663 -72.52346 -9.0780363 -73.272751 -0.01162899 -99.648499
9207937500 -1.0003304 133.94316 -9.0922785 -72.542091 -9.07829 -73.282349 -0.021204742 -99.628273
9208000000 -1.003832 133.93674 -9.0828247 -72.665535 -9.0830555 -73.258293 -0.015602114 -99.624893
9208062500 -1.0050393 133.95924 -9.1055012 -72.488579 -9.0869474 -73.269745 -0.019489154 -99.584251
9208125000 -1.0037004 133.94035 -9.0879726 -72.596794 -9.0825357 -73.263382 -0.021078788 -99.602295
9208187500 -0.98848605 133.9534 -9.0845051 -72.52346 -9.0916147 -73.203506 -0.024936542 -99.543373
9208250000 -1.0057746 133.93513 -9.0920591 -72.487961 -9.0759773 -73.284805 -0.011234951 -99.562187
9208312500 -0.99565727 133.91322 -9.0907049 -72.543289 -9.0686283 -73.242813 -0.010028347 -99.538582
9208375000 -1.0011655 133.89595 -9.0847273 -72.470787 -9.0725126 -73.236916 -0.01511359 -99.445007
9208437500 -0.99897933 133.81703 -9.0797663 -72.562462 -9.0782642 -73.164909 -0.025493782 -99.458504
9208500000 -0.99817193 133.79872 -9.0805235 -72.525711 -9.081934 -73.259071 -0.019089933 -99.471825
9208562500 -0.99857104 133.85017 -9.07236 -72.516983 -9.0805283 -73.213249 -0.021477727 -99.42215
9208625000 -0.99732083 133.74846 -9.0677567 -72.545013 -9.0714855 -73.207504 -0.02149909 -99.476013
9208687500 -0.9957521 133.7981 -9.0841074 -72.567795 -9.0846977 -73.182243 -0.016876044 -99.37616
9208750000 -0.99714804 133.81606 -9.0821266 -72.48008 -9.0816345 -73.139656 -0.024694223 -99.348732
9208812500 -1.0017397 133.85391 -9.0781183 -72.493889 -9.0744772 -73.250862 -0.016081775 -99.358894
9208875000 -1.0015157 133.7562 -9.0845537 -72.554092 -9.081789 -73.1735 -0.016236037 -99.297714
9208937500 -0.99723226 133.78194 -9.0784893 -72.552322 -9.0716305 -73.204582 -0.015565751 -99.335442
9209000000 -0.99438322 133.77269 -9.087019 -72.501945 -9.0687122 -73.213463 -0.027189359 -99.351677
9209062500 -1.0042021 133.73949 -9.0811834 -72.469749 -9.0697317 -73.183815 -0.020068135 -99.263428
9209125000 -1.005267 133.7429 -9.0797119 -72.529503 -9.0667086 -73.232491 -0.015891513 -99.280701
9209187500 -1.0017414 133.71289 -9.0741625 -72.541138 -9.075531 -73.180054 -0.025710762 -99.268089
9209250000 -0.99101514 133.68936 -9.0708456 -72.4925 -9.0650578 -73.269615 -0.014921085 -99.213234
9209312500 -0.99597555 133.5697 -9.0716238 -72.528801 -9.0595274 -73.241608 -0.024423931 -99.262566
9209375000 -0.99436563 133.69016 -9.0751905 -72.425568 -9.0732203 -73.138527 -0.032070022 -99.211685
9209437500 -1.0082209 133.61324 -9.0781403 -72.558731 -9.0669956 -73.269226 -0.017930534 -99.155861
9209500000 -0.99808455 133.60193 -9.0684757 -72.594475 -9.0649929 -73.247444 -0.019071393 -99.156853
9209562500 -1.0079108 133.63071 -9.0859404 -72.464973 -9.070385 -73.210587 -0.028672788 -99.144218
9209625000 -0.99616462 133.57736 -9.0660877 -72.565628 -9.0564213 -73.252319 -0.016360216 -99.132896
9209687500 -1.0033532 133.53003 -9.0755968 -72.532722 -9.0680857 -73.116409 -0.018832034 -99.051544
9209750000 -1.0022 133.51733 -9.0632 -72.600243 -9.0675373 -73.155525 -0.0087113753 -99.102905
9209812500 -0.99762857 133.51294 -9.0769463 -72.472076 -9.0673838 -73.189697 -0.027173245 -99.055656
9209875000 -0.99880928 133.52808 -9.0641336 -72.539024 -9.0767565 -73.168007 -0.034387104 -99.060921
9209937500 -1.0033826 133.629 -9.0796146 -72.487801 -9.0683861 -73.166138 -0.023724418 -99.1147
9210000000 -0.98977238 133.51965 -9.0656071 -72.488358 -9.0551367 -73.121864 -0.040661532 -98.999588
9210062500 -1.0024357 133.55321 -9.0656319 -72.450127 -9.0686216 -73.226555 -0.026929116 -99.025124
9210125000 -0.99638629 133.52348 -9.070632 -72.490448 -9.054697 -73.112335 -0.025117623 -98.958504
9210187500 -1.0022413 133.52512 -9.0639629 -72.476494 -9.0564222 -73.210464 -0.02576503 -98.996231
9210250000 -0.99835402 133.50389 -9.0703754 -72.495857 -9.054554 -73.131721 -0.027359031 -98.986366
9210312500 -1.0050521 133.48061 -9.0557499 -72.430161 -9.065485 -73.197876 -0.023102853 -99.011444
9210375000 -1.0021892 133.47841 -9.0729504 -72.544289 -9.0601463 -73.112808 -0.021289162 -98.857056
9210437500 -0.99251521 133.40332 -9.061306 -72.497421 -9.0494671 -73.234917 -0.015778745 -98.994171
9210500000 -0.99690235 133.40732 -9.0639982 -72.532318 -9.0553141 -73.20153 -0.019267565 -98.918144
9210562500 -1.0009094 133.43158 -9.0649338 -72.382462 -9.0552893 -73.176994 -0.024672139 -98.894051
9210625000 -0.99820286 133.40175 -9.0783949 -72.505592 -9.0652742 -73.108955 -0.036021292 -98.901161
9210687500 -1.0015683 133.38708 -9.0634699 -72.540077 -9.0557175 -73.234756 -0.024332304 -98.869865
9210750000 -1.0035058 133.3607 -9.0687361 -72.513969 -9.0483799 -73.204124 -0.023598291 -98.878723
9210812500 -1.0044043 133.33861 -9.0665607 -72.48632 -9.0575113 -73.15583 -0.02872856 -98.862473
9210875000 -1.0031587 133.32986 -9.0737476 -72.489075 -9.0547504 -73.09993 -0.034457926 -98.808601
9210937500 -1.0015672 133.33743 -9.0650368 -72.460236 -9.0584822 -73.083069 -0.033823907 -98.751221
9211000000 -1.0022668 133.39038 -9.0664444 -72.447235 -9.0660372 -73.175842 -0.026092434 -98.808418
9211062500 -0.99927312 133.29579 -9.0562601 -72.433372 -9.0615063 -73.105179 -0.037346687 -98.747635
9211125000 -0.99744624 133.28821 -9.0619888 -72.446045 -9.0408573 -73.069313 -0.01562498 -98.691971
9211187500 -1.0054427 133.27069 -9.0579882 -72.490799 -9.0442677 -73.11219 -0.023798646 -98.710258
9211250000 -1.0076209 133.25882 -9.0508413 -72.534454 -9.0478392 -73.106911 -0.01902503 -98.709122
9211312500 -0.99930274 133.27902 -9.0546446 -72.447655 -9.043375 -73.111366 -0.033261068 -98.666321
9211375000 -0.99674666 133.17473 -9.0483809 -72.505318 -9.0538254 -73.157349 -0.028229127 -98.652725
9211437500 -0.99732798 133.2148 -9.0384216 -72.426231 -9.046648 -73.175941 -0.03068294 -98.621185
9211500000 -1.0036668 133.21227 -9.0563974 -72.481323 -9.0422211 -73.121658 -0.019840229 -98.685806
9211562500 -1.0093045 133.22987 -9.0719023 -72.463966 -9.0444498 -73.154137 -0.034171794 -98.635681
9211625000 -1.002346 133.15776 -9.0443869 -72.48349 -9.0440836 -73.197182 -0.027931927 -98.637695
9211687500 -1.0067674 133.17564 -9.0536575 -72.428482 -9.0426769 -73.120453 -0.028838404 -98.585442
9211750000 -0.99738908 133.16539 -9.049202 -72.423409 -9.0397272 -73.157341 -0.020126341 -98.539795
9211812500 -1.0095444 133.13612 -9.0696106 -72.448448 -9.0552607 -73.100739 -0.036635011 -98.533142
9211875000 -1.0088729 133.12363 -9.0493069 -72.47831 -9.0424595 -73.098396 -0.02805632 -98.464935
9211937500 -1.0037335 133.1497 -9.0558348 -72.43161 -9.0500803 -73.077553 -0.040237587 -98.485306
9212000000 -1.0012883 133.088 -9.0440207 -72.427483 -9.0367804 -73.190506 -0.032737736 -98.491524
9212062500 -0.99948841 133.06699 -9.0460281 -72.410385 -9.0451326 -73.096382 -0.040808324 -98.483696
