!Agilent Technologies,N5242A,MY51221714,A.09.90.19
!Agilent N5242A: A.09.90.19
!Date: Tuesday, March 26, 2024 16:07:44
!Correction: S11(Full 2 Port(1,2)) 
!S21(Full 2 Port(1,2)) 
!S12(Full 2 Port(1,2)) 
!S22(Full 2 Port(1,2)) 
!S2P File: Measurements: S11, S21, S12, S22:
# Hz S  dB   R 50
9200000000 -0.99288881 135.44009 -9.1217489 -72.690491 -9.1105528 -73.410065 0.0011910121 -101.49407
9200062500 -0.99916428 135.41707 -9.1181231 -72.729187 -9.1073799 -73.425751 0.0046526748 -101.50543
9200125000 -0.99798703 135.44568 -9.115675 -72.718834 -9.1044073 -73.338219 0.00084987778 -101.43136
9200187500 -0.99837649 135.46895 -9.1079016 -72.634712 -9.1113281 -73.428703 0.010154286 -101.46658
9200250000 -0.9921996 135.38974 -9.111043 -72.707222 -9.1014042 -73.319405 0.014004313 -101.44891
9200312500 -1.0017648 135.40938 -9.1189613 -72.708977 -9.1101971 -73.378189 -0.00042074625 -101.45911
9200375000 -0.99856263 135.38086 -9.1063156 -72.696358 -9.0984554 -73.46611 0.012460028 -101.42679
9200437500 -0.99153221 135.40736 -9.1106539 -72.679924 -9.0940552 -73.41478 0.018336607 -101.4136
9200500000 -0.99410182 135.31851 -9.1111517 -72.706078 -9.0996943 -73.315872 0.0048599485 -101.34127
9200562500 -0.99519569 135.30519 -9.1131611 -72.700211 -9.1114817 -73.37561 0.013319044 -101.43488
9200625000 -1.0021558 135.35713 -9.1181087 -72.644936 -9.0948305 -73.338249 0.012272623 -101.36654
9200687500 -0.98985755 135.31326 -9.1147738 -72.650558 -9.1160049 -73.360367 0.00084645319 -101.30661
9200750000 -0.99335682 135.25763 -9.1151028 -72.697632 -9.1120396 -73.358871 -0.0048404415 -101.30851
9200812500 -1.0119929 135.29884 -9.1199608 -72.660957 -9.107398 -73.333199 -0.0060856347 -101.29657
9200875000 -0.98931748 135.35431 -9.1148233 -72.668709 -9.111021 -73.379997 -0.0055317366 -101.31453
9200937500 -0.99581605 135.29218 -9.1086607 -72.693062 -9.1042614 -73.323441 0.01033681 -101.19888
9201000000 -0.98537636 135.23338 -9.1022177 -72.742783 -9.104167 -73.447945 0.0022083393 -101.29844
9201062500 -0.99167395 135.24626 -9.105669 -72.638138 -9.0936842 -73.472786 0.00088726316 -101.26348
9201125000 -0.99733621 135.24774 -9.1030102 -72.593552 -9.1113005 -73.336838 0.00036519783 -101.20658
9201187500 -0.99842483 135.1534 -9.1097174 -72.704346 -9.1051893 -73.315193 -0.0032209482 -101.06529
9201250000 -1.0051416 135.222 -9.0964327 -72.613251 -9.0986767 -73.284172 0.0031257092 -101.13406
9201312500 -1.0104135 135.18524 -9.1132927 -72.642456 -9.1037636 -73.344345 0.0035266606 -101.18486
9201375000 -1.0055951 135.22038 -9.1134787 -72.600952 -9.0857143 -73.315643 0.0011028585 -101.11761
9201437500 -1.0006899 135.17633 -9.1111202 -72.616539 -9.0993509 -73.319931 -0.0054976558 -101.16271
9201500000 -1.003593 135.1273 -9.1019487 -72.699837 -9.1119785 -73.319008 -0.0022025318 -101.15772
9201562500 -1.0007515 135.08992 -9.107995 -72.644119 -9.1040525 -73.333191 -0.012820944 -101.13434
9201625000 -0.99467772 135.13861 -9.0865002 -72.612305 -9.0947113 -73.367676 -0.0076069389 -101.03053
9201687500 -1.0015287 135.11426 -9.102108 -72.532082 -9.0918722 -73.326012 -0.0021521391 -101.0104
9201750000 -0.99913943 135.08041 -9.100358 -72.632683 -9.0886183 -73.315453 0.0077902791 -101.0043
9201812500 -1.0000838 135.07176 -9.1011572 -72.682831 -9.1049137 -73.297798 -0.010823078 -101.05604
9201875000 -0.99464917 135.02759 -9.0889444 -72.620575 -9.0848303 -73.316986 0.01119871 -100.93945
9201937500 -1.007007 135.02808 -9.0992613 -72.615547 -9.0892935 -73.428612 0.00096869463 -101.06654
9202000000 -1.005025 135.03239 -9.0994902 -72.596115 -9.0896912 -73.339188 0.0034772598 -100.94092
9202062500 -1.0008439 135.05359 -9.0945082 -72.57708 -9.0949965 -73.273659 0.0001683085 -100.88799
9202125000 -1.0030529 135.05951 -9.1136885 -72.655807 -9.0956917 -73.305817 -0.0038884638 -100.94527
9202187500 -0.99646801 135.01872 -9.0940952 -72.705826 -9.0960035 -73.338493 -0.0027093033 -100.8541
9202250000 -1.004066 134.96944 -9.1032248 -72.660042 -9.0820293 -73.284164 0.0043402212 -100.86919
9202312500 -0.99947363 134.97462 -9.1065683 -72.577194 -9.0913019 -73.302963 -0.001256583 -100.80183
9202375000 -0.99676472 134.93285 -9.1034393 -72.716667 -9.097064 -73.34716 -0.010963266 -100.86877
9202437500 -1.0027004 134.96848 -9.0960417 -72.570595 -9.0927401 -73.359627 -0.0020161262 -100.89982
9202500000 -1.0100529 134.94052 -9.0953016 -72.644127 -9.0980873 -73.332588 -0.0054694931 -100.89177
9202562500 -0.99458671 134.85829 -9.0884151 -72.622078 -9.0954876 -73.260292 -0.01270772 -100.82749
9202625000 -0.99877745 134.96426 -9.088666 -72.644501 -9.0872412 -73.302513 -0.0064951 -100.79237
9202687500 -1.0001662 134.95364 -9.0865917 -72.540977 -9.0811338 -73.30722 0.005798121 -100.74947
9202750000 -0.99203897 134.83475 -9.0804911 -72.550919 -9.0782232 -73.342682 0.0049480163 -100.77955
9202812500 -0.99872941 134.83456 -9.0860329 -72.621628 -9.0773363 -73.34333 0.0067381775 -100.72757
9202875000 -0.99496222 134.83202 -9.0856314 -72.637962 -9.0785561 -73.296082 0.0076736892 -100.68993
9202937500 -0.99712342 134.83386 -9.0897074 -72.648491 -9.0797739 -73.237846 -0.0011172043 -100.71436
9203000000 -0.99727815 134.86571 -9.0878725 -72.58062 -9.0859756 -73.325653 -0.0044881226 -100.64563
9203062500 -0.99662453 134.76764 -9.0897551 -72.660637 -9.0839138 -73.279442 -0.011925002 -100.66119
9203125000 -0.99544954 134.75728 -9.083539 -72.572411 -9.0771122 -73.240822 -0.0077922679 -100.6227
9203187500 -0.99866897 134.79732 -9.0948896 -72.58828 -9.074729 -73.353836 -0.0048434199 -100.64849
9203250000 -1.0008425 134.75723 -9.0840378 -72.6194 -9.0811949 -73.251381 -0.0018123308 -100.62119
9203312500 -1.008351 134.76588 -9.0872803 -72.611908 -9.0803747 -73.371811 0.0061846934 -100.63493
9203375000 -1.0009685 134.73512 -9.0834913 -72.580788 -9.0808468 -73.251984 -0.0049533467 -100.57409
9203437500 -1.002628 134.76576 -9.0837841 -72.697426 -9.0775051 -73.310081 0.00091079663 -100.59727
9203500000 -0.99578172 134.71338 -9.0772514 -72.618568 -9.078845 -73.302322 0.0014327184 -100.59235
9203562500 -1.0079421 134.71793 -9.1021261 -72.581398 -9.0860567 -73.311584 -0.014978776 -100.58279
9203625000 -1.001183 134.71997 -9.0893354 -72.623329 -9.0893402 -73.231522 -0.014763019 -100.55275
9203687500 -1.0057911 134.6512 -9.0928574 -72.585083 -9.0856237 -73.280746 -0.015652174 -100.52528
9203750000 -0.99723196 134.60271 -9.071023 -72.637154 -9.0816498 -73.285011 -0.00098227372 -100.46513
9203812500 -1.0017449 134.68037 -9.0819559 -72.583527 -9.0707445 -73.334412 -0.0074710953 -100.43774
9203875000 -0.99935085 134.62206 -9.0839262 -72.592606 -9.0770206 -73.309944 -0.021799609 -100.48622
9203937500 -1.0070684 134.64297 -9.0739384 -72.581207 -9.0650225 -73.236511 -0.0050609624 -100.44086
9204000000 -0.99922276 134.63678 -9.0718622 -72.555748 -9.0758085 -73.280045 -0.0079110479 -100.42212
9204062500 -0.99188423 134.60574 -9.0771532 -72.551697 -9.066762 -73.238518 -0.01358751 -100.39863
9204125000 -1.0038983 134.59271 -9.080018 -72.560463 -9.066453 -73.247467 -0.0028005261 -100.36163
9204187500 -1.0008026 134.52528 -9.0775356 -72.587646 -9.0726051 -73.255951 -0.013274518 -100.35335
9204250000 -1.0039675 134.55704 -9.0755196 -72.599174 -9.0723095 -73.338348 -0.006270438 -100.42435
9204312500 -1.0033537 134.59149 -9.0710039 -72.460335 -9.0676222 -73.242729 -0.0090653263 -100.23911
9204375000 -0.99637103 134.54593 -9.0717258 -72.560448 -9.0709124 -73.313583 -0.0099370172 -100.35085
9204437500 -1.0099419 134.5648 -9.0714064 -72.573318 -9.0617447 -73.232635 -0.00064349896 -100.28901
9204500000 -1.009745 134.54358 -9.0705976 -72.559898 -9.0684252 -73.263626 -0.0050008767 -100.30336
9204562500 -1.0073047 134.4675 -9.0812197 -72.644211 -9.0658741 -73.327095 -0.00040418952 -100.3449
9204625000 -0.99297476 134.47697 -9.0666542 -72.484642 -9.0583649 -73.301537 0.0030121747 -100.24643
9204687500 -0.99842262 134.46759 -9.0718842 -72.482513 -9.0681829 -73.232056 -0.0089931516 -100.19718
9204750000 -1.0086105 134.42627 -9.0750484 -72.589607 -9.0664654 -73.271049 -0.026130928 -100.19939
9204812500 -0.99690086 134.44484 -9.0632763 -72.471931 -9.0692244 -73.307709 -0.0045835418 -100.25443
9204875000 -1.0012002 134.51936 -9.0752459 -72.54261 -9.0787745 -73.237762 -0.012893148 -100.27523
9204937500 -0.99454504 134.427 -9.0653496 -72.589264 -9.0617657 -73.287949 -0.00093547499 -100.16604
9205000000 -0.99079293 134.31776 -9.0655737 -72.530457 -9.0630627 -73.215469 -0.023943244 -100.12923
9205062500 -1.0052518 134.38341 -9.0675125 -72.52562 -9.0512762 -73.247894 -0.0083915638 -100.08509
9205125000 -1.0042529 134.36325 -9.0735807 -72.569481 -9.0511246 -73.233101 -0.012758334 -100.0646
9205187500 -1.0033388 134.38963 -9.0760431 -72.454887 -9.061017 -73.26236 -0.013445133 -100.06056
9205250000 -1.0028003 134.31674 -9.078474 -72.585678 -9.0679855 -73.23278 -0.019963112 -100.13821
9205312500 -1.0033693 134.38007 -9.060668 -72.53746 -9.0663271 -73.242882 -0.016369825 -100.09008
9205375000 -0.99557912 134.28461 -9.0550566 -72.53157 -9.0597696 -73.217812 -0.0047153942 -100.0412
9205437500 -0.99607235 134.31367 -9.0606222 -72.507118 -9.0606833 -73.244827 -0.0070645371 -100.03937
9205500000 -1.0009511 134.23955 -9.0547161 -72.56411 -9.0601091 -73.32975 -0.008583338 -99.958
9205562500 -1.0076315 134.25954 -9.0570555 -72.567078 -9.06147 -73.24778 -0.010194244 -99.980911
9205625000 -1.0120118 134.25682 -9.0653639 -72.542389 -9.0588627 -73.2155 -0.011849736 -99.945663
9205687500 -1.0017606 134.26202 -9.059269 -72.452087 -9.0583935 -73.300301 -0.017435385 -99.947624
9205750000 -1.001508 134.21674 -9.0606508 -72.551636 -9.0542459 -73.224174 -0.0057276171 -99.869926
9205812500 -1.0077828 134.17554 -9.0537434 -72.528511 -9.062562 -73.253609 -0.01726401 -99.855949
9205875000 -1.0001541 134.22021 -9.0647936 -72.525414 -9.0545206 -73.206497 -0.012880367 -99.959358
9205937500 -1.0015985 134.18492 -9.0538645 -72.549988 -9.0449047 -73.185539 -0.011925572 -99.849983
9206000000 -1.0033646 134.21165 -9.0442772 -72.470047 -9.0552835 -73.239662 -0.004485175 -99.84951
9206062500 -1.0034844 134.19208 -9.0663643 -72.561966 -9.0608311 -73.221779 -0.027178755 -99.875809
9206125000 -1.0009747 134.16824 -9.0533104 -72.503487 -9.0467558 -73.230934 -0.011214108 -99.814667
9206187500 -1.0015208 134.16046 -9.0476027 -72.555161 -9.0353041 -73.263855 0.00045726911 -99.827385
9206250000 -1.0072453 134.09514 -9.0592566 -72.558113 -9.0528412 -73.149971 -0.017463909 -99.815643
9206312500 -1.0016626 134.04982 -9.0604315 -72.550568 -9.0507164 -73.340881 -0.011756058 -99.829552
9206375000 -1.0039582 134.10199 -9.0548849 -72.520035 -9.0477161 -73.141869 -0.010465843 -99.767242
9206437500 -1.0006943 134.0201 -9.0561962 -72.589333 -9.0465384 -73.246109 -0.018066704 -99.845779
9206500000 -1.00806 134.0587 -9.0668688 -72.571915 -9.0506554 -73.131577 -0.025707668 -99.757462
9206562500 -1.0043745 134.05853 -9.0576391 -72.638069 -9.0479116 -73.146233 -0.014083419 -99.734688
9206625000 -1.0078098 133.98842 -9.0475101 -72.461563 -9.0460749 -73.255173 -0.011407084 -99.705742
9206687500 -1.0090337 134.04376 -9.0522156 -72.545692 -9.0390816 -73.229004 -0.006518451 -99.726997
9206750000 -1.0019622 134.03473 -9.0381775 -72.499413 -9.0446186 -73.20488 -0.011087239 -99.723335
9206812500 -1.0067025 134.04028 -9.0585613 -72.481735 -9.0465403 -73.223907 -0.010699837 -99.643883
9206875000 -1.0030134 133.99301 -9.0553026 -72.574783 -9.0459862 -73.195816 -0.014977684 -99.601295
9206937500 -1.0053574 133.99519 -9.0501385 -72.432083 -9.0564346 -73.172157 -0.0194076 -99.598381
9207000000 -1.003517 133.99327 -9.061698 -72.530334 -9.0560226 -73.216675 -0.018688872 -99.624222
9207062500 -1.0043749 133.93977 -9.0363722 -72.514198 -9.044838 -73.113098 -0.014865162 -99.480186
9207125000 -1.0105108 133.90149 -9.0438433 -72.534172 -9.0506182 -73.265694 -0.021281617 -99.566879
9207187500 -1.0038584 133.88211 -9.0463467 -72.556442 -9.0478058 -73.098083 -0.017517705 -99.523796
9207250000 -1.0005769 133.91486 -9.0506907 -72.499207 -9.0448732 -73.175514 -0.014807114 -99.567543
9207312500 -0.99409872 133.88115 -9.04597 -72.547096 -9.0446081 -73.162216 -0.0089987405 -99.536331
9207375000 -1.0100939 133.87665 -9.0462189 -72.505295 -9.043293 -73.17411 -0.019199496 -99.471191
9207437500 -1.007489 133.89288 -9.0515881 -72.484337 -9.049427 -73.157402 -0.011335195 -99.479912
9207500000 -1.0048434 133.91959 -9.0492716 -72.447479 -9.0269909 -73.109344 -0.022109911 -99.423988
9207562500 -0.99825174 133.91043 -9.0410976 -72.463295 -9.0388355 -73.112656 -0.022038823 -99.39814
9207625000 -1.0030652 133.78046 -9.0353804 -72.499962 -9.0332565 -73.200089 -0.011689391 -99.367928
9207687500 -1.0086271 133.80238 -9.0421648 -72.531181 -9.0332336 -73.173668 -0.0051608863 -99.431946
9207750000 -1.0025713 133.80415 -9.038393 -72.413887 -9.0323029 -73.176292 -0.0086206701 -99.383568
9207812500 -1.002499 133.80466 -9.0419416 -72.438774 -9.0261917 -73.133018 -0.024803547 -99.403603
9207875000 -1.0009611 133.77141 -9.0480566 -72.452133 -9.0337601 -73.188339 -0.027180135 -99.351669
9207937500 -1.0059793 133.70413 -9.0405788 -72.497452 -9.0403633 -73.193199 -0.025485441 -99.384682
9208000000 -1.0116594 133.75517 -9.0397491 -72.477997 -9.0412226 -73.15834 -0.018652869 -99.282753
9208062500 -1.0043504 133.73175 -9.0408916 -72.483864 -9.0335999 -73.182228 -0.016507814 -99.283066
9208125000 -1.0043666 133.73508 -9.0322189 -72.470932 -9.0313911 -73.185867 -0.017998334 -99.312553
9208187500 -1.0010409 133.7394 -9.0314417 -72.481056 -9.0325232 -73.1362 -0.020455016 -99.314835
9208250000 -1.0137529 133.72603 -9.0346746 -72.422119 -9.0262012 -73.210609 -0.016686322 -99.270187
9208312500 -1.0039177 133.69995 -9.0500002 -72.404411 -9.0191813 -73.1847 -0.016899582 -99.237061
9208375000 -1.0096837 133.67897 -9.0371027 -72.521873 -9.0278912 -73.118156 -0.019102378 -99.15509
9208437500 -1.002594 133.59271 -9.0295496 -72.463875 -9.0253506 -73.125069 -0.016624438 -99.192574
9208500000 -1.0076644 133.58571 -9.0342684 -72.492996 -9.0420065 -73.191833 -0.027694216 -99.190804
9208562500 -1.0080235 133.66125 -9.0342712 -72.415642 -9.0323944 -73.164307 -0.024966372 -99.182724
9208625000 -1.0071448 133.5873 -9.026866 -72.454735 -9.0232992 -73.115913 -0.025339283 -99.142609
9208687500 -0.9976787 133.54984 -9.0206099 -72.513763 -9.0239496 -73.11573 -0.019597108 -99.092133
9208750000 -1.0042343 133.62144 -9.0283051 -72.391006 -9.0241089 -73.067177 -0.022889039 -99.096527
9208812500 -1.0055919 133.61249 -9.0313463 -72.457352 -9.0266008 -73.165482 -0.018889338 -99.078735
9208875000 -1.0025598 133.53409 -9.0199671 -72.492462 -9.0303526 -73.183334 -0.015924154 -99.096413
9208937500 -1.0081369 133.57104 -9.0242405 -72.478409 -9.0173006 -73.142624 -0.023742193 -99.047592
9209000000 -0.99932414 133.53676 -9.0403795 -72.449173 -9.0205393 -73.05661 -0.029313724 -99.069283
9209062500 -1.0048414 133.52573 -9.0255785 -72.354752 -9.0292988 -73.10968 -0.022967143 -98.990524
9209125000 -1.0144776 133.48349 -9.0285959 -72.441429 -9.0083742 -73.111977 -0.0075556724 -98.936798
9209187500 -1.0115534 133.48248 -9.029664 -72.436333 -9.0257435 -73.019814 -0.021243183 -98.987831
9209250000 -1.0010574 133.45152 -9.0192871 -72.497452 -9.022584 -73.209343 -0.024018034 -98.94207
9209312500 -1.0045407 133.39529 -9.0233021 -72.491051 -9.0187874 -73.121063 -0.031332396 -98.941254
9209375000 -0.9974736 133.47266 -9.0309229 -72.406013 -9.0243864 -73.099808 -0.031592473 -98.944336
9209437500 -1.0164702 133.4079 -9.0321703 -72.423065 -9.0212164 -73.166206 -0.026081089 -98.874893
9209500000 -1.0052514 133.40118 -9.0253859 -72.455566 -9.0147648 -73.121841 -0.022059031 -98.838295
9209562500 -1.0119241 133.40379 -9.0317078 -72.388672 -9.0231829 -73.121948 -0.030365927 -98.850159
9209625000 -1.0064359 133.34798 -9.0169449 -72.463715 -9.0105648 -73.073555 -0.018432781 -98.819321
9209687500 -1.0093381 133.29744 -9.0197201 -72.544586 -9.0154982 -73.10376 -0.021321587 -98.859413
9209750000 -1.0054882 133.34061 -9.0107327 -72.507607 -9.0095758 -73.068375 -0.011002564 -98.850899
9209812500 -1.0066639 133.33727 -9.0265751 -72.345444 -9.0186758 -73.098991 -0.030372236 -98.783829
9209875000 -1.0044975 133.32373 -9.0177679 -72.46566 -9.0126114 -73.139526 -0.02554851 -98.791229
9209937500 -1.0080754 133.38397 -9.0265207 -72.457626 -9.0278187 -73.101334 -0.030315183 -98.839203
9210000000 -1.0026708 133.32503 -9.0204029 -72.38945 -9.0017262 -73.076248 -0.032863069 -98.698837
9210062500 -1.0097654 133.3006 -9.0278006 -72.44059 -9.0180435 -73.081261 -0.036363039 -98.752663
9210125000 -1.0039084 133.276 -9.0266161 -72.431442 -9.0122223 -73.103561 -0.033797476 -98.758003
9210187500 -1.0113461 133.31372 -9.0189018 -72.403229 -9.011692 -73.111855 -0.030704822 -98.696793
9210250000 -1.0022579 133.28264 -9.0095377 -72.371346 -9.0033464 -73.105789 -0.02993398 -98.747635
9210312500 -1.0111573 133.24496 -9.0167322 -72.387726 -9.0118971 -73.170807 -0.030257862 -98.712883
9210375000 -1.0019573 133.29128 -9.0195608 -72.354088 -9.0111294 -73.05584 -0.029564282 -98.569252
9210437500 -1.0037404 133.20187 -9.0194912 -72.446609 -9.0120144 -73.143448 -0.027794996 -98.703552
9210500000 -1.0039562 133.17793 -9.0010662 -72.394424 -8.9958925 -73.054787 -0.013477423 -98.613731
9210562500 -1.0088515 133.16347 -9.0132437 -72.361305 -9.0039635 -73.090851 -0.026824985 -98.582352
9210625000 -1.0052029 133.18877 -9.0137081 -72.390816 -9.0143518 -72.992249 -0.034773756 -98.625053
9210687500 -1.0043519 133.21126 -9.0145426 -72.342636 -9.0007677 -73.116669 -0.028950091 -98.605034
9210750000 -1.0104235 133.16908 -9.0156164 -72.400841 -9.0037689 -73.116203 -0.026108317 -98.560623
9210812500 -1.0117207 133.15633 -9.0164061 -72.468918 -9.0026121 -73.035408 -0.035200149 -98.515579
9210875000 -1.0045774 133.17178 -9.0217094 -72.409531 -9.0069351 -73.084618 -0.038610172 -98.572899
9210937500 -1.0028456 133.14906 -9.0022554 -72.421593 -9.0050058 -73.026901 -0.036738764 -98.504562
9211000000 -1.0035161 133.10582 -9.015934 -72.411491 -9.0135345 -73.058815 -0.030018842 -98.525757
9211062500 -1.0033984 133.10373 -9.004118 -72.327026 -9.0085812 -73.042686 -0.030237429 -98.477448
9211125000 -1.0055269 133.06978 -9.007762 -72.431068 -8.9975281 -73.092674 -0.025092371 -98.459641
9211187500 -1.0115784 133.06944 -9.0007486 -72.331421 -8.9920425 -73.090874 -0.02890203 -98.473656
9211250000 -1.004222 133.08235 -9.0064497 -72.402069 -9.0059423 -73.002098 -0.025891831 -98.405731
9211312500 -1.0045954 133.03964 -8.9994097 -72.333405 -8.9965305 -73.033493 -0.030693186 -98.442261
9211375000 -1.0072858 132.94147 -8.9999905 -72.43544 -8.9965954 -73.046959 -0.029614137 -98.370117
9211437500 -1.0040196 133.0222 -9.0024729 -72.345978 -8.9955826 -73.094048 -0.034081493 -98.380013
9211500000 -1.0116121 132.98546 -9.0077543 -72.406868 -9.0039129 -73.042374 -0.029197868 -98.376427
9211562500 -1.0106585 133.03169 -9.002327 -72.319008 -8.9914894 -73.047478 -0.031885765 -98.354858
9211625000 -1.0064167 132.94525 -8.9986229 -72.439255 -8.998579 -73.096588 -0.032461174 -98.359917
9211687500 -1.0133821 132.9882 -9.0051003 -72.336586 -8.9976196 -73.047607 -0.028804507 -98.277176
9211750000 -1.0090716 132.93791 -8.9988947 -72.336945 -8.9939966 -73.048088 -0.031178139 -98.223404
9211812500 -1.0119328 132.94612 -9.0163612 -72.356056 -8.9968252 -73.017471 -0.045533616 -98.275246
9211875000 -1.0169975 132.91156 -9.0111189 -72.407967 -8.9951181 -73.045448 -0.030746091 -98.154732
9211937500 -1.0039283 132.93391 -8.9986048 -72.364288 -8.9903269 -73.061302 -0.041437469 -98.258812
9212000000 -1.0052755 132.84001 -8.9942007 -72.350708 -8.9853868 -73.096962 -0.028585855 -98.19043
9212062500 -1.009202 132.82828 -8.9979286 -72.325508 -8.9867344 -73.036751 -0.034094248 -98.202766
9212125000 -1.0104058 132.78568 -8.9925871 -72.406677 -9.0078773 -73.086029 -0.039322592 -98.184845
