!Agilent Technologies,N5242A,MY51221714,A.09.90.19
!Agilent N5242A: A.09.90.19
!Date: Tuesday, March 26, 2024 16:08:38
!Correction: S11(Full 2 Port(1,2)) 
!S21(Full 2 Port(1,2)) 
!S12(Full 2 Port(1,2)) 
!S22(Full 2 Port(1,2)) 
!S2P File: Measurements: S11, S21, S12, S22:
# Hz S  dB   R 50
9200000000 -0.98780888 136.20943 -9.2017927 -72.621567 -9.1901293 -73.346489 0.0045250403 -102.17964
9200062500 -0.98943257 136.19572 -9.2019539 -72.612968 -9.1985445 -73.330383 0.0085395919 -102.14662
9200125000 -0.9970386 136.149 -9.205246 -72.52565 -9.1878538 -73.339363 0.0043782359 -102.0874
9200187500 -0.99476558 136.2065 -9.1950884 -72.624626 -9.1944723 -73.391449 0.016887678 -102.10668
9200250000 -0.98565894 136.15338 -9.1905451 -72.607689 -9.1929989 -73.252052 0.011222022 -102.0782
9200312500 -0.99573511 136.13435 -9.2072124 -72.61747 -9.189827 -73.338081 0.0071288692 -102.07786
9200375000 -0.98970699 136.10164 -9.2000914 -72.592087 -9.1901035 -73.444633 0.014959423 -102.12183
9200437500 -0.98660594 136.10033 -9.1912804 -72.632706 -9.1850719 -73.356056 0.01532506 -102.04235
9200500000 -0.98720914 136.07056 -9.1928434 -72.624878 -9.1836205 -73.353035 0.012494116 -102.03674
9200562500 -0.98773766 136.08102 -9.1934319 -72.59317 -9.197073 -73.331383 0.010150131 -102.05064
9200625000 -0.99401909 136.05211 -9.198596 -72.675232 -9.1827173 -73.306198 0.0036711264 -102.00397
9200687500 -0.98191255 136.05269 -9.1986198 -72.535072 -9.1901512 -73.362701 0.0056868158 -101.97298
9200750000 -0.98840547 136.00865 -9.1971016 -72.684822 -9.1855793 -73.318001 0.013132506 -101.98071
9200812500 -1.0029627 136.02081 -9.194458 -72.535431 -9.1899519 -73.337395 -0.003461068 -101.93307
9200875000 -0.98597544 136.06978 -9.18962 -72.524216 -9.1925688 -73.272942 0.0044077393 -101.95684
9200937500 -0.99037516 135.99947 -9.1966209 -72.575264 -9.1850443 -73.317039 0.014984882 -101.87141
9201000000 -0.98975933 135.98868 -9.199543 -72.661591 -9.1836786 -73.305336 0.016172269 -101.89903
9201062500 -0.99094069 135.97336 -9.1801729 -72.557114 -9.1738939 -73.382271 0.012350868 -101.8941
9201125000 -0.98515499 135.99789 -9.1844635 -72.559227 -9.1906738 -73.293358 0.0067659719 -101.85772
9201187500 -0.99275535 135.90541 -9.1941814 -72.532524 -9.1850557 -73.308342 -0.00089662673 -101.74767
9201250000 -0.98899752 135.95187 -9.1768541 -72.57679 -9.1848631 -73.27874 0.0028307585 -101.80431
9201312500 -1.0001554 135.92877 -9.1937695 -72.577301 -9.1797476 -73.348358 0.016148183 -101.82469
9201375000 -0.9964056 135.9151 -9.1968441 -72.514786 -9.1900387 -73.203041 -0.0015956037 -101.75974
9201437500 -0.98945647 135.90891 -9.1838865 -72.517723 -9.1863766 -73.277115 0.0048540845 -101.80079
9201500000 -0.99579281 135.88849 -9.1933241 -72.597656 -9.1899815 -73.304443 0.0045411321 -101.81314
9201562500 -0.99676818 135.86201 -9.1931839 -72.505951 -9.1872082 -73.307999 -0.0058046146 -101.75027
9201625000 -0.99154961 135.8537 -9.17941 -72.577156 -9.1829672 -73.225983 -0.0051146909 -101.65018
9201687500 -0.99429107 135.80528 -9.1797609 -72.538879 -9.1880512 -73.271477 -0.0064759827 -101.62416
9201750000 -0.99338353 135.8271 -9.1937971 -72.57872 -9.1668768 -73.26001 0.019833762 -101.67935
9201812500 -0.99187207 135.86189 -9.1893902 -72.498405 -9.1863041 -73.277016 -0.0035165013 -101.74471
9201875000 -0.99033427 135.80962 -9.1718655 -72.523384 -9.1755257 -73.325104 0.015942438 -101.59798
9201937500 -1.0015174 135.74005 -9.1866207 -72.606682 -9.1753216 -73.277679 0.0079638483 -101.65144
9202000000 -0.99598342 135.77841 -9.1789446 -72.533089 -9.17066 -73.369774 0.0070765889 -101.63058
9202062500 -0.995152 135.78099 -9.1731167 -72.528816 -9.1675568 -73.323418 0.011244087 -101.54749
9202125000 -0.99958879 135.78598 -9.1971321 -72.48175 -9.1829805 -73.213409 -0.0063229268 -101.57958
9202187500 -0.99118674 135.75668 -9.172431 -72.559738 -9.1705484 -73.214508 0.0058484846 -101.46978
9202250000 -0.99226534 135.72673 -9.1835032 -72.523087 -9.1687078 -73.192741 0.0044332296 -101.50691
9202312500 -0.99103504 135.72198 -9.1723833 -72.493187 -9.1678286 -73.310539 0.0024959261 -101.5235
9202375000 -0.99468237 135.66605 -9.1845617 -72.58757 -9.1572218 -73.274712 0.0052743522 -101.47521
9202437500 -0.99061346 135.72292 -9.171586 -72.505966 -9.1746483 -73.325455 0.0078776106 -101.57652
9202500000 -1.0010834 135.66522 -9.1810875 -72.571136 -9.1851282 -73.229996 0.0032609669 -101.54482
9202562500 -0.98744357 135.62825 -9.1789045 -72.505699 -9.1838789 -73.194389 -0.0036460664 -101.4979
9202625000 -0.99440897 135.73175 -9.1810799 -72.46109 -9.1663179 -73.281227 0.0025696924 -101.46697
9202687500 -0.99782169 135.6297 -9.1785049 -72.579742 -9.1787252 -73.211617 0.0028099883 -101.34479
9202750000 -0.98161578 135.55368 -9.1675797 -72.533562 -9.1741533 -73.321831 -0.00037463004 -101.42864
9202812500 -0.99303532 135.59059 -9.1690435 -72.527176 -9.1572838 -73.291977 0.0061850231 -101.36967
9202875000 -0.98977679 135.55305 -9.1706562 -72.482445 -9.1667175 -73.277977 0.0028688745 -101.33137
9202937500 -0.98922992 135.58223 -9.167201 -72.570587 -9.1606903 -73.233238 0.0048902542 -101.35519
9203000000 -0.99423617 135.58543 -9.174984 -72.544273 -9.1667747 -73.292831 0.0042934809 -101.32897
9203062500 -0.98987615 135.54195 -9.1710587 -72.519005 -9.1712532 -73.274734 -0.0055950037 -101.34219
9203125000 -0.99038064 135.50165 -9.1743288 -72.509834 -9.1590233 -73.313339 0.0036087178 -101.33257
9203187500 -0.98918843 135.54826 -9.1766129 -72.495415 -9.1538668 -73.256615 0.0046073957 -101.28838
9203250000 -0.99342102 135.46419 -9.1734505 -72.502556 -9.1693268 -73.234474 -0.0016130211 -101.24461
9203312500 -0.99692631 135.50905 -9.1810369 -72.52198 -9.1649837 -73.253799 0.0087608881 -101.25699
9203375000 -0.98926276 135.48489 -9.1653938 -72.542778 -9.1693668 -73.240219 0.0049215835 -101.15813
9203437500 -0.99963599 135.4711 -9.1690798 -72.571701 -9.1685705 -73.207283 -0.00086831069 -101.21786
9203500000 -0.99268657 135.45424 -9.156024 -72.569351 -9.1643333 -73.268593 0.0014232957 -101.20142
9203562500 -1.0037564 135.44499 -9.1759176 -72.522751 -9.1753464 -73.23954 -0.0054889065 -101.23802
9203625000 -0.99846756 135.43825 -9.1706829 -72.514671 -9.1664553 -73.214867 -0.0026349602 -101.19808
9203687500 -0.99964994 135.40903 -9.1792765 -72.477417 -9.1648188 -73.213455 -0.0097219441 -101.16257
9203750000 -0.99796283 135.37614 -9.1610889 -72.542328 -9.1656551 -73.190201 0.0055966461 -101.10574
9203812500 -1.0005387 135.40105 -9.168745 -72.508919 -9.1581764 -73.190399 -0.0039755944 -101.08251
9203875000 -0.99511099 135.39528 -9.1702003 -72.476036 -9.1560707 -73.24411 -0.011209575 -101.11736
9203937500 -0.99860835 135.3615 -9.1635103 -72.489456 -9.1607714 -73.127884 0.0026063351 -101.0741
9204000000 -1.0018464 135.38364 -9.1606684 -72.459366 -9.1664276 -73.164543 -0.00052805216 -101.01128
9204062500 -0.98854053 135.36418 -9.1665258 -72.432831 -9.1534891 -73.164383 -0.0078589497 -101.00012
9204125000 -0.99469429 135.3354 -9.1595201 -72.47467 -9.1560125 -73.19561 0.0046428898 -101.00865
9204187500 -1.0032898 135.2701 -9.169446 -72.521156 -9.1616917 -73.259552 -0.0033628279 -101.02342
9204250000 -0.99846274 135.31834 -9.1546612 -72.507248 -9.159277 -73.211517 0.0020064441 -101.04787
9204312500 -0.99519533 135.28082 -9.1510735 -72.488914 -9.1594172 -73.189484 -0.007252784 -100.90309
9204375000 -0.98586029 135.27251 -9.1485758 -72.479782 -9.1580019 -73.190041 -0.0017413645 -100.97085
9204437500 -1.001888 135.30199 -9.1511154 -72.472908 -9.1465425 -73.142166 0.0090794805 -100.87785
9204500000 -1.0012875 135.26797 -9.1557455 -72.507103 -9.1554241 -73.21022 -0.0024989669 -100.93815
9204562500 -0.99322385 135.20613 -9.161047 -72.553841 -9.1533642 -73.222778 0.00026082329 -100.98304
9204625000 -0.99110854 135.23193 -9.1548939 -72.462349 -9.1403809 -73.241447 0.0011240739 -100.87036
9204687500 -0.99018914 135.18149 -9.1485023 -72.456284 -9.1504335 -73.23468 -0.0051730066 -100.87801
9204750000 -1.0031588 135.19368 -9.1569166 -72.392731 -9.1554079 -73.208542 -0.016456734 -100.87851
9204812500 -0.99229735 135.20192 -9.1626911 -72.42469 -9.1503992 -73.219841 -0.0044142832 -100.83965
9204875000 -0.99822676 135.22433 -9.1510544 -72.501534 -9.1626205 -73.144066 -0.0024708488 -100.79993
9204937500 -0.99481285 135.13388 -9.150507 -72.543892 -9.1293755 -73.242165 0.0070366515 -100.83549
9205000000 -0.9871124 135.09073 -9.1575766 -72.415398 -9.1479998 -73.245285 -0.016982149 -100.80627
9205062500 -0.99489856 135.06349 -9.159584 -72.552269 -9.1368961 -73.16465 -0.0097968876 -100.73281
9205125000 -0.99667925 135.09096 -9.1478691 -72.493431 -9.1410275 -73.180817 -0.0056744744 -100.73085
9205187500 -1.0007381 135.14502 -9.157506 -72.417038 -9.1376076 -73.159523 -0.003773744 -100.71284
9205250000 -0.99700838 135.07509 -9.1576939 -72.511169 -9.1551332 -73.188164 -0.011400786 -100.73808
9205312500 -0.99056149 135.15916 -9.1370277 -72.368782 -9.1431847 -73.144104 -0.011445279 -100.70097
9205375000 -0.99646401 135.04619 -9.1562338 -72.46067 -9.1490641 -73.189018 -0.0072756116 -100.66148
9205437500 -0.98516333 135.04015 -9.1378107 -72.471344 -9.1395626 -73.141029 -0.0018711074 -100.66483
9205500000 -1.0031643 134.98062 -9.1551294 -72.407188 -9.1439524 -73.21833 -0.0027633035 -100.58363
9205562500 -1.0018623 135.02618 -9.1394901 -72.422447 -9.133358 -73.181915 -0.0046571181 -100.63541
9205625000 -1.0018969 134.99214 -9.1532936 -72.425926 -9.1480722 -73.130821 -0.0097296303 -100.55994
9205687500 -0.99490476 135.0526 -9.139411 -72.375359 -9.1376085 -73.259903 -0.0095726168 -100.56712
9205750000 -0.99742776 134.94482 -9.1496449 -72.49099 -9.1451349 -73.173691 -0.0085784988 -100.54879
9205812500 -1.0035051 134.95006 -9.1474457 -72.417412 -9.1476421 -73.182137 -0.015695164 -100.51028
9205875000 -0.9915309 134.93607 -9.1465034 -72.430527 -9.1431522 -73.159508 -0.0025934752 -100.59158
9205937500 -0.99348712 134.89357 -9.1426907 -72.482758 -9.1386175 -73.163406 -0.012041626 -100.5184
9206000000 -0.9988184 134.89214 -9.1347589 -72.377441 -9.1364956 -73.112465 0.00021612925 -100.44997
9206062500 -0.99612033 134.95338 -9.1474686 -72.448318 -9.1419449 -73.190048 -0.010360342 -100.52974
9206125000 -0.99319911 134.88556 -9.1296482 -72.489532 -9.1306171 -73.142487 -0.011776759 -100.4326
9206187500 -0.99551916 134.88147 -9.1345205 -72.41256 -9.1315651 -73.142563 0.0015508112 -100.45509
9206250000 -0.99900889 134.84579 -9.1496897 -72.43837 -9.1434984 -73.135391 -0.017703433 -100.44398
9206312500 -0.98661053 134.79686 -9.1355667 -72.414787 -9.136425 -73.190056 0.00088546687 -100.48808
9206375000 -0.99646711 134.83342 -9.1380215 -72.481201 -9.1349125 -73.141914 -0.010107046 -100.41885
9206437500 -0.99145764 134.78812 -9.1474705 -72.456436 -9.1332922 -73.172043 -0.012539544 -100.41578
9206500000 -0.99826401 134.8192 -9.1413431 -72.44265 -9.1223536 -73.100105 -0.010271382 -100.34371
9206562500 -1.0005871 134.80438 -9.1498241 -72.572685 -9.1310616 -73.0783 -0.0067125051 -100.39941
9206625000 -1.0028664 134.73135 -9.131856 -72.460831 -9.1410913 -73.16275 -0.011208231 -100.33807
9206687500 -1.0022589 134.79384 -9.146863 -72.449173 -9.1310692 -73.149376 -0.0036267966 -100.39787
9206750000 -0.99964768 134.74022 -9.1395712 -72.451561 -9.1326561 -73.085587 -0.010013199 -100.34676
9206812500 -0.98923326 134.79378 -9.1337652 -72.467133 -9.1337719 -73.249321 -0.00091797195 -100.37883
9206875000 -0.99677604 134.71486 -9.1388521 -72.424179 -9.1298904 -73.146156 -0.0069794245 -100.17263
9206937500 -0.99761331 134.76106 -9.1231775 -72.375938 -9.1309156 -73.104393 -0.0058705271 -100.20817
9207000000 -0.99840111 134.70335 -9.1360922 -72.393204 -9.1286373 -73.118019 -0.013830729 -100.24783
9207062500 -0.9983542 134.70528 -9.1326857 -72.40593 -9.1243153 -73.105415 -0.014878057 -100.12567
9207125000 -1.003794 134.64934 -9.1146507 -72.416573 -9.1339073 -73.149071 -0.012489954 -100.12498
9207187500 -0.99148041 134.65479 -9.1240158 -72.455986 -9.1241493 -73.106354 -0.0063386741 -100.19936
9207250000 -0.9962483 134.62741 -9.1231775 -72.403992 -9.1238079 -73.153435 -0.0039460128 -100.21549
9207312500 -0.989622 134.65559 -9.124052 -72.400543 -9.117218 -73.125069 -0.0054031191 -100.15124
9207375000 -1.0035834 134.61215 -9.1412506 -72.454842 -9.1287289 -73.120033 -0.018229378 -100.09033
9207437500 -0.9909327 134.68594 -9.122653 -72.393784 -9.1361895 -73.116745 -0.011312812 -100.10554
9207500000 -0.99870962 134.63622 -9.1379051 -72.379059 -9.1092443 -73.06987 -0.015903423 -100.07751
9207562500 -0.99105781 134.64731 -9.1167068 -72.419182 -9.1155338 -73.055847 -0.010882406 -100.08735
9207625000 -0.99495387 134.50859 -9.1243629 -72.43502 -9.1276388 -73.177696 -0.017777605 -100.00444
9207687500 -1.0032628 134.58791 -9.1275024 -72.404129 -9.1186323 -73.131027 -0.0050872522 -100.07542
9207750000 -1.000623 134.56981 -9.1186037 -72.413338 -9.1163378 -73.112007 -0.0065963459 -100.03232
9207812500 -0.99914312 134.50171 -9.1266985 -72.457054 -9.1219416 -73.105713 -0.020638822 -100.03049
9207875000 -1.0012136 134.54819 -9.1373091 -72.333336 -9.1118078 -73.138947 -0.012342069 -99.991173
9207937500 -1.0022236 134.48062 -9.1275101 -72.342842 -9.123867 -73.138451 -0.021994736 -100.00018
9208000000 -1.0102704 134.48186 -9.1273127 -72.427315 -9.1172781 -73.017075 -0.01583864 -99.916641
9208062500 -0.99720544 134.52654 -9.1287394 -72.402122 -9.1074333 -73.162872 -0.012580059 -99.990562
9208125000 -1.0039917 134.47429 -9.1281338 -72.390152 -9.1234388 -73.133347 -0.021686556 -99.915337
9208187500 -0.98787892 134.48431 -9.1183271 -72.416161 -9.1238775 -73.115105 -0.016367855 -99.929626
9208250000 -1.0074583 134.44157 -9.1338034 -72.35891 -9.1115866 -73.11927 -0.014624191 -99.884766
9208312500 -1.0010071 134.44588 -9.1341009 -72.367111 -9.1057892 -73.142143 -0.019480648 -99.88913
9208375000 -1.0041163 134.46007 -9.1266012 -72.381432 -9.1132774 -73.082405 -0.018553078 -99.794075
9208437500 -1.0019449 134.3744 -9.1300545 -72.389305 -9.1164703 -73.095573 -0.028731696 -99.809875
9208500000 -0.99968886 134.35162 -9.1181183 -72.362938 -9.1192341 -73.141106 -0.012034758 -99.819962
9208562500 -1.0004621 134.41196 -9.1222839 -72.287537 -9.12216 -73.109192 -0.017106313 -99.777374
9208625000 -0.99166369 134.33176 -9.1026154 -72.308548 -9.1055441 -73.068542 -0.022771887 -99.792831
9208687500 -0.98917294 134.32068 -9.1154022 -72.395798 -9.1193304 -73.098473 -0.018207954 -99.759644
9208750000 -0.99589539 134.35158 -9.1113052 -72.364433 -9.1039686 -73.062767 -0.011526644 -99.77372
9208812500 -0.99848455 134.40034 -9.1216364 -72.304413 -9.1093054 -73.086365 -0.010045559 -99.709854
9208875000 -0.99334955 134.28481 -9.1069899 -72.395683 -9.1156893 -73.073792 -0.015426976 -99.668198
9208937500 -1.0041667 134.30791 -9.1205015 -72.340973 -9.1065035 -73.064453 -0.01121191 -99.657761
9209000000 -0.99161857 134.29015 -9.1191645 -72.36026 -9.1141644 -73.0746 -0.017989673 -99.719505
9209062500 -1.0011305 134.27333 -9.1152945 -72.335838 -9.1044159 -73.057404 -0.016757203 -99.637032
9209125000 -1.0086005 134.23468 -9.1143036 -72.334061 -9.1047153 -73.048218 -0.011975935 -99.590874
9209187500 -0.99938488 134.25867 -9.1027002 -72.365082 -9.1097775 -73.056068 -0.018833123 -99.631874
9209250000 -0.99513918 134.22774 -9.1104546 -72.367325 -9.1020784 -73.099594 -0.016858723 -99.563889
9209312500 -0.9984048 134.14034 -9.1166735 -72.355865 -9.1051598 -73.072075 -0.024603868 -99.604675
9209375000 -0.98989815 134.19966 -9.1072206 -72.354622 -9.1196795 -73.009239 -0.028026531 -99.549454
9209437500 -1.0055151 134.16017 -9.1099606 -72.289421 -9.1031399 -73.098 -0.020660467 -99.514137
9209500000 -0.99547857 134.15167 -9.0968924 -72.392029 -9.0996084 -73.038948 -0.014676322 -99.490852
9209562500 -1.0047153 134.17162 -9.1160126 -72.351051 -9.1105413 -73.071465 -0.023549998 -99.504364
9209625000 -0.99643928 134.12708 -9.1081047 -72.328423 -9.1066084 -73.10289 -0.016924683 -99.474564
9209687500 -1.0041168 134.07532 -9.1120529 -72.396584 -9.1117096 -73.040985 -0.02011482 -99.462059
9209750000 -0.99620926 134.08165 -9.0875521 -72.428963 -9.1024466 -73.00444 -0.013468874 -99.437698
9209812500 -1.0007837 134.10083 -9.1084585 -72.239731 -9.1029549 -73.119484 -0.015338349 -99.411835
9209875000 -0.99798721 134.09279 -9.1048841 -72.314178 -9.1066656 -73.084442 -0.028109321 -99.450867
9209937500 -1.0063825 134.17474 -9.1229753 -72.320702 -9.1125422 -73.044449 -0.033805721 -99.505066
9210000000 -0.99211854 134.07434 -9.0934839 -72.283051 -9.1054268 -73.010742 -0.031836696 -99.33567
9210062500 -1.0035594 134.05681 -9.1075859 -72.320007 -9.11098 -73.058159 -0.029236866 -99.352379
9210125000 -0.9932825 134.02101 -9.105545 -72.394852 -9.095499 -73.085022 -0.023547912 -99.397392
9210187500 -1.0024345 134.08504 -9.1049423 -72.266815 -9.0990353 -72.99556 -0.022602146 -99.30069
9210250000 -0.99837339 134.02283 -9.1010046 -72.334862 -9.0940914 -73.029839 -0.028447611 -99.349533
9210312500 -1.0024945 133.99646 -9.0960445 -72.280151 -9.0906372 -73.037918 -0.016495116 -99.303535
9210375000 -0.99776649 134.02271 -9.0967093 -72.239273 -9.0946741 -73.041306 -0.017297052 -99.247795
9210437500 -0.99435019 133.94902 -9.1012192 -72.313538 -9.0879612 -73.073746 -0.012087881 -99.333946
9210500000 -0.99741584 133.92865 -9.0991096 -72.36087 -9.0845842 -73.035797 -0.0085927229 -99.23661
9210562500 -1.0025127 133.95512 -9.1018209 -72.27932 -9.0893641 -73.044823 -0.02209045 -99.201889
9210625000 -1.0008097 133.94276 -9.1069927 -72.337608 -9.0949755 -72.974098 -0.021410462 -99.275291
9210687500 -0.99609792 133.95323 -9.0997362 -72.388489 -9.089756 -73.046921 -0.025088336 -99.197243
9210750000 -1.0014611 133.93672 -9.105484 -72.2687 -9.0860224 -72.999123 -0.023992097 -99.155098
9210812500 -1.0011352 133.87318 -9.0931921 -72.326073 -9.099556 -72.953903 -0.02878941 -99.144463
9210875000 -1.0026729 133.86685 -9.1091995 -72.332939 -9.0904579 -73.013741 -0.034555566 -99.212776
9210937500 -0.99413133 133.89644 -9.0960026 -72.372597 -9.0874739 -72.953598 -0.029366801 -99.124748
9211000000 -0.99787581 133.92502 -9.0991201 -72.30098 -9.1004267 -73.050545 -0.022856411 -99.196709
9211062500 -0.99527222 133.85622 -9.0917406 -72.294868 -9.0909967 -72.949898 -0.028307816 -99.077591
9211125000 -0.99888068 133.82149 -9.0834618 -72.322189 -9.086318 -72.919853 -0.020648737 -99.055397
9211187500 -1.00756 133.82466 -9.0860519 -72.29808 -9.0824394 -72.944771 -0.026979145 -99.024529
9211250000 -1.0076725 133.79265 -9.0911913 -72.295357 -9.0915327 -72.891144 -0.02241773 -99.00396
9211312500 -0.99933547 133.80034 -9.0898342 -72.335136 -9.0853901 -72.980545 -0.027443629 -99.082214
9211375000 -0.99790061 133.71815 -9.0857048 -72.349678 -9.0834827 -72.996994 -0.029569216 -98.984352
9211437500 -1.003404 133.74484 -9.0867386 -72.303543 -9.0802269 -73.02755 -0.023021309 -98.996773
9211500000 -1.0011216 133.73108 -9.096879 -72.311127 -9.0909939 -73.006981 -0.028830985 -99.038338
9211562500 -1.0026083 133.787 -9.0955086 -72.286659 -9.0797892 -73.004311 -0.03071708 -98.970688
9211625000 -1.0023637 133.69695 -9.0877285 -72.347298 -9.0701342 -73.028816 -0.019173216 -98.97522
9211687500 -1.0014071 133.76053 -9.0907269 -72.208572 -9.0851727 -73.026741 -0.03023077 -98.916962
9211750000 -1.0031533 133.66347 -9.0872583 -72.257446 -9.0812559 -72.928406 -0.024704712 -98.854225
9211812500 -1.0014093 133.67003 -9.0984459 -72.35508 -9.0844603 -72.962517 -0.035847124 -98.900291
9211875000 -0.99977124 133.62508 -9.0802231 -72.296715 -9.0806265 -72.945961 -0.028767014 -98.798416
9211937500 -0.99779034 133.67944 -9.0841761 -72.278801 -9.0726662 -72.96524 -0.031784069 -98.871635
9212000000 -0.99621958 133.55881 -9.0799818 -72.263794 -9.079917 -72.970406 -0.030771632 -98.831657
9212062500 -1.0040696 133.6087 -9.0831127 -72.228622 -9.0737495 -72.953735 -0.030928826 -98.824844
