!Agilent Technologies,N5242A,MY51221714,A.09.90.19
!Agilent N5242A: A.09.90.19
!Date: Tuesday, March 26, 2024 16:09:34
!Correction: S11(Full 2 Port(1,2)) 
!S21(Full 2 Port(1,2)) 
!S12(Full 2 Port(1,2)) 
!S22(Full 2 Port(1,2)) 
!S2P File: Measurements: S11, S21, S12, S22:
# Hz S  dB   R 50
9200000000 -0.98489124 136.13823 -9.1911173 -72.802414 -9.1654091 -73.492516 -0.0012831923 -102.26299
9200062500 -0.98769569 136.08551 -9.1794748 -72.809418 -9.1817732 -73.467537 0.0068128994 -102.21607
9200125000 -0.9843961 136.10117 -9.1793947 -72.753983 -9.1815462 -73.478882 -0.00072899513 -102.17252
9200187500 -0.99199575 136.07762 -9.1723375 -72.739037 -9.1685724 -73.574669 0.020746354 -102.17142
9200250000 -0.98389053 135.99577 -9.1724634 -72.847687 -9.1713896 -73.443726 0.012895179 -102.21777
9200312500 -0.99662137 136.06592 -9.1827097 -72.758972 -9.1798477 -73.53952 0.0092990333 -102.21123
9200375000 -0.98954833 136.00673 -9.183651 -72.738899 -9.1750927 -73.546417 0.011701819 -102.12122
9200437500 -0.98682529 136.00494 -9.1788778 -72.77433 -9.1663132 -73.485779 0.016852239 -102.12958
9200500000 -0.98958302 135.99457 -9.1915445 -72.725845 -9.1692142 -73.399109 0.0020313587 -102.05391
9200562500 -0.98695374 135.97693 -9.1644125 -72.731194 -9.1688423 -73.496567 0.019484211 -102.13066
9200625000 -0.99503362 135.96503 -9.176095 -72.774483 -9.1661615 -73.495598 0.0053849383 -102.10226
9200687500 -0.97844237 135.98413 -9.1697655 -72.702805 -9.172967 -73.484642 0.0072697569 -102.02718
9200750000 -0.98924357 135.90137 -9.1713581 -72.770363 -9.1721506 -73.46299 0.0082891406 -102.04233
9200812500 -1.0021236 135.93118 -9.1766872 -72.710609 -9.1714191 -73.531242 -0.0034864035 -102.03954
9200875000 -0.98380798 136.00172 -9.1664915 -72.666786 -9.166214 -73.442627 0.002912292 -102.03989
9200937500 -0.98811579 135.90855 -9.1828032 -72.77774 -9.1676426 -73.452347 0.013533534 -101.96599
9201000000 -0.97952932 135.91034 -9.1681309 -72.755348 -9.1594906 -73.482635 0.01030639 -101.99229
9201062500 -0.98952663 135.84143 -9.1666975 -72.718018 -9.1614075 -73.505226 0.011251026 -101.99892
9201125000 -0.98915815 135.82899 -9.1751661 -72.775467 -9.1707373 -73.389725 0.0010231743 -101.94627
9201187500 -0.99169791 135.78275 -9.1685562 -72.762802 -9.167408 -73.471977 -0.00044122286 -101.86478
9201250000 -0.99319959 135.87717 -9.167594 -72.640129 -9.1649208 -73.390427 0.0081572635 -101.87431
9201312500 -0.99640894 135.81459 -9.1647701 -72.705139 -9.1706791 -73.417892 0.0097704865 -101.87784
9201375000 -0.99590743 135.81941 -9.1790552 -72.664513 -9.1615314 -73.394707 -0.0010357335 -101.84685
9201437500 -0.9917618 135.8275 -9.1827517 -72.66507 -9.1627378 -73.434204 0.0039462848 -101.87854
9201500000 -0.99234909 135.82675 -9.1735601 -72.695427 -9.1660147 -73.383629 0.00025732192 -101.81219
9201562500 -0.99027318 135.80228 -9.1760883 -72.636887 -9.1675529 -73.419258 -0.0044152569 -101.8195
9201625000 -0.98282266 135.7764 -9.1586666 -72.705315 -9.158741 -73.458931 -0.0031335782 -101.74586
9201687500 -0.99807531 135.73616 -9.170352 -72.682854 -9.1582098 -73.409172 -0.00031081878 -101.71272
9201750000 -0.98870295 135.71199 -9.1717501 -72.728027 -9.151495 -73.43499 0.016212793 -101.75254
9201812500 -0.99162251 135.75259 -9.1675329 -72.700897 -9.1638832 -73.42527 -0.0058950228 -101.7745
9201875000 -0.98606622 135.72066 -9.1489487 -72.735497 -9.1508856 -73.501091 0.014562695 -101.73241
9201937500 -0.99691385 135.67139 -9.1731768 -72.736336 -9.154458 -73.477585 0.012173276 -101.74997
9202000000 -0.99722439 135.6837 -9.1493549 -72.713882 -9.1445522 -73.435699 0.0077475109 -101.69306
9202062500 -0.99734849 135.65729 -9.1597557 -72.741577 -9.1503859 -73.499702 0.0083105089 -101.68964
9202125000 -0.99645084 135.67845 -9.1752682 -72.69651 -9.1583433 -73.401573 -0.0021704778 -101.70281
9202187500 -0.99330133 135.59659 -9.1594667 -72.764549 -9.1618271 -73.376991 0.0071879174 -101.61181
9202250000 -0.9904291 135.62621 -9.1656942 -72.709106 -9.1617823 -73.370193 -0.0011847494 -101.5948
9202312500 -0.98860115 135.63614 -9.1663961 -72.675148 -9.1611147 -73.340332 0.002061866 -101.57573
9202375000 -0.98717439 135.58063 -9.1547375 -72.658165 -9.1528416 -73.408913 0.00075738569 -101.56049
9202437500 -0.98672032 135.59435 -9.1590195 -72.708633 -9.1574059 -73.456917 0.0060461173 -101.60516
9202500000 -1.0058658 135.57083 -9.1696711 -72.738213 -9.1637831 -73.367271 0.0021368277 -101.57407
9202562500 -0.9827053 135.57837 -9.1601944 -72.684212 -9.1610765 -73.352348 -0.010237916 -101.57663
9202625000 -0.99261957 135.61906 -9.1564322 -72.665077 -9.1476431 -73.407364 0.0035072558 -101.50056
9202687500 -0.99276459 135.5463 -9.1611404 -72.725609 -9.1496267 -73.399048 0.0074625388 -101.45858
9202750000 -0.98581022 135.49693 -9.147975 -72.645096 -9.1459389 -73.445183 0.0046773995 -101.49627
9202812500 -0.99457628 135.53111 -9.1640339 -72.705681 -9.144187 -73.482773 0.0025464157 -101.44936
9202875000 -0.98658782 135.49632 -9.1511755 -72.653442 -9.1522112 -73.43882 0.0036728077 -101.39682
9202937500 -0.99044263 135.48116 -9.1540451 -72.707703 -9.1450558 -73.355659 0.0034186922 -101.42433
9203000000 -0.9934032 135.51595 -9.1564865 -72.650192 -9.1492052 -73.404404 0.0080274874 -101.35874
9203062500 -0.98946619 135.43292 -9.1480608 -72.670616 -9.1473284 -73.363449 0.0001095747 -101.42373
9203125000 -0.98932785 135.40178 -9.1491451 -72.745445 -9.1305332 -73.422104 -0.00047832992 -101.40028
9203187500 -0.99376076 135.44206 -9.1641588 -72.651108 -9.1450577 -73.478294 -0.0055198204 -101.37466
9203250000 -0.9905023 135.38298 -9.1465626 -72.735008 -9.1492043 -73.365105 -0.0012049275 -101.32801
9203312500 -0.9977892 135.41641 -9.1539774 -72.684402 -9.1392679 -73.463432 0.010790032 -101.37082
9203375000 -0.98926502 135.41287 -9.1513538 -72.649323 -9.1376534 -73.402794 0.0075293663 -101.32726
9203437500 -0.99220186 135.40666 -9.1596889 -72.70253 -9.1453848 -73.372551 0.0040113959 -101.29158
9203500000 -0.99045914 135.39421 -9.1437244 -72.678627 -9.1400223 -73.416206 0.007894868 -101.30036
9203562500 -0.9936043 135.35538 -9.1551657 -72.675117 -9.1593695 -73.372116 -0.015147274 -101.3058
9203625000 -0.99787855 135.33614 -9.1528749 -72.718376 -9.1432285 -73.368813 0.00043162203 -101.33717
9203687500 -0.99861366 135.32101 -9.1594477 -72.693733 -9.1466713 -73.384285 -0.00083189161 -101.2656
9203750000 -0.99540639 135.30916 -9.1461592 -72.67749 -9.1503601 -73.345825 0.0023101787 -101.21408
9203812500 -0.99703437 135.31255 -9.141839 -72.779953 -9.136116 -73.451698 0.00021520483 -101.22912
9203875000 -0.99681169 135.32727 -9.1477394 -72.579971 -9.1458302 -73.42881 -0.015353969 -101.21588
9203937500 -1.0002433 135.27478 -9.1452751 -72.675186 -9.1352644 -73.339851 0.0025826674 -101.16849
9204000000 -0.99169576 135.25543 -9.1389122 -72.631882 -9.137598 -73.341728 0.0071466486 -101.09412
9204062500 -0.98687017 135.24905 -9.134017 -72.632362 -9.1309319 -73.362808 -0.00075294613 -101.08647
9204125000 -0.99825257 135.25607 -9.1493711 -72.609367 -9.1460962 -73.333527 -0.0042989897 -101.09144
9204187500 -1.0032315 135.20001 -9.152236 -72.686005 -9.1395626 -73.426216 -0.0022131137 -101.11916
9204250000 -1.000715 135.22005 -9.1446266 -72.667038 -9.1323805 -73.366943 0.00077983685 -101.10793
9204312500 -0.98997355 135.21329 -9.1312551 -72.644814 -9.1344309 -73.337463 -0.0060725221 -101.00072
9204375000 -0.98551518 135.20163 -9.1345205 -72.661736 -9.1331673 -73.384712 -0.0018332773 -101.07087
9204437500 -1.0029436 135.16922 -9.1322603 -72.672943 -9.1381578 -73.313255 -0.00066531153 -100.98985
9204500000 -1.007458 135.16573 -9.1400938 -72.67334 -9.1402206 -73.332718 -0.007645743 -100.9838
9204562500 -0.99244833 135.14696 -9.1393223 -72.680771 -9.1368017 -73.409775 -0.0025970959 -101.08271
9204625000 -0.9894858 135.13812 -9.1367559 -72.558929 -9.1356182 -73.374298 -0.0024424328 -100.92279
9204687500 -0.99763948 135.13319 -9.1375484 -72.624214 -9.1316042 -73.385025 -0.0050945128 -100.91819
9204750000 -1.0016613 135.08707 -9.1365757 -72.613045 -9.1338463 -73.342651 -0.011756992 -100.96805
9204812500 -0.98348355 135.06841 -9.1367025 -72.62059 -9.1400385 -73.3741 -0.0026744334 -100.93974
9204875000 -0.99960178 135.11017 -9.1430607 -72.61097 -9.1500463 -73.314606 -0.0042981496 -100.95501
9204937500 -0.99506599 135.04013 -9.1317797 -72.633179 -9.1298828 -73.400742 0.001625121 -100.88866
9205000000 -0.98834181 135.0191 -9.1303082 -72.565453 -9.125371 -73.260574 -0.012213797 -100.8534
9205062500 -0.99561101 134.97224 -9.1327362 -72.692299 -9.1139412 -73.303284 -0.00097313669 -100.82167
9205125000 -0.98952454 134.99573 -9.1340303 -72.643532 -9.1226072 -73.309395 -0.0025512588 -100.74107
9205187500 -0.99849623 135.0349 -9.1348495 -72.579147 -9.1315451 -73.326164 -0.0083797891 -100.79285
9205250000 -0.98907697 134.99533 -9.1317444 -72.675522 -9.1321115 -73.387154 -0.015307297 -100.89909
9205312500 -0.99373376 135.04877 -9.1214743 -72.62867 -9.1255465 -73.300507 -0.0075316783 -100.79025
9205375000 -0.99623358 134.953 -9.1307411 -72.641823 -9.1245852 -73.378654 -0.00018762256 -100.78156
9205437500 -0.9859212 134.96051 -9.1216831 -72.57785 -9.1311436 -73.290291 -0.0077585033 -100.76606
9205500000 -0.99578846 134.90149 -9.1242151 -72.520508 -9.1285343 -73.356506 -0.0049911435 -100.6346
9205562500 -0.99695718 134.9541 -9.1209393 -72.597954 -9.1331615 -73.361809 -0.010504873 -100.67458
9205625000 -1.0020248 134.91968 -9.1252146 -72.639977 -9.1200638 -73.3386 -0.0081566591 -100.67116
9205687500 -0.99294603 134.91959 -9.1268654 -72.583481 -9.1223764 -73.356415 -0.010053009 -100.68111
9205750000 -0.99591011 134.84541 -9.1292257 -72.608223 -9.1339722 -73.352318 -0.0052974196 -100.64362
9205812500 -0.99734807 134.84959 -9.1226177 -72.622482 -9.1313953 -73.301872 -0.01521962 -100.56189
9205875000 -0.99129558 134.86975 -9.1234884 -72.585594 -9.1311836 -73.342308 -0.010744576 -100.71317
9205937500 -0.99007094 134.81178 -9.1167078 -72.619278 -9.1192808 -73.244675 -0.0079938024 -100.56857
9206000000 -0.9936164 134.83607 -9.1174459 -72.546013 -9.125001 -73.267632 -0.0081165116 -100.5602
9206062500 -0.99803716 134.85388 -9.1322727 -72.563553 -9.1249762 -73.322624 -0.0085068652 -100.58772
9206125000 -0.99390846 134.80077 -9.1145239 -72.57766 -9.116313 -73.232513 -0.01104324 -100.49433
9206187500 -0.99564475 134.80435 -9.1132889 -72.620461 -9.1135101 -73.328239 -0.0022129582 -100.56413
9206250000 -1.0016541 134.74467 -9.1259289 -72.621483 -9.1182995 -73.278419 -0.012607184 -100.52084
9206312500 -0.98760355 134.7394 -9.1220484 -72.588776 -9.1215067 -73.413589 -0.0090995645 -100.53158
9206375000 -0.99613559 134.7917 -9.1191711 -72.548508 -9.1202755 -73.233383 -0.0096862903 -100.4966
9206437500 -0.98833072 134.7005 -9.1202221 -72.634727 -9.117177 -73.321129 -0.011258528 -100.5191
9206500000 -0.99556518 134.7247 -9.1296721 -72.625427 -9.1124964 -73.305145 -0.018823896 -100.52121
9206562500 -0.99866438 134.71898 -9.120636 -72.666237 -9.1158495 -73.286385 -0.0024171197 -100.49992
9206625000 -0.99663204 134.61656 -9.1139784 -72.577751 -9.1227055 -73.378151 -0.0068651754 -100.46125
9206687500 -0.99573654 134.7123 -9.1212301 -72.566147 -9.1149473 -73.33741 -0.0043755458 -100.46654
9206750000 -0.99679184 134.66048 -9.1117516 -72.578857 -9.1120501 -73.291328 -0.0096023576 -100.41916
9206812500 -0.99488938 134.66844 -9.1212931 -72.568176 -9.1205006 -73.345657 -0.0046961941 -100.44934
9206875000 -1.0064362 134.64882 -9.1315451 -72.623001 -9.1024637 -73.269302 -0.0046915435 -100.31509
9206937500 -0.99362028 134.65033 -9.1085339 -72.597778 -9.1071301 -73.267677 -0.0051680077 -100.28928
9207000000 -0.9965651 134.62225 -9.1221523 -72.555695 -9.1086998 -73.336884 -0.0061657992 -100.32384
9207062500 -0.99421495 134.56165 -9.1022091 -72.579453 -9.0981655 -73.292236 -0.0071514337 -100.22305
9207125000 -1.0063518 134.56853 -9.1104498 -72.537979 -9.1138115 -73.324455 -0.015232203 -100.23878
9207187500 -0.99552572 134.54701 -9.1048203 -72.655235 -9.1064482 -73.288589 -0.013321273 -100.28011
9207250000 -0.99817693 134.55518 -9.1137352 -72.558006 -9.1064768 -73.332497 -0.0036548921 -100.34673
9207312500 -0.9925198 134.53389 -9.1145229 -72.591049 -9.1020241 -73.336578 -0.00683347 -100.24918
9207375000 -1.0047885 134.49222 -9.1157484 -72.583855 -9.1018314 -73.318245 -0.0094830981 -100.20632
9207437500 -0.99297428 134.6093 -9.1032171 -72.539871 -9.1219692 -73.278931 -0.017391864 -100.1977
9207500000 -1.0055689 134.54433 -9.1183424 -72.550186 -9.103055 -73.199883 -0.020662554 -100.1418
9207562500 -0.99072242 134.49646 -9.1023102 -72.615242 -9.1017771 -73.306992 -0.012780429 -100.20583
9207625000 -0.99403828 134.38835 -9.1031952 -72.563156 -9.1064463 -73.206596 -0.014403663 -100.10191
9207687500 -1.0033233 134.46333 -9.1052217 -72.620018 -9.1022491 -73.242447 -0.0063390038 -100.13087
9207750000 -0.99680346 134.42664 -9.1060438 -72.523575 -9.0999222 -73.277992 -0.0098459404 -100.08044
9207812500 -0.9966017 134.43776 -9.1035976 -72.567955 -9.1109667 -73.260262 -0.02125619 -100.12024
9207875000 -0.9962256 134.47043 -9.115716 -72.496277 -9.0970278 -73.337479 -0.011433882 -100.09406
9207937500 -0.99926758 134.38943 -9.1101561 -72.478546 -9.100708 -73.261086 -0.01508962 -100.06901
9208000000 -1.0049597 134.40561 -9.1078529 -72.580376 -9.103096 -73.245361 -0.0058788233 -100.04065
9208062500 -1.0018255 134.38174 -9.1053991 -72.548203 -9.0988503 -73.264618 -0.014553919 -100.04642
9208125000 -0.99715883 134.37149 -9.1103449 -72.565163 -9.0942411 -73.269829 -0.011898656 -99.994194
9208187500 -0.99102134 134.38084 -9.1054783 -72.571594 -9.0992336 -73.270119 -0.012445263 -100.05515
9208250000 -0.99956554 134.3456 -9.1000128 -72.460884 -9.1005602 -73.29081 -0.01809575 -99.993248
9208312500 -0.99287868 134.35405 -9.101346 -72.581245 -9.0827141 -73.318901 -0.0088175256 -99.984535
9208375000 -1.0070769 134.31487 -9.1043539 -72.50531 -9.0934496 -73.259262 -0.011889989 -99.873161
9208437500 -0.99904084 134.25854 -9.1034565 -72.568161 -9.0973129 -73.176445 -0.025082905 -99.881706
9208500000 -1.0051612 134.25095 -9.1131039 -72.536369 -9.0923548 -73.237305 -0.014899805 -99.90519
9208562500 -0.99940139 134.30563 -9.1009731 -72.490562 -9.0953999 -73.229889 -0.012962336 -99.883949
9208625000 -0.99588072 134.22057 -9.0962515 -72.554008 -9.0965214 -73.164024 -0.025020955 -99.860817
9208687500 -0.98850471 134.20934 -9.0823603 -72.535492 -9.0947285 -73.280426 -0.0092259012 -99.876297
9208750000 -0.99507397 134.24445 -9.0939732 -72.509544 -9.088501 -73.183777 -0.012681986 -99.829941
9208812500 -1.0003968 134.28938 -9.1039848 -72.48835 -9.1003885 -73.228157 -0.016192805 -99.834297
9208875000 -0.99734026 134.20506 -9.0941725 -72.544395 -9.0904264 -73.191582 -0.012870432 -99.799667
9208937500 -1.0010414 134.23383 -9.0922909 -72.524437 -9.0883875 -73.229713 -0.014088017 -99.768166
9209000000 -0.98711592 134.21732 -9.0935411 -72.526833 -9.0843287 -73.241035 -0.021883203 -99.810677
9209062500 -1.0051143 134.17969 -9.1002417 -72.505852 -9.088028 -73.278488 -0.019348616 -99.774185
9209125000 -1.004011 134.18303 -9.0937176 -72.493874 -9.073431 -73.244728 -0.0072695864 -99.715492
9209187500 -1.0036336 134.18927 -9.0915136 -72.428085 -9.1033258 -73.180946 -0.021616453 -99.707031
9209250000 -0.99525928 134.0802 -9.0919886 -72.564911 -9.0799255 -73.232323 -0.017244464 -99.66703
9209312500 -1.0003839 134.0289 -9.09723 -72.518875 -9.0880423 -73.218346 -0.021273632 -99.677338
9209375000 -0.9888224 134.1084 -9.0873957 -72.500885 -9.0943708 -73.152985 -0.020345418 -99.683411
9209437500 -1.0038241 134.05722 -9.0995493 -72.439606 -9.0805149 -73.251137 -0.014349582 -99.603699
9209500000 -0.99831551 134.06837 -9.0913906 -72.543434 -9.102725 -73.21801 -0.024585707 -99.598488
9209562500 -1.0039029 134.07225 -9.1020756 -72.489349 -9.0840254 -73.176216 -0.023106856 -99.547974
9209625000 -0.99575102 134.03986 -9.0876274 -72.493095 -9.0780182 -73.248299 -0.017303683 -99.579613
9209687500 -1.0020393 133.99298 -9.0945644 -72.492622 -9.0777655 -73.111031 -0.013774332 -99.527
9209750000 -0.99984235 134.00441 -9.081728 -72.608528 -9.084794 -73.21093 -0.01391116 -99.569908
9209812500 -0.99218911 133.98207 -9.0828705 -72.443436 -9.0817575 -73.224693 -0.014483979 -99.493111
9209875000 -0.9976877 133.98932 -9.090436 -72.457657 -9.079586 -73.158783 -0.024224568 -99.490753
9209937500 -0.99652839 134.05783 -9.0993261 -72.471748 -9.0927038 -73.165321 -0.024804175 -99.547935
9210000000 -0.98983485 133.99101 -9.0818663 -72.437523 -9.0797682 -73.173836 -0.029056659 -99.444458
9210062500 -1.008149 133.97667 -9.0984707 -72.527252 -9.0789728 -73.202919 -0.018803775 -99.476067
9210125000 -0.99357337 133.97377 -9.0831442 -72.471489 -9.0746479 -73.147591 -0.016437098 -99.460876
9210187500 -1.0039757 133.96333 -9.0866976 -72.450287 -9.0680037 -73.140045 -0.022875756 -99.411514
9210250000 -1.0045352 133.95145 -9.0813503 -72.489822 -9.0771179 -73.175858 -0.024902549 -99.457611
9210312500 -1.0031958 133.89578 -9.0834103 -72.405266 -9.0932131 -73.181458 -0.025532441 -99.446609
9210375000 -0.99434102 133.89961 -9.0885439 -72.447456 -9.0773077 -73.193306 -0.022993913 -99.337463
9210437500 -0.99742591 133.84735 -9.0895329 -72.463852 -9.0783195 -73.240265 -0.018503934 -99.411385
9210500000 -0.9951731 133.84361 -9.0730982 -72.525108 -9.0740871 -73.181107 -0.013549773 -99.357391
9210562500 -0.99807417 133.84766 -9.0760431 -72.430328 -9.0833921 -73.232773 -0.024509681 -99.332535
9210625000 -0.99913639 133.86804 -9.0894442 -72.477356 -9.0756865 -73.126442 -0.024397714 -99.354515
9210687500 -1.003378 133.85452 -9.0899763 -72.500259 -9.076766 -73.216789 -0.030203737 -99.312508
9210750000 -1.0038087 133.79648 -9.0814924 -72.500702 -9.0687084 -73.181656 -0.024194395 -99.315849
9210812500 -0.99745816 133.72981 -9.0830832 -72.528725 -9.0705843 -73.124191 -0.027682485 -99.25489
9210875000 -0.99895775 133.81789 -9.0828018 -72.431839 -9.0686817 -73.122467 -0.022930201 -99.262093
9210937500 -0.99790019 133.83578 -9.0740871 -72.399673 -9.0741997 -73.114311 -0.024331234 -99.258995
9211000000 -0.99816251 133.80171 -9.0746937 -72.398407 -9.0747385 -73.082825 -0.020402025 -99.231155
9211062500 -0.99642062 133.78702 -9.0705061 -72.331635 -9.068347 -73.139999 -0.028665181 -99.231743
9211125000 -0.99475473 133.7379 -9.0727816 -72.465538 -9.0651674 -73.14402 -0.01873124 -99.176445
9211187500 -1.0016454 133.71643 -9.0687437 -72.416199 -9.0718641 -73.103889 -0.025680894 -99.125252
9211250000 -1.0060785 133.7529 -9.0714808 -72.440414 -9.0666771 -73.100685 -0.010022208 -99.16291
9211312500 -1.0006633 133.71172 -9.0765514 -72.398659 -9.0648489 -73.084572 -0.024568686 -99.133759
9211375000 -0.99565107 133.6433 -9.0749273 -72.467392 -9.0669365 -73.210152 -0.026891885 -99.151123
9211437500 -0.99684882 133.68756 -9.0756016 -72.384888 -9.0703812 -73.208412 -0.036072601 -99.098625
9211500000 -1.002345 133.64767 -9.075613 -72.443298 -9.06567 -73.189346 -0.024221579 -99.151382
9211562500 -1.0056056 133.65796 -9.0715446 -72.472954 -9.0595636 -73.098671 -0.031419553 -99.070297
9211625000 -1.0013709 133.57561 -9.0626106 -72.545982 -9.0568962 -73.220825 -0.018875886 -99.113556
9211687500 -1.0031619 133.6322 -9.076252 -72.394249 -9.0675297 -73.182129 -0.03017522 -99.053581
9211750000 -1.0006614 133.57477 -9.06462 -72.395447 -9.0651178 -73.156357 -0.024884982 -99.015358
9211812500 -1.0035728 133.58333 -9.0788193 -72.443962 -9.0682926 -73.091232 -0.040808804 -99.032722
9211875000 -1.0071738 133.56172 -9.0640125 -72.442551 -9.0521526 -73.070229 -0.015286097 -98.882942
9211937500 -1.0017598 133.54672 -9.0714617 -72.481369 -9.065443 -73.145744 -0.033558771 -98.952843
9212000000 -1.004526 133.50227 -9.0551634 -72.407227 -9.0554495 -73.13739 -0.030346751 -98.940331
9212062500 -1.0016204 133.46693 -9.0723009 -72.436333 -9.0539837 -73.065666 -0.030555608 -98.894669
