!Agilent Technologies,N5242A,MY51221714,A.09.90.19
!Agilent N5242A: A.09.90.19
!Date: Tuesday, March 26, 2024 16:10:25
!Correction: S11(Full 2 Port(1,2)) 
!S21(Full 2 Port(1,2)) 
!S12(Full 2 Port(1,2)) 
!S22(Full 2 Port(1,2)) 
!S2P File: Measurements: S11, S21, S12, S22:
# Hz S  dB   R 50
9200000000 -0.9815678 136.25749 -9.2602987 -72.722282 -9.2415485 -73.4534 0.015634255 -102.26724
9200062500 -0.98239952 136.22066 -9.2589722 -72.758904 -9.2480459 -73.403931 0.019293757 -102.17544
9200125000 -0.97906768 136.22075 -9.2461014 -72.66198 -9.2470903 -73.379082 0.0078124753 -102.13368
9200187500 -0.98802131 136.2545 -9.2578373 -72.578796 -9.246417 -73.397163 0.014894694 -102.09979
9200250000 -0.97153163 136.19266 -9.2334881 -72.674904 -9.2386007 -73.34713 0.019640807 -102.14507
9200312500 -0.98480231 136.20566 -9.2474575 -72.66864 -9.2447157 -73.365929 0.018164618 -102.07803
9200375000 -0.98401445 136.18349 -9.2561436 -72.60746 -9.2367382 -73.445015 0.024132004 -102.10583
9200437500 -0.97590429 136.18961 -9.2497053 -72.645889 -9.2331429 -73.413368 0.027387097 -102.11398
9200500000 -0.97792226 136.12872 -9.25173 -72.667053 -9.2340269 -73.348633 0.014795065 -102.05124
9200562500 -0.98110765 136.13078 -9.2409077 -72.624908 -9.2451553 -73.382355 0.011268441 -102.07767
9200625000 -0.98198748 136.14372 -9.2492962 -72.630463 -9.2322588 -73.37426 0.022719167 -102.04918
9200687500 -0.97353846 136.13191 -9.2397442 -72.519531 -9.2411575 -73.378838 0.022442566 -101.96153
9200750000 -0.98496795 136.0488 -9.2498856 -72.650856 -9.2438412 -73.320007 0.01503436 -101.99914
9200812500 -0.9950673 136.06107 -9.2545614 -72.632698 -9.2399759 -73.344894 0.0050166491 -102.00428
9200875000 -0.97464257 136.13812 -9.2442017 -72.57515 -9.2481003 -73.341347 0.0072661019 -102.01991
9200937500 -0.97744799 136.05957 -9.244235 -72.65757 -9.2456675 -73.32563 0.014980273 -101.92637
9201000000 -0.97928059 136.01448 -9.2436666 -72.737907 -9.2358036 -73.375809 0.015456572 -101.9521
9201062500 -0.97550535 136.02864 -9.2312431 -72.630508 -9.2318935 -73.377075 0.010688135 -101.95914
9201125000 -0.98147011 135.98586 -9.2395525 -72.629417 -9.2415419 -73.357719 0.013439422 -101.85658
9201187500 -0.98615038 135.92099 -9.2424002 -72.607574 -9.2297573 -73.344147 0.0070858109 -101.79622
9201250000 -0.98402226 136.02246 -9.2492104 -72.610428 -9.2532682 -73.331642 0.0028429178 -101.83399
9201312500 -0.98465818 135.96478 -9.2330866 -72.638 -9.2367725 -73.351517 0.017591037 -101.84875
9201375000 -0.99615455 135.98222 -9.2519188 -72.540054 -9.2324038 -73.364616 0.012171934 -101.8333
9201437500 -0.97940826 135.95671 -9.2352867 -72.541801 -9.2458458 -73.338974 0.0060724686 -101.86657
9201500000 -0.98373908 135.92635 -9.2290478 -72.655022 -9.2406731 -73.332863 0.0059097982 -101.8164
9201562500 -0.98247629 135.89346 -9.2467308 -72.62529 -9.2381926 -73.275452 6.0044982e-005 -101.79026
9201625000 -0.98291767 135.95717 -9.2409248 -72.545738 -9.2244673 -73.328674 0.004943748 -101.72628
9201687500 -0.98909414 135.91539 -9.2400274 -72.514404 -9.2285347 -73.335579 0.010045248 -101.65302
9201750000 -0.9777649 135.88684 -9.2417412 -72.580872 -9.2270927 -73.364952 0.020922339 -101.68622
9201812500 -0.98153424 135.89932 -9.2266235 -72.627831 -9.2274103 -73.284317 0.0087747704 -101.73777
9201875000 -0.98195505 135.86661 -9.2298689 -72.596924 -9.2321024 -73.343346 0.018313842 -101.63567
9201937500 -0.99174947 135.82637 -9.2398863 -72.519814 -9.2334929 -73.351746 0.01219273 -101.67812
9202000000 -0.98906863 135.8166 -9.2382202 -72.518517 -9.2267437 -73.387779 0.014421265 -101.65761
9202062500 -0.98951066 135.81844 -9.2298298 -72.581184 -9.2239342 -73.418411 0.021696929 -101.66367
9202125000 -0.99509436 135.8208 -9.2441702 -72.577591 -9.2207041 -73.292229 0.010813807 -101.64146
9202187500 -0.98169863 135.79782 -9.2362032 -72.532875 -9.2266874 -73.331299 0.013995982 -101.56471
9202250000 -0.98602122 135.78049 -9.233489 -72.567871 -9.2324944 -73.277771 0.0050437422 -101.56222
9202312500 -0.9847309 135.77037 -9.2313547 -72.601608 -9.2105675 -73.396843 0.017838929 -101.6333
9202375000 -0.98072541 135.73013 -9.2390261 -72.623505 -9.224473 -73.329544 0.0051788799 -101.53128
9202437500 -0.98661357 135.77647 -9.2303371 -72.564651 -9.2229633 -73.362206 0.017088568 -101.62462
9202500000 -0.9909935 135.71967 -9.2433968 -72.628769 -9.2323761 -73.295212 0.010211441 -101.52998
9202562500 -0.97265357 135.71225 -9.2245369 -72.515419 -9.2266426 -73.265877 0.0045337337 -101.51089
9202625000 -0.98189044 135.77638 -9.2289915 -72.58036 -9.2253637 -73.306686 0.010611043 -101.49956
9202687500 -0.98725444 135.71245 -9.2255907 -72.552933 -9.2211714 -73.306152 0.019314436 -101.41042
9202750000 -0.97083694 135.61673 -9.2190962 -72.58886 -9.223093 -73.298958 0.010985509 -101.4177
9202812500 -0.98491865 135.64996 -9.2256966 -72.533577 -9.2101326 -73.331581 0.013787135 -101.39129
9202875000 -0.98062778 135.66 -9.2162971 -72.549332 -9.2136745 -73.321815 0.016086262 -101.37628
9202937500 -0.98404992 135.61734 -9.2217484 -72.635811 -9.2170477 -73.254669 0.013863961 -101.39263
9203000000 -0.98595834 135.65771 -9.2251282 -72.539909 -9.220499 -73.313042 0.0046620294 -101.34624
9203062500 -0.98612803 135.5753 -9.2201996 -72.646446 -9.2237825 -73.275749 0.0023493662 -101.3969
9203125000 -0.979182 135.57028 -9.216404 -72.591194 -9.208539 -73.324463 0.0040672314 -101.38658
9203187500 -0.98163283 135.59766 -9.2361794 -72.600761 -9.2132759 -73.415527 0.0082810139 -101.35899
9203250000 -0.98446703 135.55931 -9.222518 -72.617989 -9.212923 -73.287285 0.0063198674 -101.31649
9203312500 -0.99542236 135.59662 -9.2347641 -72.560448 -9.2078667 -73.338142 0.019469526 -101.29832
9203375000 -0.98034 135.56136 -9.220479 -72.5756 -9.211422 -73.329224 0.010229768 -101.23927
9203437500 -0.99128419 135.5573 -9.2198181 -72.585777 -9.2157993 -73.30072 0.0091222096 -101.25481
9203500000 -0.98345757 135.47546 -9.2199144 -72.603638 -9.2120247 -73.300171 0.017993648 -101.25801
9203562500 -0.98978204 135.52669 -9.2283955 -72.499191 -9.228652 -73.288185 -0.0096812164 -101.26628
9203625000 -0.98964226 135.51588 -9.223011 -72.580498 -9.218502 -73.307892 -0.0033691647 -101.25484
9203687500 -0.9922024 135.45512 -9.2299843 -72.580032 -9.2155476 -73.255051 0.0027043936 -101.14712
9203750000 -0.98389858 135.45151 -9.2175169 -72.547615 -9.216898 -73.333054 0.013104964 -101.15169
9203812500 -0.98669708 135.45239 -9.2145452 -72.584419 -9.2106934 -73.291817 0.0025916831 -101.14024
9203875000 -0.98598254 135.45555 -9.2245235 -72.49955 -9.2175751 -73.322693 -0.01160857 -101.17799
9203937500 -0.98832875 135.41743 -9.2098246 -72.556351 -9.2076759 -73.246979 0.010282834 -101.1843
9204000000 -0.98763788 135.41385 -9.2064905 -72.478661 -9.2093716 -73.263214 0.010175524 -101.07874
9204062500 -0.98111486 135.38181 -9.2169199 -72.527458 -9.2023745 -73.312279 0.0035773558 -101.11381
9204125000 -0.98479569 135.40218 -9.2010269 -72.582687 -9.2068806 -73.243378 0.004870649 -101.06908
9204187500 -0.99591804 135.29352 -9.2158117 -72.576653 -9.2124729 -73.24015 -0.0047137951 -101.03228
9204250000 -0.98390341 135.38812 -9.199605 -72.49366 -9.211772 -73.226662 0.0037897343 -101.08065
9204312500 -0.9870773 135.3996 -9.2049389 -72.424629 -9.1966219 -73.301872 0.0059302328 -100.93685
9204375000 -0.9792397 135.3024 -9.2174864 -72.555313 -9.2048693 -73.226555 0.0052841846 -101.04156
9204437500 -0.99266475 135.32727 -9.2143211 -72.580246 -9.1983204 -73.199875 0.011849424 -100.94617
9204500000 -0.99178278 135.31175 -9.2184505 -72.566521 -9.2152395 -73.274956 0.0043621799 -100.93703
9204562500 -0.98105454 135.28914 -9.2068806 -72.57415 -9.2101269 -73.302742 0.0084741032 -101.03828
9204625000 -0.98001462 135.30595 -9.1997271 -72.4105 -9.2081318 -73.313568 8.4007355e-005 -100.88702
9204687500 -0.98849601 135.24292 -9.2150679 -72.567024 -9.2016039 -73.233109 0.0029337737 -100.8693
9204750000 -0.99726731 135.23413 -9.203908 -72.506264 -9.2103243 -73.294594 -0.013389308 -100.9567
9204812500 -0.97852069 135.22044 -9.2026968 -72.523163 -9.2000256 -73.266853 0.012227926 -100.90069
9204875000 -0.98679447 135.26329 -9.210062 -72.530525 -9.2110577 -73.241234 0.0002688641 -100.91468
9204937500 -0.98997074 135.21387 -9.2085905 -72.590561 -9.1958361 -73.32299 0.011280582 -100.89502
9205000000 -0.98064786 135.16426 -9.2019081 -72.487122 -9.1986504 -73.225777 -0.011426132 -100.82047
9205062500 -0.99197209 135.16139 -9.2175627 -72.521294 -9.1840086 -73.225388 0.0021967634 -100.8016
9205125000 -0.99185652 135.1861 -9.2136078 -72.470627 -9.1982183 -73.212982 0.0014723548 -100.73945
9205187500 -0.99380112 135.17654 -9.208457 -72.45903 -9.1899738 -73.194817 0.0023413873 -100.77098
9205250000 -0.98560166 135.13667 -9.211401 -72.552391 -9.2032185 -73.226173 -0.0020502876 -100.83698
9205312500 -0.98173624 135.18176 -9.2015581 -72.528816 -9.2024603 -73.21521 -0.0011150609 -100.79955
9205375000 -0.99175566 135.08334 -9.2063742 -72.513374 -9.1992083 -73.250961 0.0018109472 -100.73672
9205437500 -0.97783154 135.09625 -9.2010384 -72.446938 -9.194396 -73.205025 0.0019630867 -100.67673
9205500000 -0.98966479 135.01955 -9.2018232 -72.505264 -9.1986189 -73.237297 -7.2568655e-005 -100.60757
9205562500 -0.98978031 135.10664 -9.1852131 -72.453568 -9.1899462 -73.191284 0.0061762487 -100.65132
9205625000 -0.98973203 135.09868 -9.1995125 -72.473923 -9.1931524 -73.244453 -0.0050677168 -100.6357
9205687500 -0.9832508 135.06548 -9.1942511 -72.487762 -9.1841955 -73.259972 0.0048489813 -100.59587
9205750000 -0.98786354 135.00702 -9.1983719 -72.475975 -9.1939783 -73.242569 0.002332119 -100.56338
9205812500 -0.9902665 135.02255 -9.1894569 -72.468224 -9.1936159 -73.211014 -0.0011989512 -100.51212
9205875000 -0.98097014 135.04195 -9.2052031 -72.441025 -9.1927233 -73.197495 -0.0014711288 -100.63886
9205937500 -0.98309535 135.00569 -9.1919823 -72.47979 -9.1812353 -73.180496 0.0091951676 -100.54192
9206000000 -0.99162382 134.97699 -9.1882267 -72.463753 -9.1904173 -73.211906 0.0023964036 -100.53085
9206062500 -0.98271543 134.98483 -9.1992807 -72.545898 -9.1829262 -73.146904 -0.0015146356 -100.53289
9206125000 -0.98390788 134.94688 -9.1820965 -72.507919 -9.1825466 -73.132584 -5.6481083e-005 -100.47041
9206187500 -0.98770785 134.96149 -9.1900959 -72.477318 -9.1892633 -73.235649 0.0070676813 -100.50787
9206250000 -0.99077278 134.89471 -9.1976671 -72.507759 -9.1867294 -73.140854 0.0022966114 -100.49345
9206312500 -0.98558348 134.86072 -9.1947107 -72.464233 -9.181757 -73.289352 0.0044794972 -100.52727
9206375000 -0.98359108 134.9176 -9.1862841 -72.441589 -9.1852646 -73.186195 -0.00070920965 -100.48374
9206437500 -0.98559046 134.8439 -9.1931496 -72.552094 -9.1864157 -73.234108 0.0022818311 -100.51279
9206500000 -0.99361587 134.88078 -9.1994619 -72.480164 -9.1799259 -73.197182 -0.0084305201 -100.44027
9206562500 -0.99151647 134.86101 -9.1953611 -72.54248 -9.1844721 -73.163216 0.00099078834 -100.43954
9206625000 -0.99374634 134.7807 -9.1914892 -72.502274 -9.1861544 -73.193665 -0.0034789836 -100.39764
9206687500 -0.99480504 134.83124 -9.2067194 -72.496407 -9.1844959 -73.197845 0.009130789 -100.42856
9206750000 -0.98340321 134.80705 -9.1803293 -72.469162 -9.183218 -73.131706 -0.0035605021 -100.35168
9206812500 -0.9827742 134.82889 -9.1936083 -72.474152 -9.192338 -73.188751 -0.005045379 -100.36594
9206875000 -0.98975873 134.81088 -9.1897087 -72.478935 -9.1764412 -73.120567 0.0028469444 -100.26533
9206937500 -0.99073029 134.76811 -9.1871014 -72.513206 -9.187891 -73.177223 -0.0060898894 -100.25941
9207000000 -0.983769 134.74556 -9.1740808 -72.521408 -9.1856422 -73.223145 -0.00011107631 -100.29642
9207062500 -0.98201829 134.74583 -9.1746979 -72.45713 -9.1779137 -73.142296 -0.0023076308 -100.16479
9207125000 -0.99600875 134.70435 -9.1828804 -72.512177 -9.1933517 -73.26368 -0.006927039 -100.23817
9207187500 -0.98785287 134.70367 -9.1849117 -72.493256 -9.1889954 -73.191307 -0.0032997513 -100.24857
9207250000 -0.98543215 134.6813 -9.1800117 -72.494667 -9.1873407 -73.181641 -0.0020874965 -100.26914
9207312500 -0.97981787 134.6875 -9.182313 -72.4953 -9.1704903 -73.157356 0.0072741127 -100.21932
9207375000 -0.99086601 134.65065 -9.1872711 -72.510323 -9.174243 -73.202492 -0.0013002306 -100.14571
9207437500 -0.9818719 134.7247 -9.1823616 -72.410439 -9.1915922 -73.154358 -0.0085719991 -100.1358
9207500000 -0.99990642 134.69507 -9.1995773 -72.45089 -9.1647434 -73.139481 -0.0085644284 -100.11337
9207562500 -0.98191512 134.67017 -9.1808739 -72.459274 -9.1704216 -73.121391 -0.0068005384 -100.10948
9207625000 -0.98924577 134.59169 -9.177434 -72.442734 -9.1700983 -73.181526 -0.0059561953 -100.08237
9207687500 -0.98859936 134.63556 -9.1723003 -72.409256 -9.1736975 -73.192413 0.0023322541 -100.10662
9207750000 -0.99306715 134.62643 -9.182313 -72.410965 -9.1611662 -73.222694 0.0031892154 -100.10834
9207812500 -0.98445922 134.60301 -9.1754265 -72.410805 -9.1784525 -73.162292 -0.010825986 -100.04485
9207875000 -0.9882744 134.62296 -9.1878471 -72.341431 -9.1702757 -73.208763 0.00035591764 -100.02013
9207937500 -0.99121702 134.55511 -9.1852455 -72.441887 -9.1844368 -73.187149 -0.0074287555 -100.0816
9208000000 -0.99458897 134.56418 -9.1708832 -72.40023 -9.1686182 -73.11644 -0.0011182418 -99.969078
9208062500 -0.99364644 134.53421 -9.1810026 -72.371704 -9.1667805 -73.138763 0.00022099903 -100.00096
9208125000 -0.9894163 134.5139 -9.1747456 -72.462395 -9.1745129 -73.21804 -0.010009474 -100.03309
9208187500 -0.9834336 134.5631 -9.1718817 -72.438416 -9.1804552 -73.117111 -0.0056387098 -99.961983
9208250000 -0.99742198 134.49495 -9.1852751 -72.36972 -9.1677914 -73.123825 -0.009351179 -99.887672
9208312500 -0.99321216 134.50575 -9.1797934 -72.438828 -9.1600704 -73.127312 -0.0059046177 -99.949539
9208375000 -0.986175 134.46503 -9.1734943 -72.439713 -9.1705303 -73.128143 -0.0088846358 -99.865601
9208437500 -0.99421787 134.39078 -9.1657114 -72.458992 -9.1681767 -73.064957 -0.012828853 -99.847153
9208500000 -0.99397171 134.41002 -9.1777401 -72.4105 -9.1705589 -73.174736 -0.011321682 -99.868294
9208562500 -0.99075997 134.4518 -9.1646338 -72.426125 -9.1709251 -73.075317 -0.0037661486 -99.827148
9208625000 -0.98972154 134.4157 -9.1706619 -72.344589 -9.1610718 -73.121811 -0.010409426 -99.840622
9208687500 -0.98232007 134.36427 -9.1662292 -72.41938 -9.1674175 -73.169594 -0.0077190138 -99.859276
9208750000 -0.98744702 134.40688 -9.1617365 -72.405487 -9.1527824 -73.120277 -0.010087168 -99.796638
9208812500 -0.99290735 134.42841 -9.1709223 -72.400475 -9.1691113 -73.139526 -0.0081531145 -99.79142
9208875000 -0.99091142 134.33566 -9.1640425 -72.467583 -9.1630116 -73.127213 -0.0060724453 -99.76281
9208937500 -0.99340534 134.38055 -9.1632767 -72.335487 -9.1543407 -73.055672 -0.0032134221 -99.71463
9209000000 -0.98562121 134.37071 -9.1725512 -72.417053 -9.1614571 -73.097046 -0.012311289 -99.791924
9209062500 -0.99505341 134.32581 -9.1599226 -72.420876 -9.1618652 -73.085312 -0.0082444269 -99.677025
9209125000 -0.9927386 134.35953 -9.1631031 -72.374733 -9.1614361 -73.181793 -0.0061757709 -99.69381
9209187500 -0.99294293 134.33176 -9.1692581 -72.385971 -9.1626368 -73.095177 -0.0083529642 -99.695496
9209250000 -0.98610586 134.2397 -9.1606941 -72.429863 -9.1518345 -73.178726 -0.01159414 -99.580811
9209312500 -0.99410075 134.2039 -9.1730175 -72.445595 -9.1555004 -73.146576 -0.017227892 -99.646393
9209375000 -0.98071098 134.24559 -9.1606312 -72.376862 -9.1649523 -73.064468 -0.01725404 -99.609062
9209437500 -0.99107939 134.21941 -9.157793 -72.348862 -9.153141 -73.190956 -0.0094586806 -99.524681
9209500000 -0.98549014 134.20886 -9.1610022 -72.437553 -9.1505899 -73.138039 -0.010761657 -99.578789
9209562500 -0.99735111 134.21835 -9.173378 -72.364883 -9.1613874 -73.100998 -0.01349109 -99.529144
9209625000 -0.99185735 134.15118 -9.1614246 -72.435562 -9.1567955 -73.124611 -0.012879942 -99.553268
9209687500 -0.9906444 134.13605 -9.1599979 -72.417206 -9.1493225 -73.051353 -0.0078138495 -99.497795
9209750000 -0.99307084 134.11848 -9.1562042 -72.447655 -9.1564245 -73.075531 -0.0061845444 -99.536331
9209812500 -0.98788631 134.136 -9.1624937 -72.361 -9.1650038 -73.15815 -0.020120217 -99.48954
9209875000 -0.99013227 134.14253 -9.1511974 -72.415146 -9.1413441 -73.148712 -0.0091981143 -99.514961
9209937500 -0.994201 134.1993 -9.1746693 -72.351067 -9.1603279 -73.039612 -0.011914987 -99.500694
9210000000 -0.98404378 134.11319 -9.150629 -72.428108 -9.1493921 -73.049652 -0.024482202 -99.431427
9210062500 -0.99775726 134.15994 -9.165554 -72.350929 -9.1551743 -73.083008 -0.020416193 -99.416451
9210125000 -0.98803693 134.08392 -9.1629486 -72.377487 -9.1447945 -73.027443 -0.01233732 -99.383583
9210187500 -0.99198186 134.11844 -9.1566772 -72.356369 -9.1436319 -73.088692 -0.01023678 -99.378258
9210250000 -0.98972023 134.05261 -9.1448002 -72.408112 -9.149725 -73.075523 -0.018056022 -99.397194
9210312500 -0.9974609 134.0517 -9.1497831 -72.31543 -9.1528234 -73.128716 -0.01640841 -99.410316
9210375000 -0.99226815 134.09579 -9.1662054 -72.373985 -9.1570654 -73.025795 -0.013981192 -99.241264
9210437500 -0.98466021 134.00905 -9.1635723 -72.342506 -9.1540956 -73.108955 -0.013069822 -99.371414
9210500000 -0.98885417 134.00461 -9.1542101 -72.354828 -9.1359844 -73.08976 -0.0098698689 -99.31382
9210562500 -0.99318427 133.98 -9.1522665 -72.261284 -9.1419888 -73.058693 -0.011967735 -99.229836
9210625000 -0.99006343 133.99562 -9.1615038 -72.333206 -9.1562071 -73.057518 -0.021315111 -99.270386
9210687500 -0.99210018 133.99239 -9.1511707 -72.366692 -9.1507215 -73.103424 -0.022482648 -99.279366
9210750000 -0.99079174 134.0032 -9.1491728 -72.400337 -9.1376324 -73.065964 -0.0095474459 -99.260429
9210812500 -0.99522585 133.94191 -9.1507463 -72.375648 -9.1433525 -72.969597 -0.021477155 -99.184883
9210875000 -0.98712951 133.94591 -9.1515036 -72.362801 -9.1439562 -73.075378 -0.021628162 -99.26606
9210937500 -0.99527586 133.95752 -9.1509218 -72.317802 -9.1480637 -73.011955 -0.019894725 -99.144798
9211000000 -0.98843563 133.95653 -9.1573257 -72.419655 -9.1398954 -73.027359 -0.0071569197 -99.188789
9211062500 -0.99345249 133.9492 -9.1567287 -72.239212 -9.1441879 -73.034042 -0.021219604 -99.181213
9211125000 -0.98557502 133.87633 -9.1475649 -72.294647 -9.1391344 -73.043587 -0.013902446 -99.117859
9211187500 -0.99087971 133.88002 -9.1409197 -72.317924 -9.1387939 -73.03949 -0.023694413 -99.119431
9211250000 -0.99483335 133.86852 -9.1415567 -72.423485 -9.1436367 -73.05732 -0.012135547 -99.100121
9211312500 -0.99854213 133.86615 -9.1569862 -72.331955 -9.1392965 -72.983391 -0.02285582 -99.06778
9211375000 -0.9886868 133.78671 -9.140646 -72.380592 -9.1341257 -73.119827 -0.018474452 -99.070549
9211437500 -0.98819941 133.81728 -9.1426411 -72.338547 -9.1377821 -73.042221 -0.020631105 -99.029839
9211500000 -0.99684697 133.76198 -9.1504755 -72.350784 -9.1430082 -73.050278 -0.02195875 -99.091141
9211562500 -0.99912876 133.84488 -9.1542063 -72.335411 -9.131321 -72.992477 -0.017409092 -98.980232
9211625000 -0.9957372 133.75616 -9.1500359 -72.358322 -9.1370373 -73.135956 -0.022416914 -99.069977
9211687500 -0.99216366 133.80997 -9.1475687 -72.305542 -9.1300449 -73.074287 -0.019937947 -99.007706
9211750000 -0.99334836 133.74376 -9.1464529 -72.318459 -9.1329918 -72.986107 -0.010666999 -98.894157
9211812500 -0.99665159 133.7132 -9.1503849 -72.361099 -9.1330976 -72.99881 -0.026738336 -98.954346
9211875000 -0.99487609 133.70866 -9.1349964 -72.385475 -9.1313438 -72.977646 -0.018274112 -98.840034
9211937500 -0.99058634 133.70245 -9.1331787 -72.306541 -9.1323614 -73.008118 -0.023455631 -98.917984
9212000000 -0.99225116 133.63568 -9.1349602 -72.361656 -9.1239166 -73.068581 -0.019884661 -98.9188
9212062500 -0.99658328 133.62624 -9.1351099 -72.327408 -9.1340637 -72.98201 -0.030223342 -98.876854
