!Agilent Technologies,N5242A,MY51221714,A.09.90.19
!Agilent N5242A: A.09.90.19
!Date: Tuesday, March 26, 2024 16:11:28
!Correction: S11(Full 2 Port(1,2)) 
!S21(Full 2 Port(1,2)) 
!S12(Full 2 Port(1,2)) 
!S22(Full 2 Port(1,2)) 
!S2P File: Measurements: S11, S21, S12, S22:
# Hz S  dB   R 50
9200000000 -0.9868626 136.10178 -9.247901 -72.726158 -9.2313595 -73.431778 0.0093747964 -102.21243
9200062500 -0.98916435 136.12636 -9.2403116 -72.788879 -9.2401266 -73.444809 0.019288946 -102.18797
9200125000 -0.98484039 136.11664 -9.2324057 -72.70314 -9.2315798 -73.379898 0.0084439507 -102.1396
9200187500 -0.99017519 136.13956 -9.2363892 -72.634529 -9.2396889 -73.463341 0.022080947 -102.14717
9200250000 -0.98923308 136.08833 -9.2406225 -72.733818 -9.2338209 -73.382965 0.021608675 -102.11143
9200312500 -0.99200082 136.04762 -9.2327366 -72.748055 -9.2297907 -73.383095 0.022003381 -102.11763
9200375000 -0.98464811 136.0256 -9.2305679 -72.714684 -9.2296743 -73.536491 0.019351399 -102.12502
9200437500 -0.98501498 136.08643 -9.2361975 -72.652267 -9.2210732 -73.447533 0.031460632 -102.08202
9200500000 -0.98140156 136.03795 -9.2382841 -72.723221 -9.2263527 -73.358147 0.013598236 -102.03056
9200562500 -0.98318642 136.03397 -9.2351866 -72.646484 -9.2443342 -73.395973 0.018548789 -102.06133
9200625000 -0.98902476 136.03018 -9.2383232 -72.697723 -9.2258234 -73.404037 0.015875682 -102.04855
9200687500 -0.98444033 136.02451 -9.2399426 -72.678551 -9.2293568 -73.430672 0.019685769 -101.98214
9200750000 -0.98479486 135.93504 -9.2362118 -72.769501 -9.2330894 -73.404457 0.010678865 -102.00034
9200812500 -0.99675113 135.967 -9.2433863 -72.665169 -9.2313318 -73.381653 -0.0056493427 -101.98808
9200875000 -0.97980803 136.05812 -9.2410717 -72.58239 -9.2331257 -73.38372 0.011154771 -102.02388
9200937500 -0.98637819 135.95399 -9.2442951 -72.675812 -9.2273989 -73.340607 0.02117529 -101.90123
9201000000 -0.98137295 135.93405 -9.2304716 -72.716522 -9.2220097 -73.381271 0.018801378 -101.91436
9201062500 -0.99071914 135.91908 -9.233222 -72.66964 -9.2199068 -73.374512 0.01309521 -101.91879
9201125000 -0.98724341 135.93391 -9.2275887 -72.604836 -9.2338781 -73.370598 0.0083687669 -101.83173
9201187500 -0.99147803 135.85414 -9.234087 -72.661545 -9.2277632 -73.375633 0.0076204804 -101.78999
9201250000 -0.98900348 135.89622 -9.2323236 -72.625694 -9.2371187 -73.354095 0.011105736 -101.82779
9201312500 -0.99578846 135.84306 -9.2258892 -72.761337 -9.232131 -73.411118 0.012107013 -101.87515
9201375000 -1.0009247 135.8764 -9.2394352 -72.621185 -9.2317133 -73.296661 0.0084787151 -101.75665
9201437500 -0.9865545 135.8513 -9.2312889 -72.63559 -9.2264919 -73.293091 0.012273015 -101.8741
9201500000 -0.99481565 135.85393 -9.239522 -72.643082 -9.2254086 -73.375671 0.01122023 -101.81893
9201562500 -0.99096423 135.76648 -9.2284946 -72.653427 -9.2345543 -73.33989 0.0058967965 -101.80264
9201625000 -0.98416144 135.78447 -9.2281723 -72.622765 -9.2245455 -73.403496 -0.00062819582 -101.71679
9201687500 -0.98848808 135.76036 -9.2259979 -72.603081 -9.2255011 -73.28833 0.0079357577 -101.64006
9201750000 -0.9943682 135.77106 -9.2349291 -72.611145 -9.2120619 -73.374878 0.022610841 -101.68827
9201812500 -0.98329139 135.7524 -9.2324991 -72.651588 -9.2251301 -73.324112 0.0023961493 -101.68752
9201875000 -0.98812521 135.75043 -9.2256136 -72.634262 -9.2204962 -73.410446 0.016511275 -101.65276
9201937500 -1.0015118 135.70364 -9.2335768 -72.641525 -9.2091351 -73.436218 0.015772942 -101.72722
9202000000 -0.99785906 135.71663 -9.2340231 -72.609848 -9.2169943 -73.416092 0.0045579253 -101.68568
9202062500 -0.99591166 135.72575 -9.2248344 -72.643471 -9.2233791 -73.404213 0.01372669 -101.62672
9202125000 -0.99330288 135.71558 -9.2236319 -72.613876 -9.2218971 -73.291138 0.0067507685 -101.62872
9202187500 -0.98745167 135.70042 -9.2207661 -72.656853 -9.218832 -73.320946 0.0098600835 -101.52937
9202250000 -0.99348682 135.65982 -9.2293835 -72.633774 -9.219224 -73.335182 0.0054880632 -101.56054
9202312500 -0.98456323 135.65607 -9.2232571 -72.569733 -9.2209959 -73.395836 0.0080975173 -101.58665
9202375000 -0.99106032 135.61058 -9.220274 -72.666321 -9.1976805 -73.3507 0.012837708 -101.4763
9202437500 -0.98983252 135.66742 -9.2143717 -72.576469 -9.2180347 -73.350967 0.012015874 -101.54189
9202500000 -0.99459624 135.62611 -9.224885 -72.704849 -9.2265968 -73.339462 0.0052319467 -101.54583
9202562500 -0.97805166 135.56691 -9.2051535 -72.567444 -9.2237616 -73.315147 0.00060198031 -101.47049
9202625000 -0.98825234 135.65443 -9.2263393 -72.552696 -9.2101221 -73.34668 0.008089805 -101.48212
9202687500 -0.99085587 135.60783 -9.2103901 -72.586037 -9.2124081 -73.337288 0.017287757 -101.38223
9202750000 -0.9818188 135.54144 -9.2073822 -72.621872 -9.2085695 -73.364746 0.013255441 -101.42206
9202812500 -0.99063629 135.52313 -9.2198868 -72.609756 -9.201416 -73.332802 0.014093207 -101.37926
9202875000 -0.98285013 135.54691 -9.2061234 -72.528862 -9.2109423 -73.354645 0.0082154972 -101.38935
9202937500 -0.98701549 135.50723 -9.2129726 -72.661858 -9.2100172 -73.224762 0.01683742 -101.35575
9203000000 -0.99206388 135.52908 -9.2198744 -72.583252 -9.2079859 -73.363373 0.0088488031 -101.3121
9203062500 -0.98839831 135.47296 -9.216258 -72.625816 -9.2052994 -73.194008 0.004591885 -101.32681
9203125000 -0.98860914 135.44635 -9.2054977 -72.560829 -9.203721 -73.38015 0.0080651734 -101.36485
9203187500 -0.98556864 135.49854 -9.2155695 -72.660408 -9.2032652 -73.377754 0.0080195041 -101.32265
9203250000 -0.99064511 135.43707 -9.2095089 -72.585777 -9.2087202 -73.32737 0.0090416251 -101.25695
9203312500 -0.99853832 135.45001 -9.2150574 -72.646568 -9.2084703 -73.307671 0.014079386 -101.24858
9203375000 -0.98796129 135.40492 -9.2154884 -72.614388 -9.2047195 -73.331429 0.0057746489 -101.23787
9203437500 -0.99188983 135.42546 -9.211091 -72.585747 -9.208827 -73.403847 0.0046502906 -101.28893
9203500000 -0.98543191 135.41112 -9.1984911 -72.573364 -9.2002621 -73.315971 0.015232738 -101.22387
9203562500 -0.99522185 135.39091 -9.2216625 -72.548561 -9.2132769 -73.36573 -0.0088347802 -101.23887
9203625000 -0.99390286 135.39212 -9.2182045 -72.612244 -9.203763 -73.300278 0.0040016975 -101.25751
9203687500 -0.99501306 135.33192 -9.2150536 -72.614883 -9.2060289 -73.301041 0.0002141538 -101.20069
9203750000 -0.989375 135.32835 -9.2022676 -72.575577 -9.2007885 -73.313515 0.015018239 -101.17261
9203812500 -0.99382162 135.35736 -9.1992903 -72.64151 -9.2116928 -73.365074 0.0042027906 -101.16774
9203875000 -0.98669994 135.33466 -9.2127371 -72.513565 -9.200882 -73.291557 -0.0042293458 -101.12403
9203937500 -0.99136174 135.36455 -9.1971464 -72.553703 -9.1969852 -73.283585 0.0077904942 -101.14418
9204000000 -0.99540526 135.31984 -9.2070141 -72.536064 -9.2046299 -73.294411 0.0024405608 -101.04679
9204062500 -0.99063456 135.30017 -9.2056227 -72.512947 -9.2007437 -73.328133 -0.0033042433 -101.10278
9204125000 -1.0010853 135.285 -9.205842 -72.527519 -9.1946487 -73.299271 0.0092685744 -101.03689
9204187500 -0.99946153 135.25322 -9.2204981 -72.56292 -9.2121019 -73.293015 -0.0078348378 -101.05444
9204250000 -0.99530107 135.27878 -9.1984091 -72.623322 -9.1984892 -73.290421 0.0034380849 -101.052
9204312500 -0.9872238 135.23285 -9.1893721 -72.552338 -9.1994772 -73.308968 0.00076964981 -100.95155
9204375000 -0.98280805 135.20363 -9.1929588 -72.577293 -9.1886158 -73.306786 0.0094743138 -101.05161
9204437500 -1.0068632 135.21611 -9.20679 -72.545692 -9.1818085 -73.23584 0.017028419 -100.97727
9204500000 -0.99558008 135.22554 -9.1974058 -72.5868 -9.1960659 -73.266479 0.0071082022 -100.94074
9204562500 -0.99572384 135.2126 -9.2131548 -72.554237 -9.189786 -73.307701 0.0086490083 -100.95565
9204625000 -0.98561883 135.15785 -9.2016792 -72.499527 -9.1825895 -73.293312 0.0084109996 -100.86656
9204687500 -0.99261123 135.16586 -9.2020969 -72.506943 -9.1921806 -73.285217 0.0030716399 -100.85834
9204750000 -1.0017501 135.132 -9.2009592 -72.541763 -9.2018328 -73.294235 -0.010855292 -100.87772
9204812500 -0.98654228 135.08559 -9.201581 -72.541092 -9.1966286 -73.278938 0.00028966591 -100.85609
9204875000 -0.98579794 135.15707 -9.198863 -72.567307 -9.2100945 -73.213341 -0.0034865502 -100.89512
9204937500 -0.9894169 135.08707 -9.18888 -72.609077 -9.1852541 -73.304031 0.016156735 -100.84051
9205000000 -0.98545229 135.01221 -9.1996145 -72.539612 -9.1828232 -73.24044 -0.0081379386 -100.82623
9205062500 -0.98811883 135.04922 -9.1998615 -72.581337 -9.1788139 -73.263252 3.0195146e-005 -100.7719
9205125000 -0.98841673 135.05986 -9.1893063 -72.532959 -9.1896782 -73.218056 0.0051988852 -100.75556
9205187500 -0.99025458 135.07201 -9.1909666 -72.522392 -9.1871576 -73.264862 -0.006073623 -100.73616
9205250000 -0.98892599 134.9931 -9.1951933 -72.609657 -9.1991911 -73.223618 -0.011558641 -100.77988
9205312500 -0.98568267 135.0233 -9.1704111 -72.571754 -9.1832027 -73.209831 0.0044988366 -100.75097
9205375000 -0.99515474 134.99815 -9.1881819 -72.493042 -9.1857681 -73.254227 0.0058968933 -100.68967
9205437500 -0.98845202 135.01208 -9.1855917 -72.459801 -9.1860094 -73.256119 0.0040969602 -100.68607
9205500000 -0.99943262 134.91551 -9.182004 -72.60701 -9.1768198 -73.265244 0.010533061 -100.61314
9205562500 -0.99938148 134.95868 -9.1911411 -72.589951 -9.1884193 -73.240097 0.0064439471 -100.60087
9205625000 -0.99919254 134.95866 -9.1925611 -72.489929 -9.1787643 -73.251694 0.00011994022 -100.60101
9205687500 -0.98630255 134.93626 -9.178194 -72.550087 -9.1885061 -73.285744 0.0033039451 -100.60089
9205750000 -0.99330133 134.88434 -9.1883535 -72.567261 -9.1805439 -73.26667 0.0032078435 -100.5824
9205812500 -0.99734503 134.89384 -9.1793327 -72.462898 -9.1920595 -73.191086 -0.0011777105 -100.53857
9205875000 -0.98358411 134.91048 -9.1836967 -72.477402 -9.1896191 -73.235794 0.00015086502 -100.59521
9205937500 -0.99367237 134.868 -9.1833258 -72.516464 -9.1721478 -73.173958 0.0053545367 -100.49683
9206000000 -0.99226522 134.88612 -9.1817226 -72.51738 -9.1836567 -73.262604 0.0018431338 -100.51225
9206062500 -0.98813933 134.90228 -9.1862478 -72.529526 -9.1833315 -73.197121 -0.0018361598 -100.50246
9206125000 -0.9928394 134.82776 -9.185565 -72.554413 -9.1751881 -73.237457 0.0032023794 -100.48461
9206187500 -0.99007297 134.82622 -9.1851521 -72.538742 -9.1788511 -73.198685 0.0080822781 -100.47839
9206250000 -0.99704665 134.79309 -9.1841564 -72.515755 -9.1724262 -73.190361 -0.0027922529 -100.4842
9206312500 -0.9891746 134.71707 -9.188446 -72.52446 -9.1753178 -73.271675 0.0021599864 -100.45007
9206375000 -0.99724483 134.82449 -9.1915884 -72.449348 -9.1755571 -73.171616 -0.00093568047 -100.4201
9206437500 -0.99027205 134.72995 -9.183362 -72.527283 -9.1832323 -73.203247 -0.0064232466 -100.42852
9206500000 -0.99521053 134.75214 -9.1891994 -72.522079 -9.1795387 -73.218567 -0.0093533564 -100.39708
9206562500 -0.99989349 134.76364 -9.1868916 -72.615562 -9.1724892 -73.170052 0.0066855229 -100.39968
9206625000 -0.99335432 134.68733 -9.1763906 -72.477554 -9.1710234 -73.307411 -0.00096985593 -100.44436
9206687500 -0.99687123 134.69328 -9.1854 -72.576492 -9.1701174 -73.187981 0.0040744985 -100.37672
9206750000 -0.99019128 134.72832 -9.172019 -72.516975 -9.1799612 -73.157448 -0.0072893612 -100.33187
9206812500 -0.98746419 134.7366 -9.1760263 -72.510078 -9.1738157 -73.243294 0.0023998099 -100.4157
9206875000 -0.99239975 134.67815 -9.1741667 -72.484543 -9.1699982 -73.176704 0.0086638322 -100.25288
9206937500 -0.99253833 134.65747 -9.1767941 -72.421806 -9.1794786 -73.221916 -0.0056877923 -100.26137
9207000000 -0.99379033 134.68745 -9.1783609 -72.488899 -9.1723604 -73.250381 -0.001734238 -100.28437
9207062500 -0.98759633 134.61844 -9.1638365 -72.523743 -9.1685076 -73.226898 -0.0066589098 -100.16514
9207125000 -0.99874222 134.60767 -9.1693325 -72.538574 -9.1570787 -73.297821 0.0057475273 -100.22284
9207187500 -0.99249196 134.57683 -9.1713333 -72.597641 -9.1772308 -73.205643 -0.004090386 -100.25423
9207250000 -0.98899055 134.6048 -9.1661406 -72.545723 -9.1749172 -73.196594 0.00095312682 -100.26814
9207312500 -0.98996907 134.54195 -9.1691837 -72.575356 -9.1635704 -73.159416 0.0044434764 -100.15489
9207375000 -0.99838507 134.52507 -9.1738663 -72.528358 -9.1707382 -73.216728 -0.0078219315 -100.14709
9207437500 -0.98913056 134.62172 -9.1745939 -72.43959 -9.1777039 -73.196205 -0.0017584071 -100.1429
9207500000 -0.99606007 134.56964 -9.1758223 -72.474716 -9.1603518 -73.169037 -0.011887461 -100.15134
9207562500 -0.98895746 134.55858 -9.1731091 -72.534515 -9.1626062 -73.12294 -0.010508175 -100.08315
9207625000 -0.99000317 134.48616 -9.1613827 -72.432281 -9.1623335 -73.196655 -0.00076580694 -100.06491
9207687500 -0.99700958 134.52232 -9.1696568 -72.501297 -9.1623621 -73.176979 -0.0013559446 -100.10871
9207750000 -0.99491066 134.54117 -9.1663666 -72.411911 -9.1627979 -73.196785 0.0032089043 -100.03149
9207812500 -0.9953357 134.4613 -9.1687679 -72.495888 -9.1564436 -73.176003 -0.0085135708 -100.05107
9207875000 -0.9924531 134.48109 -9.1737537 -72.446693 -9.1593685 -73.128624 0.0012579052 -99.979652
9207937500 -0.99622411 134.38766 -9.1758957 -72.453445 -9.1709929 -73.227783 -0.0095807537 -100.07331
9208000000 -0.99881011 134.42538 -9.1605835 -72.475288 -9.1591482 -73.219543 -0.0012436411 -100.0045
9208062500 -0.99358118 134.439 -9.1736889 -72.505882 -9.1665382 -73.223778 -0.014617058 -99.988297
9208125000 -0.99406451 134.40923 -9.1732502 -72.510979 -9.1619873 -73.212631 -0.004641402 -99.939171
9208187500 -0.99296689 134.43883 -9.1631117 -72.465096 -9.1605549 -73.159073 -0.0078221355 -99.94593
9208250000 -0.99670106 134.37773 -9.1641798 -72.460228 -9.1589603 -73.193039 -0.0087090209 -99.886253
9208312500 -0.99255753 134.40077 -9.1743793 -72.452805 -9.1448584 -73.151321 -0.0019902468 -99.89814
9208375000 -1.0000671 134.35278 -9.1589537 -72.425575 -9.1585464 -73.110497 -0.0075689214 -99.820084
9208437500 -0.99675769 134.28119 -9.1704502 -72.501923 -9.1571159 -73.164665 -0.017134821 -99.857918
9208500000 -0.99300873 134.27762 -9.158699 -72.495628 -9.1586046 -73.257118 -0.0085547585 -99.895653
9208562500 -0.99605602 134.36639 -9.1600552 -72.508316 -9.1612082 -73.187378 0.00078978244 -99.866295
9208625000 -0.98857731 134.24052 -9.1577606 -72.427124 -9.1527653 -73.09977 -0.011172262 -99.817963
9208687500 -0.98557937 134.28189 -9.1547594 -72.48027 -9.1549816 -73.233681 0.0018861119 -99.809555
9208750000 -0.98785448 134.33827 -9.156126 -72.397293 -9.1511488 -73.142227 -0.0089169266 -99.74855
9208812500 -0.99842203 134.32712 -9.1589813 -72.43457 -9.1555204 -73.142143 -0.005055414 -99.736008
9208875000 -0.99198002 134.2205 -9.1498718 -72.472496 -9.1496506 -73.186554 0.00096013054 -99.719383
9208937500 -0.99860924 134.26302 -9.163146 -72.449425 -9.1565495 -73.148293 -0.0098428354 -99.718216
9209000000 -0.99108291 134.2493 -9.1667118 -72.37896 -9.1491222 -73.131866 -0.0198853 -99.749084
9209062500 -0.99594355 134.21205 -9.1577349 -72.457611 -9.1538639 -73.114571 -0.0033106781 -99.686325
9209125000 -1.0078369 134.20934 -9.1575928 -72.438057 -9.1314602 -73.169777 0.0044797142 -99.653015
9209187500 -0.99458557 134.22327 -9.1561842 -72.400299 -9.1560402 -73.085587 -0.010422541 -99.657028
9209250000 -0.99027318 134.14784 -9.1530752 -72.426834 -9.143568 -73.231834 -0.011962189 -99.592438
9209312500 -0.99801922 134.08699 -9.1600943 -72.430649 -9.1421833 -73.166336 -0.0092560733 -99.628159
9209375000 -0.98550504 134.15511 -9.1517096 -72.395294 -9.1627188 -73.073669 -0.021791421 -99.595703
9209437500 -0.99933869 134.10146 -9.1540356 -72.40889 -9.1422167 -73.1828 -0.0060140574 -99.529449
9209500000 -0.99115467 134.08537 -9.1500597 -72.443016 -9.1464348 -73.099472 -0.005634977 -99.554901
9209562500 -1.0050238 134.11867 -9.1586599 -72.403954 -9.1502037 -73.098427 -0.013839698 -99.4897
9209625000 -0.9908489 134.04358 -9.1394205 -72.408348 -9.1551075 -73.123131 -0.0079021715 -99.483589
9209687500 -0.9885754 134.00079 -9.1453686 -72.49942 -9.1458893 -73.098366 -0.0054339259 -99.49472
9209750000 -0.99509519 134.01511 -9.1351252 -72.519852 -9.143342 -73.096733 0.0029039022 -99.513947
9209812500 -0.99377555 133.98174 -9.1556883 -72.406029 -9.1556253 -73.123138 -0.013185613 -99.468712
9209875000 -0.99636966 134.02631 -9.1454992 -72.432243 -9.1404953 -73.155579 -0.012980874 -99.486099
9209937500 -0.99243069 134.11398 -9.1614237 -72.393761 -9.1528931 -73.126884 -0.013496417 -99.497597
9210000000 -0.98981398 134.00636 -9.1441603 -72.402283 -9.1440868 -73.112312 -0.027023841 -99.374741
9210062500 -1.0025111 134.00542 -9.1507387 -72.393402 -9.1334658 -73.105415 -0.010475069 -99.4217
9210125000 -0.98752177 133.96597 -9.144455 -72.421555 -9.1373806 -73.073036 -0.011637097 -99.373253
9210187500 -0.99606007 134.00162 -9.1440554 -72.364395 -9.135354 -73.063484 -0.010277962 -99.352295
9210250000 -0.99618125 133.99777 -9.1464243 -72.41481 -9.1349249 -73.113655 -0.019242307 -99.364525
9210312500 -1.0000156 133.93359 -9.1506653 -72.345612 -9.1426954 -73.123466 -0.01936019 -99.377014
9210375000 -0.99130297 133.96693 -9.1472149 -72.347305 -9.1454258 -73.139893 -0.01260065 -99.294479
9210437500 -0.98960739 133.90051 -9.1533899 -72.395866 -9.133913 -73.157227 -0.012032563 -99.363739
9210500000 -0.99094355 133.88885 -9.1390047 -72.371841 -9.1221657 -73.122063 -0.00078733452 -99.294357
9210562500 -0.99838436 133.873 -9.1394758 -72.355019 -9.1290007 -73.108521 -0.0087184208 -99.252174
9210625000 -0.99473882 133.88158 -9.156105 -72.382484 -9.1422672 -72.961266 -0.021006005 -99.207443
9210687500 -0.99814421 133.87665 -9.1397657 -72.391342 -9.1290808 -73.126663 -0.017077046 -99.258698
9210750000 -0.9949019 133.87056 -9.1450138 -72.389702 -9.1284924 -73.136787 -0.013968837 -99.263123
9210812500 -1.0048469 133.81926 -9.1519842 -72.413147 -9.1321354 -73.017822 -0.02121705 -99.171158
9210875000 -0.99738401 133.8353 -9.1423826 -72.416473 -9.1241856 -73.065475 -0.011237321 -99.208038
9210937500 -0.99224472 133.87074 -9.1306086 -72.373299 -9.1304302 -73.046661 -0.01817962 -99.185295
9211000000 -0.9968645 133.82535 -9.143095 -72.358284 -9.1348553 -73.050293 -0.01186334 -99.180984
9211062500 -0.99360949 133.77579 -9.1397791 -72.341095 -9.1393881 -73.034302 -0.024980901 -99.140533
9211125000 -0.991822 133.75328 -9.141386 -72.433723 -9.1238451 -73.071602 -0.013369397 -99.121727
9211187500 -0.99556935 133.75322 -9.1310549 -72.348351 -9.1323643 -73.062439 -0.018267518 -99.096474
9211250000 -1.0042143 133.75569 -9.1292973 -72.415291 -9.1358576 -72.970634 -0.014217729 -99.055565
9211312500 -0.99502718 133.78838 -9.1360254 -72.375702 -9.1270046 -73.063896 -0.021194842 -99.066765
9211375000 -0.99607897 133.66905 -9.1325893 -72.336082 -9.1207151 -73.119194 -0.015541785 -99.040741
9211437500 -0.99336433 133.70351 -9.1237392 -72.352287 -9.1291866 -73.125717 -0.021974703 -99.035759
9211500000 -0.99780011 133.65184 -9.1308613 -72.410843 -9.1272402 -73.033997 -0.012879859 -99.041512
9211562500 -1.0032288 133.71509 -9.1393843 -72.36718 -9.1247139 -73.071198 -0.020525597 -99.008835
9211625000 -0.99827558 133.64157 -9.1210318 -72.382355 -9.1185141 -73.158058 -0.0034125983 -99.041779
9211687500 -1.0023309 133.66356 -9.1353264 -72.371056 -9.1279202 -73.008171 -0.022586079 -98.917274
9211750000 -1.0039828 133.59877 -9.1375809 -72.31031 -9.1200809 -73.041061 -0.01981752 -98.908371
9211812500 -0.99777424 133.61853 -9.1417084 -72.360046 -9.1325769 -73.048965 -0.035539482 -98.970764
9211875000 -0.99874353 133.63863 -9.1318645 -72.350639 -9.1141901 -73.033279 -0.013405096 -98.86911
9211937500 -0.99484795 133.62267 -9.1234112 -72.360893 -9.1222506 -73.022224 -0.018908823 -98.904549
9212000000 -0.99468482 133.50946 -9.1264391 -72.384438 -9.1103497 -73.098816 -0.021159779 -98.889755
9212062500 -0.99098516 133.52478 -9.12257 -72.333817 -9.1147528 -73.035027 -0.017006233 -98.818253
