!Agilent Technologies,N5242A,MY51221714,A.09.90.19
!Agilent N5242A: A.09.90.19
!Date: Tuesday, March 26, 2024 16:12:42
!Correction: S11(Full 2 Port(1,2)) 
!S21(Full 2 Port(1,2)) 
!S12(Full 2 Port(1,2)) 
!S22(Full 2 Port(1,2)) 
!S2P File: Measurements: S11, S21, S12, S22:
# Hz S  dB   R 50
9200000000 -0.98073649 136.99141 -9.2582378 -72.723 -9.2319565 -73.377762 0.019167414 -102.9248
9200062500 -0.99175107 137.04256 -9.2533407 -72.707932 -9.2337217 -73.347115 0.025105553 -102.87408
9200125000 -0.99029583 136.98436 -9.2520275 -72.651978 -9.2390175 -73.308731 0.011100644 -102.83939
9200187500 -0.99063426 137.06326 -9.2456646 -72.53009 -9.2422543 -73.356949 0.028910503 -102.79775
9200250000 -0.97807527 136.98607 -9.2334356 -72.625809 -9.23281 -73.365669 0.026506929 -102.88399
9200312500 -0.99213606 136.94591 -9.2441511 -72.62574 -9.2377453 -73.282539 0.020892592 -102.84435
9200375000 -0.98546624 136.92143 -9.2466545 -72.661942 -9.2352371 -73.469643 0.030595928 -102.82087
9200437500 -0.98420602 136.98965 -9.2387543 -72.557213 -9.2355251 -73.311218 0.029558204 -102.77637
9200500000 -0.99181741 136.93536 -9.2540359 -72.638145 -9.2431221 -73.25312 0.012910742 -102.71193
9200562500 -0.98196733 136.88483 -9.2404308 -72.610954 -9.2553673 -73.354103 0.019403791 -102.78417
9200625000 -0.9852351 136.97021 -9.244833 -72.494164 -9.2256546 -73.301262 0.016591776 -102.74187
9200687500 -0.98188996 136.93407 -9.2368212 -72.464272 -9.2413301 -73.266754 0.016635947 -102.68414
9200750000 -0.98800957 136.82713 -9.2419567 -72.621742 -9.2269974 -73.358505 0.024296112 -102.73138
9200812500 -1.000075 136.8831 -9.246419 -72.607162 -9.2318144 -73.307587 0.0066429768 -102.69138
9200875000 -0.98368067 136.93929 -9.2493219 -72.56398 -9.2357693 -73.226448 0.016225642 -102.72167
9200937500 -0.9843412 136.85837 -9.2456226 -72.57122 -9.2373486 -73.259544 0.029202167 -102.59451
9201000000 -0.98570305 136.80537 -9.2445002 -72.631096 -9.2313251 -73.234276 0.023064354 -102.61021
9201062500 -0.98106784 136.85695 -9.2222719 -72.501945 -9.2251825 -73.2743 0.015986944 -102.60915
9201125000 -0.98747861 136.83844 -9.2399521 -72.568169 -9.2355919 -73.286095 0.017224664 -102.61967
9201187500 -0.99511439 136.7428 -9.2359543 -72.59906 -9.2298126 -73.257782 0.012345559 -102.5006
9201250000 -0.98900813 136.81384 -9.235342 -72.555824 -9.2342243 -73.25901 0.014170364 -102.50533
9201312500 -0.99656624 136.77547 -9.2323904 -72.56765 -9.2321577 -73.295403 0.032091003 -102.57758
9201375000 -0.99210662 136.75377 -9.2343626 -72.552238 -9.236166 -73.212135 0.0086901551 -102.48843
9201437500 -0.98886985 136.74277 -9.2445745 -72.479309 -9.2323141 -73.290802 0.011101919 -102.54281
9201500000 -0.99224579 136.74329 -9.2383404 -72.55336 -9.2441282 -73.274445 0.0084335413 -102.51075
9201562500 -0.98833424 136.70026 -9.2401943 -72.551552 -9.2402725 -73.259048 0.00095775916 -102.47202
9201625000 -0.99047101 136.71631 -9.2344799 -72.518684 -9.2252235 -73.245903 0.0072582597 -102.38139
9201687500 -0.99108809 136.67522 -9.2348166 -72.50634 -9.2303019 -73.252991 0.011143051 -102.34825
9201750000 -0.99471271 136.6651 -9.2428875 -72.528778 -9.2181273 -73.218475 0.024839479 -102.34414
9201812500 -0.99086469 136.71541 -9.2297258 -72.52224 -9.2209587 -73.199821 0.012227805 -102.41883
9201875000 -0.98643267 136.62492 -9.2309875 -72.517197 -9.2221327 -73.267296 0.023798078 -102.32163
9201937500 -0.9988721 136.5849 -9.2410736 -72.479301 -9.218214 -73.230171 0.021332955 -102.31712
9202000000 -0.99180096 136.6544 -9.2274971 -72.519592 -9.2189121 -73.29657 0.012987081 -102.37941
9202062500 -0.99698359 136.6611 -9.2248154 -72.519188 -9.2163906 -73.272507 0.026293112 -102.32311
9202125000 -0.99734908 136.64488 -9.2443151 -72.554543 -9.2226114 -73.194695 0.010632537 -102.29455
9202187500 -0.984864 136.57817 -9.2358475 -72.549347 -9.2259531 -73.201401 0.020719405 -102.22913
9202250000 -0.99041849 136.55112 -9.2349873 -72.517113 -9.2257357 -73.207161 0.00057719712 -102.23904
9202312500 -0.98968697 136.59396 -9.2290449 -72.51532 -9.2184019 -73.268593 0.01416081 -102.27946
9202375000 -0.99137318 136.50156 -9.2369738 -72.531113 -9.2162743 -73.213966 0.005903386 -102.17811
9202437500 -0.99356532 136.57825 -9.2316828 -72.524254 -9.2162743 -73.308403 0.024264323 -102.28814
9202500000 -0.99267298 136.52916 -9.2266159 -72.543724 -9.2371626 -73.221565 0.0082976334 -102.23291
9202562500 -0.98321497 136.46677 -9.220211 -72.525185 -9.2208004 -73.211464 0.0013753726 -102.20091
9202625000 -0.99666166 136.52701 -9.2320538 -72.508583 -9.2062616 -73.243607 0.016437151 -102.16354
9202687500 -0.99204612 136.50327 -9.2262583 -72.503807 -9.2176809 -73.256538 0.017232135 -102.08162
9202750000 -0.98455656 136.44009 -9.2251873 -72.575493 -9.2238569 -73.289635 0.012964053 -102.14993
9202812500 -0.99382085 136.42815 -9.2172194 -72.504105 -9.2044611 -73.328239 0.021731447 -102.11413
9202875000 -0.98389977 136.40196 -9.2154999 -72.433731 -9.208478 -73.226158 0.020486942 -102.08464
9202937500 -0.98438311 136.44899 -9.2234383 -72.526939 -9.2147865 -73.166611 0.017307794 -102.05149
9203000000 -0.99044305 136.44974 -9.2227993 -72.5541 -9.2220745 -73.212372 0.0066218707 -102.03107
9203062500 -0.99028885 136.39342 -9.2161655 -72.512955 -9.2237577 -73.23558 0.0040410995 -102.09017
9203125000 -0.9849987 136.32298 -9.222085 -72.535385 -9.2121439 -73.245361 0.011845004 -102.02445
9203187500 -0.9919591 136.33401 -9.2328548 -72.484001 -9.2174549 -73.239372 0.0093652783 -102.02777
9203250000 -0.99152851 136.30913 -9.2209034 -72.505058 -9.2066097 -73.206978 0.018850913 -101.99948
9203312500 -0.99844927 136.35867 -9.2238979 -72.496254 -9.2149954 -73.285919 0.014728148 -102.00578
9203375000 -0.98813784 136.33881 -9.2099085 -72.45726 -9.2059364 -73.254013 0.015651375 -101.9213
9203437500 -0.99028552 136.36339 -9.2186956 -72.536011 -9.2137995 -73.290947 0.0087494776 -102.01904
9203500000 -0.99163532 136.29601 -9.218915 -72.527397 -9.2142267 -73.193993 0.014618489 -101.93659
9203562500 -1.0000383 136.30244 -9.2219963 -72.465668 -9.2202682 -73.278397 -0.000662137 -101.9564
9203625000 -0.99219495 136.29561 -9.222311 -72.539223 -9.2121973 -73.26506 0.0088628465 -102.00246
9203687500 -0.99386227 136.26379 -9.2239761 -72.493698 -9.2113638 -73.207481 0.0026086441 -101.86888
9203750000 -0.99061704 136.24959 -9.2209158 -72.518097 -9.2113638 -73.232162 0.018661166 -101.88925
9203812500 -0.9933449 136.2234 -9.2102585 -72.606583 -9.2031937 -73.25972 0.010840871 -101.84538
9203875000 -0.98419785 136.22121 -9.2128773 -72.52565 -9.211998 -73.226501 0.0012820568 -101.85851
9203937500 -0.99135345 136.23506 -9.2076263 -72.473045 -9.2078524 -73.213921 0.0076087271 -101.85914
9204000000 -0.9927448 136.19606 -9.2144279 -72.435326 -9.2070923 -73.202919 0.011961237 -101.76009
9204062500 -0.98633838 136.19635 -9.2157078 -72.491043 -9.1946859 -73.258453 0.0068136123 -101.77704
9204125000 -0.99563378 136.20515 -9.2178583 -72.481728 -9.2055826 -73.186417 0.0093298005 -101.70561
9204187500 -0.99400038 136.14157 -9.2051535 -72.458755 -9.2097578 -73.232872 0.0055433414 -101.77357
9204250000 -0.99862123 136.19638 -9.2102356 -72.463463 -9.202281 -73.195961 0.011029296 -101.73352
9204312500 -0.99087626 136.18204 -9.2075071 -72.382202 -9.2075701 -73.205086 0.0033031136 -101.62499
9204375000 -0.98597932 136.12453 -9.2087469 -72.456093 -9.2093945 -73.206306 0.0077168946 -101.75295
9204437500 -0.99665093 136.11766 -9.2067146 -72.563248 -9.2015715 -73.094078 0.012554374 -101.67139
9204500000 -1.0006106 136.10539 -9.2144127 -72.478561 -9.2021179 -73.192093 0.0042317361 -101.69678
9204562500 -0.99023449 136.07422 -9.2057772 -72.525917 -9.2011776 -73.214798 0.01489211 -101.65847
9204625000 -0.98195267 136.05989 -9.20086 -72.433884 -9.1921978 -73.265297 0.0098598059 -101.61527
9204687500 -0.99236137 136.03474 -9.2055283 -72.471321 -9.2032824 -73.181221 0.0077682459 -101.59035
9204750000 -0.99735785 136.0368 -9.2067566 -72.460014 -9.2073889 -73.189484 -0.00059503777 -101.59687
9204812500 -0.9863053 136.01137 -9.2078791 -72.424629 -9.2022371 -73.180061 0.007467981 -101.57559
9204875000 -0.98673236 136.0972 -9.2014408 -72.412025 -9.2103195 -73.200272 0.003976651 -101.61852
9204937500 -0.98757547 136.02467 -9.1970053 -72.521698 -9.1986866 -73.202072 0.0078421338 -101.54018
9205000000 -0.978212 135.98039 -9.2026758 -72.361786 -9.1967773 -73.154732 -0.0026844526 -101.49692
9205062500 -0.9988873 135.96277 -9.2071152 -72.473969 -9.1895008 -73.184303 0.0045210696 -101.49719
9205125000 -0.98764902 135.98799 -9.2029228 -72.404587 -9.199954 -73.139381 0.0042029098 -101.42455
9205187500 -0.99130911 135.97197 -9.2007818 -72.376175 -9.1997118 -73.172806 -0.0046400861 -101.4177
9205250000 -0.98857254 135.91714 -9.2113466 -72.503731 -9.2023935 -73.085236 -0.0037460986 -101.50378
9205312500 -0.99280155 135.98586 -9.2032042 -72.392967 -9.1963558 -73.107231 -0.002904918 -101.43229
9205375000 -0.98873174 135.87404 -9.1966753 -72.460625 -9.1999168 -73.186287 0.0044765957 -101.39274
9205437500 -0.98122185 135.92683 -9.1889791 -72.394539 -9.1880541 -73.134712 0.0053675077 -101.41233
9205500000 -0.99959326 135.83911 -9.1953745 -72.443237 -9.1851215 -73.199425 0.0084888283 -101.31534
9205562500 -0.99725932 135.89261 -9.1910229 -72.372955 -9.1915703 -73.220863 0.0023570098 -101.34166
9205625000 -0.99779165 135.86754 -9.1967316 -72.373772 -9.1929626 -73.178062 0.0033592533 -101.30399
9205687500 -0.98875934 135.86635 -9.1796284 -72.421432 -9.1851826 -73.174446 0.0083095757 -101.34519
9205750000 -0.99040139 135.83516 -9.1953192 -72.443382 -9.1903963 -73.120987 0.00096684811 -101.2505
9205812500 -0.99764609 135.76797 -9.188241 -72.418495 -9.2010365 -73.110977 0.0010853383 -101.18446
9205875000 -0.98587644 135.82379 -9.1932869 -72.39727 -9.2067394 -73.134102 0.00039172749 -101.29088
9205937500 -0.99415118 135.74977 -9.197648 -72.417595 -9.1801109 -73.097633 0.0013986254 -101.20107
9206000000 -0.99539292 135.74631 -9.184412 -72.377945 -9.192071 -73.126236 0.0026051444 -101.20669
9206062500 -0.99086463 135.76256 -9.1951618 -72.454781 -9.1896896 -73.178528 0.0017745382 -101.25793
9206125000 -0.99392974 135.75726 -9.1925077 -72.462585 -9.1775799 -73.167923 -0.00089777762 -101.1452
9206187500 -0.99219817 135.74748 -9.1839962 -72.442131 -9.1791019 -73.101189 0.012296956 -101.16627
9206250000 -0.99475527 135.68384 -9.2000484 -72.41777 -9.1841564 -73.069717 -0.0035085615 -101.15806
9206312500 -0.9905256 135.66179 -9.1915388 -72.387581 -9.1832314 -73.190399 0.0058020283 -101.1718
9206375000 -0.99481183 135.73697 -9.1827803 -72.388664 -9.1834679 -73.095398 -0.00011194329 -101.14051
9206437500 -0.99212199 135.68323 -9.1888618 -72.369301 -9.1755314 -73.163536 0.0027461706 -101.20434
9206500000 -0.99494332 135.66472 -9.1863432 -72.393623 -9.1785431 -73.073364 -0.0067126807 -101.08708
9206562500 -0.99535948 135.66151 -9.1926966 -72.499138 -9.1766872 -73.079544 0.0032991299 -101.1589
9206625000 -0.99978244 135.57726 -9.1780548 -72.503632 -9.1771564 -73.179642 0.010518049 -101.11391
9206687500 -0.9947688 135.63295 -9.1960754 -72.449921 -9.1790094 -73.160805 0.0012133108 -101.16166
9206750000 -0.99549884 135.61575 -9.1815166 -72.402161 -9.1757202 -73.089539 0.0048846109 -101.06895
9206812500 -0.98711509 135.62946 -9.1868982 -72.412849 -9.1835604 -73.125717 0.0036167759 -101.08279
9206875000 -0.99579436 135.59529 -9.1861467 -72.441017 -9.1749916 -73.075874 0.004601093 -100.93446
9206937500 -0.98895514 135.61456 -9.1751003 -72.409157 -9.1808348 -73.116066 0.001574208 -100.99074
9207000000 -0.99147737 135.55405 -9.1939392 -72.459999 -9.1832495 -73.181648 -0.0030781489 -101.01
9207062500 -0.99468094 135.58823 -9.186739 -72.390694 -9.1810093 -73.076378 -0.0093862619 -100.85311
9207125000 -0.99950236 135.49997 -9.168189 -72.436157 -9.1743793 -73.199196 -0.0036786313 -100.93288
9207187500 -0.98855239 135.47476 -9.1672249 -72.464973 -9.1827574 -73.094643 -0.0024639403 -100.95143
9207250000 -0.99045432 135.50056 -9.178359 -72.392181 -9.1849079 -73.11248 0.0032685194 -100.94965
9207312500 -0.98363906 135.48904 -9.1718025 -72.442307 -9.1757317 -73.129364 0.0044799079 -100.8989
9207375000 -1.0024524 135.44235 -9.1926117 -72.38929 -9.1689768 -73.144753 -0.0060542794 -100.84151
9207437500 -0.99003184 135.49045 -9.1826391 -72.429352 -9.1843386 -73.031586 -0.0022161824 -100.84779
9207500000 -1.0011165 135.49226 -9.1958103 -72.443451 -9.1660509 -73.028503 -0.0057029002 -100.82793
9207562500 -0.99381918 135.47577 -9.1839581 -72.40976 -9.1693964 -73.068718 -0.0072389594 -100.84292
9207625000 -0.99585611 135.37514 -9.1760273 -72.406387 -9.1753139 -73.075905 -0.0073383274 -100.75258
9207687500 -0.99399215 135.43829 -9.1627293 -72.41507 -9.1707039 -73.106667 0.0020405357 -100.82229
9207750000 -0.99451542 135.39442 -9.1787214 -72.385757 -9.162673 -73.117393 0.0074034338 -100.80691
9207812500 -0.992185 135.38957 -9.1790609 -72.413094 -9.1688986 -73.067703 -0.0051625702 -100.73491
9207875000 -0.99250174 135.42249 -9.1860218 -72.317696 -9.1573896 -73.106483 0.0048725619 -100.73056
9207937500 -1.0001432 135.31717 -9.1814709 -72.404045 -9.163228 -73.08931 -0.0032701066 -100.75451
9208000000 -1.0041699 135.32922 -9.1712513 -72.459969 -9.1626072 -73.035271 0.0019378137 -100.69935
9208062500 -0.99911892 135.35095 -9.1788893 -72.339661 -9.1667051 -73.084023 -0.0082855979 -100.69213
9208125000 -0.99637425 135.29402 -9.1774988 -72.407707 -9.1710281 -73.167564 -0.0033879373 -100.69894
9208187500 -0.9918521 135.32303 -9.1728458 -72.376274 -9.1685057 -73.05471 -0.0098818336 -100.61871
9208250000 -1.0023487 135.27998 -9.173625 -72.292747 -9.1656485 -73.133003 -0.005737728 -100.65902
9208312500 -0.99309546 135.30243 -9.1758852 -72.405411 -9.1533871 -73.10022 0.00085076643 -100.63903
9208375000 -1.006472 135.30267 -9.17348 -72.360764 -9.1596651 -73.086952 0.00047148752 -100.6031
9208437500 -0.99685711 135.19099 -9.1717405 -72.451736 -9.1660585 -72.96225 -0.0058570006 -100.55697
9208500000 -1.0031825 135.17976 -9.1745586 -72.421753 -9.1582518 -73.140495 -0.0075581758 -100.56757
9208562500 -0.99891192 135.25703 -9.1643677 -72.349419 -9.1678543 -73.06633 -0.0073892442 -100.54781
9208625000 -0.99352592 135.21062 -9.161869 -72.326637 -9.1606598 -73.015579 -0.0069802911 -100.53196
9208687500 -0.99067402 135.17914 -9.1612453 -72.355408 -9.1647882 -73.081703 -0.0073193172 -100.53193
9208750000 -0.99898249 135.19048 -9.1784496 -72.348511 -9.1557541 -73.040428 -0.0062602255 -100.47593
9208812500 -0.99579674 135.23309 -9.1652822 -72.304153 -9.1658964 -73.055756 -0.0084087495 -100.43695
9208875000 -0.99795443 135.13445 -9.1652403 -72.341354 -9.1698055 -72.969849 -0.0092610223 -100.39337
9208937500 -1.0012887 135.16393 -9.1627407 -72.376114 -9.1567135 -73.071503 -0.005890449 -100.42336
9209000000 -0.99827158 135.15552 -9.1759872 -72.373215 -9.1520901 -72.969627 -0.007861414 -100.43706
9209062500 -0.99892145 135.11482 -9.1653643 -72.314392 -9.1615877 -73.095139 -0.0080091292 -100.43967
9209125000 -0.99966699 135.1212 -9.1624012 -72.306442 -9.1549511 -73.067314 0.0030257048 -100.37041
9209187500 -0.99824625 135.11371 -9.157588 -72.332062 -9.1686392 -72.990791 -0.0093340958 -100.34312
9209250000 -0.99326837 135.03253 -9.1614742 -72.385002 -9.1471701 -73.117409 -0.0031957694 -100.31824
9209312500 -0.99611902 135.00565 -9.1537313 -72.355194 -9.1517563 -73.084198 -0.010137973 -100.3502
9209375000 -0.98889142 135.04099 -9.1595268 -72.354111 -9.1638279 -72.958099 -0.020078631 -100.30021
9209437500 -1.0064611 134.9879 -9.1733322 -72.329292 -9.1544371 -73.092072 -0.010000029 -100.2477
9209500000 -0.99608457 135.01764 -9.1555204 -72.409119 -9.1507931 -73.070145 -0.0053581921 -100.26246
9209562500 -1.0069244 135.02161 -9.1718969 -72.313354 -9.1664658 -73.025459 -0.018199444 -100.23956
9209625000 -1.0019971 134.94432 -9.1602745 -72.343819 -9.1480293 -73.092918 0.0015528119 -100.26801
9209687500 -1.0008272 134.93672 -9.1488523 -72.342285 -9.1503067 -72.979683 -0.0061898325 -100.20447
9209750000 -0.9933179 134.93933 -9.1413441 -72.421272 -9.1559143 -73.018135 0.0014123458 -100.17486
9209812500 -0.99732453 134.9744 -9.166708 -72.278015 -9.1534576 -73.019104 -0.015449121 -100.16663
9209875000 -0.99566287 134.92473 -9.15516 -72.259972 -9.1460142 -72.996315 -0.010788609 -100.15139
9209937500 -0.99460542 135.01874 -9.1634922 -72.319786 -9.1568336 -73.01757 -0.014404297 -100.2001
9210000000 -0.98734981 134.91606 -9.1527433 -72.288742 -9.1436701 -73.000771 -0.021665433 -100.10583
9210062500 -1.0028688 134.92424 -9.154995 -72.336784 -9.1472998 -73.067436 -0.010834048 -100.14751
9210125000 -0.99214816 134.85156 -9.154417 -72.378166 -9.1390772 -72.954559 -0.012626929 -100.0758
9210187500 -0.99733204 134.88062 -9.1565886 -72.362061 -9.1389246 -72.991051 -0.0086546103 -100.07246
9210250000 -1.0008155 134.90463 -9.1500549 -72.308365 -9.14291 -72.949799 -0.012612469 -100.06769
9210312500 -1.003289 134.87677 -9.1475487 -72.258575 -9.152194 -73.007782 -0.0089952014 -100.06095
9210375000 -0.99616259 134.92305 -9.1589975 -72.259583 -9.1447716 -73.00621 -0.013539694 -99.976044
9210437500 -0.98618972 134.79599 -9.1527653 -72.344872 -9.1486511 -73.038467 -0.0079924548 -100.05673
9210500000 -0.99383152 134.80429 -9.1423969 -72.315758 -9.1401949 -72.993919 -0.0049567451 -100.0305
9210562500 -0.99901903 134.79915 -9.1500578 -72.225235 -9.1450529 -73.028008 -0.0058808383 -100.00617
9210625000 -0.99576497 134.80338 -9.1566849 -72.287537 -9.1537895 -72.994446 -0.016326815 -100.05386
9210687500 -0.99213481 134.80667 -9.1519318 -72.327911 -9.1381369 -73.032455 -0.011674374 -99.9813
9210750000 -0.99392855 134.78348 -9.1446838 -72.321693 -9.1426477 -72.989891 -0.0098477779 -99.953423
9210812500 -0.99704427 134.71176 -9.1463966 -72.269363 -9.135994 -72.942429 -0.014639352 -99.897255
9210875000 -0.99788278 134.75162 -9.1539812 -72.288383 -9.1351099 -72.922546 -0.017981436 -99.928352
9210937500 -0.99590421 134.73615 -9.1464653 -72.298248 -9.1488428 -72.933914 -0.01820696 -99.913353
9211000000 -0.99345714 134.73431 -9.1427498 -72.269318 -9.1427021 -73.00087 -0.0048857774 -99.896309
9211062500 -0.99820697 134.72519 -9.1540318 -72.237732 -9.1412144 -72.98085 -0.021878066 -99.866348
9211125000 -0.99418145 134.68298 -9.152564 -72.275711 -9.1276484 -72.956314 -0.0038618566 -99.820518
9211187500 -1.0021764 134.716 -9.1431141 -72.264977 -9.1355906 -72.963585 -0.015030595 -99.789268
9211250000 -0.99687785 134.65657 -9.1387997 -72.287476 -9.1424341 -72.956924 -0.0062676948 -99.792725
9211312500 -0.99000645 134.67601 -9.1378613 -72.181946 -9.1334152 -72.936348 -0.012883876 -99.724091
9211375000 -0.98869061 134.56689 -9.1336155 -72.336166 -9.1393147 -72.992409 -0.01917769 -99.755592
9211437500 -0.99435681 134.63274 -9.1404524 -72.249207 -9.1350203 -73.023232 -0.01065067 -99.735764
9211500000 -0.99935246 134.59166 -9.1515999 -72.290184 -9.1331778 -72.976418 -0.0081395712 -99.749886
9211562500 -1.0008312 134.64365 -9.1550894 -72.264778 -9.1347122 -72.986702 -0.020696122 -99.698982
9211625000 -0.99615288 134.5788 -9.1318941 -72.35173 -9.1212702 -73.002136 -0.0072338548 -99.728256
9211687500 -0.99821669 134.57838 -9.1399364 -72.246651 -9.1344433 -73.030449 -0.02562256 -99.667732
9211750000 -1.0007457 134.54756 -9.1326599 -72.262703 -9.1191111 -72.952782 0.00010173379 -99.616737
9211812500 -0.99569404 134.52263 -9.1454124 -72.277206 -9.1345978 -72.946587 -0.029093899 -99.623886
9211875000 -1.0026486 134.50269 -9.136302 -72.271606 -9.1275854 -72.889145 -0.012553031 -99.53759
9211937500 -0.99617547 134.51541 -9.1394701 -72.300842 -9.1385021 -72.96225 -0.027084552 -99.627846
9212000000 -0.99407601 134.42148 -9.1293612 -72.294136 -9.1214342 -72.938995 -0.019495592 -99.580086
9212062500 -0.99567479 134.46503 -9.1394892 -72.201309 -9.1321678 -72.976265 -0.021265626 -99.57502
