!Agilent Technologies,N5242A,MY51221714,A.09.90.19
!Agilent N5242A: A.09.90.19
!Date: Tuesday, March 26, 2024 16:13:47
!Correction: S11(Full 2 Port(1,2)) 
!S21(Full 2 Port(1,2)) 
!S12(Full 2 Port(1,2)) 
!S22(Full 2 Port(1,2)) 
!S2P File: Measurements: S11, S21, S12, S22:
# Hz S  dB   R 50
9200000000 -1.0070533 137.03157 -9.2273417 -73.188095 -9.2095432 -73.97271 -0.0013149891 -103.64046
9200062500 -1.0068636 137.04666 -9.2225151 -73.179161 -9.2115679 -73.920593 0.0091577927 -103.56743
9200125000 -0.99498314 137.01929 -9.2121935 -73.19722 -9.2137165 -73.898758 -0.0060449778 -103.53452
9200187500 -1.0058221 137.01935 -9.2200546 -73.177704 -9.2071218 -73.908997 0.013875464 -103.52209
9200250000 -0.9952842 136.97711 -9.209733 -73.101585 -9.2211838 -73.865608 -0.0014734269 -103.51746
9200312500 -1.002422 136.96671 -9.2232637 -73.123642 -9.2142191 -73.849251 7.1988536e-005 -103.50494
9200375000 -1.0002087 136.96198 -9.2102633 -73.110786 -9.2157707 -73.992165 0.0012135921 -103.4641
9200437500 -1.005354 136.94798 -9.2119989 -73.144081 -9.2064362 -73.924965 0.0074819201 -103.45364
9200500000 -1.0037696 136.93486 -9.2207212 -73.119232 -9.2066031 -73.769325 0.0011394807 -103.40978
9200562500 -1.0021284 136.89775 -9.2126474 -73.094673 -9.2133408 -73.872787 0.0047212858 -103.46146
9200625000 -1.0029125 136.88744 -9.2119684 -73.185951 -9.2047443 -73.868576 -0.0025061395 -103.42312
9200687500 -0.99886966 136.91638 -9.2141991 -73.031624 -9.209857 -73.881195 0.0074081365 -103.36833
9200750000 -0.99685735 136.83557 -9.2088251 -73.139595 -9.2154016 -73.840729 -0.0030430052 -103.38186
9200812500 -1.01833 136.85272 -9.2295008 -73.117752 -9.2130556 -73.834206 -0.019538488 -103.34766
9200875000 -1.0022328 136.95453 -9.2092705 -73.107323 -9.2115431 -73.811996 -0.002900169 -103.35551
9200937500 -1.0002247 136.8551 -9.2163572 -73.117294 -9.2122202 -73.837555 0.0028097914 -103.27126
9201000000 -1.0009515 136.82315 -9.2114 -73.157623 -9.2054634 -73.828247 0.0059356545 -103.30814
9201062500 -1.0051854 136.84375 -9.2087841 -73.085686 -9.1949434 -73.888542 0.0019821266 -103.29689
9201125000 -1.0028925 136.78925 -9.2061815 -73.170059 -9.2108154 -73.832382 -0.0025570681 -103.24879
9201187500 -1.0076262 136.76189 -9.2045212 -73.102959 -9.2051268 -73.846512 -0.010289757 -103.17126
9201250000 -1.0107025 136.77435 -9.1998501 -73.119781 -9.2036829 -73.809944 5.3401694e-005 -103.20311
9201312500 -1.0158712 136.73318 -9.2124777 -73.068367 -9.2021036 -73.852646 0.00087752723 -103.22781
9201375000 -1.0081589 136.72144 -9.2074251 -73.060616 -9.2112169 -73.808098 -0.01030627 -103.133
9201437500 -1.0015019 136.73317 -9.2189484 -73.101204 -9.2090139 -73.762413 -0.010627151 -103.1958
9201500000 -1.006232 136.73439 -9.2013998 -73.145348 -9.2104397 -73.802338 -0.0091929631 -103.1852
9201562500 -1.0067767 136.72113 -9.2127285 -73.117477 -9.2128305 -73.82515 -0.015634609 -103.20964
9201625000 -1.0016077 136.71994 -9.2078695 -73.01162 -9.1933813 -73.761871 -0.007799706 -103.08999
9201687500 -1.0107759 136.66043 -9.2002592 -73.04879 -9.1994257 -73.762039 -0.0082701351 -103.02225
9201750000 -1.0082773 136.66107 -9.2126637 -73.105202 -9.1884222 -73.806114 0.00082081597 -103.08641
9201812500 -0.99797666 136.65527 -9.1941338 -73.07988 -9.1950722 -73.791603 -0.010805385 -103.09406
9201875000 -1.0080552 136.64056 -9.2025909 -73.160225 -9.2027283 -73.824745 -0.00065342849 -102.9957
9201937500 -1.0179549 136.5806 -9.2121096 -73.044579 -9.1991262 -73.842392 -0.002714609 -103.05279
9202000000 -1.0086092 136.62025 -9.2020206 -73.102203 -9.2012005 -73.824226 -0.0019109137 -103.00027
9202062500 -1.0141975 136.62393 -9.1881323 -73.123077 -9.1874418 -73.87677 0.0054233395 -103.03377
9202125000 -1.0076704 136.63263 -9.2142143 -73.068626 -9.1867571 -73.732605 -0.0083926572 -102.9575
9202187500 -1.0088702 136.58942 -9.203619 -73.126358 -9.2090673 -73.735397 -0.0072599724 -102.91399
9202250000 -1.0082365 136.54688 -9.2055264 -73.070854 -9.1870098 -73.735428 -0.0098182857 -102.91273
9202312500 -1.0103058 136.54904 -9.2082338 -73.056046 -9.1863041 -73.806503 -0.006932816 -102.91617
9202375000 -1.0045699 136.50882 -9.2013197 -73.027969 -9.1997242 -73.766991 -0.011105187 -102.82699
9202437500 -1.0064306 136.53842 -9.2067413 -73.101456 -9.1897402 -73.772072 -0.0031900075 -102.91534
9202500000 -1.0189067 136.51276 -9.212039 -73.096405 -9.2100973 -73.750046 -0.0096590146 -102.88604
9202562500 -0.99636257 136.46733 -9.1992359 -73.068748 -9.2007542 -73.719749 -0.018250607 -102.85936
9202625000 -1.0067676 136.54933 -9.1897497 -73.073143 -9.1933918 -73.830421 -0.014352054 -102.85715
9202687500 -1.0056627 136.49933 -9.191638 -73.084389 -9.1857004 -73.781097 -0.0044309804 -102.781
9202750000 -1.0003291 136.43552 -9.1881294 -73.01619 -9.1891146 -73.814926 -0.0041251741 -102.85144
9202812500 -1.0097452 136.43294 -9.1957874 -73.040039 -9.1794739 -73.766273 0.00025017452 -102.79131
9202875000 -1.0081456 136.45514 -9.1832876 -73.014885 -9.1902723 -73.766754 -0.0061387797 -102.76801
9202937500 -1.0011055 136.41354 -9.191184 -73.061913 -9.1859608 -73.76413 -0.0060812775 -102.76188
9203000000 -1.0111114 136.47041 -9.1951962 -72.986877 -9.1895647 -73.829002 -0.0090501457 -102.69272
9203062500 -1.0081567 136.39694 -9.1907864 -73.026718 -9.1850529 -73.748177 -0.013090894 -102.75484
9203125000 -1.0044132 136.3723 -9.1881657 -73.098801 -9.1831064 -73.78746 -0.004561902 -102.73788
9203187500 -1.0016814 136.35675 -9.1909761 -73.016212 -9.1845236 -73.829758 -0.009436558 -102.73265
9203250000 -1.0091273 136.33586 -9.1889629 -73.071144 -9.1808481 -73.741478 -0.0018637194 -102.64766
9203312500 -1.0092076 136.33943 -9.1869297 -73.068733 -9.1813364 -73.794861 -0.0033931436 -102.66267
9203375000 -1.0098064 136.34225 -9.1964111 -73.026718 -9.1836891 -73.761192 -0.0026917416 -102.63522
9203437500 -1.0153747 136.35094 -9.1996222 -73.074883 -9.1823149 -73.739311 -0.0094059184 -102.6341
9203500000 -1.0045733 136.29611 -9.1800241 -73.071533 -9.1871595 -73.791473 -0.005532918 -102.62016
9203562500 -1.0139842 136.3083 -9.1971588 -73.074272 -9.1955976 -73.735298 -0.020721769 -102.63488
9203625000 -1.0071955 136.27338 -9.1892281 -73.128319 -9.1874523 -73.771973 -0.014504631 -102.63613
9203687500 -1.0166465 136.24225 -9.1992035 -73.079994 -9.1923742 -73.763351 -0.012984193 -102.54949
9203750000 -1.0081508 136.25568 -9.1787977 -73.036972 -9.182724 -73.714005 0.0013752728 -102.49368
9203812500 -1.0085919 136.24077 -9.1823378 -73.041496 -9.1825905 -73.736908 -0.0092252782 -102.5079
9203875000 -1.0039197 136.24615 -9.182415 -73.027985 -9.1842041 -73.77404 -0.031099876 -102.50657
9203937500 -1.0140142 136.17993 -9.1808729 -73.075272 -9.1831017 -73.700951 -0.0095851198 -102.4634
9204000000 -1.0088794 136.23526 -9.1792698 -72.959366 -9.1844692 -73.709686 -0.010864266 -102.42503
9204062500 -0.99882352 136.20576 -9.1714725 -72.99366 -9.1737652 -73.758698 -0.01280736 -102.46664
9204125000 -1.0158248 136.17349 -9.191493 -72.983826 -9.1724148 -73.679054 -0.0019077177 -102.41825
9204187500 -1.0132295 136.14107 -9.183713 -73.022926 -9.1929331 -73.793343 -0.024695423 -102.43902
9204250000 -1.0085778 136.17401 -9.1665049 -72.993721 -9.168478 -73.757172 -0.010320133 -102.42358
9204312500 -1.0085977 136.15944 -9.1752968 -72.972565 -9.1783667 -73.806686 -0.015195708 -102.35062
9204375000 -0.99945009 136.1272 -9.1845388 -73.001503 -9.1785307 -73.689468 -0.017207395 -102.39533
9204437500 -1.0206102 136.15379 -9.1818066 -73.054581 -9.1764154 -73.700844 -0.0095322458 -102.36075
9204500000 -1.0127071 136.09557 -9.1721659 -73.085106 -9.1874218 -73.810341 -0.013426076 -102.35277
9204562500 -1.0078983 136.09077 -9.1716881 -73.063248 -9.1774101 -73.756706 -0.011954201 -102.36709
9204625000 -1.0026114 136.04704 -9.1776104 -72.948181 -9.1611929 -73.729454 -0.003689701 -102.25433
9204687500 -1.00761 136.04659 -9.1761818 -72.970749 -9.1631975 -73.672333 -0.00094969122 -102.20699
9204750000 -1.0205135 136.02216 -9.1777592 -72.975021 -9.172122 -73.699181 -0.017685844 -102.27586
9204812500 -1.0050962 136.02464 -9.1749163 -72.96051 -9.1753111 -73.735924 -0.01093769 -102.27577
9204875000 -1.0089227 136.06758 -9.1793795 -73.005211 -9.1838388 -73.735817 -0.017355679 -102.27534
9204937500 -1.0079578 135.97449 -9.1703424 -73.077789 -9.1719046 -73.774338 -0.0036770543 -102.25541
9205000000 -1.001157 135.95155 -9.1720219 -72.977699 -9.164978 -73.735153 -0.021129956 -102.23415
9205062500 -1.0081184 135.95049 -9.1722984 -73.01918 -9.1523924 -73.738922 -0.012745911 -102.18799
9205125000 -1.0087712 135.98242 -9.1756153 -72.983185 -9.1625843 -73.686562 -0.015018506 -102.10489
9205187500 -1.014227 135.96808 -9.1812696 -72.888374 -9.1695223 -73.68895 -0.018049898 -102.13981
9205250000 -1.0106013 135.92676 -9.1731033 -73.082687 -9.1696749 -73.720047 -0.021829361 -102.21848
9205312500 -1.0125329 135.98534 -9.1628819 -72.917953 -9.1649923 -73.686188 -0.018043065 -102.14319
9205375000 -1.0125242 135.89034 -9.1605692 -73.005745 -9.164341 -73.714371 -0.0079645785 -102.10513
9205437500 -1.0035098 135.91266 -9.1664839 -72.951881 -9.1650991 -73.678009 -0.016401291 -102.11225
9205500000 -1.0171109 135.83237 -9.1657486 -72.961731 -9.156889 -73.695435 -0.003325548 -101.94012
9205562500 -1.0130075 135.85915 -9.1628885 -72.985291 -9.1610651 -73.738289 -0.011809131 -102.05033
9205625000 -1.0207002 135.86958 -9.1803827 -72.934486 -9.1621132 -73.752419 -0.019063003 -101.98322
9205687500 -1.0039229 135.87682 -9.171052 -72.962608 -9.160388 -73.765724 -0.021724738 -102.01559
9205750000 -1.0090828 135.82664 -9.1586275 -72.946342 -9.1716728 -73.755424 -0.014005459 -101.99626
9205812500 -1.015076 135.77675 -9.1702719 -73.021347 -9.1592665 -73.731445 -0.011092002 -101.96217
9205875000 -1.0070477 135.82771 -9.1713676 -72.91526 -9.1698666 -73.669579 -0.024953721 -101.97969
9205937500 -1.0079141 135.73705 -9.1628323 -72.992065 -9.161972 -73.650803 -0.021833621 -101.90555
9206000000 -1.0132838 135.76599 -9.1578312 -72.982231 -9.1714687 -73.651077 -0.021141775 -101.88442
9206062500 -1.0115268 135.79117 -9.1734524 -73.026352 -9.1552973 -73.605865 -0.020461319 -101.89227
9206125000 -1.0075341 135.72708 -9.1568069 -73.036018 -9.1536131 -73.66082 -0.017342528 -101.86951
9206187500 -1.0082254 135.70357 -9.1621571 -73.036156 -9.1481676 -73.671303 -0.0063624191 -101.86234
9206250000 -1.0110707 135.68228 -9.1656046 -72.996956 -9.1636286 -73.601791 -0.021758134 -101.83583
9206312500 -1.0076402 135.65109 -9.1595402 -72.9767 -9.154768 -73.782845 -0.014898171 -101.89327
9206375000 -1.0053004 135.67865 -9.1544313 -72.96167 -9.1597767 -73.615189 -0.0071298187 -101.85323
9206437500 -1.0080559 135.69853 -9.1587496 -72.967995 -9.1593895 -73.665474 -0.025288824 -101.82806
9206500000 -1.0135697 135.65678 -9.1614027 -72.99482 -9.1499729 -73.649879 -0.022729363 -101.80745
9206562500 -1.0128235 135.63484 -9.1655111 -73.029938 -9.1508904 -73.636696 -0.017180873 -101.8401
9206625000 -1.0147902 135.57756 -9.1477194 -72.949585 -9.150177 -73.738861 -0.012423865 -101.78404
9206687500 -1.0125973 135.62936 -9.1639566 -72.982079 -9.1469688 -73.71125 -0.0097630145 -101.79314
9206750000 -1.0073133 135.61028 -9.1498413 -72.933891 -9.1501112 -73.591438 -0.023895804 -101.71785
9206812500 -1.0080513 135.60387 -9.1599932 -72.910606 -9.1465492 -73.662628 -0.0091543961 -101.71274
9206875000 -1.0124694 135.56618 -9.1570082 -72.99894 -9.1581888 -73.561707 -0.018195547 -101.61049
9206937500 -1.0132949 135.56953 -9.1530638 -72.939598 -9.1567764 -73.657959 -0.020524358 -101.70547
9207000000 -1.0072068 135.54886 -9.1661968 -73.002632 -9.1510715 -73.644699 -0.01962461 -101.61342
9207062500 -1.0132021 135.54605 -9.1574097 -72.905701 -9.1422806 -73.61499 -0.016728751 -101.55591
9207125000 -1.0194517 135.53799 -9.1514282 -72.950439 -9.1480207 -73.718262 -0.022522599 -101.61873
9207187500 -1.0129311 135.48599 -9.1447001 -72.998611 -9.1490412 -73.649307 -0.017367749 -101.64047
9207250000 -1.0004793 135.50475 -9.1390009 -72.955757 -9.1530743 -73.61364 -0.015557426 -101.61586
9207312500 -1.0028896 135.4848 -9.1402254 -72.942795 -9.1470947 -73.574211 -0.012783919 -101.5652
9207375000 -1.018407 135.42706 -9.1531382 -72.947388 -9.1401711 -73.65609 -0.017315684 -101.53478
9207437500 -1.0064363 135.48679 -9.1502295 -72.950417 -9.1629038 -73.563133 -0.025795348 -101.53197
9207500000 -1.0170499 135.52684 -9.162714 -72.89225 -9.1419878 -73.609886 -0.028721701 -101.50695
9207562500 -1.0054461 135.47589 -9.1460304 -72.945244 -9.1401911 -73.616165 -0.024395745 -101.51867
9207625000 -1.009757 135.39023 -9.1538153 -72.893356 -9.1438494 -73.666786 -0.020805512 -101.43145
9207687500 -1.0135487 135.40681 -9.1438684 -72.981735 -9.142458 -73.646095 -0.019645352 -101.45683
9207750000 -1.0176858 135.40846 -9.146925 -72.920593 -9.1374445 -73.597084 -0.013081987 -101.47324
9207812500 -1.0116976 135.39317 -9.1472883 -72.917603 -9.1351557 -73.576576 -0.01973768 -101.45277
9207875000 -1.0136429 135.40408 -9.1650124 -72.852539 -9.1405869 -73.649551 -0.020134609 -101.45254
9207937500 -1.0132408 135.32155 -9.1492376 -72.898529 -9.1449137 -73.734528 -0.027924087 -101.50146
9208000000 -1.0149441 135.3643 -9.1427193 -72.953484 -9.1471968 -73.560425 -0.027201353 -101.38599
9208062500 -1.0155767 135.35275 -9.1427431 -72.927948 -9.1434441 -73.684013 -0.026369644 -101.41108
9208125000 -1.0151286 135.32814 -9.1442757 -72.955055 -9.1391277 -73.632782 -0.023566635 -101.33801
9208187500 -1.0102577 135.32668 -9.1519709 -72.871323 -9.1394701 -73.621429 -0.027570426 -101.3209
9208250000 -1.0186467 135.28975 -9.1409369 -72.843353 -9.1362867 -73.657448 -0.021846382 -101.30208
9208312500 -1.0090652 135.30142 -9.1541986 -72.844833 -9.1313705 -73.610886 -0.027510226 -101.33714
9208375000 -1.0190679 135.27022 -9.1516409 -72.927498 -9.1434355 -73.58371 -0.029679229 -101.19823
9208437500 -1.0181458 135.18393 -9.1454229 -72.907196 -9.1427536 -73.493774 -0.035870887 -101.2081
9208500000 -1.0154949 135.21147 -9.1463013 -72.914352 -9.1276989 -73.607132 -0.018962564 -101.2701
9208562500 -1.0166153 135.23155 -9.1305809 -72.907478 -9.1423922 -73.559448 -0.027207838 -101.21575
9208625000 -1.0112156 135.19321 -9.132679 -72.871643 -9.128252 -73.577301 -0.034089863 -101.25213
9208687500 -1.0031018 135.19099 -9.1377792 -72.913483 -9.1323166 -73.563553 -0.024418652 -101.1767
9208750000 -1.011032 135.21635 -9.1346264 -72.924515 -9.1257572 -73.526619 -0.021636074 -101.1441
9208812500 -1.0186181 135.2374 -9.1358929 -72.908424 -9.1299438 -73.583374 -0.018970445 -101.14895
9208875000 -1.0118301 135.11032 -9.1269398 -72.965912 -9.1348505 -73.563736 -0.020644156 -101.08846
9208937500 -1.0177448 135.14214 -9.1369019 -72.881874 -9.1314154 -73.581093 -0.024256669 -101.12388
9209000000 -1.0097492 135.11261 -9.1452389 -72.916603 -9.1156368 -73.548058 -0.026974687 -101.12368
9209062500 -1.018523 135.09567 -9.133214 -72.894081 -9.1348915 -73.565338 -0.026637258 -101.12109
9209125000 -1.0174309 135.09084 -9.1270418 -72.913544 -9.1238956 -73.604424 -0.015728708 -100.99957
9209187500 -1.0148221 135.11163 -9.137392 -72.866409 -9.1386356 -73.562042 -0.026677927 -101.05637
9209250000 -1.0091004 135.04492 -9.1341715 -72.928871 -9.132185 -73.628387 -0.028009923 -100.98683
9209312500 -1.0130616 135.00246 -9.13591 -72.872482 -9.1300831 -73.6064 -0.036992084 -101.03671
9209375000 -1.0069314 135.06906 -9.1308813 -72.921532 -9.1319294 -73.59832 -0.034571867 -101.04421
9209437500 -1.0229101 134.99551 -9.1370687 -72.894524 -9.1267824 -73.658875 -0.029880198 -100.9953
9209500000 -1.0163049 135.01297 -9.1287317 -72.896042 -9.1304455 -73.605858 -0.02588594 -100.946
9209562500 -1.0181674 135.00986 -9.1380358 -72.840195 -9.1341095 -73.582657 -0.037181865 -100.90206
9209625000 -1.0182295 134.96336 -9.124486 -72.896271 -9.1194229 -73.567749 -0.022020034 -100.89556
9209687500 -1.0128576 134.92253 -9.1279898 -72.888687 -9.1247597 -73.541992 -0.024695415 -100.87933
9209750000 -1.0114092 134.9243 -9.1175156 -73.022072 -9.1270447 -73.552696 -0.017980969 -100.90859
9209812500 -1.0104491 134.94115 -9.1278458 -72.873672 -9.1276245 -73.574036 -0.0278854 -100.86662
9209875000 -1.0124249 134.9364 -9.124382 -72.914589 -9.1210403 -73.598862 -0.026815809 -100.87153
9209937500 -1.0133432 134.987 -9.1350403 -72.886749 -9.1328402 -73.55761 -0.033590585 -100.89458
9210000000 -1.0082204 134.9567 -9.1237383 -72.769928 -9.1225176 -73.469788 -0.042789567 -100.74529
9210062500 -1.0172679 134.91284 -9.1252842 -72.907227 -9.1141787 -73.546394 -0.033201907 -100.82153
9210125000 -1.0102842 134.86362 -9.1364937 -72.917542 -9.1168432 -73.556999 -0.034643393 -100.81487
9210187500 -1.0132302 134.88397 -9.1190681 -72.885376 -9.1162767 -73.591461 -0.030671814 -100.79648
9210250000 -1.0101968 134.90953 -9.1191149 -72.8442 -9.1197529 -73.494095 -0.034889113 -100.76363
9210312500 -1.0153444 134.85278 -9.1160336 -72.846817 -9.1275616 -73.564148 -0.035290234 -100.76719
9210375000 -1.0112733 134.88179 -9.1205511 -72.82502 -9.1202087 -73.545593 -0.027685201 -100.6592
9210437500 -1.0095971 134.7961 -9.1235209 -72.884354 -9.1075706 -73.58358 -0.020789126 -100.72465
9210500000 -1.0124937 134.8152 -9.119421 -72.869537 -9.1211891 -73.563026 -0.026316976 -100.69574
9210562500 -1.0230873 134.80057 -9.1257572 -72.859985 -9.112895 -73.550995 -0.029543923 -100.63567
9210625000 -1.0077126 134.78473 -9.1249132 -72.869499 -9.1255732 -73.491196 -0.033495102 -100.75215
9210687500 -1.0140139 134.80026 -9.1197309 -72.83622 -9.1150532 -73.529686 -0.03306213 -100.64699
9210750000 -1.0186253 134.7439 -9.1234341 -72.89167 -9.1096382 -73.504448 -0.034419253 -100.62688
9210812500 -1.0148792 134.7144 -9.1085835 -72.820953 -9.1054058 -73.484985 -0.031052774 -100.56623
9210875000 -1.0177625 134.70706 -9.1229048 -72.84407 -9.1073103 -73.481529 -0.035591248 -100.59299
9210937500 -1.0121107 134.76616 -9.1126165 -72.751953 -9.1071434 -73.50367 -0.03588447 -100.57805
9211000000 -1.0150894 134.72992 -9.1250324 -72.791504 -9.1168299 -73.555397 -0.025362242 -100.63108
9211062500 -1.0092478 134.70535 -9.1158819 -72.741295 -9.1181097 -73.515671 -0.043248035 -100.57582
9211125000 -1.0111356 134.66603 -9.1136332 -72.810646 -9.1029835 -73.520493 -0.027221484 -100.48749
9211187500 -1.0238513 134.65433 -9.1169939 -72.850662 -9.0968504 -73.495598 -0.029570332 -100.52181
9211250000 -1.0197644 134.67824 -9.1062136 -72.842804 -9.106185 -73.432816 -0.025397452 -100.45556
9211312500 -1.0154018 134.64281 -9.1160479 -72.851288 -9.1084156 -73.470985 -0.036746953 -100.43973
9211375000 -1.0158141 134.54887 -9.1103411 -72.80616 -9.1077023 -73.517578 -0.03862901 -100.42155
9211437500 -1.0094171 134.57741 -9.0953398 -72.801414 -9.1084061 -73.537407 -0.037952479 -100.38351
9211500000 -1.0174103 134.59175 -9.1128883 -72.78244 -9.107049 -73.513954 -0.033240244 -100.46227
9211562500 -1.0169493 134.59673 -9.1136971 -72.822075 -9.1049433 -73.452995 -0.041396163 -100.41173
9211625000 -1.0193805 134.53018 -9.1044521 -72.899521 -9.0995617 -73.556297 -0.030704793 -100.45027
9211687500 -1.0220782 134.5992 -9.1188478 -72.835342 -9.099328 -73.562317 -0.03806413 -100.35442
9211750000 -1.0221837 134.4957 -9.1126747 -72.859352 -9.0986061 -73.502869 -0.022396704 -100.31962
9211812500 -1.0210943 134.51576 -9.1242619 -72.834953 -9.0963058 -73.482216 -0.04057562 -100.35405
9211875000 -1.0242686 134.49855 -9.1161594 -72.828728 -9.0955572 -73.397324 -0.034912888 -100.20203
9211937500 -1.0152534 134.54492 -9.0982313 -72.743736 -9.1040287 -73.515999 -0.044658214 -100.3078
9212000000 -1.0152323 134.41719 -9.1046276 -72.747704 -9.0943899 -73.491539 -0.031214826 -100.27298
9212062500 -1.010779 134.43889 -9.1113539 -72.797905 -9.0990362 -73.435066 -0.045325141 -100.25502
9212125000 -1.0159264 134.39381 -9.0982218 -72.862427 -9.1098003 -73.438713 -0.040328309 -100.2062
9212187500 -1.0042555 134.42734 -9.0950975 -72.716858 -9.0873051 -73.471191 -0.038585886 -100.19267
