!Agilent Technologies,N5242A,MY51221714,A.09.90.19
!Agilent N5242A: A.09.90.19
!Date: Tuesday, March 26, 2024 16:14:53
!Correction: S11(Full 2 Port(1,2)) 
!S21(Full 2 Port(1,2)) 
!S12(Full 2 Port(1,2)) 
!S22(Full 2 Port(1,2)) 
!S2P File: Measurements: S11, S21, S12, S22:
# Hz S  dB   R 50
9200000000 -1.1151787 135.85822 -9.1207991 -74.39444 -9.116971 -75.152405 -0.059682019 -103.64382
9200062500 -1.1163493 135.86592 -9.1162519 -74.445229 -9.1132183 -75.092163 -0.052992627 -103.55089
9200125000 -1.1158106 135.8485 -9.115387 -74.351212 -9.0974922 -75.104485 -0.05760869 -103.56727
9200187500 -1.1200544 135.89522 -9.1173105 -74.357887 -9.1210909 -75.165123 -0.050347995 -103.55317
9200250000 -1.1096519 135.81166 -9.1129084 -74.34037 -9.101758 -75.005157 -0.049020149 -103.5407
9200312500 -1.1250664 135.86392 -9.1175594 -74.334091 -9.1040058 -75.065018 -0.053603124 -103.49347
9200375000 -1.1192473 135.76936 -9.1290751 -74.378738 -9.0993605 -75.146194 -0.046609409 -103.50377
9200437500 -1.1136285 135.82216 -9.1165295 -74.335571 -9.1116743 -75.110901 -0.052675419 -103.47669
9200500000 -1.1174064 135.76234 -9.123414 -74.408127 -9.1106949 -75.071365 -0.065002553 -103.4803
9200562500 -1.1197444 135.75998 -9.1125803 -74.334396 -9.1130619 -75.113899 -0.049119636 -103.54436
9200625000 -1.1213343 135.7388 -9.1181431 -74.362488 -9.0980682 -75.056351 -0.050592024 -103.41468
9200687500 -1.1046542 135.75134 -9.1053953 -74.316566 -9.1102667 -75.077278 -0.055970121 -103.39342
9200750000 -1.1191937 135.69067 -9.1206474 -74.405327 -9.103653 -75.062607 -0.056954525 -103.43799
9200812500 -1.130533 135.73907 -9.115099 -74.371803 -9.097928 -75.094543 -0.064018242 -103.42715
9200875000 -1.1135985 135.77126 -9.1179438 -74.330627 -9.1250057 -75.082108 -0.067632504 -103.38944
9200937500 -1.1180888 135.72255 -9.1191034 -74.382614 -9.1028948 -75.07003 -0.052962035 -103.38735
9201000000 -1.1177143 135.66481 -9.117095 -74.438484 -9.1028681 -75.106606 -0.053744469 -103.36731
9201062500 -1.1157697 135.66069 -9.1027679 -74.315247 -9.1056871 -75.098969 -0.056769472 -103.31834
9201125000 -1.1180408 135.6581 -9.1068439 -74.33033 -9.1134157 -75.048714 -0.062706277 -103.29826
9201187500 -1.1218859 135.57123 -9.10602 -74.307526 -9.0972443 -75.084259 -0.056774843 -103.19511
9201250000 -1.1196884 135.65776 -9.1000919 -74.295753 -9.1056032 -75.028259 -0.05712105 -103.26244
9201312500 -1.1278478 135.60921 -9.1056795 -74.356544 -9.1047449 -75.121635 -0.051500089 -103.26199
9201375000 -1.1283147 135.59158 -9.1198015 -74.297005 -9.108264 -74.949913 -0.069529004 -103.17438
9201437500 -1.1198543 135.61893 -9.1145868 -74.271759 -9.0960188 -75.03727 -0.059999589 -103.25294
9201500000 -1.1262937 135.58345 -9.1141748 -74.328552 -9.096694 -75.092659 -0.057195649 -103.24331
9201562500 -1.1179959 135.50986 -9.1053753 -74.357292 -9.1126966 -75.030899 -0.070239276 -103.21589
9201625000 -1.117431 135.54922 -9.1025448 -74.248009 -9.0978346 -74.97879 -0.068009987 -103.05656
9201687500 -1.1322631 135.50981 -9.1102877 -74.302032 -9.0954914 -75.069405 -0.05729549 -103.08836
9201750000 -1.1223599 135.48286 -9.1097898 -74.372459 -9.0899105 -75.06282 -0.050708778 -103.12567
9201812500 -1.1146501 135.53328 -9.1052132 -74.309654 -9.0985689 -75.02935 -0.065709122 -103.17631
9201875000 -1.1208842 135.47421 -9.0941534 -74.364616 -9.0938864 -75.087402 -0.058320299 -103.09261
9201937500 -1.1269923 135.46326 -9.1003494 -74.265419 -9.09093 -75.088173 -0.055816181 -103.12389
9202000000 -1.12307 135.45206 -9.091115 -74.322052 -9.0869131 -75.067719 -0.051948674 -103.03874
9202062500 -1.1268625 135.46609 -9.0913067 -74.288895 -9.0870609 -75.053307 -0.055237081 -103.01132
9202125000 -1.1230462 135.46213 -9.113163 -74.289429 -9.1005831 -75.047096 -0.074658535 -103.09114
9202187500 -1.1173068 135.44836 -9.0995092 -74.327835 -9.0995646 -75.060631 -0.064872615 -102.96155
9202250000 -1.1244577 135.366 -9.111496 -74.337883 -9.0865288 -75.017265 -0.06257084 -103.00708
9202312500 -1.1173851 135.39577 -9.1068935 -74.298828 -9.0968666 -75.110023 -0.064030543 -102.95732
9202375000 -1.1215262 135.31923 -9.0970688 -74.310638 -9.0977068 -75.061699 -0.064418256 -102.92107
9202437500 -1.1244819 135.39172 -9.1086311 -74.315262 -9.0928793 -75.071007 -0.064143166 -103.02594
9202500000 -1.1264762 135.36269 -9.0995626 -74.350853 -9.097743 -75.015678 -0.064532958 -102.95046
9202562500 -1.11695 135.3308 -9.0903397 -74.249718 -9.0891247 -74.98558 -0.069739431 -102.94608
9202625000 -1.1204163 135.35596 -9.093236 -74.370422 -9.0912399 -74.977982 -0.068124659 -102.89203
9202687500 -1.1278541 135.32382 -9.1063995 -74.278625 -9.0820608 -74.987221 -0.053113081 -102.84522
9202750000 -1.1131481 135.23999 -9.083744 -74.362961 -9.0790749 -75.060287 -0.056748275 -102.84617
9202812500 -1.1229579 135.24586 -9.0901289 -74.335938 -9.0717125 -75.105949 -0.059279684 -102.81249
9202875000 -1.1184145 135.24927 -9.094202 -74.299667 -9.0854416 -75.038422 -0.06405165 -102.78706
9202937500 -1.113673 135.2729 -9.0815649 -74.400345 -9.0772543 -74.98764 -0.055156235 -102.82529
9203000000 -1.1213007 135.29599 -9.0908928 -74.245903 -9.0873718 -75.053215 -0.065542907 -102.73496
9203062500 -1.1215454 135.17538 -9.0930119 -74.298553 -9.0829048 -74.97467 -0.065268181 -102.79771
9203125000 -1.1148024 135.1657 -9.0823107 -74.346634 -9.0797281 -75.051071 -0.060169507 -102.77147
9203187500 -1.1224564 135.16705 -9.0946712 -74.343399 -9.0765944 -75.063942 -0.062016286 -102.73939
9203250000 -1.1216062 135.18158 -9.0918436 -74.20417 -9.0837164 -75.019272 -0.060797118 -102.70243
9203312500 -1.1283786 135.15109 -9.0898132 -74.347397 -9.0780325 -75.050285 -0.059751518 -102.68954
9203375000 -1.1264805 135.14001 -9.0894041 -74.295143 -9.076932 -74.975281 -0.059165504 -102.67084
9203437500 -1.1264164 135.15775 -9.0982733 -74.329315 -9.0775433 -74.980072 -0.060298819 -102.6917
9203500000 -1.1188776 135.11395 -9.0870571 -74.227196 -9.0875406 -75.054947 -0.063430615 -102.6859
9203562500 -1.1258913 135.14081 -9.0902176 -74.288933 -9.0937872 -75.053772 -0.083192036 -102.71397
9203625000 -1.1267115 135.14409 -9.096694 -74.312027 -9.0812941 -74.953156 -0.073247887 -102.69926
9203687500 -1.1312051 135.10684 -9.0966816 -74.224312 -9.0791674 -75.014915 -0.073376693 -102.60617
9203750000 -1.1236366 135.04347 -9.0880594 -74.327957 -9.0794811 -74.990654 -0.060156293 -102.57809
9203812500 -1.1258862 135.09894 -9.0752478 -74.298233 -9.0829134 -75.045258 -0.07360734 -102.55417
9203875000 -1.1172163 135.07968 -9.0801201 -74.266953 -9.0864429 -75.060005 -0.075602829 -102.5654
9203937500 -1.1257163 135.01692 -9.0804529 -74.250328 -9.0786486 -74.981071 -0.069374837 -102.52782
9204000000 -1.1295558 135.03404 -9.0814314 -74.289696 -9.0796871 -74.981522 -0.064607985 -102.47903
9204062500 -1.117555 135.03397 -9.0828314 -74.289001 -9.0736637 -75.017448 -0.073757276 -102.49012
9204125000 -1.126137 134.98956 -9.0818176 -74.246231 -9.0711136 -74.971756 -0.058110975 -102.46002
9204187500 -1.1279904 134.94411 -9.0871925 -74.302299 -9.0739479 -75.025948 -0.075218983 -102.4559
9204250000 -1.13083 134.97713 -9.0724459 -74.249352 -9.0726213 -74.962837 -0.065499887 -102.49156
9204312500 -1.1211756 134.96716 -9.08006 -74.235199 -9.070014 -75.008606 -0.077304244 -102.37901
9204375000 -1.116171 134.92667 -9.0765877 -74.322479 -9.0701876 -74.981827 -0.068227343 -102.45525
9204437500 -1.1297123 134.97255 -9.0794172 -74.274704 -9.0715723 -74.968285 -0.070537739 -102.38673
9204500000 -1.1352619 134.94049 -9.0770798 -74.256721 -9.0731544 -74.999718 -0.069401868 -102.40775
9204562500 -1.1247882 134.90776 -9.0819511 -74.349083 -9.0583906 -75.042648 -0.053463951 -102.43385
9204625000 -1.115804 134.94453 -9.0648699 -74.172752 -9.0685635 -75.071152 -0.071423762 -102.33945
9204687500 -1.1196409 134.86467 -9.0740948 -74.295074 -9.0616503 -74.988045 -0.065384701 -102.30924
9204750000 -1.1332049 134.8822 -9.0711746 -74.194321 -9.0713615 -74.962776 -0.080009028 -102.31522
9204812500 -1.1185693 134.84952 -9.0732918 -74.205627 -9.0779524 -74.95034 -0.066468582 -102.28002
9204875000 -1.1192151 134.91719 -9.0658922 -74.233475 -9.0887518 -74.970741 -0.078211047 -102.32804
9204937500 -1.1228294 134.836 -9.0540371 -74.273293 -9.0597219 -75.000084 -0.058324929 -102.28933
9205000000 -1.1160326 134.75835 -9.0636168 -74.23378 -9.065237 -74.990097 -0.081314243 -102.24952
9205062500 -1.1290247 134.79039 -9.0714731 -74.310036 -9.0556326 -74.923302 -0.072715528 -102.21133
9205125000 -1.1264424 134.81668 -9.0706854 -74.162865 -9.0626278 -74.965729 -0.066022575 -102.15482
9205187500 -1.1249409 134.7765 -9.0736361 -74.227661 -9.0678101 -74.931175 -0.076392494 -102.19074
9205250000 -1.1218212 134.73825 -9.0652599 -74.32476 -9.0632992 -74.966583 -0.078041881 -102.25219
9205312500 -1.1239785 134.82393 -9.0607042 -74.217148 -9.0677519 -74.918991 -0.077321559 -102.16714
9205375000 -1.1219286 134.71953 -9.0603743 -74.213135 -9.0596342 -74.98053 -0.067909814 -102.14492
9205437500 -1.1188831 134.73329 -9.0610466 -74.184509 -9.0589132 -74.947197 -0.067923225 -102.16103
9205500000 -1.1261501 134.66142 -9.0587883 -74.222176 -9.0567579 -74.965805 -0.067390084 -102.00256
9205562500 -1.1323661 134.69745 -9.0643702 -74.275299 -9.059761 -74.998253 -0.071573988 -102.1133
9205625000 -1.1304227 134.71181 -9.0678606 -74.197502 -9.0532951 -75.043503 -0.074155807 -102.06116
9205687500 -1.1266946 134.71071 -9.0621223 -74.173523 -9.0512028 -74.964485 -0.07228227 -102.04305
9205750000 -1.1243619 134.64629 -9.0553303 -74.270088 -9.0615025 -74.963699 -0.066947885 -102.00907
9205812500 -1.1260839 134.60315 -9.0467558 -74.214966 -9.0582294 -74.939796 -0.071084805 -101.98096
9205875000 -1.1236399 134.66895 -9.0672159 -74.161064 -9.0755005 -74.945854 -0.081884831 -102.03889
9205937500 -1.12309 134.60487 -9.0479794 -74.240196 -9.0558891 -74.894539 -0.078980125 -101.95226
9206000000 -1.125724 134.58128 -9.0566025 -74.211937 -9.0476322 -74.955933 -0.060999125 -101.932
9206062500 -1.1221619 134.62701 -9.0636196 -74.217979 -9.0599489 -74.967232 -0.075838737 -101.9723
9206125000 -1.1236875 134.56978 -9.0561981 -74.234924 -9.0553246 -74.917648 -0.080977559 -101.86888
9206187500 -1.1300218 134.58246 -9.0565462 -74.214684 -9.0566969 -74.886681 -0.065602809 -101.92149
9206250000 -1.1316825 134.49928 -9.0624542 -74.220116 -9.0465431 -74.922821 -0.073028587 -101.92095
9206312500 -1.1230063 134.48639 -9.0563307 -74.205551 -9.056345 -75.104691 -0.073388904 -101.9597
9206375000 -1.1269135 134.55051 -9.0536928 -74.189278 -9.0435562 -74.909134 -0.066228122 -101.89476
9206437500 -1.1213442 134.43787 -9.054534 -74.273369 -9.0581551 -74.964928 -0.078085043 -101.90435
9206500000 -1.1295081 134.47217 -9.0611134 -74.264328 -9.0445967 -74.94278 -0.079611339 -101.86044
9206562500 -1.1304072 134.46687 -9.0629406 -74.300262 -9.0465345 -74.985825 -0.071657702 -101.90244
9206625000 -1.1312281 134.41515 -9.0502729 -74.22805 -9.0485878 -75.005798 -0.068296582 -101.84521
9206687500 -1.1349193 134.44345 -9.0678101 -74.309479 -9.0485115 -74.959106 -0.068326816 -101.82381
9206750000 -1.1284766 134.44112 -9.052249 -74.253754 -9.0568171 -74.907806 -0.072913699 -101.7994
9206812500 -1.1216133 134.45198 -9.0539789 -74.241722 -9.0554752 -74.960938 -0.074705087 -101.8109
9206875000 -1.1305203 134.39996 -9.0555792 -74.290367 -9.0356636 -74.894859 -0.073883332 -101.67955
9206937500 -1.1247017 134.41768 -9.0548315 -74.144745 -9.0443554 -74.951035 -0.074265145 -101.7295
9207000000 -1.124079 134.37582 -9.0438824 -74.24749 -9.047965 -74.937866 -0.077056676 -101.70258
9207062500 -1.1244998 134.34212 -9.0461617 -74.222137 -9.045867 -74.957222 -0.080807589 -101.62387
9207125000 -1.1326497 134.27255 -9.0300922 -74.251633 -9.0377045 -74.930344 -0.074922301 -101.59712
9207187500 -1.1260961 134.30995 -9.0336037 -74.304123 -9.0467291 -74.926186 -0.072931096 -101.68015
9207250000 -1.1231772 134.28648 -9.0457392 -74.243462 -9.0445089 -74.90535 -0.062809944 -101.66605
9207312500 -1.1195551 134.31363 -9.0374632 -74.250107 -9.0417995 -74.926086 -0.064375713 -101.63265
9207375000 -1.1313778 134.24548 -9.0541096 -74.272072 -9.0289164 -74.920021 -0.07177379 -101.55103
9207437500 -1.1266874 134.32887 -9.0381823 -74.156013 -9.0527 -74.919632 -0.078141928 -101.60391
9207500000 -1.1291789 134.29819 -9.0502567 -74.172226 -9.0396223 -74.900368 -0.088406347 -101.57311
9207562500 -1.1226332 134.28087 -9.0384607 -74.224335 -9.0242643 -74.911316 -0.07619144 -101.55923
9207625000 -1.1285446 134.18724 -9.041111 -74.175125 -9.0481348 -74.907684 -0.078759998 -101.45235
9207687500 -1.1305178 134.2572 -9.0369415 -74.203896 -9.0337019 -74.943748 -0.07200364 -101.53879
9207750000 -1.1316845 134.21165 -9.050539 -74.23616 -9.0270853 -74.912628 -0.066533312 -101.50161
9207812500 -1.1260964 134.18646 -9.0382185 -74.188454 -9.0387115 -74.832504 -0.086281531 -101.4466
9207875000 -1.1236646 134.23123 -9.0459099 -74.082306 -9.0356045 -74.884727 -0.073816262 -101.41137
9207937500 -1.1329637 134.1351 -9.0451422 -74.227966 -9.0421295 -74.949394 -0.079651468 -101.50525
9208000000 -1.1281848 134.16618 -9.0385742 -74.238205 -9.0396976 -74.872215 -0.071979232 -101.42955
9208062500 -1.1297011 134.15027 -9.0441837 -74.143898 -9.0377302 -74.919937 -0.087371126 -101.41859
9208125000 -1.1342993 134.10655 -9.0414944 -74.246346 -9.0337648 -74.941345 -0.078897521 -101.38192
9208187500 -1.1297649 134.13297 -9.038022 -74.185913 -9.0365391 -74.859749 -0.08160758 -101.40319
9208250000 -1.1315798 134.11674 -9.039711 -74.111603 -9.0334425 -74.923904 -0.076368473 -101.34293
9208312500 -1.1277277 134.12448 -9.0426178 -74.124596 -9.0227013 -74.966499 -0.078421772 -101.37882
9208375000 -1.1357228 134.0833 -9.0382214 -74.192368 -9.0354977 -74.907898 -0.0869065 -101.31602
9208437500 -1.1306823 133.99762 -9.0351505 -74.24498 -9.0288048 -74.860962 -0.093574502 -101.30758
9208500000 -1.132982 134.02834 -9.0401096 -74.2099 -9.0283632 -74.957237 -0.083250031 -101.34286
9208562500 -1.1320341 134.04591 -9.0286474 -74.191116 -9.0335016 -74.8564 -0.081441708 -101.25198
9208625000 -1.1280624 133.99113 -9.0256405 -74.18605 -9.0233555 -74.831284 -0.082032703 -101.2438
9208687500 -1.1257775 134.0016 -9.0251122 -74.208588 -9.0255861 -74.864128 -0.075169131 -101.23746
9208750000 -1.1283277 134.01988 -9.029233 -74.192612 -9.0181437 -74.823349 -0.079233021 -101.21838
9208812500 -1.1367966 134.08282 -9.0437279 -74.149857 -9.0235252 -74.910851 -0.081442028 -101.2132
9208875000 -1.123845 133.92989 -9.0206289 -74.215584 -9.0295763 -74.852264 -0.079145983 -101.17742
9208937500 -1.1268953 133.96428 -9.0157623 -74.155655 -9.0201769 -74.817169 -0.076628797 -101.14364
9209000000 -1.127516 133.97774 -9.0330153 -74.143173 -9.0147552 -74.840034 -0.078829139 -101.19958
9209062500 -1.1359525 133.94159 -9.0312862 -74.125534 -9.0252485 -74.839439 -0.085654557 -101.15031
9209125000 -1.1333493 133.91597 -9.0288658 -74.167343 -9.0202103 -74.853775 -0.078852192 -101.10622
9209187500 -1.1319613 133.92619 -9.0284367 -74.114693 -9.0226488 -74.803978 -0.082444847 -101.09877
9209250000 -1.1254405 133.88893 -9.023447 -74.148682 -9.0242739 -74.926483 -0.084323309 -101.02073
9209312500 -1.1328241 133.82175 -9.0348644 -74.16301 -9.0129871 -74.896545 -0.0871723 -101.08633
9209375000 -1.1258783 133.88083 -9.03055 -74.154877 -9.0343409 -74.784531 -0.097360194 -101.02994
9209437500 -1.1318429 133.83234 -9.026145 -74.124466 -9.0152264 -74.916962 -0.079359204 -100.95911
9209500000 -1.1291521 133.8318 -9.0239706 -74.142952 -9.0146914 -74.848343 -0.085450701 -100.96342
9209562500 -1.1320958 133.81047 -9.0217886 -74.120399 -9.0138102 -74.817787 -0.088820346 -100.94208
9209625000 -1.1333439 133.76279 -9.0208244 -74.17971 -9.0071211 -74.881401 -0.079541221 -100.97619
9209687500 -1.1327838 133.74535 -9.0222883 -74.133934 -9.0138121 -74.848946 -0.086305961 -100.94536
9209750000 -1.1336917 133.80959 -9.0217075 -74.157112 -9.0201321 -74.778862 -0.077524744 -100.95325
9209812500 -1.1268003 133.73541 -9.0160828 -74.110649 -9.018178 -74.840416 -0.083819516 -100.9114
9209875000 -1.1261188 133.77449 -9.0137892 -74.112206 -9.0105181 -74.850014 -0.086460941 -100.92468
9209937500 -1.1334616 133.8363 -9.0374146 -74.179314 -9.0203648 -74.824554 -0.089367472 -100.9678
9210000000 -1.1247904 133.74083 -9.017993 -74.114517 -9.0056429 -74.840973 -0.094806723 -100.85626
9210062500 -1.1366829 133.73486 -9.0190134 -74.142357 -9.0111685 -74.813133 -0.087806508 -100.84111
9210125000 -1.1284586 133.72156 -9.0237827 -74.095711 -9.0123701 -74.82843 -0.090627693 -100.82756
9210187500 -1.1320522 133.6902 -9.0245314 -74.186981 -9.0130529 -74.798553 -0.099951871 -100.80861
9210250000 -1.1303852 133.71184 -9.0146885 -74.133499 -9.0108528 -74.781929 -0.093877532 -100.84332
9210312500 -1.1364459 133.69174 -9.0122061 -74.052925 -9.0116501 -74.838448 -0.092597619 -100.78798
9210375000 -1.1298064 133.69594 -9.0232363 -74.087891 -9.0195198 -74.827736 -0.094065636 -100.71498
9210437500 -1.1259801 133.59917 -9.0112 -74.163994 -9.0056276 -74.929817 -0.082657255 -100.83463
9210500000 -1.1316061 133.62817 -9.0112047 -74.182343 -9.0035601 -74.83036 -0.084719695 -100.75927
9210562500 -1.1304854 133.61848 -9.0101786 -74.123405 -9.0108185 -74.859505 -0.091867223 -100.70249
9210625000 -1.1304679 133.59125 -9.0253019 -74.132896 -9.0130777 -74.830223 -0.092189841 -100.76263
9210687500 -1.1368635 133.62366 -9.0148754 -74.139862 -9.0054779 -74.898254 -0.088840544 -100.70313
9210750000 -1.1337745 133.57172 -9.0159531 -74.163849 -9.0079098 -74.841454 -0.087746985 -100.68535
9210812500 -1.1372457 133.547 -9.0112467 -74.125534 -9.0100422 -74.752769 -0.093655013 -100.60989
9210875000 -1.1316448 133.56548 -9.01192 -74.107475 -9.0051928 -74.827896 -0.091404706 -100.66966
9210937500 -1.1287857 133.57697 -9.0164557 -74.106667 -9.0089874 -74.738785 -0.10141736 -100.57774
9211000000 -1.130008 133.54636 -9.0116816 -74.15406 -9.0160522 -74.842392 -0.094608136 -100.65561
9211062500 -1.1336144 133.51471 -9.0082655 -74.081512 -9.0044842 -74.79245 -0.099695094 -100.58642
9211125000 -1.1287415 133.47055 -9.0112038 -74.13633 -9.0086889 -74.785141 -0.089918725 -100.56136
9211187500 -1.1334118 133.46526 -9.0033865 -74.087967 -8.9966078 -74.806999 -0.092800818 -100.57133
9211250000 -1.1347653 133.48964 -8.992959 -74.16188 -9.0053244 -74.751534 -0.085159242 -100.53249
9211312500 -1.1304843 133.48416 -9.010952 -74.046516 -9.0069284 -74.759956 -0.095853955 -100.5165
9211375000 -1.1286529 133.38394 -8.9956827 -74.119598 -9.0031242 -74.873459 -0.093541153 -100.50459
9211437500 -1.1303399 133.435 -8.991868 -74.098831 -8.9885139 -74.827911 -0.088957511 -100.45605
9211500000 -1.1408664 133.36441 -9.0113144 -74.139854 -9.0054197 -74.831924 -0.094967857 -100.50748
9211562500 -1.1354854 133.42752 -9.0111036 -74.120964 -9.0011454 -74.801613 -0.097157218 -100.43714
9211625000 -1.1287508 133.35989 -9.0018501 -74.134186 -8.9837399 -74.839828 -0.083664335 -100.48594
9211687500 -1.1378307 133.42166 -9.0052805 -74.084328 -8.996357 -74.775406 -0.10073607 -100.40144
9211750000 -1.1360949 133.31773 -8.9987221 -74.024719 -8.9979124 -74.76265 -0.086564258 -100.36359
9211812500 -1.1389589 133.33073 -9.0090103 -74.090286 -8.994791 -74.819656 -0.096194811 -100.43792
9211875000 -1.1383706 133.29344 -9.0062418 -74.109016 -8.9825048 -74.698914 -0.085587613 -100.24078
9211937500 -1.131176 133.32379 -8.9990654 -74.073341 -9.0005407 -74.781052 -0.10080533 -100.33678
9212000000 -1.1315825 133.20036 -8.9952421 -74.069626 -8.9914932 -74.795799 -0.10716758 -100.29845
9212062500 -1.1339865 133.2588 -8.9977818 -74.086296 -8.9950609 -74.842682 -0.10692874 -100.34856
9212125000 -1.1344132 133.21628 -8.9882908 -74.1092 -8.9970093 -74.799011 -0.093682937 -100.26967
9212187500 -1.1271833 133.27782 -8.9840965 -74.021507 -8.9795914 -74.716347 -0.10228359 -100.21118
