!Agilent Technologies,N5242A,MY51221714,A.09.90.19
!Agilent N5242A: A.09.90.19
!Date: Tuesday, March 26, 2024 16:15:55
!Correction: S11(Full 2 Port(1,2)) 
!S21(Full 2 Port(1,2)) 
!S12(Full 2 Port(1,2)) 
!S22(Full 2 Port(1,2)) 
!S2P File: Measurements: S11, S21, S12, S22:
# Hz S  dB   R 50
9200000000 -1.0001316 136.72818 -9.1850548 -73.087944 -9.154007 -73.816208 0.0068018264 -103.25322
9200062500 -1.0075312 136.70868 -9.1737518 -73.149513 -9.1657562 -73.819977 0.013651169 -103.18903
9200125000 -1.0082977 136.65373 -9.1670742 -73.018471 -9.164649 -73.781586 0.0035973396 -103.17074
9200187500 -1.0093215 136.73044 -9.1696959 -73.030052 -9.1534538 -73.921379 0.018205162 -103.20859
9200250000 -1.0078392 136.65677 -9.1686554 -73.094269 -9.1664181 -73.724625 0.010217995 -103.17671
9200312500 -1.0085943 136.64684 -9.1722965 -73.094353 -9.1653681 -73.801544 0.01773062 -103.22181
9200375000 -1.0132043 136.6292 -9.1772213 -73.043236 -9.1606092 -73.890015 0.011895413 -103.12833
9200437500 -1.0049361 136.64528 -9.1749229 -73.095528 -9.1479406 -73.831299 0.023835922 -103.07262
9200500000 -1.0051985 136.62436 -9.1657257 -73.096573 -9.1479635 -73.77504 0.012101659 -103.10487
9200562500 -1.0013219 136.58069 -9.1619864 -73.109154 -9.1721725 -73.801994 0.015644373 -103.12712
9200625000 -1.0177225 136.55827 -9.1724625 -73.100838 -9.1563196 -73.765816 0.0079610748 -103.06358
9200687500 -0.99651045 136.59026 -9.1654291 -73.03299 -9.1622887 -73.781296 0.011473057 -103.05903
9200750000 -1.011624 136.52136 -9.1740198 -73.0914 -9.1650028 -73.75148 0.0088654356 -103.01795
9200812500 -1.0189137 136.56754 -9.1700478 -73.0215 -9.162672 -73.753609 -0.0043080812 -103.00443
9200875000 -0.99841154 136.65062 -9.1528654 -73.001076 -9.1632557 -73.752251 0.007081951 -103.02964
9200937500 -1.0069736 136.54332 -9.1682272 -73.025543 -9.1532784 -73.706718 0.0098818019 -102.92784
9201000000 -1.0076987 136.47314 -9.1681137 -73.170593 -9.1533985 -73.84481 0.011979792 -102.99125
9201062500 -1.0034488 136.47055 -9.1497765 -73.052628 -9.1495457 -73.859314 0.01282236 -102.98322
9201125000 -1.0121094 136.49387 -9.1624079 -73.069252 -9.1638603 -73.718719 0.0087011568 -102.87197
9201187500 -1.0090557 136.41541 -9.1553526 -73.039268 -9.1464281 -73.787064 0.0041875467 -102.8415
9201250000 -1.0123616 136.48917 -9.1476479 -72.974609 -9.1525707 -73.790459 0.014454001 -102.86163
9201312500 -1.0171041 136.44211 -9.1662254 -73.055832 -9.163414 -73.799934 0.011306581 -102.91251
9201375000 -1.0176777 136.43311 -9.1602364 -73.014763 -9.1507177 -73.728271 0.0046742279 -102.83385
9201437500 -1.0045376 136.44147 -9.1579943 -72.986725 -9.155879 -73.718094 0.013803663 -102.90825
9201500000 -1.0096304 136.42087 -9.1653652 -73.016235 -9.1651211 -73.729256 -0.0022076957 -102.83193
9201562500 -1.0094881 136.34375 -9.1562014 -73.018631 -9.1534338 -73.721794 0.00048515026 -102.8291
9201625000 -1.0073653 136.37061 -9.157361 -73.001793 -9.1420307 -73.74575 0.0025791072 -102.79703
9201687500 -1.014371 136.34268 -9.1548176 -72.970848 -9.1436014 -73.734222 0.015196981 -102.70695
9201750000 -1.0096742 136.37636 -9.1592264 -73.022827 -9.1427593 -73.789574 0.015568301 -102.74214
9201812500 -1.005412 136.38049 -9.1482573 -73.006172 -9.1493692 -73.725159 -0.000328422 -102.78218
9201875000 -1.0091678 136.30022 -9.1421204 -73.053337 -9.1512403 -73.77195 0.011526711 -102.67171
9201937500 -1.0145351 136.24886 -9.1594048 -73.056534 -9.1406078 -73.7649 0.011479584 -102.75834
9202000000 -1.0075388 136.27036 -9.1426477 -72.987961 -9.1516762 -73.776413 0.0091641387 -102.69765
9202062500 -1.0128663 136.2926 -9.1457472 -72.959023 -9.1399088 -73.756447 0.0069491533 -102.64043
9202125000 -1.0152657 136.29912 -9.1671066 -73.036522 -9.1513195 -73.727745 -0.0027355899 -102.6871
9202187500 -1.0095816 136.28685 -9.1503086 -73.058769 -9.1416731 -73.707176 0.0097511513 -102.59856
9202250000 -1.011206 136.24683 -9.1497278 -73.004799 -9.1443796 -73.65667 0.0010349633 -102.60979
9202312500 -1.0118778 136.21696 -9.154851 -72.954834 -9.1430054 -73.769028 0.004573111 -102.58694
9202375000 -1.0059679 136.17101 -9.1447411 -73.066101 -9.138855 -73.72847 -0.0020924523 -102.58308
9202437500 -1.0083508 136.22058 -9.1453991 -72.99472 -9.1487675 -73.742172 0.009789058 -102.60001
9202500000 -1.0166579 136.19775 -9.1540384 -73.101257 -9.1562052 -73.72963 -0.001500361 -102.63757
9202562500 -1.0030363 136.17882 -9.1404152 -72.980362 -9.1441154 -73.716515 0.0040939064 -102.57038
9202625000 -1.0149713 136.2076 -9.1470585 -72.997452 -9.137394 -73.674286 0.0028145686 -102.50423
9202687500 -1.0068306 136.17732 -9.1382866 -73.009933 -9.1436834 -73.70076 0.0066006612 -102.47374
9202750000 -0.99845707 136.08871 -9.1396046 -73.036415 -9.1360025 -73.774796 0.0032495672 -102.48517
9202812500 -1.0142241 136.12874 -9.1524773 -73.007523 -9.126915 -73.780212 0.010132209 -102.46706
9202875000 -1.0045712 136.07768 -9.1428537 -72.99028 -9.1335354 -73.758614 0.0031915694 -102.45592
9202937500 -1.0042869 136.08284 -9.1397629 -73.059326 -9.126586 -73.730843 0.0094615892 -102.43905
9203000000 -1.0124258 136.13568 -9.1472759 -73.04541 -9.137104 -73.778687 0.0052238018 -102.38358
9203062500 -1.0035651 136.02098 -9.1345205 -73.054108 -9.1414623 -73.725883 -0.0063190651 -102.43066
9203125000 -1.0108814 135.99641 -9.1433249 -73.020042 -9.1277399 -73.774452 0.0027427699 -102.40839
9203187500 -1.0054126 136.0563 -9.1451712 -72.933647 -9.1346169 -73.747543 -0.0014782967 -102.35439
9203250000 -1.0035278 136.01607 -9.145092 -72.982994 -9.1394119 -73.720497 0.0018893176 -102.34439
9203312500 -1.0144529 136.03932 -9.1452045 -73.00531 -9.1334295 -73.724236 0.0087792985 -102.36151
9203375000 -1.0083865 135.98517 -9.1343575 -73.027481 -9.1260386 -73.729836 0.0082128849 -102.30933
9203437500 -1.0155051 136.02478 -9.1453438 -73.032578 -9.1384439 -73.671768 0.00030049717 -102.30936
9203500000 -1.0002328 135.97217 -9.1315937 -72.93998 -9.1313133 -73.707649 0.004752581 -102.29253
9203562500 -1.014564 135.99548 -9.145813 -73.002617 -9.1422186 -73.785988 -0.0098625952 -102.31095
9203625000 -1.0175891 135.95999 -9.1461267 -73.022369 -9.1314306 -73.677582 0.0023197588 -102.31119
9203687500 -1.0165691 135.92363 -9.1526346 -73.029999 -9.1471777 -73.682487 -0.0090396032 -102.24664
9203750000 -1.0109699 135.93477 -9.144824 -72.974106 -9.1274853 -73.747765 0.0079093734 -102.17836
9203812500 -1.01243 135.91518 -9.1322451 -72.974983 -9.1336832 -73.688812 -0.0017975057 -102.17755
9203875000 -1.0109938 135.88269 -9.1396294 -72.965012 -9.123456 -73.721832 -0.0068416828 -102.22189
9203937500 -1.016397 135.90808 -9.1305494 -72.961014 -9.1237984 -73.676674 0.0056256419 -102.22044
9204000000 -1.0199531 135.9102 -9.1336575 -72.934937 -9.1240807 -73.667747 0.011391514 -102.14555
9204062500 -1.0027007 135.88567 -9.1217136 -72.960106 -9.1187487 -73.731224 0.00082644977 -102.15681
9204125000 -1.0137695 135.88268 -9.1371469 -72.888985 -9.1237822 -73.673111 0.0035950853 -102.08359
9204187500 -1.0138912 135.80455 -9.1338778 -72.990746 -9.1308842 -73.713524 -0.017278463 -102.08148
9204250000 -1.0145187 135.82085 -9.131218 -72.988968 -9.1270866 -73.683067 0.00026958543 -102.09937
9204312500 -1.0092814 135.86057 -9.1257839 -72.874886 -9.1148548 -73.731903 -0.004424084 -102.02534
9204375000 -1.0070987 135.79881 -9.1323318 -72.958618 -9.1286345 -73.708099 -0.0076656863 -102.08018
9204437500 -1.0189979 135.81364 -9.1312075 -72.962196 -9.1198912 -73.615311 0.0055412524 -101.99014
9204500000 -1.0151393 135.81947 -9.1225424 -72.920921 -9.1319323 -73.712952 -0.0044033998 -102.04836
9204562500 -1.0125158 135.71519 -9.1327639 -73.036789 -9.1254377 -73.70237 0.0032701986 -102.06015
9204625000 -1.0024097 135.75362 -9.1241798 -72.873451 -9.1188745 -73.692139 -0.0019920303 -101.95692
9204687500 -1.016063 135.75745 -9.1370955 -72.920357 -9.1181927 -73.676628 -0.0053040581 -101.95159
9204750000 -1.0169615 135.68405 -9.1270866 -72.927246 -9.1297579 -73.69693 -0.010909571 -101.96315
9204812500 -1.0057991 135.69379 -9.1227989 -72.936348 -9.1163292 -73.705093 0.0011777313 -101.92283
9204875000 -1.0159222 135.75172 -9.1182346 -72.934372 -9.1272631 -73.719543 -0.002027049 -101.99473
9204937500 -1.0117799 135.62292 -9.1270857 -73.050507 -9.1112032 -73.65506 0.0090156989 -101.8223
9205000000 -1.0011054 135.65543 -9.1194658 -72.900742 -9.1158447 -73.623734 -0.0086815292 -101.86664
9205062500 -1.0127438 135.61378 -9.1169357 -72.943336 -9.0958605 -73.702896 -0.0037428632 -101.88473
9205125000 -1.0113745 135.63863 -9.1160069 -72.916451 -9.1198654 -73.718864 -0.0042931442 -101.81672
9205187500 -1.0170981 135.66844 -9.1282263 -72.87252 -9.1201487 -73.65979 -0.0046065566 -101.80223
9205250000 -1.0101659 135.62524 -9.1252861 -73.04995 -9.1286144 -73.70192 -0.017135456 -101.90195
9205312500 -1.0143851 135.65732 -9.1136637 -72.925858 -9.1203356 -73.634521 -0.0073017976 -101.81261
9205375000 -1.012032 135.58247 -9.1111832 -72.875923 -9.1165676 -73.617752 -0.00092638185 -101.73533
9205437500 -1.0069226 135.56789 -9.105732 -72.876114 -9.112669 -73.636566 -0.0044282321 -101.78034
9205500000 -1.0224861 135.52507 -9.1150846 -72.85955 -9.1152554 -73.68502 0.0032844592 -101.69545
9205562500 -1.0124937 135.5248 -9.1157207 -72.912567 -9.1126719 -73.63678 -0.0031579481 -101.73535
9205625000 -1.023561 135.52861 -9.1283274 -72.924088 -9.1108112 -73.703743 -0.0081217699 -101.72321
9205687500 -1.0090008 135.54312 -9.1140804 -72.870712 -9.1079254 -73.682503 -0.0016043965 -101.71093
9205750000 -1.0162951 135.48444 -9.1087093 -72.91909 -9.111742 -73.653625 -0.0044320449 -101.63663
9205812500 -1.0143514 135.45178 -9.1073523 -72.87458 -9.1218338 -73.69693 -0.012686307 -101.62264
9205875000 -1.0049807 135.50665 -9.121789 -72.828346 -9.1180248 -73.580238 -0.017544681 -101.63488
9205937500 -1.0117595 135.43681 -9.1104155 -72.940842 -9.1024704 -73.565178 -0.00052414794 -101.59373
9206000000 -1.0175539 135.42865 -9.1068039 -72.924637 -9.1166115 -73.658638 -0.0042345356 -101.58105
9206062500 -1.0150394 135.44644 -9.1156826 -72.978615 -9.105629 -73.675697 -0.008354973 -101.64137
9206125000 -1.0112246 135.42433 -9.1049204 -72.888321 -9.0981388 -73.592255 -0.0087288776 -101.54755
9206187500 -1.0087732 135.41441 -9.1042356 -72.929337 -9.1083117 -73.678696 -0.00028932825 -101.57191
9206250000 -1.0160385 135.34908 -9.1194601 -72.885445 -9.1075106 -73.576851 -0.0083590457 -101.49423
9206312500 -1.0094349 135.3456 -9.1048813 -72.872704 -9.1118889 -73.66169 -0.00075857149 -101.54059
9206375000 -1.0153438 135.37166 -9.1142559 -72.897049 -9.1028557 -73.583862 0.0027225893 -101.54522
9206437500 -1.0088444 135.32619 -9.1086359 -72.880089 -9.1055899 -73.632561 -0.0072909985 -101.52566
9206500000 -1.016356 135.32735 -9.1077747 -72.899986 -9.1038122 -73.64225 -0.0088971043 -101.4865
9206562500 -1.0156575 135.32927 -9.1184292 -72.958405 -9.1034622 -73.627998 -0.0065730917 -101.52346
9206625000 -1.0158535 135.23752 -9.09863 -72.940285 -9.0993671 -73.640297 -0.0011143221 -101.45249
9206687500 -1.0221003 135.2896 -9.1202126 -72.953209 -9.0935297 -73.688614 0.0033286761 -101.52335
9206750000 -1.0176204 135.3194 -9.1056709 -72.86731 -9.1028433 -73.647522 -0.013747741 -101.47808
9206812500 -1.0150571 135.26805 -9.1079941 -72.909622 -9.1020041 -73.719513 -0.0043703034 -101.50912
9206875000 -1.0106009 135.24541 -9.1001196 -72.906761 -9.09589 -73.601631 -0.006786779 -101.35297
9206937500 -1.0133858 135.2439 -9.1026211 -72.886101 -9.106986 -73.575233 -0.010923531 -101.31013
9207000000 -1.0141605 135.21951 -9.1121464 -72.916847 -9.1012716 -73.610207 -0.0064744945 -101.34759
9207062500 -1.004585 135.20247 -9.0926094 -72.878746 -9.095211 -73.550392 -0.01287584 -101.23274
9207125000 -1.021176 135.19498 -9.0924425 -72.930763 -9.0923662 -73.616165 -0.0041157836 -101.26954
9207187500 -1.0163544 135.14551 -9.1027374 -73.018257 -9.102973 -73.6091 -0.010035285 -101.32322
9207250000 -1.0118864 135.1657 -9.1025505 -72.880646 -9.0988178 -73.62532 -0.0065799183 -101.34113
9207312500 -1.003438 135.12361 -9.0933771 -72.979881 -9.0875797 -73.619888 0.0014911627 -101.28224
9207375000 -1.0233662 135.13147 -9.0994196 -72.923294 -9.0897455 -73.596664 -0.0044958643 -101.17895
9207437500 -1.0115188 135.18472 -9.0996237 -72.860214 -9.1062336 -73.56002 -0.0068833716 -101.21135
9207500000 -1.0132887 135.16466 -9.0975094 -72.864677 -9.0924034 -73.568253 -0.019771317 -101.20442
9207562500 -1.0100999 135.11836 -9.0912809 -72.965454 -9.0836506 -73.567787 -0.0095451241 -101.18993
9207625000 -1.0181465 135.04231 -9.0922861 -72.860176 -9.0942793 -73.567833 -0.0055171791 -101.10366
9207687500 -1.0129979 135.10321 -9.0918283 -72.897469 -9.0873356 -73.518791 -0.0067295418 -101.14682
9207750000 -1.0160614 135.07124 -9.1027317 -72.860893 -9.0812798 -73.571846 -0.0070203007 -101.13525
9207812500 -1.014939 135.03503 -9.0981436 -72.850899 -9.0951691 -73.602058 -0.0133303 -101.13551
9207875000 -1.0114676 135.1162 -9.0967798 -72.781288 -9.0923319 -73.643204 -0.0097834868 -101.1217
9207937500 -1.0073897 134.95503 -9.0954189 -72.922127 -9.0944099 -73.628716 -0.013674031 -101.14494
9208000000 -1.0186831 135.04472 -9.1001596 -72.852058 -9.090683 -73.560555 -0.0096094757 -101.0405
9208062500 -1.0201018 135.00586 -9.0931997 -72.84417 -9.079936 -73.587418 -0.014098651 -101.04212
9208125000 -1.0203475 134.96709 -9.0991316 -72.902046 -9.0916319 -73.578987 -0.011016425 -101.02523
9208187500 -1.0117518 135.01285 -9.0865202 -72.848656 -9.0894785 -73.548813 -0.011299897 -100.9894
9208250000 -1.0238794 134.97856 -9.0948753 -72.810425 -9.0739613 -73.586021 -0.0074418862 -100.95153
9208312500 -1.0198822 134.98949 -9.1053734 -72.809845 -9.0770731 -73.574837 -0.01780189 -101.02054
9208375000 -1.0173023 134.94376 -9.0937138 -72.857742 -9.0838871 -73.5793 -0.014032345 -100.95351
9208437500 -1.0181141 134.86034 -9.0948124 -72.907936 -9.088047 -73.506966 -0.022057857 -100.9341
9208500000 -1.0200145 134.87657 -9.0893936 -72.818993 -9.0855265 -73.577934 -0.014831232 -100.91753
9208562500 -1.0240352 134.92255 -9.0985441 -72.830193 -9.0860205 -73.535255 -0.015285083 -100.92692
9208625000 -1.0092556 134.86221 -9.0750875 -72.850334 -9.0681763 -73.557076 -0.017240992 -100.92487
9208687500 -1.0064832 134.85593 -9.0742798 -72.820175 -9.0851393 -73.600494 -0.016520729 -100.88757
9208750000 -1.015142 134.87959 -9.0824862 -72.848213 -9.0784283 -73.544434 -0.016259339 -100.8542
9208812500 -1.0204234 134.94691 -9.0855656 -72.816605 -9.0831804 -73.556061 -0.016374003 -100.86391
9208875000 -1.0168701 134.78679 -9.0791073 -72.894676 -9.0862074 -73.587448 -0.014804664 -100.80257
9208937500 -1.0178496 134.81055 -9.077179 -72.902725 -9.0718002 -73.541351 -0.012401847 -100.83151
9209000000 -1.0069221 134.80763 -9.0827913 -72.825264 -9.0730066 -73.50901 -0.017013697 -100.80256
9209062500 -1.0125749 134.81146 -9.0776806 -72.820702 -9.0820141 -73.543236 -0.017724739 -100.76579
9209125000 -1.0242184 134.7865 -9.0797777 -72.794373 -9.0739183 -73.562752 -0.0016723325 -100.75446
9209187500 -1.0125972 134.78046 -9.0755978 -72.835129 -9.0785208 -73.529686 -0.020248525 -100.75444
9209250000 -1.0158864 134.70674 -9.0854197 -72.851578 -9.0716467 -73.570099 -0.015551225 -100.65118
9209312500 -1.0157534 134.68607 -9.0773525 -72.849251 -9.0708447 -73.545921 -0.021420015 -100.69624
9209375000 -1.0074009 134.73413 -9.0789413 -72.77861 -9.0805387 -73.499153 -0.02020504 -100.69434
9209437500 -1.0216699 134.6768 -9.0789375 -72.794167 -9.0889568 -73.583122 -0.022717791 -100.59032
9209500000 -1.0126249 134.67877 -9.0763245 -72.809013 -9.0723906 -73.542618 -0.017680043 -100.61452
9209562500 -1.0207218 134.65553 -9.0827408 -72.816193 -9.079936 -73.482567 -0.029326238 -100.54611
9209625000 -1.0196892 134.67262 -9.0809116 -72.790756 -9.0701094 -73.514236 -0.012878309 -100.58002
9209687500 -1.0179789 134.57736 -9.0673294 -72.838799 -9.0693283 -73.430069 -0.020977067 -100.56399
9209750000 -1.019518 134.61876 -9.0789623 -72.84906 -9.0734749 -73.53524 -0.011656684 -100.59856
9209812500 -1.0206109 134.57901 -9.0910988 -72.76461 -9.073823 -73.531677 -0.022908155 -100.53714
9209875000 -1.0205276 134.61513 -9.0686989 -72.794617 -9.0610266 -73.524078 -0.019745842 -100.56018
9209937500 -1.0140144 134.65294 -9.0888357 -72.795967 -9.0794468 -73.514793 -0.025232125 -100.61583
9210000000 -1.0110865 134.60333 -9.0693026 -72.764389 -9.0615015 -73.451202 -0.028260762 -100.44633
9210062500 -1.0195013 134.61252 -9.0687265 -72.738953 -9.0651884 -73.520081 -0.0190037 -100.48927
9210125000 -1.0151374 134.55183 -9.0760775 -72.815331 -9.0587816 -73.518364 -0.017164767 -100.49201
9210187500 -1.0220078 134.58546 -9.0774479 -72.755157 -9.0597811 -73.527122 -0.018853534 -100.43599
9210250000 -1.0197098 134.57761 -9.0720434 -72.796173 -9.0612345 -73.412102 -0.018550428 -100.44499
9210312500 -1.0227911 134.52271 -9.0721111 -72.710052 -9.0657473 -73.583664 -0.01897244 -100.49155
9210375000 -1.0126188 134.55025 -9.0670576 -72.806221 -9.0594769 -73.534615 -0.017613249 -100.35783
9210437500 -1.0099857 134.47917 -9.0633621 -72.793465 -9.06705 -73.572159 -0.020956736 -100.46289
9210500000 -1.0086226 134.46162 -9.0587158 -72.779442 -9.064045 -73.527992 -0.016637437 -100.38012
9210562500 -1.0169246 134.49138 -9.0714703 -72.734436 -9.0605316 -73.554314 -0.02500814 -100.32659
9210625000 -1.0171351 134.44923 -9.0833988 -72.813416 -9.0628834 -73.464325 -0.02229549 -100.38839
9210687500 -1.0094362 134.46555 -9.0627298 -72.776031 -9.060358 -73.516678 -0.022991436 -100.33608
9210750000 -1.0199211 134.44521 -9.0678368 -72.767761 -9.0579548 -73.517647 -0.017629286 -100.33884
9210812500 -1.0227181 134.38416 -9.0680304 -72.835091 -9.0570431 -73.415154 -0.02633143 -100.24065
9210875000 -1.0156666 134.43901 -9.0722809 -72.789398 -9.055377 -73.493629 -0.025879228 -100.31087
9210937500 -1.0158921 134.42296 -9.0625286 -72.802567 -9.0607662 -73.372704 -0.032327786 -100.23463
9211000000 -1.0165532 134.39404 -9.0750103 -72.714348 -9.0588446 -73.40593 -0.019818291 -100.24747
9211062500 -1.0168328 134.38171 -9.0673523 -72.70253 -9.058917 -73.44371 -0.022263274 -100.2309
9211125000 -1.0088825 134.33717 -9.0621691 -72.809593 -9.0448666 -73.476463 -0.013316596 -100.23884
9211187500 -1.0202131 134.30803 -9.0631199 -72.746429 -9.0592365 -73.427994 -0.027091559 -100.15523
9211250000 -1.0201459 134.36275 -9.0573215 -72.779228 -9.0542412 -73.442284 -0.015513728 -100.18933
9211312500 -1.0152925 134.33969 -9.060689 -72.728691 -9.0551891 -73.458061 -0.022270497 -100.1766
9211375000 -1.0131532 134.22763 -9.0579777 -72.794952 -9.0525751 -73.514954 -0.025000634 -100.11135
9211437500 -1.0144724 134.23839 -9.0534172 -72.750084 -9.059269 -73.481079 -0.027039122 -100.07513
9211500000 -1.0205781 134.25632 -9.0615664 -72.781494 -9.0568733 -73.512619 -0.023118004 -100.16006
9211562500 -1.0249817 134.33142 -9.0604076 -72.720634 -9.0468578 -73.497467 -0.026463555 -100.11787
9211625000 -1.0199348 134.2462 -9.0570421 -72.755249 -9.0521183 -73.514137 -0.02438594 -100.0736
9211687500 -1.0236506 134.26291 -9.060358 -72.72834 -9.0534182 -73.428452 -0.026954494 -100.00649
9211750000 -1.0224565 134.20222 -9.0589161 -72.717384 -9.0556192 -73.463051 -0.029675571 -100.0024
9211812500 -1.0258603 134.18675 -9.0709562 -72.739616 -9.0601006 -73.415352 -0.037295491 -100.03411
9211875000 -1.0201055 134.14116 -9.0615902 -72.773163 -9.0435905 -73.434723 -0.013099663 -99.953926
9211937500 -1.0179545 134.17786 -9.0517073 -72.759323 -9.0496378 -73.434433 -0.030216804 -100.00698
9212000000 -1.0116009 134.1076 -9.0413599 -72.714668 -9.0398932 -73.472031 -0.023573203 -99.94104
9212062500 -1.0194041 134.08849 -9.0592651 -72.693253 -9.046771 -73.348518 -0.029974377 -99.949715
9212125000 -1.0207261 134.10101 -9.0433016 -72.726143 -9.0513334 -73.480194 -0.022110395 -99.906631
9212187500 -1.00782 134.05283 -9.0437937 -72.694336 -9.0429974 -73.389198 -0.032875519 -99.882355
