!Agilent Technologies,N5242A,MY51221714,A.09.90.19
!Agilent N5242A: A.09.90.19
!Date: Tuesday, March 26, 2024 16:17:02
!Correction: S11(Full 2 Port(1,2)) 
!S21(Full 2 Port(1,2)) 
!S12(Full 2 Port(1,2)) 
!S22(Full 2 Port(1,2)) 
!S2P File: Measurements: S11, S21, S12, S22:
# Hz S  dB   R 50
9200000000 -1.056437 136.31981 -9.1998978 -73.649734 -9.1793051 -74.397057 -0.025580894 -103.28269
9200062500 -1.050954 136.31017 -9.1876364 -73.630981 -9.1919651 -74.347527 -0.01459979 -103.18499
9200125000 -1.0545419 136.31448 -9.1879292 -73.615326 -9.1779394 -74.324188 -0.019338656 -103.19104
9200187500 -1.0545846 136.3147 -9.1942482 -73.547783 -9.1767607 -74.384506 -0.0061200247 -103.12378
9200250000 -1.0519416 136.26657 -9.189353 -73.641533 -9.1834707 -74.369049 -0.011180161 -103.19901
9200312500 -1.0568982 136.26845 -9.2003555 -73.647987 -9.1844006 -74.30497 -0.019820692 -103.16192
9200375000 -1.0522083 136.23901 -9.1831064 -73.616577 -9.1791658 -74.475616 -0.013210556 -103.12511
9200437500 -1.0528311 136.30453 -9.1788826 -73.564285 -9.1776772 -74.383881 -0.014941935 -103.13766
9200500000 -1.051577 136.22665 -9.1948309 -73.591621 -9.1722956 -74.290543 -0.01906506 -103.05523
9200562500 -1.0488682 136.2431 -9.1916561 -73.602806 -9.1864195 -74.383835 -0.01334691 -103.15344
9200625000 -1.0553588 136.19501 -9.1861429 -73.609451 -9.1668653 -74.324463 -0.015839996 -103.11403
9200687500 -1.0449764 136.20236 -9.1749516 -73.50296 -9.1758242 -74.373787 -0.01070787 -103.09288
9200750000 -1.0528687 136.14374 -9.1787977 -73.619087 -9.1783848 -74.296234 -0.017186308 -103.04175
9200812500 -1.0666274 136.19769 -9.1910696 -73.505157 -9.1868515 -74.269402 -0.037930153 -102.99492
9200875000 -1.0538728 136.23994 -9.187726 -73.562653 -9.1759958 -74.257362 -0.020085657 -102.99857
9200937500 -1.0525434 136.15108 -9.1880226 -73.650574 -9.1787882 -74.288879 -0.016594907 -102.92623
9201000000 -1.0452797 136.12558 -9.1860495 -73.611656 -9.1724157 -74.324516 -0.015738394 -102.97326
9201062500 -1.0437694 136.07982 -9.1665487 -73.569695 -9.1691227 -74.348045 -0.017030392 -102.92704
9201125000 -1.0544202 136.08781 -9.178793 -73.578514 -9.1754036 -74.335487 -0.02112666 -102.89602
9201187500 -1.056061 136.01814 -9.1770658 -73.582771 -9.1645498 -74.291145 -0.023757802 -102.81017
9201250000 -1.0565991 136.06839 -9.1710949 -73.564278 -9.1847754 -74.287132 -0.02572846 -102.82339
9201312500 -1.0576447 136.06834 -9.1810331 -73.565376 -9.179718 -74.381279 -0.015207632 -102.91663
9201375000 -1.0607361 136.04636 -9.1856108 -73.605911 -9.1722641 -74.250595 -0.029184338 -102.88157
9201437500 -1.0603876 136.04013 -9.1862736 -73.60891 -9.1746025 -74.312286 -0.023927808 -102.92307
9201500000 -1.0580187 136.06157 -9.1723652 -73.514359 -9.1765614 -74.278641 -0.024173213 -102.86255
9201562500 -1.0567753 136.01421 -9.181076 -73.539032 -9.1798134 -74.28392 -0.032772597 -102.80775
9201625000 -1.0535023 136.0406 -9.1719513 -73.560226 -9.1627007 -74.291901 -0.028331237 -102.73238
9201687500 -1.0638235 135.97173 -9.1801338 -73.51297 -9.1746378 -74.23629 -0.026204264 -102.65701
9201750000 -1.0596834 135.97452 -9.16922 -73.578224 -9.1571016 -74.259102 -0.011801846 -102.74555
9201812500 -1.05056 135.9442 -9.1820173 -73.576279 -9.1727552 -74.284447 -0.037208863 -102.80348
9201875000 -1.0534807 135.95045 -9.166194 -73.525314 -9.1667709 -74.330368 -0.01574357 -102.7015
9201937500 -1.0677243 135.87086 -9.1838884 -73.587219 -9.1746206 -74.340462 -0.023453664 -102.72903
9202000000 -1.0584918 135.90965 -9.1655493 -73.472366 -9.160984 -74.370293 -0.017497052 -102.68941
9202062500 -1.0642724 135.91266 -9.1712551 -73.5765 -9.1598864 -74.350517 -0.017210748 -102.67707
9202125000 -1.0577871 135.93608 -9.1819649 -73.527969 -9.1655979 -74.21701 -0.031215034 -102.67169
9202187500 -1.0502889 135.85994 -9.1680422 -73.547287 -9.1669445 -74.2099 -0.020842409 -102.52583
9202250000 -1.0626717 135.8475 -9.1848259 -73.570175 -9.1685953 -74.2342 -0.030820282 -102.582
9202312500 -1.0562023 135.86865 -9.17167 -73.489006 -9.1637974 -74.233505 -0.022951066 -102.60838
9202375000 -1.0579423 135.84846 -9.1843185 -73.510277 -9.1577044 -74.229317 -0.031504106 -102.48858
9202437500 -1.0557586 135.84106 -9.1645775 -73.526329 -9.161005 -74.276062 -0.017174432 -102.64857
9202500000 -1.0702007 135.79881 -9.1782713 -73.641029 -9.1633587 -74.259254 -0.02774686 -102.62285
9202562500 -1.0508721 135.78247 -9.1668701 -73.459587 -9.1620073 -74.237045 -0.027937477 -102.58102
9202625000 -1.059715 135.84639 -9.1731281 -73.47599 -9.1627665 -74.21917 -0.02858795 -102.52209
9202687500 -1.0600245 135.78603 -9.1596727 -73.521759 -9.1558876 -74.23925 -0.014492956 -102.45874
9202750000 -1.0550627 135.72153 -9.1560974 -73.538338 -9.1545315 -74.236664 -0.023761438 -102.45676
9202812500 -1.0608872 135.72954 -9.1704512 -73.543678 -9.1424532 -74.262886 -0.014610108 -102.43483
9202875000 -1.0521276 135.75041 -9.1589155 -73.460548 -9.1620045 -74.297821 -0.023978818 -102.40624
9202937500 -1.0531631 135.69994 -9.156003 -73.610565 -9.1506538 -74.149818 -0.022760399 -102.38496
9203000000 -1.0582258 135.70464 -9.170846 -73.58815 -9.1469526 -74.271118 -0.018725453 -102.38034
9203062500 -1.0542972 135.66164 -9.1604881 -73.552116 -9.1546278 -74.247795 -0.033910096 -102.3979
9203125000 -1.053054 135.63289 -9.1542397 -73.521347 -9.1450081 -74.229881 -0.021219481 -102.34546
9203187500 -1.0556562 135.64137 -9.1656752 -73.59565 -9.1536674 -74.293243 -0.030792685 -102.37825
9203250000 -1.0591134 135.62515 -9.1544371 -73.596344 -9.1598158 -74.235229 -0.029684946 -102.31024
9203312500 -1.0656363 135.62518 -9.1584206 -73.497055 -9.150732 -74.251015 -0.022301467 -102.30074
9203375000 -1.0530101 135.67935 -9.1503181 -73.454254 -9.1462955 -74.221176 -0.019773725 -102.27494
9203437500 -1.0599138 135.65175 -9.1665869 -73.585327 -9.1520824 -74.2257 -0.02830768 -102.33009
9203500000 -1.0559069 135.58656 -9.1496077 -73.5308 -9.1429443 -74.208298 -0.017282439 -102.27349
9203562500 -1.0667275 135.58148 -9.1672592 -73.485512 -9.1534672 -74.21785 -0.032112315 -102.29076
9203625000 -1.0583899 135.61462 -9.1677608 -73.509079 -9.15382 -74.228676 -0.031679265 -102.3111
9203687500 -1.0662454 135.55925 -9.1632481 -73.535469 -9.1622725 -74.219185 -0.034293607 -102.23702
9203750000 -1.0575513 135.52966 -9.1524038 -73.481918 -9.1516743 -74.286133 -0.024860065 -102.22736
9203812500 -1.0586354 135.5452 -9.1568222 -73.468674 -9.146492 -74.254494 -0.021817576 -102.17014
9203875000 -1.0525619 135.51945 -9.1575289 -73.546814 -9.1460705 -74.208015 -0.035452005 -102.2232
9203937500 -1.0622897 135.52721 -9.1566505 -73.502625 -9.1516094 -74.184532 -0.030388566 -102.14193
9204000000 -1.056299 135.50395 -9.1394682 -73.477661 -9.1478825 -74.186775 -0.025424119 -102.08185
9204062500 -1.0532931 135.49854 -9.1473904 -73.472656 -9.1286554 -74.207947 -0.025222497 -102.09857
9204125000 -1.0583948 135.47131 -9.1504068 -73.511978 -9.1418056 -74.21286 -0.033176783 -102.11635
9204187500 -1.0600376 135.44321 -9.1552801 -73.470367 -9.144906 -74.283058 -0.036566705 -102.12259
9204250000 -1.0629063 135.46069 -9.1437187 -73.457237 -9.1465521 -74.177193 -0.029734787 -102.06617
9204312500 -1.0638552 135.45689 -9.1495934 -73.449387 -9.1363373 -74.218201 -0.030361388 -102.00587
9204375000 -1.0569066 135.42609 -9.1484137 -73.485275 -9.1507626 -74.24604 -0.030772019 -102.08247
9204437500 -1.0652151 135.42924 -9.1514072 -73.503372 -9.1288204 -74.176651 -0.026425159 -101.99928
9204500000 -1.0641304 135.43831 -9.1431341 -73.491646 -9.1437492 -74.317467 -0.028944572 -102.04321
9204562500 -1.0565063 135.35805 -9.1458721 -73.550514 -9.1433058 -74.223732 -0.029977825 -102.0221
9204625000 -1.0488894 135.36496 -9.1369867 -73.461769 -9.1311417 -74.248894 -0.028242901 -101.9352
9204687500 -1.055544 135.38519 -9.141242 -73.43219 -9.1412392 -74.218117 -0.031776313 -101.93802
9204750000 -1.0613556 135.3114 -9.1425667 -73.375671 -9.1495066 -74.181671 -0.040260356 -101.93662
9204812500 -1.0482705 135.30307 -9.1407318 -73.389412 -9.1417685 -74.233246 -0.025454784 -101.9187
9204875000 -1.0601574 135.36261 -9.1500149 -73.430779 -9.1511946 -74.198914 -0.035015427 -101.94974
9204937500 -1.0515733 135.29321 -9.1287384 -73.489021 -9.137001 -74.183578 -0.022418009 -101.86021
9205000000 -1.0496385 135.23265 -9.1416807 -73.472702 -9.1300879 -74.185051 -0.040253025 -101.86555
9205062500 -1.0564371 135.22462 -9.1455164 -73.513512 -9.1230984 -74.113686 -0.035604026 -101.77781
9205125000 -1.0556697 135.24808 -9.1380615 -73.447746 -9.128911 -74.240448 -0.031769145 -101.83031
9205187500 -1.0656331 135.25089 -9.153327 -73.405304 -9.1312151 -74.127693 -0.042537246 -101.8133
9205250000 -1.0515591 135.18996 -9.1435137 -73.569443 -9.1397867 -74.123634 -0.041259523 -101.82543
9205312500 -1.0553932 135.29236 -9.1335278 -73.417999 -9.1331558 -74.227493 -0.035169374 -101.80143
9205375000 -1.0584875 135.17889 -9.1276798 -73.495148 -9.1282349 -74.209694 -0.025799189 -101.75842
9205437500 -1.0590163 135.18007 -9.1315193 -73.477997 -9.1262808 -74.164162 -0.026854513 -101.76952
9205500000 -1.0626518 135.05807 -9.1348133 -73.497307 -9.1351337 -74.210663 -0.027279506 -101.65781
9205562500 -1.0606962 135.17592 -9.126811 -73.481255 -9.1319675 -74.233505 -0.023805715 -101.71275
9205625000 -1.0615917 135.12753 -9.1399918 -73.428322 -9.1348143 -74.130943 -0.033910334 -101.63028
9205687500 -1.0588708 135.14853 -9.1207333 -73.473976 -9.1243267 -74.203842 -0.040918075 -101.62904
9205750000 -1.0598154 135.12073 -9.1309128 -73.461464 -9.128581 -74.191322 -0.033147953 -101.63787
9205812500 -1.0683396 135.06516 -9.1346006 -73.497261 -9.1310701 -74.166855 -0.03476993 -101.58782
9205875000 -1.0592669 135.10704 -9.1379461 -73.428337 -9.13027 -74.171715 -0.034809545 -101.70908
9205937500 -1.0539541 135.07751 -9.1328678 -73.500641 -9.1270933 -74.143585 -0.035971992 -101.578
9206000000 -1.0623542 135.05319 -9.1239223 -73.400024 -9.1279764 -74.129478 -0.033784136 -101.55219
9206062500 -1.0616734 135.08798 -9.1312084 -73.460075 -9.1250839 -74.197975 -0.036182206 -101.60729
9206125000 -1.0573814 135.05969 -9.1226883 -73.419136 -9.1277514 -74.061264 -0.038525246 -101.47081
9206187500 -1.0606753 135.02333 -9.1262331 -73.437775 -9.1211386 -74.197311 -0.028694572 -101.55286
9206250000 -1.0665132 134.97757 -9.1457996 -73.470314 -9.1129732 -74.080124 -0.032478224 -101.51279
9206312500 -1.0634439 134.95602 -9.1293612 -73.472031 -9.1275625 -74.239098 -0.036380034 -101.51778
9206375000 -1.0611385 134.95074 -9.1288509 -73.495544 -9.1181021 -74.029991 -0.030139251 -101.46884
9206437500 -1.064049 134.94458 -9.1326275 -73.408432 -9.1343851 -74.176163 -0.04370863 -101.50581
9206500000 -1.0625718 134.9527 -9.135787 -73.441132 -9.1177101 -74.175186 -0.036928404 -101.44662
9206562500 -1.0642955 134.99088 -9.1285658 -73.477013 -9.1217947 -74.090927 -0.032321636 -101.46978
9206625000 -1.0636643 134.86133 -9.1287966 -73.460907 -9.1164265 -74.214981 -0.038296919 -101.44225
9206687500 -1.0605205 134.91943 -9.1223011 -73.484818 -9.1204472 -74.16333 -0.028830858 -101.4349
9206750000 -1.0608629 134.89238 -9.1215248 -73.495598 -9.1276245 -74.141563 -0.039120469 -101.4355
9206812500 -1.0554404 134.90759 -9.1267195 -73.430473 -9.1207857 -74.051514 -0.030839013 -101.37579
9206875000 -1.062127 134.8849 -9.1273613 -73.411064 -9.1095285 -74.05661 -0.034991372 -101.22776
9206937500 -1.0587114 134.8799 -9.1217451 -73.417137 -9.1265316 -74.125816 -0.040637214 -101.31448
9207000000 -1.0604248 134.86992 -9.1342754 -73.426735 -9.1130781 -74.091316 -0.034193184 -101.30949
9207062500 -1.0610572 134.82834 -9.1219196 -73.415504 -9.1065645 -74.136215 -0.031901613 -101.22261
9207125000 -1.0691695 134.80878 -9.1157742 -73.491005 -9.114953 -74.195808 -0.038278438 -101.27973
9207187500 -1.0591735 134.76625 -9.1086912 -73.526779 -9.1261978 -74.090034 -0.041090749 -101.28913
9207250000 -1.0583535 134.76126 -9.1153164 -73.450333 -9.1198425 -74.123978 -0.034987994 -101.28044
9207312500 -1.0542712 134.75128 -9.1219168 -73.441933 -9.109746 -74.092728 -0.035051327 -101.25708
9207375000 -1.0674739 134.76294 -9.1199436 -73.439789 -9.11656 -74.111298 -0.040539294 -101.19279
9207437500 -1.0535685 134.79379 -9.1130152 -73.383568 -9.1244278 -74.106926 -0.040726807 -101.18246
9207500000 -1.0658127 134.78845 -9.1267395 -73.333 -9.1036263 -74.107735 -0.04312769 -101.17935
9207562500 -1.0582949 134.73758 -9.1110277 -73.441269 -9.1071272 -74.109833 -0.039761484 -101.16834
9207625000 -1.0622009 134.65723 -9.1175051 -73.416397 -9.1101856 -74.123184 -0.032634631 -101.11109
9207687500 -1.0614327 134.70377 -9.1089745 -73.409492 -9.101903 -74.125305 -0.030703574 -101.12114
9207750000 -1.0638103 134.71828 -9.1115828 -73.323906 -9.1022243 -74.071831 -0.031782657 -101.09747
9207812500 -1.0619696 134.65776 -9.1165829 -73.445671 -9.1027403 -74.08905 -0.04110973 -101.1197
9207875000 -1.0627214 134.65453 -9.1096792 -73.392586 -9.0992146 -74.144028 -0.033092264 -101.09991
9207937500 -1.0638011 134.62186 -9.1124926 -73.404037 -9.1070814 -74.125046 -0.042828891 -101.11162
9208000000 -1.0680598 134.60788 -9.1091127 -73.462334 -9.1076097 -74.050438 -0.038074277 -101.02143
9208062500 -1.0678585 134.61453 -9.1108246 -73.340576 -9.1055899 -74.07943 -0.043260038 -100.99091
9208125000 -1.0604563 134.56868 -9.1075163 -73.445831 -9.1098433 -74.108345 -0.041434452 -101.03457
9208187500 -1.0550108 134.59938 -9.1031055 -73.413498 -9.1080666 -74.015991 -0.037992198 -100.99895
9208250000 -1.0677506 134.58272 -9.1113167 -73.33902 -9.0915499 -74.12059 -0.031989027 -100.96866
9208312500 -1.0579615 134.59203 -9.1108227 -73.410263 -9.0891638 -74.131851 -0.041509297 -100.97171
9208375000 -1.0669243 134.57025 -9.1020784 -73.360321 -9.1011868 -74.086411 -0.037263613 -100.92477
9208437500 -1.0636796 134.51094 -9.1141634 -73.382042 -9.1092033 -74.010857 -0.051271174 -100.89013
9208500000 -1.0625849 134.50566 -9.1088581 -73.37693 -9.0964479 -74.153061 -0.038203776 -100.94997
9208562500 -1.0656612 134.5354 -9.1047497 -73.361198 -9.1037407 -74.026573 -0.039730769 -100.86095
9208625000 -1.0580276 134.45979 -9.0954866 -73.372421 -9.0974197 -74.031708 -0.047962449 -100.90784
9208687500 -1.0518329 134.45329 -9.1003094 -73.403915 -9.1000643 -74.057739 -0.04035221 -100.85373
9208750000 -1.0605443 134.51204 -9.1087341 -73.389534 -9.0969563 -74.039146 -0.042566042 -100.82389
9208812500 -1.0660257 134.5266 -9.1156349 -73.357437 -9.1005373 -74.118996 -0.039296135 -100.83695
9208875000 -1.064749 134.44341 -9.1028442 -73.397285 -9.0975523 -74.043205 -0.035580184 -100.70639
9208937500 -1.0658337 134.45363 -9.0904493 -73.376854 -9.0878506 -74.086151 -0.040127058 -100.74973
9209000000 -1.0533918 134.44652 -9.1049137 -73.353142 -9.1078377 -74.02787 -0.054671291 -100.76246
9209062500 -1.056771 134.42447 -9.1029568 -73.321594 -9.111434 -73.999298 -0.052256551 -100.70801
9209125000 -1.0710841 134.40366 -9.0944405 -73.385681 -9.0907946 -74.079262 -0.038266126 -100.70662
9209187500 -1.0661206 134.43234 -9.1046867 -73.29142 -9.1052132 -73.946121 -0.054876015 -100.69564
9209250000 -1.0541708 134.31705 -9.1064005 -73.41523 -9.0824528 -74.139023 -0.043175194 -100.67966
9209312500 -1.0640814 134.26898 -9.1031771 -73.389587 -9.0961266 -74.10363 -0.052404389 -100.68218
9209375000 -1.0564846 134.32556 -9.1029673 -73.383858 -9.1067362 -74.013405 -0.060702469 -100.70068
9209437500 -1.070482 134.28658 -9.0985374 -73.326759 -9.0916452 -74.079407 -0.040335234 -100.62926
9209500000 -1.0612955 134.29727 -9.0978003 -73.405228 -9.089345 -74.060966 -0.047319617 -100.55568
9209562500 -1.0764195 134.31738 -9.1123171 -73.33139 -9.0878639 -74.045479 -0.051174592 -100.55096
9209625000 -1.0689678 134.24031 -9.1020536 -73.367348 -9.086318 -73.981369 -0.040042758 -100.55312
9209687500 -1.063282 134.21219 -9.0945997 -73.408043 -9.0836763 -74.051964 -0.041785486 -100.55466
9209750000 -1.0660734 134.2209 -9.0902863 -73.458252 -9.0954208 -74.029877 -0.046559326 -100.57699
9209812500 -1.0643462 134.231 -9.0939741 -73.353951 -9.1001329 -74.091331 -0.056806855 -100.54114
9209875000 -1.0621136 134.21901 -9.0891972 -73.28997 -9.0913048 -74.009735 -0.052603554 -100.492
9209937500 -1.060666 134.30379 -9.1037436 -73.274963 -9.0867748 -74.051826 -0.049054537 -100.54772
9210000000 -1.055384 134.24034 -9.0949659 -73.33181 -9.0873213 -74.070114 -0.064823017 -100.48581
9210062500 -1.0697771 134.16821 -9.0938063 -73.404106 -9.0832033 -74.002892 -0.04974192 -100.47611
9210125000 -1.0591425 134.18253 -9.0891666 -73.355354 -9.0881033 -74.006058 -0.049599189 -100.44704
9210187500 -1.067814 134.14775 -9.0892744 -73.305626 -9.0865459 -73.996758 -0.051374268 -100.40282
9210250000 -1.0681047 134.16823 -9.0898323 -73.330109 -9.078949 -74.005684 -0.051282357 -100.41128
9210312500 -1.063872 134.14195 -9.085043 -73.240395 -9.0900221 -74.00856 -0.052974742 -100.42073
9210375000 -1.0699348 134.16202 -9.0980911 -73.355293 -9.0830908 -73.967026 -0.044485658 -100.30575
9210437500 -1.0565321 134.10373 -9.0864334 -73.348259 -9.0778971 -74.123001 -0.042475425 -100.43002
9210500000 -1.0585743 134.06636 -9.0797615 -73.356682 -9.0836983 -74.061005 -0.040956482 -100.36047
9210562500 -1.0647101 134.09569 -9.0899649 -73.275108 -9.0696716 -73.994438 -0.051643323 -100.29861
9210625000 -1.0684536 134.05705 -9.0953684 -73.302444 -9.0841551 -73.981133 -0.055323422 -100.36845
9210687500 -1.0636399 134.04228 -9.085659 -73.306511 -9.0875864 -74.059631 -0.054748844 -100.26405
9210750000 -1.0668008 134.02817 -9.0834093 -73.387283 -9.0705519 -73.984818 -0.045077004 -100.26693
9210812500 -1.0660878 134.02681 -9.0895824 -73.322571 -9.0746899 -73.981888 -0.053214937 -100.24003
9210875000 -1.0630872 134.0321 -9.094388 -73.3386 -9.075778 -73.98745 -0.052645404 -100.29482
9210937500 -1.0614347 134.03558 -9.0918875 -73.341621 -9.0865097 -73.930283 -0.062582046 -100.20567
9211000000 -1.0604228 134.01373 -9.0795908 -73.333122 -9.086235 -74.050758 -0.047203746 -100.28815
9211062500 -1.0612328 133.98422 -9.0860453 -73.225197 -9.0750628 -73.920662 -0.056138132 -100.18056
9211125000 -1.0648581 133.95909 -9.0780334 -73.351059 -9.0765715 -73.981506 -0.049872771 -100.19102
9211187500 -1.0710181 133.95781 -9.0757895 -73.29422 -9.0746765 -73.980324 -0.051889632 -100.186
9211250000 -1.0694454 133.9482 -9.0774088 -73.352753 -9.082078 -73.957428 -0.044509154 -100.13789
9211312500 -1.0635353 133.96933 -9.0916729 -73.311104 -9.0698061 -73.979149 -0.058141876 -100.16126
9211375000 -1.0613548 133.85114 -9.078186 -73.32296 -9.0740223 -74.016891 -0.060215764 -100.0927
9211437500 -1.0645328 133.87933 -9.0695 -73.239227 -9.0734262 -74.003082 -0.055122346 -100.0788
9211500000 -1.0720028 133.85631 -9.0785828 -73.296646 -9.0650826 -73.95047 -0.043751784 -100.08789
9211562500 -1.0772172 133.89432 -9.0927973 -73.295288 -9.068368 -73.935181 -0.058113128 -100.07785
9211625000 -1.0637724 133.82683 -9.0832396 -73.385315 -9.0669432 -74.019257 -0.049970459 -100.08292
9211687500 -1.0754071 133.87054 -9.0860329 -73.253578 -9.0656557 -73.969872 -0.052183688 -99.996979
9211750000 -1.0680236 133.78159 -9.0738926 -73.306068 -9.0681963 -73.949059 -0.053942934 -99.992096
9211812500 -1.0744145 133.81157 -9.0973873 -73.253845 -9.0752573 -73.966736 -0.071751378 -100.02169
9211875000 -1.0725991 133.77388 -9.0734339 -73.32663 -9.0609398 -73.900391 -0.053249128 -99.86264
9211937500 -1.0648801 133.79117 -9.0695286 -73.290924 -9.0630178 -73.978439 -0.059101202 -99.912186
9212000000 -1.0634253 133.73958 -9.076088 -73.295761 -9.0670643 -74.055237 -0.064347595 -99.979378
9212062500 -1.0672278 133.71671 -9.0715666 -73.238716 -9.0671005 -73.966637 -0.06206388 -99.952827
9212125000 -1.0657215 133.67351 -9.0593081 -73.274834 -9.0704041 -74.032448 -0.055465303 -99.87191
9212187500 -1.0612893 133.73369 -9.066082 -73.240692 -9.0585041 -73.926254 -0.061470486 -99.858177
