!Agilent Technologies,N5242A,MY51221714,A.09.90.19
!Agilent N5242A: A.09.90.19
!Date: Tuesday, March 26, 2024 16:17:59
!Correction: S11(Full 2 Port(1,2)) 
!S21(Full 2 Port(1,2)) 
!S12(Full 2 Port(1,2)) 
!S22(Full 2 Port(1,2)) 
!S2P File: Measurements: S11, S21, S12, S22:
# Hz S  dB   R 50
9200000000 -1.0085055 136.45427 -9.1798429 -73.06971 -9.1612492 -73.737083 0.0074686538 -102.86182
9200062500 -1.0105133 136.45445 -9.1768551 -73.070366 -9.1630268 -73.75515 0.0096563594 -102.82573
9200125000 -1.0027766 136.44888 -9.1669044 -73.054459 -9.1614294 -73.736732 0.0026777426 -102.82703
9200187500 -1.0132188 136.4639 -9.16782 -72.967049 -9.1636534 -73.763123 0.015004871 -102.73988
9200250000 -1.001076 136.36661 -9.1707735 -73.012093 -9.1706371 -73.660248 0.012185155 -102.76231
9200312500 -1.0124161 136.42737 -9.1799393 -73.016678 -9.1669807 -73.665833 0.002705351 -102.77399
9200375000 -1.0071119 136.3757 -9.1695271 -73.029053 -9.1707115 -73.771591 0.012896162 -102.69772
9200437500 -1.0003562 136.41119 -9.1709166 -72.990227 -9.1623592 -73.707939 0.016875539 -102.7171
9200500000 -1.0013225 136.34647 -9.1711864 -73.018585 -9.1638975 -73.65435 0.0054725814 -102.69405
9200562500 -0.99950165 136.34401 -9.1676207 -73.011948 -9.1684742 -73.725235 0.012052173 -102.76431
9200625000 -1.0081842 136.36021 -9.1719046 -73.009277 -9.1649904 -73.679741 0.0071434914 -102.65739
9200687500 -0.99826473 136.37718 -9.1742678 -72.928268 -9.1661463 -73.708031 0.0043095541 -102.6109
9200750000 -1.0036907 136.29637 -9.1699858 -72.995529 -9.1724806 -73.656921 0.007137937 -102.61712
9200812500 -1.0190784 136.3161 -9.1765032 -72.973396 -9.1616964 -73.703186 -0.00045926074 -102.62836
9200875000 -0.99809796 136.36995 -9.1660995 -72.914917 -9.1721182 -73.681732 -0.00036411267 -102.62396
9200937500 -1.0031489 136.29988 -9.1746149 -72.979622 -9.1489859 -73.766197 0.0098308204 -102.58672
9201000000 -1.0017625 136.23613 -9.175334 -73.056953 -9.1549196 -73.720825 0.010688658 -102.61001
9201062500 -1.0062935 136.23769 -9.1609688 -72.92646 -9.1554317 -73.734711 0.0027467397 -102.57124
9201125000 -1.0085531 136.27185 -9.1606464 -72.949409 -9.1628065 -73.763229 0.01018317 -102.57438
9201187500 -1.0095538 136.16803 -9.1646338 -73.000252 -9.1476297 -73.671028 -0.0034835755 -102.42886
9201250000 -1.0073191 136.26607 -9.1672945 -72.925354 -9.1664896 -73.716156 -0.0026907006 -102.49641
9201312500 -1.0174156 136.20338 -9.1635809 -72.947685 -9.1533766 -73.764107 0.012470911 -102.55544
9201375000 -1.0148683 136.20389 -9.161459 -72.895462 -9.1610146 -73.613243 -0.0006725117 -102.44495
9201437500 -1.0101357 136.16565 -9.1633472 -72.955666 -9.1569986 -73.633514 0.00277208 -102.47152
9201500000 -1.0103439 136.17229 -9.1677265 -73.000648 -9.1564827 -73.685883 0.0064537539 -102.45764
9201562500 -1.0087959 136.10863 -9.1705484 -72.902275 -9.1671743 -73.650551 -0.0096578719 -102.43411
9201625000 -1.0057362 136.13043 -9.1628742 -73.030258 -9.1511555 -73.65229 -0.0016758905 -102.35791
9201687500 -1.0157501 136.12474 -9.1657887 -72.860367 -9.1541185 -73.663811 -0.0047129146 -102.3289
9201750000 -1.0142366 136.132 -9.1646709 -72.887077 -9.1459513 -73.687828 0.0078253606 -102.33922
9201812500 -1.0036552 136.12711 -9.1572266 -72.946053 -9.1585035 -73.652328 -0.0073536783 -102.41956
9201875000 -1.0105691 136.0554 -9.1544752 -72.935524 -9.1582441 -73.695663 0.0058523752 -102.27377
9201937500 -1.0165327 136.04123 -9.1643305 -72.957077 -9.152215 -73.711487 0.0033368627 -102.32819
9202000000 -1.0118266 136.05423 -9.1529255 -72.945366 -9.1476879 -73.731804 0.0074634966 -102.33237
9202062500 -1.0152445 136.05499 -9.1489868 -72.931259 -9.1485739 -73.668266 0.0043609329 -102.24401
9202125000 -1.0138559 136.06967 -9.1758852 -72.99305 -9.1596823 -73.610023 -0.0050032637 -102.29254
9202187500 -1.0064092 136.01164 -9.1573143 -72.991272 -9.1468906 -73.665779 0.0024873137 -102.18512
9202250000 -1.012118 135.96098 -9.1621685 -73.009186 -9.1465759 -73.613289 -0.0036300314 -102.1978
9202312500 -1.0117916 136.00224 -9.1649408 -72.921204 -9.1403065 -73.721504 0.0045280815 -102.2157
9202375000 -1.0056735 135.96812 -9.151454 -72.916222 -9.1487665 -73.65477 -0.0068469979 -102.13802
9202437500 -1.0085002 135.95984 -9.1501513 -72.932938 -9.1398096 -73.604355 0.0097571444 -102.19168
9202500000 -1.0156933 135.93286 -9.1563215 -72.990204 -9.1606054 -73.636307 -0.0031900338 -102.16813
9202562500 -1.003363 135.9489 -9.1580238 -72.894409 -9.1456995 -73.630684 -0.0050295494 -102.18902
9202625000 -1.0114005 135.98247 -9.1513281 -72.952095 -9.1407251 -73.584297 -0.0010780875 -102.10236
9202687500 -1.0096453 135.93997 -9.1510983 -72.879158 -9.1417618 -73.619896 0.0040149703 -102.03252
9202750000 -1.0002135 135.86949 -9.138916 -72.921867 -9.1419935 -73.621033 -0.00045090917 -102.04733
9202812500 -1.0134839 135.85445 -9.1571541 -72.941658 -9.1313295 -73.618835 0.0073652174 -102.02892
9202875000 -1.0032263 135.85771 -9.1421537 -72.877487 -9.1396818 -73.654716 0.0090284366 -102.02998
9202937500 -1.007095 135.85136 -9.1447611 -72.962837 -9.1359644 -73.589485 0.003639539 -102.01417
9203000000 -1.0129648 135.86447 -9.1452017 -72.927719 -9.1349459 -73.70755 -0.00087789586 -102.02839
9203062500 -1.0083057 135.81906 -9.1573505 -72.91288 -9.1365738 -73.582039 -0.0070819734 -102.036
9203125000 -1.01294 135.77679 -9.1559877 -72.964745 -9.1381865 -73.583359 -0.0015439775 -101.95286
9203187500 -1.0050911 135.79172 -9.1531591 -72.977554 -9.1339283 -73.589828 0.00126585 -101.94086
9203250000 -1.0096189 135.77087 -9.1405277 -72.960442 -9.1354046 -73.592361 0.0024833153 -101.93695
9203312500 -1.0188415 135.7437 -9.1512613 -72.899605 -9.1384726 -73.660698 0.0071030995 -101.92261
9203375000 -1.0089102 135.8064 -9.1444588 -72.954391 -9.1408119 -73.586441 -0.005184012 -101.90965
9203437500 -1.0150288 135.78783 -9.1442719 -72.962929 -9.13589 -73.565269 -0.0015009225 -101.88251
9203500000 -1.0099334 135.72311 -9.1419563 -72.95034 -9.1455116 -73.601303 -0.0022161899 -101.9016
9203562500 -1.0184119 135.7074 -9.1513281 -72.920326 -9.1482058 -73.606941 -0.012766142 -101.87004
9203625000 -1.0114301 135.73962 -9.1345625 -72.994331 -9.1321926 -73.624466 -0.00079269789 -101.91689
9203687500 -1.0185853 135.68066 -9.1555614 -72.884918 -9.1414909 -73.612938 -0.011238455 -101.84367
9203750000 -1.0156499 135.64542 -9.1514788 -72.881706 -9.131382 -73.586868 0.005272944 -101.76051
9203812500 -1.0116628 135.6714 -9.1374817 -72.93486 -9.1358156 -73.561714 0.0028895964 -101.75516
9203875000 -1.0081902 135.69644 -9.1490126 -72.860558 -9.1371355 -73.643295 -0.01228343 -101.78096
9203937500 -1.0182463 135.65492 -9.1400175 -72.83577 -9.1320143 -73.559761 -0.006144661 -101.76458
9204000000 -1.011041 135.67036 -9.1306162 -72.857986 -9.1332932 -73.597809 -0.001227029 -101.69206
9204062500 -1.0102512 135.67049 -9.1378775 -72.806313 -9.1307125 -73.633217 -0.0084768096 -101.67564
9204125000 -1.0122342 135.62854 -9.1380157 -72.853806 -9.1308622 -73.614799 0.003449054 -101.69707
9204187500 -1.0109739 135.59474 -9.1308155 -72.90213 -9.1291647 -73.614464 -0.00795021 -101.69958
9204250000 -1.0194045 135.61436 -9.1409321 -72.842667 -9.1250648 -73.551666 0.0047525722 -101.69571
9204312500 -1.0161312 135.61443 -9.1272068 -72.837364 -9.1221285 -73.602005 -0.0037475629 -101.60475
9204375000 -1.0043826 135.57317 -9.1325722 -72.832138 -9.1298151 -73.588524 -0.0058442256 -101.66335
9204437500 -1.0211158 135.57693 -9.1431265 -72.932304 -9.1249971 -73.486046 0.00039273937 -101.59403
9204500000 -1.0193644 135.56403 -9.1413021 -72.877449 -9.1384535 -73.602676 -0.011901658 -101.623
9204562500 -1.0167457 135.49901 -9.1419964 -72.975685 -9.1256657 -73.581314 0.0026496986 -101.62771
9204625000 -1.0049832 135.51393 -9.1237955 -72.837379 -9.124403 -73.597496 -0.0074198842 -101.52169
9204687500 -1.0131196 135.47554 -9.1355925 -72.897911 -9.1234474 -73.520187 -0.0039569978 -101.47501
9204750000 -1.0182045 135.47299 -9.1280355 -72.81675 -9.1355343 -73.534424 -0.019594178 -101.52666
9204812500 -1.0082232 135.48026 -9.1312246 -72.841194 -9.1295595 -73.630058 -0.0039277049 -101.52337
9204875000 -1.0137839 135.50421 -9.1277781 -72.901772 -9.1329575 -73.53653 -0.0048441384 -101.54014
9204937500 -1.0076773 135.43929 -9.1221066 -72.868919 -9.1196022 -73.565605 0.0011011257 -101.47831
9205000000 -1.0057818 135.39427 -9.1373329 -72.796227 -9.1187353 -73.545959 -0.016533531 -101.458
9205062500 -1.014786 135.3669 -9.1292839 -72.86808 -9.1061335 -73.551514 -0.0063437303 -101.45095
9205125000 -1.0132149 135.41895 -9.1350107 -72.826096 -9.113615 -73.588852 -0.0065316241 -101.38245
9205187500 -1.0124723 135.42606 -9.1324759 -72.839844 -9.1328926 -73.511856 -0.013496916 -101.40118
9205250000 -1.0083396 135.33684 -9.1278419 -72.908569 -9.1226521 -73.546013 -0.011811742 -101.43044
9205312500 -1.0079858 135.40491 -9.1172619 -72.831253 -9.1185989 -73.534164 -0.0082439026 -101.40687
9205375000 -1.0127184 135.31018 -9.1173058 -72.857819 -9.1175499 -73.586037 -0.0014625986 -101.37569
9205437500 -1.0076069 135.32561 -9.1298752 -72.844948 -9.1152678 -73.586464 -0.0060193967 -101.40693
9205500000 -1.0192009 135.3027 -9.1217394 -72.804893 -9.1142349 -73.581413 -0.0029873366 -101.25751
9205562500 -1.0159713 135.32768 -9.121048 -72.790115 -9.1303511 -73.556206 -0.012984326 -101.25268
9205625000 -1.0232887 135.31406 -9.1182146 -72.82576 -9.1099596 -73.571358 -0.0021251694 -101.29533
9205687500 -1.0102335 135.29143 -9.1141577 -72.818642 -9.112978 -73.60321 -0.010513964 -101.2804
9205750000 -1.0164729 135.23154 -9.1186018 -72.875175 -9.109807 -73.614716 -0.0020989215 -101.26981
9205812500 -1.0197289 135.20181 -9.118721 -72.840782 -9.1246338 -73.563034 -0.012332822 -101.19649
9205875000 -1.0082318 135.23282 -9.1263933 -72.814972 -9.125061 -73.560234 -0.0085301474 -101.28179
9205937500 -1.0148345 135.20782 -9.1181545 -72.822151 -9.104044 -73.512115 -0.015722068 -101.21432
9206000000 -1.0142926 135.21373 -9.1076412 -72.774559 -9.1071854 -73.583336 -0.0042360472 -101.16632
9206062500 -1.0160758 135.20503 -9.1169176 -72.805038 -9.1058931 -73.520149 -0.010146003 -101.17574
9206125000 -1.0090533 135.1684 -9.1000061 -72.829514 -9.1101379 -73.465973 -0.0072741201 -101.145
9206187500 -1.012669 135.14276 -9.1118317 -72.879478 -9.1116867 -73.534172 0.0012665895 -101.15693
9206250000 -1.0105727 135.11493 -9.1150312 -72.880798 -9.1130619 -73.457031 -0.011436882 -101.13792
9206312500 -1.008332 135.0777 -9.1057358 -72.810234 -9.1092072 -73.623405 -0.0061104512 -101.13875
9206375000 -1.0155287 135.14418 -9.1229467 -72.852898 -9.1064854 -73.440872 -0.0055390941 -101.09651
9206437500 -1.009699 135.07707 -9.1157284 -72.854851 -9.1133957 -73.569138 -0.011292119 -101.17253
9206500000 -1.0152899 135.11043 -9.1187134 -72.825073 -9.106184 -73.502983 -0.019532053 -101.11775
9206562500 -1.0150001 135.08694 -9.1082134 -72.94059 -9.1146822 -73.471863 -0.0090938173 -101.06677
9206625000 -1.0209988 134.99028 -9.1097727 -72.87545 -9.1056843 -73.604935 -0.010043116 -101.09158
9206687500 -1.0186096 135.05807 -9.125246 -72.788597 -9.1066885 -73.539238 -0.0097993929 -101.0465
9206750000 -1.0108902 135.06412 -9.1080256 -72.775085 -9.1073723 -73.540665 -0.013096356 -101.02698
9206812500 -1.0103209 135.06752 -9.1045208 -72.836311 -9.107461 -73.544418 -0.010145228 -101.05426
9206875000 -1.0166411 135.03722 -9.1146641 -72.808212 -9.0984383 -73.490738 -0.012584108 -100.92061
9206937500 -1.0123513 135.00134 -9.1064196 -72.831558 -9.1079731 -73.531654 -0.016843574 -100.92473
9207000000 -1.0122135 135.00468 -9.101697 -72.818726 -9.1011791 -73.523712 -0.0091096405 -100.93531
9207062500 -1.016472 135.03255 -9.1030579 -72.836243 -9.104291 -73.470253 -0.019608065 -100.81627
9207125000 -1.0214527 134.93355 -9.1015949 -72.883163 -9.1045952 -73.572227 -0.012036132 -100.84843
9207187500 -1.0106661 134.91702 -9.0932112 -72.875641 -9.1045847 -73.51403 -0.0175188 -100.92021
9207250000 -1.0163109 134.91757 -9.1052628 -72.885719 -9.103261 -73.566742 -0.010479295 -100.94595
9207312500 -1.0088303 134.89641 -9.1051407 -72.835785 -9.0970249 -73.44915 -0.015895415 -100.84139
9207375000 -1.0210209 134.86369 -9.1096516 -72.866272 -9.0971556 -73.511681 -0.014432983 -100.80726
9207437500 -1.0116125 134.93866 -9.1075802 -72.763748 -9.1142731 -73.425758 -0.018234627 -100.78391
9207500000 -1.014263 134.92528 -9.1063318 -72.766991 -9.0954409 -73.455795 -0.02413195 -100.77665
9207562500 -1.0065583 134.88855 -9.099556 -72.770706 -9.0970516 -73.436615 -0.017888159 -100.78087
9207625000 -1.0139043 134.79379 -9.1015511 -72.776382 -9.0938749 -73.479698 -0.012089349 -100.69187
9207687500 -1.0170234 134.84776 -9.097683 -72.800461 -9.0903559 -73.488068 -0.01127708 -100.76009
9207750000 -1.014899 134.85437 -9.1067514 -72.770164 -9.0874567 -73.545494 -0.013597852 -100.7497
9207812500 -1.010928 134.84607 -9.1039982 -72.789215 -9.0947266 -73.48455 -0.017396701 -100.73053
9207875000 -1.0156983 134.81213 -9.1047335 -72.780052 -9.0890675 -73.524315 -0.013001354 -100.72559
9207937500 -1.0160295 134.72865 -9.1140499 -72.839661 -9.1030693 -73.512276 -0.026427113 -100.71872
9208000000 -1.0201393 134.79817 -9.1081505 -72.805954 -9.0906439 -73.46331 -0.01134992 -100.66372
9208062500 -1.0207174 134.79272 -9.0984211 -72.756622 -9.0946531 -73.500473 -0.018036809 -100.6361
9208125000 -1.0189793 134.71466 -9.1040916 -72.78981 -9.0944653 -73.419037 -0.020742031 -100.59743
9208187500 -1.0132347 134.79179 -9.1036701 -72.762604 -9.0957298 -73.529633 -0.018123509 -100.67907
9208250000 -1.0220428 134.73233 -9.1085234 -72.690964 -9.0848904 -73.491013 -0.015650749 -100.5904
9208312500 -1.019539 134.75107 -9.1126585 -72.755936 -9.0784588 -73.430466 -0.015920687 -100.5542
9208375000 -1.0156158 134.71997 -9.093255 -72.793121 -9.0871449 -73.450623 -0.016500143 -100.55838
9208437500 -1.0143822 134.63945 -9.098259 -72.797951 -9.0952358 -73.376801 -0.02346997 -100.48235
9208500000 -1.0178796 134.60542 -9.0917196 -72.782654 -9.0917807 -73.499985 -0.015847791 -100.50993
9208562500 -1.0187531 134.67798 -9.0914745 -72.823296 -9.0939341 -73.472893 -0.01708615 -100.50266
9208625000 -1.012463 134.58662 -9.085597 -72.726479 -9.0871658 -73.403748 -0.018324355 -100.51543
9208687500 -1.0046302 134.63495 -9.0766048 -72.809349 -9.0786219 -73.506592 -0.0091062048 -100.50571
9208750000 -1.0133839 134.67537 -9.0887623 -72.729431 -9.0860567 -73.361694 -0.017885404 -100.40021
9208812500 -1.0204668 134.66267 -9.0974627 -72.756607 -9.0907393 -73.47554 -0.01855596 -100.43259
9208875000 -1.0142796 134.57689 -9.0819855 -72.845718 -9.0895796 -73.426575 -0.016251521 -100.39693
9208937500 -1.0209444 134.59172 -9.0904398 -72.819954 -9.0842524 -73.456352 -0.013437773 -100.37104
9209000000 -1.0063809 134.56593 -9.0917845 -72.766983 -9.0838957 -73.449501 -0.023355506 -100.42869
9209062500 -1.0200903 134.57884 -9.0886497 -72.756714 -9.0925045 -73.408821 -0.022982065 -100.34237
9209125000 -1.0226996 134.55045 -9.0867863 -72.752335 -9.0731392 -73.49839 -0.017441023 -100.33609
9209187500 -1.0093783 134.53833 -9.0803671 -72.745583 -9.0920753 -73.441719 -0.026768409 -100.3107
9209250000 -1.0087467 134.50989 -9.0869875 -72.743073 -9.0844841 -73.449539 -0.023614628 -100.25078
9209312500 -1.014334 134.43338 -9.0999937 -72.7911 -9.0826111 -73.458534 -0.026018269 -100.28879
9209375000 -1.0094513 134.50558 -9.0893755 -72.721794 -9.0849628 -73.349976 -0.026509365 -100.24104
9209437500 -1.0243402 134.43288 -9.0833387 -72.755302 -9.0841293 -73.476608 -0.022091459 -100.22455
9209500000 -1.0154569 134.43141 -9.0837917 -72.821213 -9.0760231 -73.459892 -0.019161966 -100.24454
9209562500 -1.0209198 134.43782 -9.094656 -72.773178 -9.07936 -73.4179 -0.024533153 -100.17186
9209625000 -1.0103234 134.39268 -9.0729265 -72.80117 -9.0784397 -73.384117 -0.020739609 -100.14198
9209687500 -1.0200747 134.33247 -9.0794392 -72.814201 -9.0742521 -73.381859 -0.018999172 -100.12875
9209750000 -1.0140928 134.37886 -9.0731611 -72.813469 -9.0654898 -73.376137 -0.013968951 -100.16617
9209812500 -1.0116628 134.33348 -9.0842266 -72.715515 -9.0842237 -73.44165 -0.028758051 -100.09457
9209875000 -1.018832 134.37596 -9.0782204 -72.710823 -9.0665493 -73.375854 -0.021799136 -100.10091
9209937500 -1.0169542 134.43402 -9.0868921 -72.670853 -9.0812559 -73.429901 -0.028114615 -100.17403
9210000000 -1.0093515 134.36458 -9.0806751 -72.642746 -9.0719795 -73.398056 -0.035893165 -100.06693
9210062500 -1.0167705 134.33929 -9.0824461 -72.706436 -9.0748367 -73.34124 -0.027128734 -100.0237
9210125000 -1.0143857 134.29332 -9.0852642 -72.686745 -9.0707617 -73.367805 -0.023512574 -100.03084
9210187500 -1.0193753 134.37688 -9.076128 -72.684441 -9.0709906 -73.393852 -0.026620874 -100.01936
9210250000 -1.0150191 134.34145 -9.0744514 -72.682938 -9.0688686 -73.391678 -0.027814221 -100.02071
9210312500 -1.0220702 134.29147 -9.0840855 -72.689964 -9.0767612 -73.400284 -0.031507853 -100.00899
9210375000 -1.014514 134.29529 -9.0724201 -72.692337 -9.0721321 -73.414299 -0.024276938 -99.947289
9210437500 -1.0097212 134.25594 -9.0841665 -72.727898 -9.0664911 -73.456764 -0.017006593 -100.03422
9210500000 -1.0114158 134.23663 -9.0654612 -72.755562 -9.0552197 -73.380875 -0.016397018 -99.953598
9210562500 -1.0164568 134.24605 -9.0785542 -72.704445 -9.0719175 -73.440361 -0.028352426 -99.943192
9210625000 -1.0166438 134.23705 -9.0845003 -72.69619 -9.0753803 -73.393356 -0.028206386 -99.916039
9210687500 -1.0181108 134.24178 -9.0790625 -72.671043 -9.0655689 -73.420006 -0.028916288 -99.892662
9210750000 -1.0171446 134.22426 -9.076911 -72.716454 -9.0646687 -73.393379 -0.03052878 -99.898109
9210812500 -1.0152278 134.1649 -9.0712976 -72.707817 -9.0559549 -73.333099 -0.031379588 -99.872269
9210875000 -1.01968 134.17928 -9.0799084 -72.702751 -9.0553074 -73.350273 -0.029457232 -99.885582
9210937500 -1.0158564 134.18805 -9.0691261 -72.654091 -9.0677443 -73.311188 -0.031955544 -99.817825
9211000000 -1.0164357 134.12885 -9.0802574 -72.69474 -9.0712748 -73.407516 -0.020443583 -99.849976
9211062500 -1.0145396 134.1517 -9.0664434 -72.640816 -9.0577984 -73.335358 -0.025742101 -99.81002
9211125000 -1.0132143 134.11078 -9.0694351 -72.676926 -9.0580034 -73.344131 -0.022054842 -99.770729
9211187500 -1.0246395 134.11273 -9.0714417 -72.680031 -9.0539293 -73.354469 -0.028950419 -99.78196
9211250000 -1.0204523 134.07071 -9.0594788 -72.724052 -9.0626297 -73.321327 -0.021125985 -99.718216
9211312500 -1.0134207 134.10249 -9.0594606 -72.665771 -9.0565901 -73.348999 -0.028575193 -99.726135
9211375000 -1.013965 133.98906 -9.0615101 -72.740448 -9.0654631 -73.391022 -0.034142368 -99.695518
9211437500 -1.0111187 134.03056 -9.0586147 -72.613434 -9.0511389 -73.371201 -0.020487303 -99.628479
9211500000 -1.0195057 134.00209 -9.0695133 -72.686646 -9.0638733 -73.368217 -0.036020994 -99.71199
9211562500 -1.0241957 134.05064 -9.0698833 -72.681091 -9.0572205 -73.392387 -0.041880142 -99.689507
9211625000 -1.0185297 133.94839 -9.0577631 -72.764259 -9.0437517 -73.419571 -0.020404866 -99.711411
9211687500 -1.0235056 133.99657 -9.0720263 -72.692184 -9.063364 -73.275864 -0.033865057 -99.568069
9211750000 -1.0196743 133.94075 -9.0630274 -72.647583 -9.0612068 -73.345367 -0.029984808 -99.561623
9211812500 -1.022481 133.952 -9.0734797 -72.720062 -9.0620642 -73.340805 -0.040387142 -99.65506
9211875000 -1.0210338 133.93057 -9.0603447 -72.705124 -9.0554934 -73.272438 -0.028459078 -99.499832
9211937500 -1.0132138 133.94794 -9.0556746 -72.689644 -9.0572042 -73.287956 -0.032984376 -99.555305
9212000000 -1.0186567 133.83972 -9.0464315 -72.701538 -9.0525532 -73.387398 -0.030267671 -99.562469
9212062500 -1.0191962 133.89218 -9.055397 -72.647377 -9.0451927 -73.339676 -0.028832175 -99.563766
9212125000 -1.0153918 133.81776 -9.0471687 -72.678642 -9.0699482 -73.37262 -0.03468759 -99.514938
9212187500 -1.0167905 133.85918 -9.050478 -72.62542 -9.0396748 -73.343941 -0.033344351 -99.464508
