!Agilent Technologies,N5242A,MY51221714,A.09.90.19
!Agilent N5242A: A.09.90.19
!Date: Tuesday, March 26, 2024 16:18:59
!Correction: S11(Full 2 Port(1,2)) 
!S21(Full 2 Port(1,2)) 
!S12(Full 2 Port(1,2)) 
!S22(Full 2 Port(1,2)) 
!S2P File: Measurements: S11, S21, S12, S22:
# Hz S  dB   R 50
9200000000 -0.99407089 136.86084 -9.2293749 -72.98877 -9.2121305 -73.719727 0.0040679234 -103.1413
9200062500 -0.99827439 136.843 -9.2149763 -72.982399 -9.2176485 -73.689461 0.010371868 -103.06931
9200125000 -0.99467242 136.82074 -9.2173872 -73.004074 -9.2171583 -73.759171 0.00076797354 -103.05705
9200187500 -1.004257 136.85709 -9.2302752 -72.867516 -9.2140589 -73.721794 0.010701419 -102.99607
9200250000 -0.99456853 136.78468 -9.2151403 -72.947899 -9.2092524 -73.678177 0.010818324 -103.05157
9200312500 -1.0012102 136.79277 -9.2215853 -72.963631 -9.2183552 -73.655563 0.0021826799 -103.02696
9200375000 -1.0027028 136.76886 -9.222723 -72.910278 -9.2091303 -73.787773 0.013364259 -103.01645
9200437500 -0.99627388 136.7758 -9.2167435 -72.892693 -9.2087746 -73.603203 0.012465546 -102.92693
9200500000 -0.99358886 136.74516 -9.2249956 -72.959267 -9.2152662 -73.635208 0.0012693779 -102.92815
9200562500 -0.99294209 136.72495 -9.2224026 -72.911888 -9.2223186 -73.654205 0.0098938122 -102.99065
9200625000 -0.99913436 136.7149 -9.2224131 -72.916023 -9.209281 -73.631111 0.0021257065 -102.90227
9200687500 -0.99131024 136.71483 -9.2207546 -72.916756 -9.2178211 -73.666702 0.0038305656 -102.90697
9200750000 -0.99885666 136.64606 -9.2121077 -72.951904 -9.215167 -73.589951 -0.00086880778 -102.88021
9200812500 -1.0115221 136.67912 -9.2197809 -72.936806 -9.2108192 -73.657761 -0.0091122407 -102.91556
9200875000 -0.99063426 136.76569 -9.2081366 -72.868111 -9.2094641 -73.64418 0.0016999391 -102.9126
9200937500 -0.99549526 136.67982 -9.2241163 -72.906021 -9.2104559 -73.616531 0.0095656309 -102.81143
9201000000 -0.99188846 136.60759 -9.2105398 -72.964645 -9.204752 -73.637733 0.003151784 -102.82037
9201062500 -0.99104822 136.61681 -9.2084885 -72.945007 -9.2035122 -73.670937 0.012643271 -102.84852
9201125000 -0.99941462 136.62624 -9.2128668 -72.82518 -9.2141695 -73.603065 0.0021642677 -102.7321
9201187500 -1.0040001 136.53706 -9.210063 -72.918304 -9.2111206 -73.610054 -8.7527609e-005 -102.65749
9201250000 -0.9985013 136.63194 -9.2019253 -72.893402 -9.2099953 -73.624062 0.0020786515 -102.77175
9201312500 -1.0120323 136.56358 -9.2203846 -72.859932 -9.2032185 -73.653015 0.0080777546 -102.77358
9201375000 -1.0079609 136.55836 -9.2094412 -72.878563 -9.2028999 -73.609047 0.0012559317 -102.68678
9201437500 -0.99801368 136.56413 -9.2174759 -72.836281 -9.2118416 -73.593185 -0.0044104736 -102.74194
9201500000 -1.0074817 136.56735 -9.2064857 -72.866539 -9.2018042 -73.583817 -0.00090501405 -102.67995
9201562500 -1.0073544 136.50848 -9.2169609 -72.943802 -9.2108974 -73.605659 -0.0050571146 -102.71382
9201625000 -1.0008742 136.52165 -9.2053318 -72.859795 -9.1909504 -73.589882 0.00055206125 -102.59051
9201687500 -1.0062495 136.47083 -9.2120028 -72.884422 -9.2090912 -73.562477 -0.0048782323 -102.53397
9201750000 -1.0072316 136.45752 -9.2174807 -72.911812 -9.1974297 -73.598694 0.0068993359 -102.60474
9201812500 -0.99695474 136.48125 -9.2110624 -72.896912 -9.206419 -73.561241 -0.011188525 -102.61969
9201875000 -0.99888664 136.41621 -9.1974869 -72.9319 -9.2018967 -73.637329 0.010388033 -102.54781
9201937500 -1.0096927 136.41458 -9.2154579 -72.836411 -9.1994114 -73.652397 0.0010697755 -102.5758
9202000000 -1.0034388 136.43857 -9.2095308 -72.826462 -9.200366 -73.65377 0.0032855356 -102.53138
9202062500 -1.0093435 136.368 -9.2050152 -72.925957 -9.1952505 -73.591835 0.010644991 -102.52097
9202125000 -1.0051727 136.43478 -9.2116098 -72.884529 -9.1964388 -73.5765 -0.0014177151 -102.53588
9202187500 -0.99579316 136.39806 -9.1967821 -72.928474 -9.1956758 -73.514748 0.00022075319 -102.42457
9202250000 -1.0028576 136.35599 -9.2069159 -72.849648 -9.1904087 -73.526733 0.0011062827 -102.47579
9202312500 -1.0001916 136.34618 -9.2125893 -72.870773 -9.1905775 -73.597168 0.003526825 -102.4416
9202375000 -1.003675 136.3006 -9.2033815 -72.923645 -9.1836662 -73.572151 -0.0013198587 -102.37937
9202437500 -1.0025964 136.33583 -9.2006111 -72.876328 -9.1973095 -73.568512 0.0051023099 -102.44907
9202500000 -1.0149503 136.33926 -9.2191658 -72.862244 -9.1964922 -73.576218 -0.0021272213 -102.44401
9202562500 -0.99615461 136.28139 -9.2021961 -72.832718 -9.1971569 -73.573822 -0.0077074291 -102.44202
9202625000 -1.0060052 136.35139 -9.1935825 -72.891548 -9.182992 -73.556114 -0.0048027597 -102.34928
9202687500 -1.0039691 136.31265 -9.2045527 -72.859589 -9.1903591 -73.556931 0.0032356132 -102.35934
9202750000 -0.9930594 136.23871 -9.1880369 -72.924599 -9.1901655 -73.625366 0.0062945299 -102.38024
9202812500 -1.0058784 136.23914 -9.1990995 -72.864685 -9.1730776 -73.58004 0.0060011367 -102.2674
9202875000 -0.99821305 136.22432 -9.1941338 -72.80809 -9.1824322 -73.58506 0.0012055353 -102.23969
9202937500 -1.0011277 136.2121 -9.2074251 -72.898079 -9.1883812 -73.513588 0.00012799104 -102.28408
9203000000 -1.0019498 136.24591 -9.1927471 -72.882027 -9.1852407 -73.55423 0.0026284615 -102.25908
9203062500 -0.99997503 136.13425 -9.1891069 -72.896179 -9.1834002 -73.539383 -0.010950366 -102.28431
9203125000 -1.0065247 136.17839 -9.2034025 -72.863258 -9.1802912 -73.580406 0.0016095331 -102.20269
9203187500 -1.0026218 136.14954 -9.197979 -72.921921 -9.1733294 -73.59832 0.0052188993 -102.19442
9203250000 -1.0032296 136.14655 -9.1872864 -72.923378 -9.1821527 -73.540169 0.0027525637 -102.23121
9203312500 -1.0107305 136.15414 -9.1937742 -72.881401 -9.1787949 -73.666679 0.0032120971 -102.1983
9203375000 -0.99770385 136.14296 -9.1887007 -72.865234 -9.1853514 -73.555763 -0.0040392098 -102.14346
9203437500 -1.0086472 136.15051 -9.197752 -72.825424 -9.182436 -73.58493 0.0027592292 -102.19033
9203500000 -1.0045564 136.11621 -9.1989555 -72.833351 -9.1836376 -73.55793 0.0045754341 -102.12463
9203562500 -1.0063266 136.1144 -9.1910563 -72.8722 -9.1973858 -73.509773 -0.015274239 -102.16351
9203625000 -1.0055809 136.09082 -9.1969948 -72.919563 -9.1862135 -73.508369 -0.0085200612 -102.13495
9203687500 -1.0118668 136.04939 -9.2033081 -72.871101 -9.1961746 -73.603775 -0.0075545711 -102.09574
9203750000 -1.0063918 136.06059 -9.1926193 -72.827026 -9.1732893 -73.54599 0.0081364298 -102.06883
9203812500 -1.0073515 136.06055 -9.1767712 -72.907928 -9.1767168 -73.577141 -0.0082907677 -102.04267
9203875000 -1.0008644 136.0461 -9.1920681 -72.785011 -9.177969 -73.481956 -0.012429682 -102.03055
9203937500 -1.0033987 136.02206 -9.177084 -72.84433 -9.1798449 -73.530983 -0.002486709 -102.01395
9204000000 -1.0078834 136.04181 -9.180253 -72.794724 -9.187974 -73.567986 -0.0089800637 -102.01128
9204062500 -1.0003566 136.03029 -9.1837778 -72.789894 -9.170577 -73.529526 -0.0075321868 -101.99462
9204125000 -1.0001756 136.03531 -9.1798487 -72.766533 -9.1673889 -73.560745 0.0011706622 -101.93961
9204187500 -1.0089858 135.92545 -9.1929541 -72.83342 -9.1813459 -73.550529 -0.017839568 -101.98494
9204250000 -1.0073715 135.93857 -9.1819057 -72.846245 -9.1767511 -73.488174 0.00035777147 -101.9478
9204312500 -0.99884832 135.98175 -9.1781521 -72.734238 -9.1799841 -73.558212 -0.0082574487 -101.85049
9204375000 -0.99639612 135.91495 -9.183177 -72.832771 -9.1709948 -73.525414 -0.0034425233 -101.95764
9204437500 -1.0091987 135.95216 -9.1878405 -72.814323 -9.1764708 -73.49958 0.0043305303 -101.83977
9204500000 -1.0089254 135.9321 -9.1873245 -72.828682 -9.1843081 -73.561005 -0.0099027269 -101.90377
9204562500 -1.0059737 135.87552 -9.1907854 -72.90136 -9.1797867 -73.549515 0.003178128 -101.89561
9204625000 -0.99782848 135.89386 -9.1757946 -72.817001 -9.1735029 -73.609474 -0.0076153874 -101.80392
9204687500 -1.0011078 135.87698 -9.1800995 -72.778091 -9.1703577 -73.492142 -0.0066523897 -101.76711
9204750000 -1.0140022 135.84975 -9.1768503 -72.749619 -9.1776657 -73.534897 -0.014441414 -101.81479
9204812500 -0.99264479 135.82498 -9.1747847 -72.776848 -9.1733379 -73.555984 0.0011180595 -101.76541
9204875000 -0.99960172 135.87788 -9.1782055 -72.801109 -9.1905603 -73.519119 -0.013345238 -101.83282
9204937500 -0.99950498 135.80588 -9.1664724 -72.84433 -9.1654959 -73.565681 -0.0010560022 -101.76353
9205000000 -0.99323606 135.77504 -9.1778622 -72.79509 -9.1625051 -73.517738 -0.015290728 -101.76156
9205062500 -1.0071855 135.75748 -9.1812382 -72.858864 -9.1559334 -73.566498 -0.0047862679 -101.73341
9205125000 -1.0041232 135.77744 -9.1779146 -72.771599 -9.1702452 -73.603401 -0.011494817 -101.66515
9205187500 -1.0066508 135.7726 -9.1775303 -72.799347 -9.1731205 -73.490067 -0.016985072 -101.65272
9205250000 -1.0017838 135.73553 -9.176981 -72.792923 -9.1776266 -73.516151 -0.014680982 -101.70424
9205312500 -1.0002366 135.76292 -9.1702423 -72.762718 -9.1778898 -73.491699 -0.016237427 -101.64042
9205375000 -0.99910313 135.69173 -9.1610594 -72.812286 -9.1802177 -73.474396 -0.010846493 -101.6067
9205437500 -1.0001296 135.70618 -9.1703415 -72.764496 -9.166934 -73.47773 -0.0073451633 -101.60851
9205500000 -1.0089579 135.61664 -9.1700363 -72.748489 -9.1627331 -73.531601 -0.0077685779 -101.53053
9205562500 -1.0042074 135.67892 -9.1596661 -72.770798 -9.1634226 -73.473412 -0.0020654842 -101.54475
9205625000 -1.0102979 135.67772 -9.1769457 -72.748146 -9.1651001 -73.472061 -0.013023374 -101.47007
9205687500 -1.0056014 135.68315 -9.1636305 -72.701836 -9.1589003 -73.544662 -0.014373187 -101.52896
9205750000 -1.0066413 135.58095 -9.1694441 -72.832634 -9.154006 -73.464897 -0.0030250249 -101.47693
9205812500 -1.0097313 135.58646 -9.1599245 -72.800377 -9.160244 -73.560555 -0.010885271 -101.49858
9205875000 -1.0000092 135.64314 -9.1742182 -72.75386 -9.1652174 -73.431541 -0.0088630198 -101.4869
9205937500 -1.0007179 135.54369 -9.1626444 -72.813744 -9.1587276 -73.403877 -0.012157547 -101.44434
9206000000 -1.0036398 135.61156 -9.1577187 -72.686127 -9.1641731 -73.479851 -0.0092277871 -101.42523
9206062500 -1.0057521 135.57776 -9.1649561 -72.8358 -9.1546297 -73.553902 -0.011424902 -101.47249
9206125000 -1.0025346 135.56796 -9.1577435 -72.797958 -9.1597452 -73.409706 -0.010538124 -101.32992
9206187500 -1.0001807 135.55321 -9.1548319 -72.799629 -9.1496143 -73.474739 0.00014208832 -101.39336
9206250000 -1.0054359 135.48647 -9.1699457 -72.786629 -9.1651525 -73.435799 -0.014000759 -101.35782
9206312500 -1.001498 135.44788 -9.1664543 -72.815628 -9.1637363 -73.568214 -0.012186825 -101.39949
9206375000 -1.002416 135.49614 -9.1612282 -72.760674 -9.157979 -73.435181 -0.011540594 -101.35235
9206437500 -0.99790144 135.47151 -9.1550722 -72.743019 -9.1557798 -73.46875 -0.012115439 -101.36936
9206500000 -1.0077056 135.47606 -9.1770821 -72.735321 -9.1558208 -73.423691 -0.020584337 -101.33747
9206562500 -1.0070502 135.4492 -9.1667604 -72.840652 -9.1583872 -73.479065 -0.016224736 -101.36287
9206625000 -1.0089202 135.37604 -9.1585093 -72.793571 -9.155468 -73.519035 -0.0097022234 -101.33417
9206687500 -1.002477 135.45584 -9.1642103 -72.738739 -9.1525812 -73.450119 -0.00031034119 -101.32516
9206750000 -1.0043944 135.39684 -9.1532049 -72.788193 -9.1514368 -73.39959 -0.015661025 -101.26834
9206812500 -0.99850601 135.42105 -9.1591892 -72.77549 -9.1506147 -73.539604 -0.001912091 -101.32778
9206875000 -1.010489 135.41086 -9.1715832 -72.793114 -9.1568155 -73.386055 -0.017749386 -101.13869
9206937500 -1.005216 135.40331 -9.1547594 -72.774422 -9.1548681 -73.488625 -0.014531618 -101.21172
9207000000 -1.0071648 135.386 -9.1528912 -72.724052 -9.15417 -73.473961 -0.012146175 -101.18119
9207062500 -1.0025023 135.3318 -9.1460838 -72.767258 -9.1422052 -73.407959 -0.012879732 -101.03735
9207125000 -1.0187474 135.32857 -9.1538763 -72.754311 -9.1424265 -73.45285 -0.012237139 -101.11234
9207187500 -1.0040866 135.27863 -9.1492577 -72.810387 -9.1553373 -73.432579 -0.015918527 -101.17143
9207250000 -1.0034148 135.30722 -9.1561575 -72.710297 -9.1527719 -73.497932 -0.010464103 -101.1825
9207312500 -0.9990564 135.29796 -9.1507225 -72.751671 -9.1502771 -73.414536 -0.0085113076 -101.07876
9207375000 -1.0154594 135.26112 -9.1572304 -72.784958 -9.1377697 -73.407066 -0.010947917 -101.03281
9207437500 -0.99998415 135.32065 -9.1533985 -72.710526 -9.1571016 -73.434998 -0.012794743 -101.07842
9207500000 -1.0076815 135.32544 -9.1620979 -72.768776 -9.1439161 -73.446434 -0.0263192 -101.06442
9207562500 -1.0008644 135.27367 -9.151825 -72.810089 -9.1404181 -73.433357 -0.016485542 -101.02798
9207625000 -1.0069095 135.14505 -9.1549587 -72.802444 -9.1429033 -73.423409 -0.015933227 -100.95443
9207687500 -1.0084801 135.23869 -9.1389055 -72.774933 -9.1421423 -73.428413 -0.010303236 -100.98609
9207750000 -1.007794 135.17557 -9.1506062 -72.745979 -9.1350651 -73.434982 -0.0091781011 -100.9633
9207812500 -1.0054398 135.17647 -9.1505156 -72.810951 -9.1414747 -73.389107 -0.024560822 -100.97012
9207875000 -1.0027275 135.19257 -9.1544704 -72.704697 -9.141408 -73.492676 -0.021171696 -100.93082
9207937500 -1.0071799 135.11546 -9.1482849 -72.687881 -9.1439934 -73.402306 -0.022164021 -100.97724
9208000000 -1.0086685 135.13882 -9.1480465 -72.734322 -9.145462 -73.381645 -0.015519007 -100.89565
9208062500 -1.0088333 135.16374 -9.1403303 -72.663025 -9.1430798 -73.462555 -0.015179005 -100.92663
9208125000 -1.0120207 135.15132 -9.1540022 -72.705879 -9.134223 -73.442108 -0.020650955 -100.85656
9208187500 -0.99853849 135.13991 -9.1368809 -72.717667 -9.1384439 -73.440536 -0.016227517 -100.88618
9208250000 -1.0167838 135.1306 -9.1579342 -72.618523 -9.1418009 -73.396896 -0.023219751 -100.81334
9208312500 -0.99485016 135.12053 -9.1326303 -72.662155 -9.1335812 -73.491158 -0.016533364 -100.84091
9208375000 -1.0091066 135.07384 -9.1490726 -72.772957 -9.1408157 -73.397644 -0.018459542 -100.75044
9208437500 -1.0076098 134.99881 -9.1466064 -72.744019 -9.1397123 -73.379715 -0.023798112 -100.76469
9208500000 -1.0137012 135.01221 -9.1458855 -72.784294 -9.1394272 -73.397949 -0.021278081 -100.76474
9208562500 -1.0135627 135.09836 -9.1460609 -72.701965 -9.1381931 -73.394684 -0.022155436 -100.7709
9208625000 -1.0057337 135.01848 -9.1271334 -72.664284 -9.1426191 -73.384254 -0.023587465 -100.75304
9208687500 -0.99858332 134.96135 -9.1352797 -72.786606 -9.1368008 -73.407898 -0.016884148 -100.7163
9208750000 -1.0041662 135.00085 -9.1385517 -72.644012 -9.1317863 -73.379135 -0.022691742 -100.67678
9208812500 -1.0111997 135.06061 -9.1411581 -72.687462 -9.1348248 -73.364227 -0.013305683 -100.65882
9208875000 -1.0069383 134.97194 -9.1295357 -72.721115 -9.1281509 -73.349083 -0.013240795 -100.60969
9208937500 -1.0022606 134.95757 -9.1234665 -72.722931 -9.127182 -73.309715 -0.014385421 -100.61124
9209000000 -1.0029137 134.97502 -9.1422062 -72.694466 -9.1285286 -73.368858 -0.026815349 -100.68063
9209062500 -1.0061922 134.94012 -9.1335592 -72.666641 -9.1346397 -73.419151 -0.02130037 -100.65987
9209125000 -1.0089649 134.87749 -9.1277533 -72.74453 -9.1297235 -73.342636 -0.012790093 -100.56705
9209187500 -1.0066749 134.92659 -9.1245623 -72.663902 -9.1385841 -73.416862 -0.018761437 -100.57638
9209250000 -1.0037616 134.87836 -9.1344624 -72.724831 -9.1298685 -73.487305 -0.025222868 -100.52564
9209312500 -1.0044597 134.78651 -9.1404686 -72.677505 -9.1291943 -73.367409 -0.027298365 -100.54598
9209375000 -0.99964476 134.88931 -9.1341887 -72.668556 -9.1372986 -73.356224 -0.026529254 -100.55444
9209437500 -1.0143025 134.78043 -9.1341763 -72.702812 -9.1306944 -73.391724 -0.022100694 -100.48665
9209500000 -1.0039693 134.80435 -9.1258631 -72.698334 -9.1275215 -73.342323 -0.023889035 -100.44499
9209562500 -1.014196 134.83109 -9.1415005 -72.691185 -9.1325607 -73.286888 -0.032236665 -100.38759
9209625000 -1.0040482 134.77008 -9.1301527 -72.736694 -9.1261015 -73.435539 -0.024411868 -100.48358
9209687500 -1.0038625 134.69879 -9.1244011 -72.682213 -9.1380835 -73.316666 -0.032548603 -100.40153
9209750000 -1.0088924 134.77109 -9.1277447 -72.717766 -9.1240816 -73.338303 -0.014618247 -100.44369
9209812500 -1.0020171 134.7627 -9.1276121 -72.640663 -9.1289034 -73.368774 -0.024377787 -100.37897
9209875000 -1.0050176 134.76392 -9.1268015 -72.647255 -9.1283579 -73.384506 -0.028584857 -100.40139
9209937500 -1.0105408 134.8194 -9.1372318 -72.627396 -9.1223879 -73.287163 -0.025888106 -100.40424
9210000000 -0.99905497 134.73959 -9.1205339 -72.635857 -9.1093836 -73.336365 -0.028783971 -100.29729
9210062500 -1.014541 134.71288 -9.1272669 -72.627808 -9.120224 -73.368057 -0.024531798 -100.33386
9210125000 -1.0019352 134.68297 -9.133028 -72.681137 -9.1220961 -73.312714 -0.025179395 -100.32841
9210187500 -1.010833 134.72501 -9.1320753 -72.661598 -9.112958 -73.347816 -0.027290732 -100.29061
9210250000 -1.00565 134.69951 -9.1168909 -72.655472 -9.1183882 -73.278908 -0.035955392 -100.29821
9210312500 -1.0085909 134.66699 -9.1153145 -72.600632 -9.1186819 -73.426254 -0.026270892 -100.29971
9210375000 -1.0113972 134.67316 -9.1229868 -72.61779 -9.1242809 -73.297394 -0.023901815 -100.14987
9210437500 -1.0047401 134.61884 -9.1247931 -72.645226 -9.1170683 -73.375526 -0.02264248 -100.28282
9210500000 -1.0027436 134.61903 -9.1117878 -72.697495 -9.10958 -73.379593 -0.018185547 -100.23862
9210562500 -1.0149486 134.60469 -9.1360893 -72.610451 -9.1171541 -73.319138 -0.029198267 -100.16964
9210625000 -1.0032718 134.591 -9.1267986 -72.586288 -9.1276464 -73.270462 -0.03471664 -100.21926
9210687500 -1.007531 134.59891 -9.1192951 -72.713585 -9.1204681 -73.380867 -0.031347189 -100.18385
9210750000 -1.0031939 134.58994 -9.1141329 -72.614136 -9.1098604 -73.284065 -0.022280172 -100.13256
9210812500 -1.0083659 134.51199 -9.1174583 -72.682938 -9.1086626 -73.210983 -0.029877346 -100.08601
9210875000 -1.0093778 134.56453 -9.1234741 -72.621765 -9.1147127 -73.335594 -0.02561979 -100.18948
9210937500 -1.0058163 134.55058 -9.120307 -72.627792 -9.1175346 -73.252312 -0.034436185 -100.13146
9211000000 -1.005625 134.53949 -9.1218891 -72.611801 -9.1168537 -73.300148 -0.023898745 -100.09941
9211062500 -1.0039442 134.54704 -9.1078463 -72.634903 -9.1079502 -73.292488 -0.030854285 -100.09188
9211125000 -1.0045985 134.47652 -9.1182022 -72.578819 -9.1034641 -73.230263 -0.023827331 -100.01931
9211187500 -1.0113002 134.48616 -9.1130533 -72.590637 -9.1020889 -73.276703 -0.023903327 -100.02071
9211250000 -1.0123162 134.49167 -9.1042175 -72.605522 -9.1172247 -73.233109 -0.029867914 -100.01452
9211312500 -1.0104904 134.47038 -9.1097937 -72.608925 -9.1165037 -73.296379 -0.030440299 -100.05992
9211375000 -1.0103625 134.362 -9.1172714 -72.68821 -9.1056967 -73.371376 -0.036178492 -99.975601
9211437500 -0.99936253 134.42891 -9.1053772 -72.60154 -9.110755 -73.23085 -0.028879153 -99.888947
9211500000 -1.009726 134.41095 -9.1088629 -72.645622 -9.1071472 -73.320198 -0.024851739 -100.00485
9211562500 -1.0113628 134.46657 -9.1111507 -72.629494 -9.1020069 -73.30735 -0.035282999 -99.957581
9211625000 -1.0108923 134.37408 -9.1059227 -72.68959 -9.0970984 -73.33387 -0.022108326 -99.918663
9211687500 -1.0159929 134.43706 -9.1090832 -72.566406 -9.1100788 -73.332657 -0.036105055 -99.879242
9211750000 -1.0079117 134.34637 -9.0973148 -72.500427 -9.1059294 -73.274284 -0.029323367 -99.837059
9211812500 -1.0085424 134.34732 -9.1212263 -72.604553 -9.1089401 -73.312065 -0.041555636 -99.854118
9211875000 -1.0157841 134.32314 -9.1084528 -72.55204 -9.096489 -73.237755 -0.024447406 -99.759781
9211937500 -1.006632 134.3443 -9.1027451 -72.589554 -9.0975571 -73.281075 -0.031459179 -99.807877
9212000000 -1.0035567 134.25511 -9.0930185 -72.585587 -9.0990534 -73.331787 -0.031070003 -99.785927
9212062500 -1.008214 134.23369 -9.1137753 -72.568069 -9.1000023 -73.230453 -0.035941307 -99.772057
9212125000 -1.0108628 134.24413 -9.1127911 -72.617752 -9.1152 -73.345192 -0.032986574 -99.79258
