!Agilent Technologies,N5242A,MY51221714,A.09.90.19
!Agilent N5242A: A.09.90.19
!Date: Tuesday, March 26, 2024 16:19:57
!Correction: S11(Full 2 Port(1,2)) 
!S21(Full 2 Port(1,2)) 
!S12(Full 2 Port(1,2)) 
!S22(Full 2 Port(1,2)) 
!S2P File: Measurements: S11, S21, S12, S22:
# Hz S  dB   R 50
9200000000 -1.0106297 136.61946 -9.1747007 -73.100204 -9.1635904 -73.921776 -0.0022853715 -103.15939
9200062500 -1.0091032 136.59396 -9.1789389 -73.173309 -9.1665058 -73.854256 0.0039658765 -103.12667
9200125000 -1.0056753 136.59172 -9.1732883 -73.102859 -9.1650476 -73.864082 -0.013136566 -103.09709
9200187500 -1.0115914 136.59891 -9.173214 -73.043816 -9.1615238 -73.913994 0.0078014056 -103.07803
9200250000 -0.99863601 136.54175 -9.167098 -73.152397 -9.1677732 -73.808899 0.00036339884 -103.06809
9200312500 -1.0111122 136.53275 -9.1724606 -73.107193 -9.1678925 -73.795387 -0.0035619659 -103.04926
9200375000 -1.0103713 136.51097 -9.1684113 -73.136276 -9.1559563 -73.939682 0.0064371973 -103.03761
9200437500 -1.0069841 136.54778 -9.1772404 -73.162903 -9.1558056 -73.843124 0.0060904878 -103.01006
9200500000 -1.0141766 136.51563 -9.1804037 -73.133614 -9.1558371 -73.80278 -0.0052501615 -102.94347
9200562500 -1.0027331 136.45499 -9.1673298 -73.110413 -9.1636915 -73.830498 0.0078626312 -102.98473
9200625000 -1.0103158 136.50035 -9.1685009 -73.130203 -9.155838 -73.816132 0.0041900105 -102.93675
9200687500 -0.9966085 136.4922 -9.1626902 -73.07048 -9.1754723 -73.824409 -0.0013190689 -102.89531
9200750000 -1.0083686 136.43434 -9.1728296 -73.174133 -9.1686945 -73.764656 -0.0053723776 -102.93177
9200812500 -1.0142436 136.44258 -9.1765356 -73.069885 -9.166029 -73.796814 -0.017965306 -102.8766
9200875000 -1.0033231 136.52193 -9.1591396 -73.042328 -9.1670609 -73.837959 -0.013080417 -102.92221
9200937500 -1.003444 136.40585 -9.1628628 -73.152321 -9.1586456 -73.791908 0.0026290878 -102.83311
9201000000 -1.0079808 136.39322 -9.1720371 -73.161972 -9.1466217 -73.818947 0.0036212706 -102.87717
9201062500 -1.008953 136.4039 -9.1601658 -73.030579 -9.1539202 -73.84449 -0.0046122316 -102.86593
9201125000 -1.0065011 136.39551 -9.1622829 -73.088097 -9.162365 -73.861557 -0.006534108 -102.80983
9201187500 -1.0089396 136.33171 -9.1655369 -73.029556 -9.1479912 -73.789253 -0.0051060342 -102.70844
9201250000 -1.0119735 136.34166 -9.1541986 -73.133087 -9.1678028 -73.749084 -0.012829076 -102.7464
9201312500 -1.0191807 136.35219 -9.1630192 -73.105972 -9.1472626 -73.821098 0.010235805 -102.77139
9201375000 -1.0179248 136.32991 -9.1672602 -72.992943 -9.1555319 -73.792053 -0.012344913 -102.73655
9201437500 -1.0042529 136.30273 -9.1563768 -73.104332 -9.1617498 -73.806725 -0.0078874342 -102.79482
9201500000 -1.0121735 136.29985 -9.169467 -73.102409 -9.1602612 -73.762741 -0.0060488363 -102.70322
9201562500 -1.0078794 136.27226 -9.1692247 -73.043289 -9.1583099 -73.784798 -0.014885097 -102.72767
9201625000 -1.0064071 136.29172 -9.1612597 -72.989799 -9.1504774 -73.761414 -0.017659687 -102.67705
9201687500 -1.0095763 136.26123 -9.1521492 -73.008018 -9.1505518 -73.75988 -0.005556799 -102.58448
9201750000 -1.0102179 136.22749 -9.1621418 -73.070244 -9.1393642 -73.804382 0.0042044041 -102.63023
9201812500 -1.0030206 136.26068 -9.1593275 -73.045769 -9.1614189 -73.790703 -0.017755335 -102.69804
9201875000 -1.0061841 136.20398 -9.1470165 -73.103813 -9.1482229 -73.805603 0.0035558343 -102.55759
9201937500 -1.0215926 136.1718 -9.1594563 -73.050415 -9.1408014 -73.813187 -0.00045027648 -102.64287
9202000000 -1.010515 136.18822 -9.1664324 -73.043755 -9.144824 -73.789032 -0.01099088 -102.59066
9202062500 -1.0160402 136.2108 -9.1485519 -73.052963 -9.1517935 -73.77774 -0.0028981788 -102.55373
9202125000 -1.0101671 136.19354 -9.1711807 -73.047867 -9.1493511 -73.754135 -0.01509541 -102.58704
9202187500 -1.0111731 136.12408 -9.1630878 -73.153412 -9.1535997 -73.734772 -0.0088678496 -102.45543
9202250000 -1.0105895 136.13097 -9.154623 -73.077515 -9.1424828 -73.723808 -0.012191216 -102.50675
9202312500 -1.0098004 136.1517 -9.1592245 -72.99366 -9.1476374 -73.775558 -0.0059973872 -102.47996
9202375000 -1.0103772 136.12451 -9.1669998 -73.066238 -9.1428318 -73.769264 -0.0092037721 -102.41306
9202437500 -1.0108994 136.12704 -9.1470289 -73.078369 -9.1405945 -73.775826 -0.0046934634 -102.51328
9202500000 -1.0187787 136.07922 -9.1591301 -73.100746 -9.1547937 -73.796486 -0.009922957 -102.48799
9202562500 -1.006826 136.05867 -9.1506128 -73.028 -9.1421862 -73.74794 -0.014394386 -102.4437
9202625000 -1.0120597 136.10301 -9.154623 -73.065002 -9.1391077 -73.749069 -0.012200721 -102.3923
9202687500 -1.0072802 136.05708 -9.1515713 -73.0439 -9.1477308 -73.754036 -0.0085047279 -102.3253
9202750000 -0.99956787 135.9772 -9.1387701 -73.043289 -9.1425133 -73.748795 -0.011760585 -102.38874
9202812500 -1.0135186 135.9931 -9.1599369 -73.096809 -9.1272154 -73.739311 -0.0015544828 -102.32061
9202875000 -1.0063866 135.97916 -9.1372156 -73.088463 -9.1401443 -73.776657 -0.012710252 -102.28454
9202937500 -1.0077392 135.99091 -9.1409197 -73.100418 -9.1390562 -73.70163 -0.0107058 -102.30959
9203000000 -1.0205436 136.01746 -9.1541405 -73.047249 -9.1381598 -73.752769 -0.0085855881 -102.23761
9203062500 -1.0104444 135.94904 -9.1406555 -73.037216 -9.1423159 -73.726501 -0.013549551 -102.29254
9203125000 -1.0058118 135.92523 -9.1409378 -73.017662 -9.1325693 -73.783173 -0.0083273249 -102.30859
9203187500 -1.012082 135.91791 -9.1592264 -73.114441 -9.1323309 -73.805771 -0.0066550081 -102.24947
9203250000 -1.0068976 135.87497 -9.1503277 -72.998123 -9.1351566 -73.727493 -0.0083785104 -102.24445
9203312500 -1.0181007 135.92706 -9.1500292 -73.072319 -9.1335239 -73.775002 -0.0072893435 -102.18662
9203375000 -1.0064075 135.91234 -9.1455507 -72.994247 -9.1312857 -73.737137 -0.0015752794 -102.14594
9203437500 -1.01766 135.93484 -9.1578302 -73.089699 -9.1355543 -73.7556 -0.011702318 -102.20364
9203500000 -1.0107124 135.85248 -9.1423006 -73.034485 -9.1279621 -73.760574 -0.0015985895 -102.13882
9203562500 -1.0179124 135.87393 -9.1513968 -73.0271 -9.1447382 -73.739273 -0.021494739 -102.19819
9203625000 -1.0140573 135.84741 -9.1505976 -73.039047 -9.1456966 -73.706802 -0.017785944 -102.13721
9203687500 -1.0166756 135.8297 -9.1515512 -73.050964 -9.132843 -73.744179 -0.014905034 -102.16422
9203750000 -1.0120364 135.82561 -9.1468391 -73.003868 -9.1288328 -73.741089 -0.0034248149 -102.10027
9203812500 -1.0116216 135.83676 -9.1264811 -73.031319 -9.1318264 -73.746208 -0.015690891 -102.07671
9203875000 -1.0094477 135.83537 -9.1482401 -72.909134 -9.1437731 -73.790886 -0.028356349 -102.0804
9203937500 -1.0183553 135.78168 -9.1449003 -73.059402 -9.1282682 -73.666245 -0.0087150708 -102.06124
9204000000 -1.0148613 135.78209 -9.1270771 -72.992424 -9.1357956 -73.675262 -0.01120402 -101.96738
9204062500 -1.0121039 135.78767 -9.1369314 -72.974823 -9.1222544 -73.753159 -0.01169415 -102.01513
9204125000 -1.0210874 135.75352 -9.1447964 -72.951897 -9.1242552 -73.759499 -0.0031563197 -101.9921
9204187500 -1.0244087 135.66432 -9.14258 -73.079346 -9.1377869 -73.71032 -0.02593139 -101.95726
9204250000 -1.0166441 135.74397 -9.1287012 -72.923531 -9.1219044 -73.714142 -0.0072990339 -101.96532
9204312500 -1.0167146 135.74562 -9.1358137 -72.906761 -9.1277103 -73.682327 -0.017781503 -101.84769
9204375000 -1.005053 135.68246 -9.1390209 -72.985931 -9.1248837 -73.733925 -0.0091962777 -101.97445
9204437500 -1.0168653 135.72742 -9.1303396 -72.985039 -9.1219511 -73.657372 -0.011118946 -101.93778
9204500000 -1.0207878 135.68982 -9.1349678 -73.012421 -9.1371183 -73.766724 -0.022316851 -101.94537
9204562500 -1.0147055 135.61456 -9.1319618 -73.079239 -9.1304312 -73.698746 -0.0072251162 -101.95724
9204625000 -1.0013134 135.65776 -9.1288214 -72.936028 -9.1241827 -73.734833 -0.020458883 -101.85892
9204687500 -1.0120528 135.64058 -9.1349707 -72.969925 -9.1210699 -73.69355 -0.01205384 -101.79176
9204750000 -1.017192 135.58919 -9.1340675 -72.943954 -9.125495 -73.717735 -0.02690771 -101.84103
9204812500 -1.0042849 135.5817 -9.1357727 -72.932091 -9.1193743 -73.748306 -0.0095228478 -101.82049
9204875000 -1.0116107 135.64098 -9.1104946 -72.962601 -9.1372766 -73.672005 -0.020824336 -101.80883
9204937500 -1.007707 135.55066 -9.1203413 -72.982277 -9.1123075 -73.726387 -0.010660713 -101.76045
9205000000 -1.0013262 135.52066 -9.1271544 -72.981499 -9.1222181 -73.699165 -0.030277837 -101.80724
9205062500 -1.0133098 135.51825 -9.135561 -73.01487 -9.115201 -73.687851 -0.015143125 -101.72871
9205125000 -1.0068085 135.53065 -9.1235895 -72.874802 -9.1204376 -73.713905 -0.018687727 -101.67957
9205187500 -1.0145123 135.51744 -9.1256943 -72.922501 -9.1175737 -73.721001 -0.01901575 -101.72755
9205250000 -1.0073175 135.4597 -9.1169167 -73.007111 -9.1229858 -73.635292 -0.01971364 -101.75228
9205312500 -1.0082622 135.54752 -9.1059237 -72.925896 -9.1194143 -73.662758 -0.01919122 -101.64622
9205375000 -1.0095584 135.48657 -9.1058044 -72.981194 -9.1149321 -73.65979 -0.013005036 -101.63206
9205437500 -1.0044993 135.47182 -9.1132069 -72.929756 -9.121563 -73.697517 -0.023168325 -101.66317
9205500000 -1.01832 135.43369 -9.1204662 -72.898468 -9.109663 -73.729469 -0.0065716119 -101.55687
9205562500 -1.0124013 135.43063 -9.11938 -72.953484 -9.1202574 -73.663277 -0.014112631 -101.6002
9205625000 -1.0176225 135.43246 -9.1229906 -72.944763 -9.1178246 -73.671982 -0.020048944 -101.52609
9205687500 -1.0080669 135.42468 -9.1158304 -72.858444 -9.1138067 -73.720261 -0.020546446 -101.56586
9205750000 -1.0167764 135.35347 -9.1142015 -72.98719 -9.117981 -73.638802 -0.018775849 -101.51219
9205812500 -1.0192233 135.32426 -9.120801 -72.995461 -9.1209745 -73.651321 -0.016690852 -101.47668
9205875000 -1.0043809 135.37779 -9.1157351 -72.957886 -9.1201458 -73.681938 -0.023047801 -101.56891
9205937500 -1.0107719 135.35126 -9.1123037 -73.003189 -9.1091118 -73.658226 -0.023403814 -101.49026
9206000000 -1.0144081 135.35588 -9.1084309 -72.921692 -9.1136265 -73.680733 -0.019922521 -101.48966
9206062500 -1.0108098 135.33215 -9.1181803 -73.042297 -9.1139507 -73.664406 -0.024617136 -101.52719
9206125000 -1.0058423 135.30269 -9.1007233 -72.951271 -9.107419 -73.65799 -0.025857989 -101.4338
9206187500 -1.0137706 135.32706 -9.1126986 -72.986565 -9.1111383 -73.640884 -0.0053222599 -101.36731
9206250000 -1.0210813 135.28003 -9.1202192 -72.927132 -9.1096907 -73.59848 -0.015886215 -101.41261
9206312500 -1.0093523 135.19389 -9.1156387 -73.017715 -9.110858 -73.778824 -0.018963436 -101.45723
9206375000 -1.0165863 135.28365 -9.108902 -72.908325 -9.1133614 -73.576157 -0.019024018 -101.36922
9206437500 -1.0066516 135.2123 -9.1118393 -72.969002 -9.1168365 -73.619781 -0.021215511 -101.39445
9206500000 -1.0190803 135.22418 -9.1130524 -72.981499 -9.1045551 -73.589478 -0.027212488 -101.34039
9206562500 -1.0139601 135.24315 -9.1117258 -73.008644 -9.1032181 -73.589737 -0.016704086 -101.34217
9206625000 -1.0195093 135.16583 -9.1167908 -72.923943 -9.1076078 -73.713257 -0.024368536 -101.34486
9206687500 -1.0187709 135.20795 -9.1255322 -72.998909 -9.1002254 -73.6222 -0.016922206 -101.33537
9206750000 -1.013255 135.21451 -9.1093378 -72.957077 -9.1108875 -73.620239 -0.022637498 -101.27709
9206812500 -1.009949 135.22237 -9.1086969 -72.898125 -9.1119394 -73.705315 -0.015087808 -101.35768
9206875000 -1.0166751 135.1566 -9.1130762 -72.933334 -9.0992174 -73.613411 -0.019137707 -101.18562
9206937500 -1.018295 135.15974 -9.11024 -72.898865 -9.1052694 -73.624519 -0.024302345 -101.23125
9207000000 -1.0171654 135.11102 -9.1124811 -72.955856 -9.1033993 -73.680565 -0.023647891 -101.24135
9207062500 -1.0150822 135.12436 -9.1096582 -72.928741 -9.1072073 -73.624596 -0.025202123 -101.08981
9207125000 -1.0211383 135.08188 -9.0992794 -72.959167 -9.1034241 -73.645447 -0.025402991 -101.08813
9207187500 -1.011443 135.02631 -9.1022797 -73.007439 -9.105175 -73.608604 -0.020297661 -101.16345
9207250000 -1.0131723 135.05307 -9.1046 -72.948212 -9.0976915 -73.675537 -0.020879416 -101.24281
9207312500 -1.0131674 135.04703 -9.1094618 -72.913681 -9.1007938 -73.645058 -0.019929303 -101.18959
9207375000 -1.0180749 135.01828 -9.1047544 -72.965851 -9.1004381 -73.589478 -0.030154772 -101.06116
9207437500 -1.014776 135.11176 -9.1068964 -72.85128 -9.1066828 -73.639183 -0.024352539 -101.11285
9207500000 -1.0118761 135.03603 -9.1124001 -72.839233 -9.0928698 -73.570038 -0.030074682 -101.04272
9207562500 -1.0081463 135.05621 -9.1008148 -72.87928 -9.0918274 -73.662903 -0.028360479 -101.07421
9207625000 -1.0143632 134.94043 -9.0915499 -72.959053 -9.103652 -73.668144 -0.029669935 -100.98818
9207687500 -1.0180392 134.9771 -9.1007948 -72.952454 -9.1005869 -73.58387 -0.025056237 -101.02246
9207750000 -1.0177472 134.96436 -9.1016588 -72.922066 -9.0953207 -73.605354 -0.020753918 -101.01383
9207812500 -1.0125613 134.95174 -9.1000366 -72.930611 -9.0919466 -73.57135 -0.025828088 -100.96838
9207875000 -1.0143081 134.95976 -9.0976505 -72.899246 -9.0910273 -73.627701 -0.023200594 -100.96352
9207937500 -1.0184165 134.87915 -9.1037922 -72.839592 -9.0961905 -73.602562 -0.027905069 -101.01208
9208000000 -1.0221171 134.91072 -9.1047516 -72.913612 -9.0929651 -73.5644 -0.022390492 -100.93423
9208062500 -1.0158006 134.90355 -9.1020489 -72.889328 -9.0900164 -73.605682 -0.028555252 -100.89155
9208125000 -1.0197178 134.88051 -9.1002674 -72.930748 -9.0939455 -73.636826 -0.029123286 -100.92637
9208187500 -1.012554 134.89703 -9.0971746 -72.921509 -9.0893707 -73.599106 -0.029528979 -100.89352
9208250000 -1.0215232 134.85687 -9.0986738 -72.868095 -9.0931358 -73.617928 -0.028103502 -100.86882
9208312500 -1.0153954 134.87424 -9.0998621 -72.897835 -9.0812702 -73.553375 -0.022237033 -100.8718
9208375000 -1.0206863 134.84763 -9.090291 -72.833809 -9.0935583 -73.549515 -0.026046472 -100.76997
9208437500 -1.0228556 134.74905 -9.099864 -72.928482 -9.0943708 -73.552086 -0.037611034 -100.7891
9208500000 -1.0186076 134.75714 -9.0975981 -72.829193 -9.0909891 -73.570313 -0.026832312 -100.71654
9208562500 -1.0203066 134.81282 -9.0905695 -72.902657 -9.0961981 -73.59407 -0.03094569 -100.79585
9208625000 -1.0120847 134.7403 -9.0862532 -72.894859 -9.0887003 -73.586319 -0.037031956 -100.78487
9208687500 -1.0059229 134.73636 -9.0889196 -72.867912 -9.0864773 -73.589645 -0.018933257 -100.7514
9208750000 -1.0154343 134.75285 -9.086319 -72.872551 -9.0870609 -73.557716 -0.0285517 -100.7184
9208812500 -1.0197273 134.78937 -9.0876989 -72.865433 -9.0913477 -73.597984 -0.021405628 -100.71819
9208875000 -1.0204715 134.66469 -9.086772 -72.96376 -9.0881224 -73.550285 -0.025568316 -100.63991
9208937500 -1.0216469 134.7077 -9.0861368 -72.990166 -9.0805426 -73.509682 -0.024611659 -100.65846
9209000000 -1.013346 134.72507 -9.094347 -72.87439 -9.0736866 -73.49926 -0.027103782 -100.67352
9209062500 -1.0195764 134.71541 -9.090126 -72.845375 -9.0858498 -73.586594 -0.029578349 -100.64464
9209125000 -1.0181233 134.69022 -9.0845661 -72.905266 -9.0750399 -73.603622 -0.021490594 -100.58765
9209187500 -1.0181338 134.70969 -9.0948553 -72.837372 -9.0889597 -73.532997 -0.031058561 -100.60648
9209250000 -1.0085717 134.61363 -9.0837545 -72.856216 -9.0783119 -73.656296 -0.027190031 -100.57432
9209312500 -1.0105178 134.56108 -9.0802813 -72.907478 -9.0741682 -73.573013 -0.033385955 -100.62294
9209375000 -1.0090001 134.63365 -9.084384 -72.862534 -9.0829763 -73.566696 -0.034917522 -100.58696
9209437500 -1.0198908 134.59175 -9.081955 -72.82 -9.0806675 -73.586021 -0.032206584 -100.49107
9209500000 -1.0098586 134.57256 -9.072855 -72.88414 -9.0865717 -73.534981 -0.03550018 -100.49282
9209562500 -1.0255437 134.60773 -9.0984859 -72.819878 -9.0848818 -73.600548 -0.039388269 -100.46564
9209625000 -1.016504 134.52228 -9.0795469 -72.88942 -9.0636711 -73.56218 -0.022509461 -100.44377
9209687500 -1.0170609 134.45358 -9.0798779 -72.887383 -9.0680542 -73.590378 -0.034819115 -100.49467
9209750000 -1.0199775 134.50443 -9.0778065 -72.911377 -9.0692797 -73.475708 -0.021893173 -100.42435
9209812500 -1.0158612 134.49683 -9.0713139 -72.812157 -9.0719795 -73.542671 -0.028493147 -100.41499
9209875000 -1.0171064 134.52025 -9.0770807 -72.809059 -9.0629749 -73.541199 -0.029422358 -100.42023
9209937500 -1.016677 134.58325 -9.085165 -72.795341 -9.0814943 -73.48053 -0.036624625 -100.4305
9210000000 -1.004225 134.50243 -9.0622187 -72.775047 -9.0658779 -73.581802 -0.039479934 -100.39336
9210062500 -1.0203054 134.50337 -9.0880451 -72.822113 -9.0697498 -73.530884 -0.039710075 -100.3517
9210125000 -1.0193104 134.44371 -9.0919418 -72.791832 -9.0694637 -73.49041 -0.036890123 -100.38211
9210187500 -1.0159855 134.44014 -9.0715075 -72.78952 -9.0693045 -73.503693 -0.03592613 -100.3175
9210250000 -1.0181535 134.46565 -9.0692625 -72.809158 -9.0701332 -73.490692 -0.034982529 -100.31866
9210312500 -1.0190639 134.44273 -9.06987 -72.80481 -9.0737076 -73.55674 -0.036713276 -100.32476
9210375000 -1.0181305 134.44505 -9.0786743 -72.786705 -9.0677319 -73.496384 -0.033301439 -100.21033
9210437500 -1.014104 134.39799 -9.0804291 -72.838615 -9.0649538 -73.660858 -0.023256874 -100.32563
9210500000 -1.013957 134.34781 -9.070775 -72.833694 -9.0594053 -73.524315 -0.021095987 -100.24025
9210562500 -1.019523 134.32687 -9.0759716 -72.759979 -9.0682945 -73.525299 -0.040933598 -100.18118
9210625000 -1.0128328 134.37021 -9.0882568 -72.751625 -9.0748997 -73.502892 -0.035658088 -100.25642
9210687500 -1.0215484 134.38281 -9.0747681 -72.784584 -9.0703754 -73.599968 -0.040356547 -100.17852
9210750000 -1.0239302 134.34805 -9.0787077 -72.789963 -9.056469 -73.532288 -0.034923308 -100.18032
9210812500 -1.0215307 134.29439 -9.0755062 -72.82917 -9.0550852 -73.447411 -0.034913804 -100.08255
9210875000 -1.0200567 134.33229 -9.0742149 -72.813545 -9.0550938 -73.510551 -0.04136334 -100.18078
9210937500 -1.0133286 134.31219 -9.0665379 -72.792427 -9.0750637 -73.45388 -0.044503808 -100.0938
9211000000 -1.0157003 134.30571 -9.0712852 -72.823914 -9.0665159 -73.525375 -0.027143879 -100.15353
9211062500 -1.0121987 134.25563 -9.0608816 -72.746704 -9.0573769 -73.452911 -0.039015304 -100.06679
9211125000 -1.0120386 134.1958 -9.0631018 -72.887909 -9.0631361 -73.520409 -0.035074636 -100.05736
9211187500 -1.0224807 134.25067 -9.069972 -72.748863 -9.0588236 -73.495346 -0.036132291 -100.06469
9211250000 -1.0232246 134.22235 -9.0663099 -72.827934 -9.0623789 -73.460121 -0.032969035 -99.991341
9211312500 -1.014141 134.25209 -9.0631142 -72.6492 -9.0507298 -73.442711 -0.033932038 -99.993126
9211375000 -1.0188266 134.12674 -9.0602779 -72.79393 -9.0638494 -73.538322 -0.04162395 -99.975502
9211437500 -1.0148805 134.17374 -9.0580721 -72.803619 -9.0646467 -73.506432 -0.03783283 -99.985374
9211500000 -1.0245355 134.14995 -9.0771217 -72.861763 -9.0635109 -73.49427 -0.036252264 -100.00574
9211562500 -1.0247661 134.17783 -9.0638514 -72.794518 -9.0458183 -73.462761 -0.040905576 -99.987274
9211625000 -1.0149705 134.1012 -9.0484056 -72.814445 -9.0480032 -73.495865 -0.032751814 -99.932144
9211687500 -1.0243748 134.14906 -9.067317 -72.751511 -9.0562868 -73.472923 -0.040739682 -99.895264
9211750000 -1.0244095 134.09244 -9.0651503 -72.773903 -9.0508003 -73.48938 -0.032138746 -99.883751
9211812500 -1.0217121 134.0909 -9.0684528 -72.758659 -9.0546694 -73.408043 -0.051184725 -99.887375
9211875000 -1.0247043 134.08636 -9.0572939 -72.798317 -9.050539 -73.405487 -0.040801018 -99.807961
9211937500 -1.0142738 134.09613 -9.065897 -72.779861 -9.0560827 -73.493355 -0.046762649 -99.876465
9212000000 -1.021215 133.97607 -9.0486765 -72.765526 -9.0444012 -73.425194 -0.036831431 -99.807655
9212062500 -1.0179303 134.02776 -9.0595112 -72.734131 -9.0474434 -73.489647 -0.040516566 -99.801651
9212125000 -1.0189292 133.93246 -9.0564594 -72.824608 -9.0622587 -73.486099 -0.042137623 -99.805351
9212187500 -1.0133793 134.01755 -9.0483437 -72.674736 -9.0439291 -73.422951 -0.038013361 -99.736374
