!Agilent Technologies,N5242A,MY51221714,A.09.90.19
!Agilent N5242A: A.09.90.19
!Date: Tuesday, March 26, 2024 16:20:55
!Correction: S11(Full 2 Port(1,2)) 
!S21(Full 2 Port(1,2)) 
!S12(Full 2 Port(1,2)) 
!S22(Full 2 Port(1,2)) 
!S2P File: Measurements: S11, S21, S12, S22:
# Hz S  dB   R 50
9200000000 -0.98790175 136.9742 -9.2579231 -72.876595 -9.2430954 -73.654572 0.021577787 -103.15473
9200062500 -0.989398 136.98459 -9.2596598 -72.924606 -9.2583084 -73.600769 0.022411842 -103.11098
9200125000 -0.99552172 136.9225 -9.2579145 -72.95269 -9.2506552 -73.559143 0.016921589 -103.03146
9200187500 -0.99924177 136.98572 -9.2659693 -72.845802 -9.2527189 -73.619881 0.031044444 -103.02982
9200250000 -0.98800224 136.93279 -9.2497692 -72.925545 -9.2540379 -73.566238 0.023740258 -103.02729
9200312500 -0.99460715 136.88983 -9.2658253 -72.90004 -9.2580376 -73.577171 0.01667916 -103.06097
9200375000 -0.99926043 136.85881 -9.2656164 -72.988792 -9.2467918 -73.651291 0.031252582 -103.01383
9200437500 -0.99100339 136.91284 -9.2605219 -72.887955 -9.2465248 -73.615417 0.022637293 -103.02753
9200500000 -0.98794115 136.89182 -9.2632456 -72.827911 -9.2496576 -73.532021 0.01591499 -102.94121
9200562500 -0.98811847 136.85558 -9.2513466 -72.834328 -9.2621603 -73.593849 0.02220718 -102.99613
9200625000 -0.99391508 136.87541 -9.2544794 -72.890968 -9.2364073 -73.539413 0.024118409 -102.9578
9200687500 -0.9806568 136.84427 -9.2559414 -72.837738 -9.2548761 -73.547607 0.017322063 -102.9119
9200750000 -0.99326462 136.77763 -9.2591543 -72.934212 -9.2476664 -73.565605 0.017416015 -102.92123
9200812500 -1.0019873 136.82152 -9.2693377 -72.878845 -9.2573633 -73.618851 0.004714204 -102.9241
9200875000 -0.98474342 136.83972 -9.254735 -72.825256 -9.2564688 -73.525818 0.016400268 -102.90807
9200937500 -0.99288321 136.79965 -9.2631502 -72.865822 -9.2455826 -73.557625 0.024005381 -102.87206
9201000000 -0.98483056 136.76067 -9.2582197 -72.953918 -9.2402658 -73.575317 0.021293461 -102.86497
9201062500 -0.98401147 136.74046 -9.2359486 -72.849129 -9.234231 -73.637604 0.019207878 -102.8787
9201125000 -0.99213129 136.75729 -9.2590342 -72.837944 -9.2557735 -73.521561 0.018457614 -102.75636
9201187500 -0.99169469 136.65523 -9.2533665 -72.943748 -9.2461071 -73.52459 0.013607067 -102.72949
9201250000 -0.99416965 136.77782 -9.2449408 -72.83107 -9.2509823 -73.574615 0.016002566 -102.76588
9201312500 -1.0006374 136.68857 -9.2623739 -72.870293 -9.2438688 -73.579216 0.022950584 -102.82456
9201375000 -0.99943042 136.70021 -9.2499084 -72.799896 -9.2457895 -73.540199 0.010473215 -102.73328
9201437500 -0.99059427 136.71284 -9.2581625 -72.769089 -9.2530966 -73.574127 0.0093485955 -102.80643
9201500000 -0.98864007 136.7057 -9.2465143 -72.808907 -9.2483568 -73.546646 0.013453034 -102.72005
9201562500 -0.99367821 136.62933 -9.2566938 -72.834244 -9.2588339 -73.508743 -0.0010510903 -102.69314
9201625000 -0.98911351 136.65086 -9.2340355 -72.817169 -9.2390547 -73.482613 0.013574119 -102.62227
9201687500 -0.99542242 136.62767 -9.2450562 -72.747147 -9.2412815 -73.547653 0.014610251 -102.61543
9201750000 -0.98877376 136.64481 -9.2549629 -72.770889 -9.2376375 -73.500397 0.02063098 -102.61954
9201812500 -0.98501325 136.6042 -9.2444077 -72.827003 -9.2423878 -73.48687 0.0063466593 -102.6838
9201875000 -0.99137419 136.57037 -9.2456779 -72.851784 -9.2378473 -73.554367 0.025179692 -102.54291
9201937500 -1.003336 136.52269 -9.2479687 -72.8237 -9.2383604 -73.569427 0.014360351 -102.62222
9202000000 -1.0017468 136.53615 -9.2484932 -72.824722 -9.228034 -73.587677 0.020871563 -102.56586
9202062500 -1.0018904 136.57396 -9.2384863 -72.779892 -9.2334013 -73.502731 0.024158105 -102.52753
9202125000 -0.99484897 136.59546 -9.2577887 -72.779762 -9.2350769 -73.519051 0.0042202366 -102.54665
9202187500 -0.99150324 136.52971 -9.2416706 -72.867294 -9.2393494 -73.511337 0.015644886 -102.45844
9202250000 -0.99414647 136.49306 -9.2477169 -72.870903 -9.2289448 -73.470436 0.010915853 -102.49144
9202312500 -0.99120003 136.53656 -9.2546434 -72.750214 -9.2419605 -73.543709 0.0044486471 -102.47144
9202375000 -0.99338317 136.46123 -9.2521448 -72.830421 -9.2290182 -73.526764 0.010112143 -102.40907
9202437500 -0.99329209 136.50803 -9.241601 -72.743492 -9.2350044 -73.514587 0.017680837 -102.45454
9202500000 -0.99902987 136.44093 -9.2442427 -72.896034 -9.2375813 -73.490463 0.020750942 -102.47089
9202562500 -0.98742819 136.43857 -9.2358685 -72.774406 -9.2291851 -73.48774 0.0085563352 -102.4235
9202625000 -0.99818009 136.46236 -9.2391644 -72.797234 -9.2287121 -73.524384 0.014502608 -102.44006
9202687500 -0.99662226 136.44341 -9.240283 -72.841606 -9.2321205 -73.470711 0.018375255 -102.30476
9202750000 -0.98585725 136.33101 -9.2336731 -72.858864 -9.2302561 -73.505119 0.011802803 -102.37781
9202812500 -0.99867666 136.39191 -9.2465048 -72.785301 -9.2175999 -73.557396 0.021406632 -102.33186
9202875000 -0.98894107 136.37494 -9.2338572 -72.801689 -9.228961 -73.516434 0.0090454556 -102.30659
9202937500 -0.9915958 136.36061 -9.2343931 -72.904633 -9.2172365 -73.439491 0.012890977 -102.29226
9203000000 -0.99727142 136.36543 -9.2301865 -72.782562 -9.2289219 -73.511452 0.013051245 -102.21877
9203062500 -0.99049592 136.3129 -9.2334213 -72.845444 -9.2252617 -73.436722 0.0049156458 -102.26659
9203125000 -0.9939006 136.29634 -9.2403622 -72.855324 -9.218112 -73.503799 0.012665309 -102.27348
9203187500 -0.99444854 136.31601 -9.2427244 -72.820763 -9.2129221 -73.580513 0.01394173 -102.30251
9203250000 -0.9942714 136.26274 -9.2263918 -72.804878 -9.2305498 -73.471771 0.0098814061 -102.20988
9203312500 -0.99729002 136.30402 -9.2271862 -72.73378 -9.2248859 -73.527267 0.018836273 -102.1981
9203375000 -0.99161232 136.26353 -9.2302246 -72.801849 -9.2183027 -73.47274 0.014468161 -102.16605
9203437500 -1.0013311 136.28754 -9.2445478 -72.822449 -9.2262945 -73.471344 0.014900587 -102.20476
9203500000 -0.99499148 136.20569 -9.2360182 -72.804726 -9.2226419 -73.482399 0.020733247 -102.14329
9203562500 -1.0029037 136.25098 -9.2412815 -72.805069 -9.2402267 -73.514931 -0.00023787188 -102.19744
9203625000 -0.99736995 136.25121 -9.2328701 -72.789299 -9.2256269 -73.469978 0.010491844 -102.18054
9203687500 -0.99867845 136.21014 -9.2491388 -72.771057 -9.2223682 -73.473129 0.0088795684 -102.07043
9203750000 -0.99161285 136.17982 -9.2255783 -72.791283 -9.2147398 -73.484863 0.020069364 -102.08849
9203812500 -0.99242073 136.20671 -9.2189083 -72.822418 -9.2307673 -73.509254 0.0054397131 -102.07133
9203875000 -0.98930103 136.1813 -9.2273684 -72.790642 -9.2216568 -73.450058 0.0019219179 -102.06029
9203937500 -0.99815297 136.15894 -9.2287769 -72.770622 -9.2302828 -73.445107 0.0079526193 -102.0752
9204000000 -0.99926531 136.13213 -9.2205095 -72.733704 -9.2214413 -73.428535 0.0088396892 -101.97828
9204062500 -0.98731184 136.14876 -9.2242041 -72.702515 -9.2112484 -73.513214 0.0070595485 -101.98538
9204125000 -1.0007547 136.13454 -9.2313004 -72.779907 -9.2252102 -73.479256 0.011988273 -101.99723
9204187500 -0.99998438 136.09837 -9.2302561 -72.736786 -9.2193203 -73.450813 0.0019802046 -101.9385
9204250000 -0.99954295 136.0959 -9.2117558 -72.803009 -9.2188702 -73.419937 0.015496919 -101.95725
9204312500 -0.99670523 136.13226 -9.2227583 -72.717354 -9.218153 -73.491791 0.0047232984 -101.91002
9204375000 -0.98702937 136.04494 -9.2278214 -72.736725 -9.2188234 -73.493652 0.0062325173 -101.98322
9204437500 -0.99963897 136.10652 -9.2283764 -72.763741 -9.2184114 -73.423172 0.011185667 -101.90805
9204500000 -0.99653685 136.04085 -9.2123318 -72.802574 -9.2187042 -73.440208 0.0038491192 -101.89997
9204562500 -0.99893504 136.04424 -9.2273903 -72.8274 -9.2158422 -73.508736 0.01381657 -101.97399
9204625000 -0.98688388 136.02089 -9.2115641 -72.717094 -9.2209396 -73.479439 0.00086268416 -101.81326
9204687500 -0.99627846 135.98637 -9.220232 -72.735336 -9.2054777 -73.430389 0.0087272283 -101.76978
9204750000 -1.0015709 135.97887 -9.2217045 -72.6884 -9.2162828 -73.37529 -0.004760229 -101.81443
9204812500 -0.98588753 136.00992 -9.2177944 -72.663216 -9.2135801 -73.477745 0.012704487 -101.84409
9204875000 -0.99077964 135.98438 -9.2155695 -72.747307 -9.2257919 -73.429535 0.004033749 -101.82257
9204937500 -0.99276966 135.95514 -9.2125607 -72.784538 -9.20823 -73.480721 0.01724473 -101.78451
9205000000 -0.99228406 135.89461 -9.2201796 -72.68013 -9.2090178 -73.370811 -0.0081202043 -101.671
9205062500 -0.99435502 135.89319 -9.2183094 -72.773026 -9.1981907 -73.461418 0.0012636738 -101.68553
9205125000 -0.99585837 135.90068 -9.2194061 -72.668709 -9.2137375 -73.44371 -0.0006230853 -101.6644
9205187500 -1.0030833 135.90935 -9.2216806 -72.697975 -9.2053185 -73.385956 0.0017513757 -101.65141
9205250000 -0.99978733 135.84933 -9.2243347 -72.827248 -9.2102442 -73.422684 -0.00018904425 -101.73264
9205312500 -0.99350226 135.91707 -9.2118711 -72.679321 -9.2088566 -73.419945 -0.0026272095 -101.69949
9205375000 -1.0024526 135.839 -9.2069225 -72.719307 -9.2099266 -73.375954 0.0018415542 -101.59843
9205437500 -0.99440104 135.83705 -9.2081261 -72.710091 -9.2027578 -73.352654 0.010341574 -101.61601
9205500000 -1.0034496 135.78957 -9.2131577 -72.695778 -9.2070684 -73.507034 0.0070748585 -101.56244
9205562500 -0.99490547 135.82909 -9.203414 -72.781189 -9.2054119 -73.475983 0.0092121167 -101.59531
9205625000 -1.0074451 135.782 -9.2169342 -72.735153 -9.2056112 -73.482346 2.0271791e-005 -101.5639
9205687500 -0.99867874 135.8553 -9.2089243 -72.664742 -9.192975 -73.450211 0.0072689205 -101.54358
9205750000 -0.99605113 135.73158 -9.2042894 -72.806419 -9.2079897 -73.460617 0.0090758335 -101.52811
9205812500 -0.99916488 135.71417 -9.2073755 -72.742126 -9.2080746 -73.416527 0.0062902342 -101.48655
9205875000 -0.99656343 135.7697 -9.2172546 -72.690231 -9.2037258 -73.400513 0.0069830241 -101.54112
9205937500 -1.0004344 135.72633 -9.2047005 -72.714714 -9.1893148 -73.312653 0.0094574699 -101.45432
9206000000 -1.0006247 135.72928 -9.2005577 -72.713326 -9.2040539 -73.432991 0.011746823 -101.45367
9206062500 -0.99143249 135.71648 -9.2060747 -72.765068 -9.2075319 -73.439117 -0.0010241715 -101.5056
9206125000 -0.9996922 135.69948 -9.2016239 -72.709694 -9.1928301 -73.355141 -0.00045977774 -101.35652
9206187500 -0.9974761 135.68781 -9.1994162 -72.72319 -9.1949186 -73.432678 0.01269533 -101.44479
9206250000 -1.0017959 135.6225 -9.2195597 -72.779945 -9.1932764 -73.361504 0.0073819198 -101.40555
9206312500 -1.0002593 135.60335 -9.2110291 -72.697685 -9.2039967 -73.514175 0.0070775407 -101.40236
9206375000 -1.0044725 135.66905 -9.2115717 -72.683075 -9.1992989 -73.333984 0.0057120281 -101.38998
9206437500 -0.99397492 135.58185 -9.2078257 -72.764961 -9.1975145 -73.482262 -0.00074772577 -101.44039
9206500000 -0.99998605 135.5703 -9.1984787 -72.727005 -9.1991262 -73.362083 -0.0029859648 -101.37284
9206562500 -0.99941033 135.5721 -9.2009449 -72.752403 -9.194314 -73.344719 0.0054765139 -101.35236
9206625000 -0.99486417 135.52101 -9.189703 -72.736862 -9.198554 -73.408974 -0.00045142294 -101.29987
9206687500 -0.99958295 135.56793 -9.1992569 -72.755653 -9.1974468 -73.379044 0.0087091802 -101.34303
9206750000 -0.99863183 135.56895 -9.1952486 -72.640602 -9.2009106 -73.358231 0.00067131448 -101.2743
9206812500 -0.99531043 135.61116 -9.2053261 -72.71579 -9.2025595 -73.445847 0.004252967 -101.31872
9206875000 -1.0002005 135.53401 -9.2001038 -72.688766 -9.1931572 -73.378708 0.00039551427 -101.22079
9206937500 -1.0037307 135.48109 -9.2038307 -72.685974 -9.2058659 -73.407547 -0.0049641281 -101.21175
9207000000 -1.0000062 135.52847 -9.2034712 -72.633163 -9.2001066 -73.41877 -0.003475385 -101.19917
9207062500 -0.99554896 135.4944 -9.1866322 -72.751083 -9.1947794 -73.333176 -0.00024911115 -101.08903
9207125000 -1.0054578 135.46248 -9.1858158 -72.737053 -9.1901064 -73.360992 -0.0037248516 -101.12743
9207187500 -0.99283612 135.40692 -9.1896782 -72.748589 -9.1915874 -73.336777 0.0020661487 -101.1751
9207250000 -0.99134475 135.44652 -9.1868849 -72.703735 -9.2019186 -73.382614 0.011623607 -101.19576
9207312500 -0.99216467 135.43813 -9.1965904 -72.686005 -9.1896229 -73.400528 0.011077856 -101.1458
9207375000 -1.0035241 135.38719 -9.1934757 -72.695793 -9.1855726 -73.401985 0.00035180527 -101.07758
9207437500 -0.99699986 135.45256 -9.1875868 -72.639809 -9.2044344 -73.355759 -0.0041297483 -101.12456
9207500000 -1.0032835 135.45219 -9.1935329 -72.651535 -9.1808519 -73.32756 -0.0063343477 -101.02843
9207562500 -0.99153066 135.41707 -9.1843729 -72.69487 -9.1828833 -73.286545 -0.0030406576 -101.03222
9207625000 -1.0045207 135.31506 -9.1948137 -72.64222 -9.1808062 -73.352028 0.0030198379 -100.9776
9207687500 -0.99837685 135.37811 -9.1815901 -72.673172 -9.1876926 -73.387543 0.002418336 -101.00311
9207750000 -1.0039049 135.32109 -9.1838274 -72.687706 -9.1753502 -73.323875 0.0031433743 -101.00594
9207812500 -0.99867409 135.32289 -9.1940813 -72.715515 -9.1856737 -73.369576 -0.0058654174 -100.98385
9207875000 -0.99703652 135.3336 -9.2008858 -72.624763 -9.1797943 -73.358307 0.00042996655 -100.95491
9207937500 -1.0024333 135.2692 -9.1952343 -72.655083 -9.1903543 -73.438431 -0.011949124 -100.98061
9208000000 -1.0042924 135.27655 -9.188179 -72.747017 -9.1833763 -73.262009 0.0020404533 -100.8645
9208062500 -0.99951774 135.2899 -9.1884012 -72.643913 -9.1874027 -73.355255 -0.0052764025 -100.92355
9208125000 -1.0040346 135.26691 -9.1942158 -72.708717 -9.1870041 -73.427849 -0.0052704001 -100.90408
9208187500 -0.98988092 135.31718 -9.1808558 -72.654198 -9.185936 -73.340973 -0.0038218494 -100.87935
9208250000 -1.0013943 135.20796 -9.1954107 -72.612061 -9.1718636 -73.388161 0.0044958205 -100.84703
9208312500 -0.99321884 135.2318 -9.1830053 -72.591599 -9.1700478 -73.345818 -0.0077155139 -100.85261
9208375000 -1.0010951 135.22069 -9.1846704 -72.626854 -9.1715755 -73.299156 -0.0021579992 -100.78494
9208437500 -1.0037166 135.1275 -9.1900578 -72.704208 -9.1794157 -73.248497 -0.0080303019 -100.76321
9208500000 -1.0010142 135.14474 -9.1873169 -72.645157 -9.1763144 -73.360565 -0.00087296072 -100.80048
9208562500 -0.99757159 135.22044 -9.1850872 -72.621979 -9.1786242 -73.292519 0.00074672129 -100.72404
9208625000 -0.99582636 135.18384 -9.1695147 -72.567841 -9.1732063 -73.324371 -0.0017594921 -100.78167
9208687500 -0.99091327 135.10313 -9.1676111 -72.688599 -9.1819534 -73.301811 -0.0022864076 -100.71635
9208750000 -0.99658835 135.14314 -9.1754723 -72.651649 -9.1701365 -73.276772 -0.0059136772 -100.71187
9208812500 -1.0047839 135.16179 -9.1865234 -72.636864 -9.1812963 -73.27533 -0.0018685254 -100.67003
9208875000 -0.99878722 135.10472 -9.1797123 -72.686653 -9.1752882 -73.334221 0.0046495586 -100.66695
9208937500 -1.003917 135.08385 -9.1791811 -72.652733 -9.1708374 -73.259995 0.0005923835 -100.64317
9209000000 -0.99380517 135.06013 -9.1821108 -72.625343 -9.1679478 -73.317879 -0.0082789138 -100.67838
9209062500 -1.0037364 135.09009 -9.1813469 -72.66497 -9.1808023 -73.338066 -0.0085632019 -100.61121
9209125000 -1.0069147 135.06573 -9.1822138 -72.691109 -9.1695919 -73.350822 0.0013054643 -100.63294
9209187500 -0.99677753 135.05638 -9.1626244 -72.629784 -9.1758556 -73.245232 -0.0021406007 -100.57818
9209250000 -0.99678916 135.04338 -9.1713963 -72.570465 -9.1683884 -73.377625 0.0054877605 -100.50745
9209312500 -1.0001662 134.91542 -9.1847887 -72.672287 -9.1720562 -73.32048 -0.018872393 -100.58575
9209375000 -0.98879558 134.99571 -9.1671782 -72.602097 -9.1714706 -73.268867 -0.01030708 -100.5681
9209437500 -1.0054088 134.93506 -9.1765728 -72.592598 -9.1731215 -73.351906 -0.013355692 -100.49973
9209500000 -0.99233478 134.92894 -9.1732216 -72.649506 -9.1590948 -73.339119 -0.0041309525 -100.49892
9209562500 -1.0072185 134.9644 -9.1869287 -72.610153 -9.1813774 -73.296768 -0.022914024 -100.42533
9209625000 -0.99961096 134.88762 -9.160512 -72.633072 -9.1681614 -73.346886 -0.00355473 -100.46021
9209687500 -1.00438 134.8886 -9.1687918 -72.584785 -9.1619425 -73.252449 -0.01097114 -100.43808
9209750000 -0.9984445 134.94449 -9.165534 -72.641678 -9.171051 -73.278526 0.0030864137 -100.44796
9209812500 -0.99913394 134.8898 -9.1628618 -72.583611 -9.1688852 -73.292023 -0.0083629517 -100.42026
9209875000 -1.0027107 134.90291 -9.1754227 -72.573456 -9.1575079 -73.311295 -0.010589917 -100.41693
9209937500 -1.0019629 134.94618 -9.1841125 -72.604477 -9.1732435 -73.339874 -0.012993785 -100.48399
9210000000 -0.99231571 134.86157 -9.1738272 -72.532967 -9.1622124 -73.263954 -0.020615613 -100.34412
9210062500 -1.001137 134.89612 -9.1712017 -72.618103 -9.1603289 -73.316544 -0.0063726646 -100.34306
9210125000 -1.0011671 134.80745 -9.1788731 -72.62516 -9.162241 -73.200241 -0.0086082285 -100.31069
9210187500 -1.0028249 134.85654 -9.1736832 -72.577873 -9.1521425 -73.317802 -0.0068701762 -100.32442
9210250000 -1.005307 134.84201 -9.1694946 -72.605133 -9.1592913 -73.217789 -0.017957633 -100.30238
9210312500 -1.0042686 134.77159 -9.1635408 -72.632401 -9.1666374 -73.327408 -0.015147201 -100.28926
9210375000 -0.99439132 134.81303 -9.1627893 -72.545021 -9.1565447 -73.221825 -0.0040924381 -100.17116
9210437500 -0.9932158 134.77 -9.1696463 -72.571205 -9.1538401 -73.338997 -0.0044484884 -100.33704
9210500000 -0.99799162 134.74187 -9.165781 -72.548409 -9.1546202 -73.25312 0.00041385979 -100.24601
9210562500 -1.002452 134.72533 -9.1650705 -72.610489 -9.1518955 -73.310501 -0.011939302 -100.21629
9210625000 -1.0000172 134.73473 -9.1637383 -72.601112 -9.1612129 -73.254753 -0.012591884 -100.25327
9210687500 -0.99654835 134.7314 -9.1635437 -72.542503 -9.1575375 -73.337364 -0.015840206 -100.19576
9210750000 -0.99805874 134.71631 -9.1577177 -72.623451 -9.1627636 -73.219955 -0.0089900689 -100.16624
9210812500 -1.0023525 134.69214 -9.1636438 -72.479103 -9.1510773 -73.147141 -0.012751572 -100.12242
9210875000 -1.0012003 134.70435 -9.1646309 -72.581734 -9.1528769 -73.18013 -0.02429454 -100.1186
9210937500 -0.99589711 134.6692 -9.1573076 -72.520508 -9.1646566 -73.237801 -0.01876542 -100.08868
9211000000 -1.0019329 134.67294 -9.1640701 -72.548027 -9.1622581 -73.270599 -0.0044298097 -100.13027
9211062500 -0.99992591 134.65073 -9.1535873 -72.46859 -9.1579571 -73.196106 -0.020343851 -100.04656
9211125000 -0.99910486 134.60522 -9.1539068 -72.572662 -9.1456432 -73.1717 -0.0064402698 -100.02572
9211187500 -1.0039912 134.6216 -9.1583042 -72.568855 -9.1512671 -73.216492 -0.021429939 -100.03571
9211250000 -1.0109198 134.60558 -9.1598721 -72.662918 -9.1558952 -73.187538 -0.0043685939 -100.00572
9211312500 -1.0046134 134.60313 -9.1691065 -72.560158 -9.1431255 -73.217155 -0.013644392 -100.01092
9211375000 -0.99968731 134.52368 -9.1527071 -72.587311 -9.1518545 -73.228203 -0.019372685 -99.948471
9211437500 -1.0006907 134.53146 -9.1437387 -72.515121 -9.1482859 -73.252571 -0.016333204 -99.954376
9211500000 -1.0036985 134.51692 -9.1574574 -72.583572 -9.151618 -73.263153 -0.018676294 -100.02306
9211562500 -1.0089116 134.57182 -9.163909 -72.513718 -9.1444511 -73.200142 -0.020460542 -99.922012
9211625000 -1.0020689 134.50328 -9.1476631 -72.522598 -9.1468544 -73.267395 -0.0088584255 -99.942734
9211687500 -1.0062201 134.53706 -9.1522036 -72.492157 -9.1522226 -73.198906 -0.016885035 -99.887947
9211750000 -1.0057499 134.49881 -9.1527853 -72.540665 -9.1401091 -73.190323 -0.011059887 -99.853424
9211812500 -0.99995828 134.48444 -9.1590614 -72.577232 -9.1438236 -73.17347 -0.019623907 -99.869759
9211875000 -1.0061042 134.43332 -9.1530962 -72.570061 -9.1397352 -73.193924 -0.01320668 -99.811592
9211937500 -1.0025553 134.48213 -9.1523752 -72.522194 -9.1499491 -73.172119 -0.022505494 -99.823616
9212000000 -1.0024817 134.3996 -9.1489382 -72.54538 -9.134223 -73.198708 -0.017824618 -99.781952
9212062500 -0.99368542 134.37418 -9.1454315 -72.494995 -9.1428146 -73.178001 -0.020612711 -99.782249
9212125000 -0.99899167 134.31723 -9.1443758 -72.611443 -9.1506138 -73.243896 -0.015410727 -99.790268
