!Agilent Technologies,N5242A,MY51221714,A.09.90.19
!Agilent N5242A: A.09.90.19
!Date: Saturday, December 30, 2023 10:19:05
!Correction: S11(Full 2 Port(1,2)) 
!S21(Full 2 Port(1,2)) 
!S12(Full 2 Port(1,2)) 
!S22(Full 2 Port(1,2)) 
!S2P File: Measurements: S11, S21, S12, S22:
# Hz S  dB   R 50
9200000000 -1.0720443 124.77147 -8.5110779 -73.627289 -8.5008574 -74.323875 -0.27489614 -92.761086
9200062500 -1.0820358 124.72581 -8.5167637 -73.605682 -8.498518 -74.371712 -0.27212599 -92.743828
9200125000 -1.0815659 124.71143 -8.5270643 -73.632637 -8.5089235 -74.396774 -0.28007701 -92.704781
9200187500 -1.0806221 124.69565 -8.5134115 -73.593437 -8.4992485 -74.365593 -0.27724427 -92.701187
9200250000 -1.0815095 124.69733 -8.5163469 -73.702019 -8.5026884 -74.416336 -0.28010619 -92.742889
9200312500 -1.0800563 124.63891 -8.5213175 -73.673996 -8.4989252 -74.335205 -0.28195268 -92.699486
9200375000 -1.0811304 124.65424 -8.5186157 -73.63208 -8.4945154 -74.353874 -0.27128196 -92.721825
9200437500 -1.0822682 124.62979 -8.5149155 -73.703491 -8.5031347 -74.373146 -0.28014961 -92.688766
9200500000 -1.0821419 124.61842 -8.5200777 -73.679558 -8.4965258 -74.300171 -0.27770567 -92.660767
9200562500 -1.0823287 124.56745 -8.5238113 -73.684074 -8.4992685 -74.320175 -0.28144729 -92.645088
9200625000 -1.0817431 124.56877 -8.5078335 -73.697464 -8.4908619 -74.367149 -0.27419871 -92.669327
9200687500 -1.0790832 124.54214 -8.5062275 -73.670166 -8.4863596 -74.38987 -0.27113348 -92.636467
9200750000 -1.0777981 124.53564 -8.5038414 -73.641037 -8.4906597 -74.351395 -0.27435195 -92.570274
9200812500 -1.0792059 124.56535 -8.513341 -73.609558 -8.4884758 -74.304024 -0.27656475 -92.549553
9200875000 -1.0832404 124.51416 -8.5102596 -73.666672 -8.4766855 -74.338043 -0.2695888 -92.546097
9200937500 -1.0799114 124.54278 -8.5069561 -73.60862 -8.4866285 -74.297798 -0.27640516 -92.540291
9201000000 -1.0802504 124.52899 -8.5098963 -73.675514 -8.4859076 -74.341125 -0.28290927 -92.558449
9201062500 -1.0831169 124.53141 -8.5121756 -73.616982 -8.4860773 -74.339943 -0.28032711 -92.549156
9201125000 -1.0807933 124.53465 -8.5110531 -73.624367 -8.4947243 -74.36467 -0.28453147 -92.56897
9201187500 -1.0833704 124.54874 -8.5194979 -73.651352 -8.4952116 -74.285103 -0.2874501 -92.467216
9201250000 -1.0772105 124.52797 -8.5131636 -73.61853 -8.4951878 -74.375397 -0.28677458 -92.491959
9201312500 -1.0836004 124.50136 -8.5142431 -73.634102 -8.4920521 -74.328011 -0.28302217 -92.466873
9201375000 -1.0767133 124.50472 -8.504178 -73.628998 -8.4980354 -74.299759 -0.28652158 -92.415558
9201437500 -1.0807556 124.48953 -8.4957981 -73.615807 -8.4835901 -74.340096 -0.27403006 -92.398956
9201500000 -1.0816445 124.44478 -8.4957972 -73.635117 -8.4844704 -74.345871 -0.27498895 -92.400047
9201562500 -1.0824612 124.44888 -8.495574 -73.596031 -8.4824162 -74.367928 -0.27725089 -92.335915
9201625000 -1.0808915 124.43424 -8.4867983 -73.601486 -8.4831905 -74.356804 -0.27538821 -92.357887
9201687500 -1.0832206 124.40627 -8.4960775 -73.516434 -8.4792471 -74.329659 -0.27499765 -92.325821
9201750000 -1.0868821 124.39056 -8.4972897 -73.616211 -8.4823523 -74.347374 -0.27318481 -92.310928
9201812500 -1.0847038 124.38364 -8.4967146 -73.581253 -8.4864912 -74.324356 -0.28735486 -92.306061
9201875000 -1.0801761 124.37183 -8.4958563 -73.635864 -8.4831371 -74.339294 -0.28976685 -92.318489
9201937500 -1.0789496 124.37282 -8.4958868 -73.626732 -8.4729996 -74.303795 -0.2804006 -92.289436
9202000000 -1.0789515 124.34978 -8.4976883 -73.589844 -8.4778919 -74.319221 -0.28456438 -92.307213
9202062500 -1.0807904 124.33852 -8.4965916 -73.573456 -8.4827509 -74.311394 -0.2860761 -92.295586
9202125000 -1.084233 124.28957 -8.4940252 -73.607811 -8.4798775 -74.350822 -0.28261068 -92.257202
9202187500 -1.0768358 124.28723 -8.4873238 -73.621841 -8.4819441 -74.304955 -0.2834574 -92.233444
9202250000 -1.0820724 124.24049 -8.4915171 -73.627899 -8.4773397 -74.360573 -0.2841014 -92.261246
9202312500 -1.081935 124.247 -8.4936495 -73.642929 -8.4725142 -74.323692 -0.28308997 -92.185982
9202375000 -1.0736771 124.22385 -8.4906092 -73.617645 -8.4804153 -74.353622 -0.29121557 -92.206581
9202437500 -1.0794683 124.20589 -8.4873695 -73.623528 -8.4707069 -74.297874 -0.28246045 -92.174408
9202500000 -1.0808369 124.17332 -8.4935017 -73.608963 -8.4708176 -74.35215 -0.28603387 -92.149506
9202562500 -1.0801585 124.19241 -8.4863729 -73.600655 -8.478056 -74.35524 -0.28722167 -92.154556
9202625000 -1.082294 124.16986 -8.487257 -73.576263 -8.4702225 -74.359116 -0.28271812 -92.118126
9202687500 -1.0815148 124.16286 -8.4920626 -73.601486 -8.4815712 -74.394691 -0.28851643 -92.143379
9202750000 -1.0764121 124.149 -8.4854183 -73.572823 -8.4782963 -74.340591 -0.28472683 -92.07251
9202812500 -1.080193 124.15328 -8.4911575 -73.569733 -8.4657621 -74.327293 -0.28448281 -92.058487
9202875000 -1.0807455 124.14615 -8.4911194 -73.514931 -8.4704399 -74.32238 -0.28372627 -92.039375
9202937500 -1.0796788 124.1048 -8.4914932 -73.614799 -8.4723711 -74.30442 -0.29506212 -92.050385
9203000000 -1.0797709 124.09248 -8.4854345 -73.598175 -8.4685144 -74.321732 -0.28609893 -92.049644
9203062500 -1.0742382 124.04967 -8.4843721 -73.62645 -8.4654694 -74.324875 -0.28737897 -92.06002
9203125000 -1.0716118 124.0891 -8.4857969 -73.542603 -8.4619846 -74.349739 -0.28952068 -91.98436
9203187500 -1.0724791 124.08891 -8.4721136 -73.571846 -8.4655523 -74.34024 -0.28958571 -91.959595
9203250000 -1.0763909 124.05506 -8.4777384 -73.575653 -8.467391 -74.312805 -0.28649512 -91.977325
9203312500 -1.079661 124.04253 -8.47645 -73.565376 -8.4575968 -74.289032 -0.27450731 -91.933815
9203375000 -1.0753165 124.06429 -8.4768 -73.51667 -8.4657984 -74.284004 -0.28395084 -91.884514
9203437500 -1.0773009 124.05368 -8.4708834 -73.539986 -8.4744339 -74.307655 -0.2853024 -91.860535
9203500000 -1.0807205 124.03318 -8.4732494 -73.57473 -8.4613438 -74.270546 -0.28256148 -91.842979
9203562500 -1.0780313 124.00234 -8.4641438 -73.581169 -8.4664631 -74.325768 -0.28720251 -91.818153
9203625000 -1.0727159 123.97517 -8.4643536 -73.549042 -8.4614706 -74.282211 -0.28417596 -91.829681
9203687500 -1.0817019 123.98923 -8.4790239 -73.555145 -8.4651375 -74.249237 -0.28573617 -91.809242
9203750000 -1.0796899 123.93607 -8.4668913 -73.539345 -8.455204 -74.278648 -0.28514057 -91.818565
9203812500 -1.0785666 123.89452 -8.4711838 -73.574638 -8.4565649 -74.296959 -0.29152992 -91.803215
9203875000 -1.0806333 123.87462 -8.4656 -73.66465 -8.4517927 -74.310371 -0.28167355 -91.805122
9203937500 -1.0766751 123.88764 -8.4690866 -73.629471 -8.4536057 -74.329163 -0.28397119 -91.830299
9204000000 -1.0807686 123.86226 -8.4739084 -73.598183 -8.4553757 -74.273743 -0.28274065 -91.782661
9204062500 -1.0795428 123.86357 -8.4710302 -73.586067 -8.458395 -74.294426 -0.28244114 -91.748978
9204125000 -1.0768213 123.84099 -8.4610558 -73.593079 -8.4567366 -74.285973 -0.28319076 -91.714775
9204187500 -1.0803939 123.8579 -8.4656878 -73.548241 -8.4555368 -74.245338 -0.27724859 -91.690712
9204250000 -1.0844178 123.87534 -8.4648914 -73.537735 -8.4529285 -74.262482 -0.2781927 -91.659546
9204312500 -1.0755693 123.80891 -8.4627714 -73.546318 -8.4533253 -74.205696 -0.28010997 -91.644409
9204375000 -1.0746459 123.78786 -8.4633512 -73.555756 -8.4588604 -74.284599 -0.28899482 -91.642868
9204437500 -1.0713247 123.81274 -8.4496279 -73.457993 -8.4505243 -74.266365 -0.29021704 -91.632927
9204500000 -1.0766358 123.80344 -8.4566298 -73.565842 -8.4511595 -74.298012 -0.29508746 -91.619102
9204562500 -1.0711432 123.74212 -8.4484167 -73.54232 -8.4504557 -74.25853 -0.29539919 -91.586662
9204625000 -1.0680041 123.75633 -8.4513779 -73.464958 -8.4402275 -74.246666 -0.287388 -91.57473
9204687500 -1.0749061 123.71385 -8.4599438 -73.487656 -8.4511585 -74.23896 -0.29697883 -91.547157
9204750000 -1.0727159 123.7189 -8.4552937 -73.486221 -8.445384 -74.258011 -0.29234853 -91.550575
9204812500 -1.0750513 123.67134 -8.4566402 -73.525566 -8.4437275 -74.259071 -0.29517272 -91.516289
9204875000 -1.0815743 123.65653 -8.4603777 -73.564362 -8.4470654 -74.247787 -0.28833944 -91.502266
9204937500 -1.0831378 123.65221 -8.4625969 -73.592499 -8.441884 -74.28434 -0.29108387 -91.49614
9205000000 -1.0805762 123.61072 -8.4569025 -73.589653 -8.4442167 -74.246834 -0.29369766 -91.483658
9205062500 -1.0828627 123.63312 -8.4528131 -73.569435 -8.4449692 -74.281654 -0.28429192 -91.480957
9205125000 -1.0814586 123.6336 -8.459547 -73.55088 -8.4494886 -74.264336 -0.28745982 -91.39373
9205187500 -1.0814973 123.62353 -8.452302 -73.531143 -8.4534264 -74.245918 -0.28595325 -91.431625
9205250000 -1.078159 123.611 -8.43999 -73.584076 -8.4450893 -74.328125 -0.28015 -91.42363
9205312500 -1.0814273 123.63693 -8.4473581 -73.54454 -8.447731 -74.357445 -0.28629175 -91.369904
9205375000 -1.0792202 123.62753 -8.4433231 -73.459824 -8.4468746 -74.268303 -0.28394696 -91.290031
9205437500 -1.0769875 123.59058 -8.445611 -73.458923 -8.4442539 -74.298714 -0.28798956 -91.306747
9205500000 -1.0803432 123.55656 -8.4535341 -73.552269 -8.4395599 -74.263359 -0.28616801 -91.307549
9205562500 -1.0761663 123.5536 -8.4491701 -73.462097 -8.4401712 -74.234001 -0.296152 -91.223717
9205625000 -1.0777036 123.534 -8.4498138 -73.454803 -8.4344845 -74.237976 -0.28921279 -91.216476
9205687500 -1.0762193 123.49324 -8.4543295 -73.47879 -8.4374342 -74.237976 -0.29606453 -91.178589
9205750000 -1.0769453 123.48913 -8.4476967 -73.408897 -8.440094 -74.196297 -0.2992548 -91.147705
9205812500 -1.0800303 123.47769 -8.4430218 -73.452477 -8.4359341 -74.189575 -0.29674089 -91.16835
9205875000 -1.08437 123.46012 -8.4531927 -73.441376 -8.4439793 -74.245064 -0.304694 -91.183167
9205937500 -1.084644 123.41429 -8.4516764 -73.490463 -8.4371948 -74.231888 -0.29730216 -91.158524
9206000000 -1.0776173 123.40459 -8.4462757 -73.478615 -8.4425554 -74.294991 -0.3056336 -91.185417
9206062500 -1.0824485 123.42685 -8.4513245 -73.481384 -8.4483929 -74.198265 -0.29625025 -91.073463
9206125000 -1.08602 123.38776 -8.4505138 -73.439651 -8.4415321 -74.224159 -0.29974744 -91.098999
9206187500 -1.0797359 123.36652 -8.4371929 -73.462044 -8.4326859 -74.274063 -0.30047911 -91.135086
9206250000 -1.0849178 123.35966 -8.4388609 -73.503967 -8.4313393 -74.218925 -0.29832 -91.076172
9206312500 -1.0830334 123.30613 -8.4475088 -73.577621 -8.4300375 -74.162766 -0.29987779 -91.01223
9206375000 -1.0798491 123.30352 -8.440505 -73.513161 -8.4384642 -74.241997 -0.31198993 -91.050201
9206437500 -1.0790304 123.28396 -8.4388914 -73.531143 -8.4321461 -74.192131 -0.30366158 -91.014648
9206500000 -1.0791261 123.25059 -8.4278822 -73.528015 -8.4273319 -74.181709 -0.2925452 -90.955299
9206562500 -1.0834156 123.25909 -8.4367657 -73.552742 -8.4214897 -74.165916 -0.29232317 -90.977837
9206625000 -1.0823973 123.24821 -8.4339447 -73.537552 -8.4206724 -74.188194 -0.29374731 -90.990753
9206687500 -1.0829909 123.27606 -8.4308796 -73.570015 -8.4240808 -74.236298 -0.29558992 -91.018005
9206750000 -1.0838673 123.30045 -8.4385624 -73.532776 -8.4273052 -74.193535 -0.29753521 -90.98571
9206812500 -1.0866963 123.27031 -8.43501 -73.561485 -8.4159241 -74.172249 -0.28351283 -90.957222
9206875000 -1.0767479 123.29211 -8.4338846 -73.561501 -8.4230585 -74.199417 -0.28808039 -90.944305
9206937500 -1.0803682 123.30675 -8.4311829 -73.473839 -8.4154463 -74.192383 -0.28855056 -90.93734
9207000000 -1.0827692 123.22071 -8.4332628 -73.558556 -8.4201136 -74.202667 -0.29052183 -90.890343
9207062500 -1.0750952 123.23576 -8.4256725 -73.486473 -8.4138203 -74.218338 -0.28804711 -90.909431
9207125000 -1.0815459 123.18562 -8.4378357 -73.522606 -8.4003763 -74.223396 -0.28483489 -90.833923
9207187500 -1.0802982 123.14584 -8.4253893 -73.525497 -8.4095564 -74.257355 -0.29526579 -90.815254
9207250000 -1.0788342 123.12685 -8.4336061 -73.474907 -8.4135761 -74.234505 -0.29143438 -90.800995
9207312500 -1.0782917 123.12152 -8.4273911 -73.469948 -8.4134874 -74.212013 -0.29908925 -90.795883
9207375000 -1.0773925 123.08337 -8.4265547 -73.499001 -8.4103575 -74.226707 -0.29628676 -90.815788
9207437500 -1.0789964 123.06117 -8.4262123 -73.51989 -8.4193687 -74.172035 -0.30562258 -90.766945
9207500000 -1.081923 123.07878 -8.4238577 -73.527084 -8.4125166 -74.168655 -0.30457759 -90.743217
9207562500 -1.0826867 123.03648 -8.4242687 -73.532951 -8.4143295 -74.197922 -0.30366346 -90.769691
9207625000 -1.0817956 122.98499 -8.413517 -73.534737 -8.4108315 -74.17823 -0.29821575 -90.739159
9207687500 -1.0868644 123.00696 -8.4231348 -73.541595 -8.4162407 -74.134857 -0.29705042 -90.707207
9207750000 -1.0882683 123.01686 -8.4211893 -73.541847 -8.4230251 -74.194435 -0.29848737 -90.703255
9207812500 -1.0911441 122.99693 -8.420126 -73.547661 -8.4175873 -74.178123 -0.29666361 -90.680649
9207875000 -1.0885359 123.01775 -8.4180536 -73.567436 -8.4166431 -74.248604 -0.29352519 -90.691887
9207937500 -1.0915011 122.99464 -8.4199448 -73.544106 -8.4126863 -74.240105 -0.28865892 -90.702049
9208000000 -1.0856148 122.99796 -8.4155245 -73.479584 -8.4161024 -74.179062 -0.2857959 -90.607811
9208062500 -1.0858923 122.98806 -8.4101143 -73.494209 -8.4174261 -74.253075 -0.29189175 -90.662094
9208125000 -1.0859523 122.94254 -8.4103975 -73.504738 -8.4109945 -74.159737 -0.28772214 -90.613556
9208187500 -1.0830988 122.93805 -8.4104347 -73.557426 -8.4146347 -74.201279 -0.296395 -90.583038
9208250000 -1.0841811 122.89761 -8.4116478 -73.481804 -8.4115973 -74.200203 -0.28849015 -90.531998
9208312500 -1.0815775 122.94302 -8.4107838 -73.452332 -8.4119749 -74.205406 -0.29869583 -90.492546
9208375000 -1.0776778 122.92854 -8.4026947 -73.424049 -8.4115458 -74.196327 -0.29656404 -90.433441
9208437500 -1.0815024 122.91068 -8.4020386 -73.440521 -8.4135551 -74.210228 -0.29648203 -90.463722
9208500000 -1.0846864 122.89643 -8.4083309 -73.402267 -8.4124527 -74.152893 -0.30222121 -90.436905
9208562500 -1.0796143 122.88764 -8.402277 -73.375519 -8.4092293 -74.158272 -0.30093944 -90.431412
9208625000 -1.0806621 122.88211 -8.4118204 -73.409912 -8.4127874 -74.180206 -0.30113316 -90.485153
9208687500 -1.0790411 122.88097 -8.4081564 -73.429321 -8.4037552 -74.200172 -0.30200419 -90.460747
9208750000 -1.0744885 122.81822 -8.4067287 -73.409164 -8.4135284 -74.142578 -0.30471921 -90.382889
9208812500 -1.0784974 122.82574 -8.4038553 -73.43676 -8.3988037 -74.123032 -0.30045953 -90.396889
9208875000 -1.075395 122.78924 -8.4025393 -73.43354 -8.3967142 -74.139992 -0.29740301 -90.370468
9208937500 -1.0752313 122.80101 -8.4063931 -73.407784 -8.3962374 -74.158653 -0.30769864 -90.403297
9209000000 -1.0779183 122.80865 -8.4090776 -73.37915 -8.3950634 -74.187386 -0.30282354 -90.344269
9209062500 -1.0749187 122.77525 -8.4019375 -73.432472 -8.4005547 -74.145874 -0.30673301 -90.291451
9209125000 -1.078288 122.77077 -8.3999739 -73.42498 -8.3916731 -74.139488 -0.30364427 -90.303711
9209187500 -1.0746113 122.73439 -8.4039888 -73.449646 -8.4086761 -74.138741 -0.31306657 -90.277443
9209250000 -1.0784678 122.73496 -8.4096632 -73.428696 -8.3959675 -74.113426 -0.30813867 -90.240654
9209312500 -1.0742794 122.7299 -8.4010954 -73.404922 -8.3966303 -74.093445 -0.31197676 -90.168938
9209375000 -1.0740275 122.69487 -8.4046011 -73.422455 -8.3977194 -74.146736 -0.31072512 -90.26088
9209437500 -1.0748799 122.66393 -8.3971748 -73.382423 -8.3963747 -74.122856 -0.30364469 -90.195999
9209500000 -1.0773029 122.65155 -8.4047003 -73.417496 -8.3877459 -74.149925 -0.30476329 -90.220093
9209562500 -1.0782396 122.63489 -8.3995476 -73.480789 -8.3999405 -74.161095 -0.30249152 -90.209038
9209625000 -1.0765588 122.62788 -8.4025679 -73.464409 -8.403121 -74.144508 -0.3070918 -90.197861
9209687500 -1.0857915 122.59722 -8.4112148 -73.43335 -8.3961611 -74.141968 -0.30529127 -90.158379
9209750000 -1.0840235 122.59526 -8.3953295 -73.43222 -8.3966465 -74.160133 -0.30098549 -90.147232
9209812500 -1.0915519 122.59803 -8.3995018 -73.436707 -8.3887529 -74.149223 -0.29619372 -90.189026
9209875000 -1.090201 122.57567 -8.3982239 -73.457512 -8.3929453 -74.108841 -0.29525635 -90.117744
9209937500 -1.0862951 122.56578 -8.398675 -73.456825 -8.3946075 -74.096741 -0.29941523 -90.086548
9210000000 -1.0892816 122.54793 -8.3952827 -73.453148 -8.3848591 -74.17997 -0.29945624 -90.146431
9210062500 -1.0879813 122.53526 -8.4039049 -73.466827 -8.3826981 -74.145538 -0.30006635 -90.068047
9210125000 -1.087007 122.55246 -8.3934269 -73.408417 -8.3811378 -74.118988 -0.30260688 -90.079628
9210187500 -1.084374 122.53632 -8.3915167 -73.375153 -8.3789845 -74.164635 -0.30118656 -90.023048
9210250000 -1.0867521 122.53394 -8.3899832 -73.379868 -8.3791428 -74.168037 -0.29918692 -90.014931
9210312500 -1.079253 122.51665 -8.3847723 -73.386726 -8.3859749 -74.115654 -0.30249837 -89.97937
9210375000 -1.087992 122.48625 -8.3903055 -73.427811 -8.3804054 -74.14122 -0.30326712 -90.004379
9210437500 -1.0852554 122.46091 -8.3936434 -73.41922 -8.386776 -74.231239 -0.31183344 -90.023735
9210500000 -1.0847477 122.41811 -8.3811798 -73.393074 -8.3858423 -74.142937 -0.31474558 -89.961113
9210562500 -1.0851623 122.41224 -8.3889303 -73.400711 -8.3833103 -74.133163 -0.31242773 -89.971321
9210625000 -1.0834421 122.33379 -8.3851719 -73.446701 -8.3891735 -74.143631 -0.31629589 -89.970978
9210687500 -1.0801265 122.31034 -8.3792076 -73.453812 -8.379426 -74.164024 -0.31178093 -89.929558
9210750000 -1.0805486 122.30621 -8.3754969 -73.458511 -8.378418 -74.091728 -0.31002054 -89.903404
9210812500 -1.0797057 122.34514 -8.3819628 -73.378975 -8.3772144 -74.097656 -0.310056 -89.871277
9210875000 -1.079419 122.32396 -8.3705826 -73.401794 -8.37502 -74.102516 -0.30140668 -89.82962
9210937500 -1.0810299 122.30276 -8.3803577 -73.425537 -8.3755064 -74.033737 -0.3092584 -89.769051
9211000000 -1.084572 122.28056 -8.3848486 -73.449905 -8.3743162 -74.060112 -0.30866021 -89.72567
9211062500 -1.0815066 122.26321 -8.3802443 -73.41124 -8.3735237 -74.076767 -0.30777884 -89.744759
9211125000 -1.088311 122.27065 -8.381918 -73.444641 -8.374073 -74.058792 -0.31174496 -89.722153
9211187500 -1.0857233 122.25381 -8.3828468 -73.437294 -8.365757 -74.116379 -0.31465131 -89.727974
9211250000 -1.0849243 122.24436 -8.3784332 -73.360764 -8.3671656 -74.055893 -0.3111853 -89.708
9211312500 -1.0856657 122.24831 -8.3789101 -73.434166 -8.37076 -74.078041 -0.31334096 -89.679306
9211375000 -1.0842496 122.2074 -8.378684 -73.421875 -8.3621016 -74.063087 -0.31029975 -89.638306
9211437500 -1.0781206 122.23472 -8.3681154 -73.464775 -8.376873 -74.103287 -0.31052962 -89.697121
9211500000 -1.0826994 122.21673 -8.3763266 -73.389587 -8.3708181 -74.107788 -0.31349561 -89.71064
9211562500 -1.0801257 122.1968 -8.3751049 -73.415916 -8.373847 -74.056442 -0.31437132 -89.686684
9211625000 -1.0750959 122.21107 -8.370265 -73.429344 -8.3712997 -74.105309 -0.30854413 -89.711685
9211687500 -1.074432 122.1936 -8.3676825 -73.399048 -8.3742342 -74.080513 -0.31155699 -89.707062
9211750000 -1.0753882 122.20052 -8.3668346 -73.395416 -8.3627224 -74.120262 -0.30565354 -89.703865
9211812500 -1.075377 122.1715 -8.3649063 -73.379906 -8.3619518 -74.085602 -0.30543762 -89.654221
9211875000 -1.0771698 122.14168 -8.3700056 -73.37764 -8.3574743 -74.025635 -0.30557916 -89.606461
9211937500 -1.0762273 122.11758 -8.3709974 -73.382141 -8.3657694 -74.063843 -0.3156217 -89.591713
9212000000 -1.0776677 122.08506 -8.3655281 -73.311981 -8.359724 -74.039116 -0.3088485 -89.50322
9212062500 -1.079693 122.09205 -8.364974 -73.331924 -8.3637199 -74.089424 -0.31430331 -89.495354
9212125000 -1.0793083 122.06331 -8.3637495 -73.365433 -8.3648329 -74.063004 -0.31460658 -89.496948
9212187500 -1.0847384 122.02954 -8.3640642 -73.372177 -8.3565388 -74.096237 -0.31222129 -89.486221
9212250000 -1.0792834 121.99658 -8.3661623 -73.417931 -8.3554077 -74.06237 -0.30915976 -89.472031
9212312500 -1.0818174 121.94833 -8.361908 -73.396812 -8.3594618 -74.11882 -0.31317753 -89.480598
