!Agilent Technologies,N5242A,MY51221714,A.09.90.19
!Agilent N5242A: A.09.90.19
!Date: Saturday, December 30, 2023 10:18:14
!Correction: S11(Full 2 Port(1,2)) 
!S21(Full 2 Port(1,2)) 
!S12(Full 2 Port(1,2)) 
!S22(Full 2 Port(1,2)) 
!S2P File: Measurements: S11, S21, S12, S22:
# Hz S  dB   R 50
9200000000 -1.075143 124.80264 -8.5058613 -73.461914 -8.4865189 -74.170189 -0.242782 -92.722168
9200062500 -1.0814099 124.76752 -8.5075827 -73.491783 -8.4870234 -74.206421 -0.24515748 -92.69883
9200125000 -1.0784053 124.752 -8.5108185 -73.494308 -8.4835634 -74.211731 -0.2486476 -92.676857
9200187500 -1.0783063 124.7328 -8.49928 -73.533287 -8.4879131 -74.235382 -0.24342889 -92.713081
9200250000 -1.0776942 124.69095 -8.5082121 -73.516014 -8.4920235 -74.205185 -0.24704993 -92.670753
9200312500 -1.0797558 124.66647 -8.5041294 -73.500359 -8.4896126 -74.201881 -0.2525562 -92.66449
9200375000 -1.0851954 124.6722 -8.5038166 -73.504539 -8.4858713 -74.196098 -0.24568954 -92.639458
9200437500 -1.0840836 124.64681 -8.5083828 -73.494026 -8.4865608 -74.192963 -0.24786408 -92.612747
9200500000 -1.0855364 124.63387 -8.5112925 -73.443314 -8.4909983 -74.193207 -0.2508302 -92.630173
9200562500 -1.0794356 124.60022 -8.501339 -73.544769 -8.4792423 -74.205765 -0.24459295 -92.596855
9200625000 -1.0812041 124.60751 -8.5018673 -73.51767 -8.4810438 -74.175972 -0.24756934 -92.561897
9200687500 -1.0809432 124.55282 -8.5059891 -73.524719 -8.4827852 -74.212479 -0.24762879 -92.586349
9200750000 -1.0771155 124.57974 -8.5011435 -73.473137 -8.4749765 -74.166817 -0.24461581 -92.530113
9200812500 -1.0803564 124.53536 -8.498909 -73.518105 -8.4758825 -74.192184 -0.24831717 -92.552734
9200875000 -1.0855963 124.53001 -8.5022459 -73.525352 -8.469656 -74.244835 -0.24326153 -92.522934
9200937500 -1.0822906 124.55343 -8.5002079 -73.475372 -8.4810476 -74.233307 -0.25230387 -92.479187
9201000000 -1.0777248 124.54568 -8.4964352 -73.53318 -8.4830818 -74.193657 -0.26004016 -92.522232
9201062500 -1.0782222 124.58747 -8.5003805 -73.497696 -8.4845924 -74.19384 -0.25804666 -92.497391
9201125000 -1.083252 124.55669 -8.5034733 -73.526199 -8.4840422 -74.206581 -0.25530252 -92.481949
9201187500 -1.0801589 124.5724 -8.502799 -73.479607 -8.4869022 -74.157677 -0.25491172 -92.466743
9201250000 -1.0779052 124.54082 -8.5014076 -73.5532 -8.4844923 -74.159592 -0.25951564 -92.476189
9201312500 -1.0775359 124.52695 -8.4952135 -73.493332 -8.4875689 -74.145813 -0.25603256 -92.38858
9201375000 -1.075841 124.52704 -8.4893398 -73.4571 -8.4868746 -74.159012 -0.25886071 -92.403343
9201437500 -1.0840726 124.50355 -8.490612 -73.468788 -8.4763403 -74.185638 -0.25217858 -92.401894
9201500000 -1.0823911 124.48473 -8.4895773 -73.480209 -8.4707651 -74.204285 -0.24892561 -92.339897
9201562500 -1.0839113 124.42791 -8.4891586 -73.474304 -8.4747858 -74.188469 -0.25201741 -92.29052
9201625000 -1.0833148 124.45606 -8.4881287 -73.379654 -8.4818163 -74.171326 -0.25138029 -92.244812
9201687500 -1.0848769 124.47543 -8.4928741 -73.398689 -8.4695854 -74.17392 -0.25017899 -92.266922
9201750000 -1.0799522 124.41414 -8.4790688 -73.428268 -8.4752989 -74.215332 -0.25332618 -92.253578
9201812500 -1.0815051 124.40842 -8.488348 -73.44487 -8.4730806 -74.162598 -0.25708404 -92.268036
9201875000 -1.0831845 124.3989 -8.4963198 -73.44294 -8.4687815 -74.166969 -0.25317132 -92.229424
9201937500 -1.0829397 124.38361 -8.4889393 -73.456192 -8.4698229 -74.131882 -0.25756586 -92.2351
9202000000 -1.0832942 124.4008 -8.4939566 -73.480164 -8.46978 -74.129265 -0.26047257 -92.219231
9202062500 -1.0826385 124.37735 -8.4840069 -73.417999 -8.4720707 -74.174484 -0.26202729 -92.255028
9202125000 -1.079489 124.33427 -8.4917355 -73.443634 -8.470664 -74.152763 -0.26099119 -92.216919
9202187500 -1.0785 124.306 -8.4768486 -73.480949 -8.4617109 -74.12722 -0.25337529 -92.203659
9202250000 -1.0842279 124.29404 -8.4897947 -73.476059 -8.4708309 -74.16333 -0.25991073 -92.15789
9202312500 -1.0757492 124.24935 -8.4804459 -73.486351 -8.4761391 -74.137749 -0.25911161 -92.115524
9202375000 -1.0801048 124.24453 -8.477272 -73.483055 -8.4714556 -74.16954 -0.26342094 -92.154228
9202437500 -1.0699642 124.21085 -8.4721537 -73.491859 -8.4663305 -74.192673 -0.25761676 -92.148697
9202500000 -1.0747881 124.24152 -8.4789057 -73.517792 -8.4751396 -74.19841 -0.26365259 -92.099983
9202562500 -1.0812607 124.23174 -8.4846773 -73.490288 -8.4595985 -74.209496 -0.25746536 -92.113953
9202625000 -1.0818245 124.20247 -8.4825459 -73.448723 -8.4711246 -74.165901 -0.26329884 -92.070915
9202687500 -1.0802525 124.20651 -8.4735279 -73.46833 -8.4536924 -74.200653 -0.25546581 -92.070831
9202750000 -1.0826442 124.18408 -8.4796047 -73.458305 -8.4708977 -74.16629 -0.2598305 -92.03598
9202812500 -1.0798839 124.1618 -8.4793854 -73.449532 -8.4650583 -74.206818 -0.26675197 -92.073036
9202875000 -1.0772198 124.16847 -8.4782009 -73.382126 -8.4552965 -74.197807 -0.25232574 -92.035667
9202937500 -1.0797762 124.16276 -8.4779034 -73.394424 -8.4591675 -74.120178 -0.25752932 -91.969414
9203000000 -1.0798295 124.11214 -8.4774609 -73.432861 -8.4559669 -74.233826 -0.26246947 -92.007523
9203062500 -1.0762548 124.10619 -8.4793711 -73.424088 -8.4549913 -74.144012 -0.26261067 -92.006783
9203125000 -1.0794077 124.08596 -8.4768448 -73.430603 -8.4474421 -74.116333 -0.26042718 -91.952576
9203187500 -1.0770484 124.07378 -8.4650536 -73.443314 -8.4470072 -74.165855 -0.25520495 -91.929344
9203250000 -1.0751488 124.0651 -8.4643049 -73.430199 -8.4632044 -74.125336 -0.25550953 -91.873169
9203312500 -1.0757791 124.05366 -8.4580631 -73.471619 -8.4525394 -74.14418 -0.25466564 -91.835342
9203375000 -1.0758456 124.05235 -8.4588308 -73.438934 -8.4541273 -74.090652 -0.25265852 -91.835388
9203437500 -1.0752552 124.0421 -8.446703 -73.342346 -8.4584064 -74.207489 -0.25586957 -91.830841
9203500000 -1.0793893 124.03027 -8.4521408 -73.460526 -8.4529972 -74.155418 -0.25542283 -91.778069
9203562500 -1.0752231 124.02142 -8.4547672 -73.43998 -8.4600973 -74.125069 -0.25747365 -91.779747
9203625000 -1.0816013 123.99815 -8.4655924 -73.445541 -8.4556103 -74.098404 -0.25789696 -91.766632
9203687500 -1.0746094 123.99183 -8.4629059 -73.451706 -8.4554796 -74.105011 -0.26197532 -91.758087
9203750000 -1.0808058 123.94421 -8.4611654 -73.452751 -8.4584093 -74.125923 -0.25943813 -91.781616
9203812500 -1.0797716 123.95217 -8.458621 -73.466705 -8.4549875 -74.195129 -0.26559028 -91.820068
9203875000 -1.0816256 123.90029 -8.4602089 -73.472992 -8.447835 -74.192429 -0.26007324 -91.767189
9203937500 -1.0822116 123.90959 -8.4648933 -73.454597 -8.449748 -74.175972 -0.26171577 -91.776482
9204000000 -1.0835807 123.91068 -8.4600334 -73.430801 -8.4355602 -74.13868 -0.24758749 -91.739639
9204062500 -1.083758 123.88592 -8.4562445 -73.407806 -8.4523849 -74.197517 -0.25827232 -91.732002
9204125000 -1.0824398 123.90559 -8.454812 -73.36937 -8.4446869 -74.101822 -0.24885347 -91.675919
9204187500 -1.078126 123.84223 -8.4573069 -73.473198 -8.4427195 -74.096519 -0.25479785 -91.657303
9204250000 -1.0800345 123.8816 -8.4585876 -73.376549 -8.446043 -74.10379 -0.2533648 -91.634537
9204312500 -1.0703721 123.85355 -8.4407377 -73.395103 -8.4445324 -74.106888 -0.2534273 -91.59761
9204375000 -1.0693973 123.84995 -8.4411745 -73.358818 -8.4502983 -74.096321 -0.25542068 -91.59259
9204437500 -1.0729808 123.84119 -8.4442844 -73.330116 -8.4359932 -74.088104 -0.26050636 -91.566925
9204500000 -1.074737 123.81648 -8.4421177 -73.389931 -8.4412289 -74.114159 -0.25777087 -91.534615
9204562500 -1.0704048 123.81951 -8.4529486 -73.305275 -8.4348984 -74.102348 -0.26456812 -91.514008
9204625000 -1.0716362 123.74326 -8.4490252 -73.3536 -8.4350367 -74.152077 -0.26109418 -91.543533
9204687500 -1.0729048 123.73695 -8.4442129 -73.302284 -8.4362345 -74.126617 -0.26468721 -91.496033
9204750000 -1.0720007 123.71677 -8.4500132 -73.402718 -8.4358196 -74.140976 -0.26194873 -91.483017
9204812500 -1.077576 123.70586 -8.4428787 -73.411194 -8.4223566 -74.116631 -0.25990516 -91.496437
9204875000 -1.0830529 123.70478 -8.449564 -73.434433 -8.4374647 -74.13089 -0.26747438 -91.474792
9204937500 -1.0802517 123.65784 -8.4533815 -73.472992 -8.4304628 -74.133858 -0.26113558 -91.46682
9205000000 -1.0843655 123.61753 -8.4486942 -73.479027 -8.4344721 -74.100067 -0.26438135 -91.42205
9205062500 -1.0812383 123.65411 -8.4457331 -73.434258 -8.4408522 -74.119034 -0.26038209 -91.399689
9205125000 -1.0829506 123.6561 -8.4479408 -73.422691 -8.4378462 -74.068405 -0.26288116 -91.35421
9205187500 -1.0816704 123.61689 -8.4470434 -73.410255 -8.4410076 -74.113724 -0.26317099 -91.399055
9205250000 -1.0815378 123.6532 -8.4436464 -73.419685 -8.4356461 -74.153183 -0.25259349 -91.350754
9205312500 -1.0807364 123.61853 -8.4333496 -73.394852 -8.4418097 -74.171303 -0.25638524 -91.348137
9205375000 -1.0802677 123.60902 -8.4385395 -73.386269 -8.4423008 -74.198792 -0.26602036 -91.322701
9205437500 -1.079766 123.62666 -8.4421501 -73.376183 -8.4271069 -74.153587 -0.25501296 -91.338539
9205500000 -1.0798706 123.5974 -8.4448986 -73.397903 -8.4344215 -74.146873 -0.26521933 -91.258331
9205562500 -1.0798192 123.58461 -8.4403496 -73.3433 -8.4292803 -74.10997 -0.26455313 -91.229767
9205625000 -1.0788609 123.55681 -8.4428635 -73.344299 -8.4219742 -74.101242 -0.26814562 -91.202209
9205687500 -1.0803638 123.50945 -8.4417343 -73.302658 -8.4283409 -74.059502 -0.26954567 -91.160828
9205750000 -1.0783525 123.49767 -8.4458065 -73.293602 -8.4191179 -74.058548 -0.26602963 -91.149445
9205812500 -1.0803193 123.45364 -8.437294 -73.347183 -8.4300251 -74.024513 -0.27291775 -91.137314
9205875000 -1.0802531 123.46677 -8.4378433 -73.356308 -8.4237909 -74.026375 -0.27088761 -91.098801
9205937500 -1.0794264 123.46339 -8.4402533 -73.378105 -8.4278889 -74.077415 -0.27651381 -91.101509
9206000000 -1.0778098 123.42364 -8.4392223 -73.342278 -8.4254999 -74.007004 -0.27147031 -91.059006
9206062500 -1.0915688 123.44068 -8.4456797 -73.318092 -8.4348974 -74.088158 -0.27986997 -91.091545
9206125000 -1.0860342 123.41543 -8.4308348 -73.383354 -8.4248838 -74.130104 -0.26800036 -91.103653
9206187500 -1.0850276 123.37019 -8.4337311 -73.376083 -8.4229174 -74.025711 -0.27672359 -91.036224
9206250000 -1.0811046 123.34608 -8.4361172 -73.368759 -8.4269609 -74.055862 -0.27173373 -91.022903
9206312500 -1.0791324 123.32782 -8.4221392 -73.354637 -8.4182186 -74.035912 -0.26856905 -90.974945
9206375000 -1.0824243 123.30286 -8.4309359 -73.357323 -8.4188356 -74.033722 -0.27516866 -90.966652
9206437500 -1.0823379 123.30777 -8.427454 -73.380951 -8.4260864 -74.052513 -0.27595219 -90.945961
9206500000 -1.082725 123.29429 -8.427248 -73.348877 -8.4180336 -74.032631 -0.2738829 -90.927391
9206562500 -1.0799431 123.26892 -8.408843 -73.438095 -8.4135647 -73.984245 -0.26892614 -90.953461
9206625000 -1.0822263 123.32823 -8.4250755 -73.359009 -8.4136448 -74.011398 -0.26887417 -90.924294
9206687500 -1.0824841 123.30639 -8.4288893 -73.395103 -8.4068518 -74.01104 -0.26752064 -90.945145
9206750000 -1.0821885 123.31464 -8.4221725 -73.412193 -8.4136038 -74.009682 -0.25873968 -90.871109
9206812500 -1.0823915 123.34122 -8.420352 -73.341713 -8.4126482 -74.018402 -0.26657635 -90.906677
9206875000 -1.0804112 123.30364 -8.4229517 -73.426399 -8.4039612 -74.039963 -0.25540176 -90.877693
9206937500 -1.0795331 123.3205 -8.4288225 -73.323975 -8.4093571 -73.988503 -0.26700541 -90.808662
9207000000 -1.0785486 123.23358 -8.4206572 -73.360901 -8.4088497 -74.021812 -0.26347244 -90.822311
9207062500 -1.0786748 123.23515 -8.4257689 -73.375076 -8.4019384 -74.058189 -0.2613495 -90.841026
9207125000 -1.0805074 123.21036 -8.4232912 -73.352341 -8.4055109 -74.0709 -0.26664758 -90.789528
9207187500 -1.0804183 123.16114 -8.4255972 -73.364952 -8.4014339 -74.056076 -0.26447028 -90.801071
9207250000 -1.0757613 123.16045 -8.4263725 -73.366814 -8.4096193 -74.003746 -0.26955104 -90.715141
9207312500 -1.0785422 123.1245 -8.4154501 -73.355713 -8.4071407 -74.02343 -0.27234825 -90.750244
9207375000 -1.0790011 123.14101 -8.417944 -73.324623 -8.4069529 -74.022171 -0.26922172 -90.726524
9207437500 -1.0775493 123.0858 -8.4131451 -73.434669 -8.3999634 -74.069016 -0.27396777 -90.69809
9207500000 -1.0793127 123.07301 -8.416275 -73.392334 -8.3967171 -74.017357 -0.27064392 -90.705734
9207562500 -1.0825597 123.04716 -8.4073038 -73.380302 -8.4049587 -74.034203 -0.27757072 -90.702896
9207625000 -1.0762528 123.02502 -8.4029083 -73.384056 -8.4019766 -74.021667 -0.27265161 -90.70134
9207687500 -1.081642 123.03402 -8.4081936 -73.408646 -8.3985109 -74.038162 -0.26800969 -90.685539
9207750000 -1.0879827 123.04382 -8.4047117 -73.423782 -8.4105148 -74.049965 -0.27306721 -90.652161
9207812500 -1.0867674 123.02312 -8.4063931 -73.430466 -8.4064951 -74.030373 -0.26476833 -90.648735
9207875000 -1.0928602 123.00817 -8.4192495 -73.430527 -8.4013929 -74.032127 -0.26316392 -90.646881
9207937500 -1.0866376 123.03516 -8.4073668 -73.404381 -8.4108181 -74.022125 -0.26728326 -90.603661
9208000000 -1.0885507 123.01007 -8.4136534 -73.387436 -8.4031343 -74.026131 -0.26282132 -90.611954
9208062500 -1.0853925 123.01456 -8.395648 -73.388306 -8.4064531 -74.072144 -0.26872858 -90.558983
9208125000 -1.0892475 122.96783 -8.4038906 -73.382942 -8.3984766 -73.989868 -0.26663855 -90.547424
9208187500 -1.0854363 122.97537 -8.4073362 -73.336906 -8.4087849 -74.060173 -0.27112731 -90.524582
9208250000 -1.0821292 122.96889 -8.3998652 -73.321259 -8.3993998 -74.053871 -0.27215448 -90.474548
9208312500 -1.081046 122.93893 -8.3928118 -73.352646 -8.4045658 -74.015228 -0.26504475 -90.410309
9208375000 -1.0840364 122.93367 -8.4006128 -73.335846 -8.4014692 -74.08271 -0.27427381 -90.449318
9208437500 -1.0776335 122.97309 -8.3957109 -73.225075 -8.3991632 -74.050499 -0.27778423 -90.386856
9208500000 -1.0799215 122.89034 -8.3930807 -73.317589 -8.3945694 -74.001183 -0.27350661 -90.392113
9208562500 -1.0891651 122.89083 -8.4028921 -73.319038 -8.39709 -74.041748 -0.27300569 -90.394455
9208625000 -1.0828664 122.87397 -8.3929987 -73.287354 -8.3951607 -73.997925 -0.27082419 -90.396339
9208687500 -1.079084 122.84374 -8.3895416 -73.273254 -8.3959084 -74.003845 -0.27576357 -90.423508
9208750000 -1.0714704 122.87766 -8.3912611 -73.24337 -8.3931112 -74.042503 -0.26930976 -90.38266
9208812500 -1.0750639 122.82571 -8.3899326 -73.264862 -8.3911915 -73.956421 -0.2751286 -90.312737
9208875000 -1.0740507 122.83752 -8.3923931 -73.280624 -8.3900366 -73.974907 -0.27648303 -90.33075
9208937500 -1.0781577 122.85181 -8.3996944 -73.278595 -8.388135 -73.985603 -0.27597621 -90.340553
9209000000 -1.0763031 122.82124 -8.3900747 -73.294029 -8.3809156 -73.965919 -0.27202478 -90.272903
9209062500 -1.0740634 122.80053 -8.3895016 -73.285461 -8.383729 -73.969177 -0.27423057 -90.305931
9209125000 -1.075925 122.76949 -8.3890657 -73.341995 -8.3825378 -73.989571 -0.28144532 -90.27034
9209187500 -1.0781009 122.77324 -8.3859625 -73.331619 -8.3848696 -74.003731 -0.27566087 -90.262146
9209250000 -1.075683 122.73033 -8.3955698 -73.337761 -8.3838072 -73.934166 -0.28022289 -90.242836
9209312500 -1.0794996 122.71771 -8.3960619 -73.306412 -8.382926 -73.980797 -0.27736643 -90.225616
9209375000 -1.0749412 122.66458 -8.3826914 -73.276337 -8.3851328 -73.990105 -0.27855048 -90.188538
9209437500 -1.0718106 122.69129 -8.3826199 -73.263351 -8.3865032 -73.933449 -0.28102317 -90.157341
9209500000 -1.0732216 122.63722 -8.3880243 -73.296501 -8.3858891 -73.949394 -0.27818042 -90.146622
9209562500 -1.0772357 122.65943 -8.3933487 -73.250908 -8.3930445 -73.946571 -0.27433923 -90.116127
9209625000 -1.0793859 122.64605 -8.390626 -73.28347 -8.3854561 -73.979637 -0.27695224 -90.171654
9209687500 -1.0771486 122.63027 -8.3811512 -73.303673 -8.3847837 -74.007118 -0.27076596 -90.169449
9209750000 -1.0833563 122.59888 -8.3892345 -73.355423 -8.3736506 -73.951553 -0.26319414 -90.089203
9209812500 -1.084762 122.59172 -8.3838272 -73.279526 -8.3795948 -73.968719 -0.2663421 -90.063095
9209875000 -1.0883135 122.57627 -8.3828182 -73.320724 -8.3778601 -73.955872 -0.26639548 -90.063179
9209937500 -1.0862125 122.62041 -8.3860512 -73.270607 -8.3790979 -74.002625 -0.26930514 -90.046593
9210000000 -1.0863297 122.56528 -8.381074 -73.327675 -8.3759527 -74.028664 -0.26776674 -90.067902
9210062500 -1.0857629 122.57607 -8.3843117 -73.303978 -8.379056 -73.984932 -0.26823607 -90.023895
9210125000 -1.0848061 122.54694 -8.3746004 -73.272049 -8.3764696 -73.998032 -0.2798382 -90.036674
9210187500 -1.087539 122.52362 -8.385005 -73.253113 -8.3621187 -73.981628 -0.26949894 -89.975319
9210250000 -1.089655 122.55164 -8.3840971 -73.278954 -8.371954 -74.025635 -0.27210441 -89.98793
9210312500 -1.0864196 122.50506 -8.3710814 -73.337494 -8.3681097 -74.006073 -0.26672119 -89.973068
9210375000 -1.0896808 122.53623 -8.3847666 -73.288559 -8.3749638 -74.002823 -0.27871737 -89.973137
9210437500 -1.0872518 122.46004 -8.3800669 -73.281578 -8.3723764 -73.999825 -0.27772182 -89.921822
9210500000 -1.0833745 122.43799 -8.3675976 -73.280426 -8.3751698 -73.971954 -0.27790132 -89.911621
9210562500 -1.0857724 122.43681 -8.3738527 -73.285156 -8.3746052 -73.96888 -0.28818241 -89.892471
9210625000 -1.0852826 122.32074 -8.3746891 -73.308311 -8.3693695 -73.98806 -0.28050709 -89.92379
9210687500 -1.0871791 122.32641 -8.3748846 -73.360428 -8.3695383 -73.936302 -0.27789199 -89.868492
9210750000 -1.0840622 122.31294 -8.3690443 -73.302536 -8.3688641 -73.996109 -0.27782333 -89.842682
9210812500 -1.0816195 122.3356 -8.3677588 -73.296089 -8.3606472 -73.933601 -0.27874652 -89.819862
9210875000 -1.0815251 122.30916 -8.3647175 -73.293343 -8.3606224 -73.922417 -0.27481404 -89.780937
9210937500 -1.0774133 122.33903 -8.3674068 -73.272034 -8.3574715 -73.918175 -0.27628022 -89.753632
9211000000 -1.0813891 122.25293 -8.3615284 -73.322945 -8.3612452 -73.881172 -0.28136888 -89.713722
9211062500 -1.0835658 122.30486 -8.3685732 -73.276093 -8.359067 -73.907036 -0.28042185 -89.706047
9211125000 -1.0847242 122.26522 -8.3714457 -73.268196 -8.3660946 -73.887383 -0.28541493 -89.6632
9211187500 -1.0849091 122.25986 -8.373023 -73.271523 -8.3552876 -73.875244 -0.28438318 -89.631348
9211250000 -1.0812922 122.26109 -8.3637981 -73.238289 -8.359211 -73.934746 -0.28555316 -89.671928
9211312500 -1.0844746 122.2726 -8.3652411 -73.182838 -8.3679771 -73.952873 -0.29093152 -89.620636
9211375000 -1.0843778 122.24709 -8.3673258 -73.252617 -8.3545446 -73.933098 -0.2820529 -89.612877
9211437500 -1.0817492 122.283 -8.3627882 -73.240669 -8.3599205 -73.927422 -0.28636539 -89.626411
9211500000 -1.0783265 122.22798 -8.3622684 -73.266685 -8.3534527 -73.927231 -0.28033838 -89.663055
9211562500 -1.0788087 122.21856 -8.3626261 -73.255272 -8.3617401 -73.934837 -0.28637654 -89.635628
9211625000 -1.0817193 122.25953 -8.3647203 -73.252052 -8.3562689 -73.889046 -0.27577505 -89.668213
9211687500 -1.0734752 122.2208 -8.3557596 -73.254478 -8.356493 -73.945267 -0.27181774 -89.630554
9211750000 -1.074108 122.21192 -8.3547897 -73.289764 -8.3567924 -73.922646 -0.27935773 -89.628777
9211812500 -1.0709411 122.1786 -8.3589096 -73.292816 -8.3557386 -73.856377 -0.28084645 -89.574104
9211875000 -1.0768647 122.15044 -8.3541145 -73.306152 -8.3559484 -73.920311 -0.28400818 -89.57103
9211937500 -1.0772347 122.13317 -8.3539085 -73.29705 -8.3501139 -73.9487 -0.2830658 -89.565529
9212000000 -1.0783639 122.0809 -8.3502293 -73.263245 -8.3573675 -73.923424 -0.29006392 -89.482697
9212062500 -1.0786092 122.09452 -8.354578 -73.221077 -8.3485641 -73.906525 -0.28583726 -89.476303
9212125000 -1.0764878 122.06868 -8.3536501 -73.214836 -8.3509045 -73.937019 -0.28097573 -89.457916
9212187500 -1.0799311 122.05443 -8.3559752 -73.148285 -8.3462677 -73.924942 -0.27914408 -89.419235
9212250000 -1.0754902 122.03033 -8.3445044 -73.235939 -8.339447 -73.870796 -0.27894405 -89.37915
9212312500 -1.0786229 121.96207 -8.3478365 -73.263626 -8.3470011 -73.95578 -0.27961534 -89.435242
