!Agilent Technologies,N5242A,MY51221714,A.09.90.19
!Agilent N5242A: A.09.90.19
!Date: Saturday, December 30, 2023 10:02:40
!Correction: S11(Full 2 Port(1,2)) 
!S21(Full 2 Port(1,2)) 
!S12(Full 2 Port(1,2)) 
!S22(Full 2 Port(1,2)) 
!S2P File: Measurements: S11, S21, S12, S22:
# Hz S  dB   R 50
9200000000 -1.0592008 125.00532 -8.6512327 -73.753494 -8.6375628 -74.459404 -0.23513784 -93.126587
9200062500 -1.0598983 124.99711 -8.6585093 -73.80056 -8.6370316 -74.4105 -0.23586172 -93.07457
9200125000 -1.0641556 124.97929 -8.6598444 -73.765808 -8.6257505 -74.455116 -0.23166303 -93.0522
9200187500 -1.0635513 124.94934 -8.6530714 -73.793327 -8.6353703 -74.424355 -0.23653257 -93.047882
9200250000 -1.0647211 124.9551 -8.6565571 -73.778679 -8.636425 -74.414497 -0.23703356 -93.029778
9200312500 -1.0670934 124.94534 -8.6571598 -73.786118 -8.6412401 -74.441193 -0.24208045 -93.025467
9200375000 -1.0681393 124.91615 -8.6581211 -73.773514 -8.6459608 -74.445435 -0.2425413 -93.037262
9200437500 -1.0605451 124.86382 -8.6556396 -73.813599 -8.6320572 -74.37365 -0.2363455 -92.998383
9200500000 -1.061276 124.87248 -8.6572409 -73.772423 -8.6345034 -74.365746 -0.2371437 -92.98774
9200562500 -1.0649774 124.82648 -8.6545992 -73.825539 -8.6315374 -74.393631 -0.23770343 -92.964722
9200625000 -1.0618769 124.8196 -8.6548357 -73.787933 -8.6335621 -74.409904 -0.24338813 -92.954376
9200687500 -1.0553609 124.78981 -8.648736 -73.821503 -8.632452 -74.378189 -0.23492329 -92.895447
9200750000 -1.0610708 124.78915 -8.6470156 -73.827446 -8.6233177 -74.441589 -0.23514892 -92.87561
9200812500 -1.0585949 124.77156 -8.6463194 -73.800728 -8.6213408 -74.400711 -0.23333374 -92.900085
9200875000 -1.0572683 124.72905 -8.6388359 -73.854874 -8.6156387 -74.385094 -0.23344968 -92.86705
9200937500 -1.0546296 124.76785 -8.6403008 -73.84201 -8.6269407 -74.401596 -0.24002697 -92.872086
9201000000 -1.0587064 124.73701 -8.6361217 -73.784912 -8.6238031 -74.382912 -0.23925328 -92.855354
9201062500 -1.0608089 124.78912 -8.6497231 -73.736359 -8.6288939 -74.386314 -0.24281976 -92.808228
9201125000 -1.0628978 124.76366 -8.6467457 -73.859215 -8.6367006 -74.406357 -0.24546772 -92.846474
9201187500 -1.0596173 124.80804 -8.6469717 -73.795799 -8.6332178 -74.389236 -0.24317308 -92.788315
9201250000 -1.0611322 124.75198 -8.6502504 -73.801674 -8.634079 -74.333374 -0.24675085 -92.788712
9201312500 -1.0615065 124.77642 -8.6387177 -73.76178 -8.6268702 -74.38517 -0.24128629 -92.783974
9201375000 -1.0601479 124.73104 -8.6289787 -73.699371 -8.6273413 -74.368942 -0.24543698 -92.727455
9201437500 -1.0658244 124.72841 -8.6383467 -73.718384 -8.6306515 -74.39267 -0.24628186 -92.737801
9201500000 -1.0652661 124.68819 -8.6307411 -73.729393 -8.6232491 -74.36367 -0.2345534 -92.691544
9201562500 -1.0647477 124.68953 -8.6363182 -73.675438 -8.6245413 -74.412193 -0.23118103 -92.655792
9201625000 -1.0654333 124.68896 -8.6345177 -73.713455 -8.6288824 -74.397552 -0.23685634 -92.644234
9201687500 -1.065094 124.6601 -8.6382599 -73.705292 -8.6238384 -74.454239 -0.24833375 -92.657944
9201750000 -1.0611166 124.62511 -8.6323776 -73.712074 -8.6231995 -74.365387 -0.24081783 -92.621735
9201812500 -1.0617874 124.63661 -8.6338882 -73.71759 -8.617425 -74.337769 -0.24081327 -92.584045
9201875000 -1.0641438 124.6228 -8.6351538 -73.702744 -8.6158781 -74.349548 -0.24084182 -92.626259
9201937500 -1.0616062 124.63689 -8.6319103 -73.764427 -8.6193523 -74.387863 -0.24463917 -92.603996
9202000000 -1.0605692 124.5872 -8.6305761 -73.754341 -8.6213179 -74.350151 -0.24755679 -92.592651
9202062500 -1.0633615 124.56704 -8.6310997 -73.762718 -8.6171408 -74.349808 -0.24091898 -92.582306
9202125000 -1.0647173 124.55138 -8.6321077 -73.79039 -8.6226215 -74.348442 -0.25040883 -92.558029
9202187500 -1.0624211 124.52384 -8.6355181 -73.785828 -8.6176844 -74.403 -0.2550185 -92.580238
9202250000 -1.0585999 124.50618 -8.6250896 -73.766968 -8.6227007 -74.363922 -0.2485681 -92.503052
9202312500 -1.0634959 124.47591 -8.62708 -73.751259 -8.6120033 -74.364128 -0.24255167 -92.509735
9202375000 -1.0629927 124.47305 -8.6318321 -73.735336 -8.6192923 -74.350357 -0.24902076 -92.464706
9202437500 -1.0613668 124.45105 -8.6327353 -73.786896 -8.6242266 -74.380074 -0.2522732 -92.471733
9202500000 -1.0637906 124.44262 -8.628623 -73.740768 -8.6209412 -74.362526 -0.24928071 -92.41655
9202562500 -1.0614841 124.41194 -8.6321154 -73.746704 -8.618597 -74.385887 -0.25064316 -92.450684
9202625000 -1.0610991 124.43777 -8.6219244 -73.728127 -8.6217747 -74.496002 -0.24942107 -92.516098
9202687500 -1.0598882 124.41753 -8.620224 -73.732506 -8.6168814 -74.353264 -0.24154802 -92.398163
9202750000 -1.061923 124.37997 -8.6272736 -73.721344 -8.6130705 -74.363525 -0.24869417 -92.386185
9202812500 -1.0591241 124.37764 -8.631711 -73.744591 -8.6126146 -74.356514 -0.24996673 -92.35685
9202875000 -1.0604442 124.36584 -8.6263256 -73.70295 -8.6005697 -74.360916 -0.24431853 -92.392853
9202937500 -1.0631289 124.37453 -8.6269741 -73.756454 -8.6138582 -74.346741 -0.25335053 -92.353172
9203000000 -1.054443 124.35274 -8.6210117 -73.729744 -8.6063538 -74.348854 -0.24638103 -92.355324
9203062500 -1.0603719 124.31744 -8.6175652 -73.764023 -8.5963116 -74.382629 -0.24300531 -92.32798
9203125000 -1.0552211 124.29653 -8.6146803 -73.721481 -8.6064463 -74.355247 -0.24971849 -92.307312
9203187500 -1.05397 124.28877 -8.6103535 -73.712463 -8.6029816 -74.354073 -0.23880126 -92.285652
9203250000 -1.0625569 124.27679 -8.6159477 -73.683739 -8.6069784 -74.297966 -0.24645895 -92.243034
9203312500 -1.0553883 124.32633 -8.6020365 -73.691414 -8.6131592 -74.359154 -0.2451507 -92.258293
9203375000 -1.0560888 124.276 -8.6039629 -73.697357 -8.6080465 -74.302521 -0.24343129 -92.17794
9203437500 -1.060652 124.27444 -8.6049948 -73.662407 -8.6125193 -74.308945 -0.24320392 -92.111847
9203500000 -1.0622207 124.29855 -8.604064 -73.694061 -8.6107674 -74.357552 -0.2443454 -92.153351
9203562500 -1.0610243 124.25848 -8.6018 -73.708046 -8.5986099 -74.328896 -0.24396895 -92.125824
9203625000 -1.0603412 124.20496 -8.608099 -73.715797 -8.60184 -74.321487 -0.24599485 -92.112656
9203687500 -1.0624567 124.21246 -8.6069984 -73.749817 -8.6027489 -74.362022 -0.24752201 -92.122421
9203750000 -1.0603037 124.17518 -8.6121197 -73.766724 -8.6033068 -74.410782 -0.25410891 -92.166748
9203812500 -1.0607651 124.18628 -8.6075258 -73.709869 -8.5923052 -74.327347 -0.24398938 -92.117638
9203875000 -1.0595375 124.13768 -8.6001253 -73.754929 -8.5919218 -74.335373 -0.24770325 -92.098671
9203937500 -1.0638568 124.11214 -8.6107101 -73.759392 -8.5955935 -74.337097 -0.24870779 -92.136108
9204000000 -1.0556295 124.11053 -8.6018009 -73.748558 -8.6003895 -74.31749 -0.24607806 -92.051529
9204062500 -1.0595104 124.07504 -8.5941887 -73.714149 -8.5956059 -74.295723 -0.24012198 -92.058449
9204125000 -1.0621471 124.08847 -8.6015711 -73.701042 -8.5909061 -74.339821 -0.24249336 -92.017166
9204187500 -1.0563886 124.07872 -8.5959558 -73.719177 -8.5919285 -74.32692 -0.2419268 -92.038757
9204250000 -1.0574198 124.06151 -8.60217 -73.727058 -8.5930653 -74.31617 -0.23852752 -92.00811
9204312500 -1.0577559 124.08259 -8.6084766 -73.641144 -8.5940638 -74.294472 -0.24333663 -91.979507
9204375000 -1.0573828 124.04642 -8.596693 -73.673904 -8.5919447 -74.306992 -0.24495807 -91.920113
9204437500 -1.050606 124.0248 -8.5892668 -73.675636 -8.5913754 -74.310127 -0.24336068 -91.926933
9204500000 -1.0529485 124.01408 -8.5906572 -73.674484 -8.5887041 -74.2826 -0.24583568 -91.897224
9204562500 -1.0537726 124.00076 -8.5908651 -73.644569 -8.5895128 -74.263474 -0.25121683 -91.873695
9204625000 -1.0483254 123.99352 -8.5960388 -73.608322 -8.5929527 -74.319023 -0.25329685 -91.866631
9204687500 -1.0555896 123.94125 -8.5991459 -73.694351 -8.5876513 -74.24749 -0.25428843 -91.864021
9204750000 -1.0620701 123.95746 -8.604125 -73.689079 -8.5836849 -74.288879 -0.25057971 -91.835129
9204812500 -1.0606444 123.91647 -8.5967093 -73.650528 -8.5836945 -74.303864 -0.25531983 -91.826935
9204875000 -1.0654987 123.90871 -8.6034737 -73.632431 -8.5857887 -74.304276 -0.25518605 -91.782356
9204937500 -1.062318 123.87465 -8.5903721 -73.743408 -8.5897436 -74.317245 -0.25347206 -91.805115
9205000000 -1.0639731 123.83349 -8.5935917 -73.750793 -8.5855589 -74.262306 -0.24947673 -91.78019
9205062500 -1.058979 123.89563 -8.5899944 -73.700523 -8.5939474 -74.320328 -0.25053355 -91.77198
9205125000 -1.0645715 123.8951 -8.5899973 -73.674805 -8.5903807 -74.283699 -0.24737357 -91.734818
9205187500 -1.0598409 123.8905 -8.5892305 -73.649857 -8.59056 -74.330254 -0.24958847 -91.75563
9205250000 -1.060515 123.86526 -8.5837002 -73.701401 -8.5859499 -74.323792 -0.24067284 -91.731964
9205312500 -1.0647558 123.87057 -8.5878248 -73.640854 -8.5823612 -74.325478 -0.2409658 -91.672974
9205375000 -1.0574203 123.84042 -8.5901346 -73.64193 -8.5932455 -74.346863 -0.24503888 -91.702667
9205437500 -1.0624264 123.82758 -8.5940046 -73.664986 -8.5852919 -74.369766 -0.24851349 -91.622047
9205500000 -1.0627224 123.80993 -8.5788507 -73.623779 -8.5765181 -74.293503 -0.24545591 -91.579163
9205562500 -1.0580413 123.7893 -8.5847073 -73.620338 -8.5684853 -74.316422 -0.24463004 -91.596558
9205625000 -1.0614977 123.78404 -8.5944042 -73.617798 -8.5797415 -74.263443 -0.25787324 -91.549019
9205687500 -1.062645 123.739 -8.6021128 -73.662895 -8.5831947 -74.301239 -0.25662574 -91.528236
9205750000 -1.0614196 123.7066 -8.5936861 -73.62114 -8.5740519 -74.304131 -0.25282636 -91.514206
9205812500 -1.0633994 123.69284 -8.5875959 -73.627403 -8.5767612 -74.278542 -0.26208341 -91.491638
9205875000 -1.0609518 123.66518 -8.5850058 -73.645668 -8.5792322 -74.267548 -0.25760669 -91.450165
9205937500 -1.0671523 123.69303 -8.5905914 -73.576805 -8.5801878 -74.308624 -0.25965142 -91.49353
9206000000 -1.0659715 123.67757 -8.5840187 -73.615295 -8.5799389 -74.27195 -0.26552168 -91.427177
9206062500 -1.0591991 123.64079 -8.5833082 -73.692566 -8.5744972 -74.28363 -0.26130277 -91.419266
9206125000 -1.0612032 123.63889 -8.5837269 -73.597313 -8.5828934 -74.252815 -0.26048037 -91.41571
9206187500 -1.065603 123.6255 -8.5815067 -73.612953 -8.5658808 -74.297615 -0.25490135 -91.409706
9206250000 -1.0623113 123.60446 -8.5673399 -73.607529 -8.5637035 -74.238579 -0.25680643 -91.351921
9206312500 -1.0671563 123.57609 -8.5778713 -73.61763 -8.5795803 -74.265106 -0.26124901 -91.346451
9206375000 -1.0615736 123.51257 -8.574605 -73.667305 -8.5668859 -74.266312 -0.25656542 -91.355034
9206437500 -1.0602524 123.53873 -8.577569 -73.613136 -8.5675163 -74.249146 -0.26445535 -91.276474
9206500000 -1.0621654 123.49774 -8.5773344 -73.685501 -8.5679235 -74.225533 -0.26062185 -91.297058
9206562500 -1.0614974 123.49354 -8.570405 -73.69735 -8.5642271 -74.298256 -0.2587792 -91.301003
9206625000 -1.0681518 123.55166 -8.5754852 -73.62883 -8.5630951 -74.252197 -0.25219876 -91.261993
9206687500 -1.0691028 123.51306 -8.5710526 -73.699844 -8.5670748 -74.219963 -0.25064462 -91.249565
9206750000 -1.0674975 123.53187 -8.5745516 -73.646042 -8.5634966 -74.223984 -0.24708681 -91.268822
9206812500 -1.0660257 123.54617 -8.570158 -73.629974 -8.5548267 -74.274017 -0.24393302 -91.292465
9206875000 -1.0667806 123.51683 -8.5774136 -73.685898 -8.5566235 -74.207359 -0.24486893 -91.206909
9206937500 -1.0634707 123.50092 -8.5680885 -73.649689 -8.5657673 -74.180496 -0.25044534 -91.22052
9207000000 -1.0675941 123.48481 -8.5791187 -73.693863 -8.5541849 -74.237572 -0.24614751 -91.184814
9207062500 -1.0605417 123.46794 -8.5710316 -73.634232 -8.5622969 -74.153656 -0.25046167 -91.140213
9207125000 -1.0592396 123.41521 -8.5693827 -73.700325 -8.5515776 -74.235161 -0.2459791 -91.156639
9207187500 -1.0598121 123.39674 -8.5694685 -73.642632 -8.5493002 -74.237091 -0.25072372 -91.136551
9207250000 -1.0611924 123.37615 -8.5735826 -73.621132 -8.5563936 -74.171593 -0.25291538 -91.070366
9207312500 -1.065354 123.35002 -8.5738211 -73.594971 -8.5532122 -74.258171 -0.25298521 -91.081787
9207375000 -1.0633879 123.35277 -8.567277 -73.611153 -8.555357 -74.255226 -0.26261863 -91.074677
9207437500 -1.0595015 123.33939 -8.5644865 -73.564621 -8.5532923 -74.238266 -0.25835279 -91.075775
9207500000 -1.062387 123.33083 -8.5595322 -73.606194 -8.5472097 -74.26915 -0.2578854 -91.074684
9207562500 -1.0570283 123.2814 -8.5604296 -73.642044 -8.5485468 -74.227592 -0.25772896 -91.094994
9207625000 -1.0668839 123.25762 -8.5560932 -73.581062 -8.5493574 -74.260567 -0.25709578 -91.062302
9207687500 -1.0655435 123.24223 -8.5564604 -73.693253 -8.5546894 -74.199791 -0.26006109 -91.046692
9207750000 -1.0685818 123.2641 -8.5600166 -73.660484 -8.5567217 -74.320549 -0.25277096 -91.071297
9207812500 -1.0660833 123.26706 -8.5602331 -73.662857 -8.5572834 -74.258186 -0.25477239 -91.026947
9207875000 -1.0710195 123.2261 -8.5552444 -73.691833 -8.5526714 -74.252968 -0.2457349 -91.013306
9207937500 -1.0726979 123.2261 -8.5515194 -73.687241 -8.55058 -74.242516 -0.24389587 -90.979553
9208000000 -1.0813001 123.22208 -8.5600166 -73.68232 -8.555912 -74.243645 -0.25351572 -90.89978
9208062500 -1.0674512 123.2103 -8.5522356 -73.611771 -8.5549393 -74.199059 -0.24856292 -90.899307
9208125000 -1.065416 123.19688 -8.5501537 -73.626686 -8.5592537 -74.258987 -0.25930086 -90.919312
9208187500 -1.063298 123.18571 -8.5529957 -73.549889 -8.5560293 -74.26474 -0.25321913 -90.868172
9208250000 -1.0642433 123.18886 -8.5505829 -73.570747 -8.5478697 -74.274857 -0.25148916 -90.85965
9208312500 -1.0650203 123.17577 -8.549428 -73.5569 -8.5497189 -74.245621 -0.25754464 -90.788376
9208375000 -1.0637491 123.15725 -8.5476732 -73.614922 -8.5440149 -74.266518 -0.25779209 -90.779137
9208437500 -1.0655031 123.13764 -8.5434685 -73.597847 -8.5488777 -74.251816 -0.25727761 -90.793396
9208500000 -1.0671601 123.12174 -8.5458422 -73.5849 -8.5487595 -74.249565 -0.25683555 -90.742981
9208562500 -1.0672368 123.13599 -8.5402822 -73.523895 -8.5526772 -74.204597 -0.25815687 -90.731377
9208625000 -1.0690715 123.11837 -8.54492 -73.538422 -8.5491648 -74.240723 -0.25659305 -90.762985
9208687500 -1.0634381 123.08065 -8.545701 -73.599136 -8.5411882 -74.22699 -0.2584331 -90.776588
9208750000 -1.0625818 123.08276 -8.5536041 -73.552223 -8.5489168 -74.207527 -0.26033705 -90.699829
9208812500 -1.0640728 123.05521 -8.5462189 -73.584023 -8.5447578 -74.183357 -0.26198304 -90.698708
9208875000 -1.0636271 123.05873 -8.551795 -73.536201 -8.5355797 -74.159348 -0.26024753 -90.661865
9208937500 -1.0597872 123.07479 -8.5396366 -73.547073 -8.5382099 -74.216362 -0.26673153 -90.644836
9209000000 -1.0614284 123.02848 -8.5427866 -73.570595 -8.5440168 -74.195168 -0.26725724 -90.662849
9209062500 -1.0580767 123.0276 -8.5462646 -73.527809 -8.5376167 -74.177109 -0.26304775 -90.638626
9209125000 -1.0623662 122.98811 -8.5410671 -73.596481 -8.5333967 -74.207275 -0.26476774 -90.598976
9209187500 -1.0594352 122.98111 -8.542572 -73.527992 -8.5395966 -74.222504 -0.27022228 -90.599785
9209250000 -1.0609369 122.94335 -8.5401182 -73.632294 -8.5341358 -74.160873 -0.26618519 -90.567741
9209312500 -1.0595093 122.95794 -8.5329866 -73.601242 -8.5269184 -74.174553 -0.26411971 -90.578804
9209375000 -1.0588186 122.91823 -8.5443172 -73.583031 -8.5366535 -74.20903 -0.27413917 -90.553246
9209437500 -1.061002 122.86758 -8.5380554 -73.565887 -8.5357742 -74.173843 -0.26615518 -90.507393
9209500000 -1.0577282 122.89285 -8.5355501 -73.561317 -8.5318632 -74.173264 -0.26121253 -90.50943
9209562500 -1.0579736 122.88203 -8.5346632 -73.606583 -8.5349979 -74.144844 -0.2646997 -90.487373
9209625000 -1.0637239 122.88428 -8.5414906 -73.52948 -8.5386095 -74.185066 -0.2615636 -90.496223
9209687500 -1.0635438 122.84299 -8.5387421 -73.585587 -8.5308228 -74.191269 -0.25634539 -90.465103
9209750000 -1.0659612 122.84364 -8.5429449 -73.542953 -8.5347013 -74.238625 -0.26449808 -90.489738
9209812500 -1.0707983 122.82289 -8.5332165 -73.571533 -8.5290222 -74.178566 -0.25457051 -90.442795
9209875000 -1.073168 122.81663 -8.5371494 -73.597664 -8.537796 -74.150475 -0.26471403 -90.434486
9209937500 -1.0713202 122.78886 -8.5284824 -73.589813 -8.5266695 -74.191628 -0.25782502 -90.441292
9210000000 -1.0728178 122.81492 -8.5381603 -73.549065 -8.5245209 -74.212509 -0.25770843 -90.418114
9210062500 -1.0761387 122.78579 -8.5421591 -73.591003 -8.5192747 -74.181679 -0.25296715 -90.363182
9210125000 -1.0719305 122.81217 -8.5378017 -73.512718 -8.5177832 -74.144722 -0.2605584 -90.339394
9210187500 -1.0702195 122.80123 -8.5294514 -73.540131 -8.5048552 -74.191956 -0.24946375 -90.337875
9210250000 -1.0662786 122.77004 -8.5308075 -73.532127 -8.519331 -74.179718 -0.2609584 -90.309059
9210312500 -1.0679419 122.76788 -8.5267963 -73.460609 -8.5096836 -74.134705 -0.26130292 -90.266495
9210375000 -1.0710399 122.71616 -8.5364008 -73.551254 -8.5188208 -74.188599 -0.26350117 -90.300911
9210437500 -1.0700412 122.67688 -8.529933 -73.540443 -8.5242434 -74.207619 -0.26573417 -90.283875
9210500000 -1.068652 122.70204 -8.5248098 -73.530243 -8.5243587 -74.193008 -0.26581371 -90.27739
9210562500 -1.0656437 122.62167 -8.5265007 -73.597214 -8.526433 -74.168015 -0.27132896 -90.263588
9210625000 -1.064658 122.59022 -8.5226097 -73.514053 -8.5166054 -74.19368 -0.26751289 -90.254028
9210687500 -1.0595642 122.58418 -8.5160723 -73.528275 -8.5158882 -74.188713 -0.26504451 -90.214226
9210750000 -1.0702686 122.57983 -8.5195341 -73.521133 -8.5113029 -74.142738 -0.26744336 -90.166969
9210812500 -1.0604601 122.56149 -8.5098591 -73.544121 -8.5114813 -74.137367 -0.26243427 -90.182693
9210875000 -1.0600353 122.58146 -8.5144806 -73.484985 -8.5090981 -74.099556 -0.26104638 -90.094032
9210937500 -1.0657029 122.53706 -8.5145531 -73.535133 -8.5076733 -74.092346 -0.25858933 -90.10807
9211000000 -1.0614659 122.53219 -8.5103827 -73.576714 -8.5083523 -74.116249 -0.2625795 -90.095413
9211062500 -1.0654562 122.54917 -8.5164661 -73.516975 -8.5106697 -74.139069 -0.27120614 -90.001976
9211125000 -1.0624816 122.55383 -8.5103102 -73.549393 -8.5084076 -74.104271 -0.2687082 -90.010544
9211187500 -1.0625707 122.51273 -8.5119209 -73.522774 -8.5139313 -74.117317 -0.27384678 -89.996986
9211250000 -1.0672792 122.45924 -8.5173292 -73.571976 -8.5101433 -74.128731 -0.27145171 -90.030067
9211312500 -1.0660177 122.48712 -8.5168209 -73.503532 -8.5061073 -74.105904 -0.27335185 -89.976448
9211375000 -1.0711588 122.48328 -8.5251665 -73.508064 -8.5077753 -74.119476 -0.27468333 -89.975975
9211437500 -1.063095 122.48638 -8.51682 -73.509628 -8.5114498 -74.154739 -0.27041635 -89.983322
9211500000 -1.0667171 122.49082 -8.5165758 -73.536995 -8.5103817 -74.14151 -0.27161714 -90.025169
9211562500 -1.0601089 122.48038 -8.5064402 -73.549576 -8.5058384 -74.175911 -0.26818281 -90.021561
9211625000 -1.0578338 122.45816 -8.504962 -73.517418 -8.5080471 -74.126404 -0.26500735 -90.011505
9211687500 -1.054152 122.47625 -8.498085 -73.4795 -8.5087843 -74.076172 -0.26720485 -89.943832
9211750000 -1.0588422 122.4697 -8.5065517 -73.508759 -8.5148373 -74.115578 -0.27266511 -89.96656
9211812500 -1.0570458 122.41702 -8.510931 -73.521812 -8.5151949 -74.102745 -0.27077627 -89.922729
9211875000 -1.0599928 122.37872 -8.5003681 -73.534821 -8.5047312 -74.102974 -0.25984251 -89.90464
9211937500 -1.0618633 122.36854 -8.5072947 -73.529266 -8.5075397 -74.069969 -0.27348414 -89.8815
9212000000 -1.0647926 122.33462 -8.5078278 -73.525909 -8.5041151 -74.12513 -0.26950297 -89.844452
9212062500 -1.0612092 122.32772 -8.5093365 -73.468582 -8.4982023 -74.054726 -0.26895529 -89.750229
9212125000 -1.0639268 122.28063 -8.5053406 -73.429619 -8.4941111 -74.093956 -0.26882115 -89.746887
9212187500 -1.0633879 122.23396 -8.5028563 -73.489166 -8.4863892 -74.096581 -0.26495039 -89.741936
9212250000 -1.0621272 122.23461 -8.5036983 -73.518242 -8.4993477 -74.141251 -0.27283233 -89.759048
9212312500 -1.0659584 122.21638 -8.4993 -73.499329 -8.4956236 -74.158592 -0.26760408 -89.756348
