!Agilent Technologies,N5242A,MY51221714,A.09.90.19
!Agilent N5242A: A.09.90.19
!Date: Saturday, December 30, 2023 10:03:39
!Correction: S11(Full 2 Port(1,2)) 
!S21(Full 2 Port(1,2)) 
!S12(Full 2 Port(1,2)) 
!S22(Full 2 Port(1,2)) 
!S2P File: Measurements: S11, S21, S12, S22:
# Hz S  dB   R 50
9200000000 -1.2649179 123.61221 -8.6171141 -76.056465 -8.6004963 -76.777534 -0.34687036 -93.937729
9200062500 -1.2677819 123.56595 -8.6189384 -76.087341 -8.6026707 -76.713486 -0.35423136 -93.868042
9200125000 -1.2638274 123.54396 -8.6117315 -76.09478 -8.5947628 -76.721901 -0.34528247 -93.873581
9200187500 -1.2667648 123.52121 -8.6176147 -76.065727 -8.5989771 -76.678185 -0.34471118 -93.849045
9200250000 -1.2643584 123.50643 -8.6103582 -76.084206 -8.6105585 -76.743324 -0.35314587 -93.831299
9200312500 -1.2709614 123.51075 -8.6203804 -76.043938 -8.5962391 -76.702271 -0.35036784 -93.820343
9200375000 -1.2728169 123.46364 -8.6165237 -76.087029 -8.5960712 -76.735657 -0.34911129 -93.852554
9200437500 -1.2676593 123.4703 -8.6111584 -76.044846 -8.59235 -76.747383 -0.34486368 -93.866035
9200500000 -1.2664924 123.43945 -8.6165199 -76.111313 -8.6005449 -76.724686 -0.3474519 -93.817009
9200562500 -1.2658437 123.4051 -8.615797 -76.102013 -8.5954256 -76.706261 -0.34878233 -93.791054
9200625000 -1.2619423 123.4014 -8.6058235 -76.070107 -8.592145 -76.710876 -0.34478113 -93.77623
9200687500 -1.2643886 123.37749 -8.6065331 -76.107948 -8.5864239 -76.729294 -0.34244969 -93.790138
9200750000 -1.2605655 123.37797 -8.6002789 -76.020729 -8.5827866 -76.723167 -0.34277469 -93.728851
9200812500 -1.265371 123.33832 -8.6107883 -76.094254 -8.5897017 -76.702095 -0.35100535 -93.710258
9200875000 -1.2656249 123.33514 -8.6103783 -76.063637 -8.5853548 -76.700401 -0.34640589 -93.658516
9200937500 -1.2613937 123.31519 -8.6074266 -76.078835 -8.5872355 -76.755005 -0.34869239 -93.678772
9201000000 -1.2711891 123.35075 -8.6119909 -76.176086 -8.5950041 -76.726112 -0.35918376 -93.687279
9201062500 -1.2632034 123.32638 -8.6015635 -76.10006 -8.5960751 -76.749878 -0.35776913 -93.691292
9201125000 -1.2688438 123.34763 -8.61485 -76.085472 -8.5973358 -76.743301 -0.35315049 -93.668884
9201187500 -1.2744154 123.36416 -8.6211653 -76.113876 -8.5956821 -76.71714 -0.35931271 -93.626259
9201250000 -1.2620895 123.36786 -8.6051388 -76.024963 -8.6011753 -76.75267 -0.35525113 -93.633835
9201312500 -1.2665292 123.37121 -8.5989628 -76.013847 -8.5887861 -76.718254 -0.34909451 -93.611916
9201375000 -1.2678448 123.33607 -8.6110926 -76.038254 -8.5945435 -76.684364 -0.35733962 -93.547005
9201437500 -1.2672093 123.2903 -8.5952759 -76.090683 -8.5920353 -76.659851 -0.35220662 -93.51963
9201500000 -1.276045 123.27179 -8.5968075 -76.047821 -8.5857306 -76.766312 -0.3458972 -93.563972
9201562500 -1.2751181 123.23816 -8.6017504 -76.018951 -8.5804958 -76.681717 -0.34753868 -93.456474
9201625000 -1.2774136 123.2262 -8.5931005 -76.046402 -8.5800962 -76.726524 -0.34731153 -93.52066
9201687500 -1.268296 123.22684 -8.6015348 -76.033272 -8.5820732 -76.747902 -0.35048479 -93.474739
9201750000 -1.2708931 123.21634 -8.6001711 -76.043304 -8.5810318 -76.766747 -0.35152924 -93.47287
9201812500 -1.2746093 123.22337 -8.6003952 -76.028076 -8.5826492 -76.714607 -0.35378072 -93.444733
9201875000 -1.2697227 123.20991 -8.5919838 -76.082649 -8.5735683 -76.688698 -0.35722193 -93.424492
9201937500 -1.2748709 123.18993 -8.5976372 -76.0672 -8.580018 -76.729179 -0.35944349 -93.427567
9202000000 -1.2668391 123.17016 -8.5959234 -76.052063 -8.5820627 -76.658997 -0.35682195 -93.417168
9202062500 -1.2699677 123.15643 -8.5959644 -76.05265 -8.5829716 -76.629318 -0.36274394 -93.378113
9202125000 -1.2666981 123.08979 -8.5923052 -76.087822 -8.579567 -76.681732 -0.35977903 -93.402672
9202187500 -1.2715899 123.12357 -8.5907707 -76.074463 -8.5816374 -76.719322 -0.36505738 -93.385017
9202250000 -1.2670604 123.04916 -8.5882864 -76.095764 -8.5798235 -76.662926 -0.35655448 -93.365921
9202312500 -1.2668167 123.06615 -8.5924797 -76.078232 -8.5762815 -76.700508 -0.35728705 -93.333107
9202375000 -1.2675198 123.05003 -8.5914764 -76.062012 -8.5819292 -76.716606 -0.36419517 -93.325699
9202437500 -1.2671142 123.03074 -8.5883045 -76.1194 -8.5776386 -76.702599 -0.35644314 -93.3255
9202500000 -1.2673094 123.00619 -8.5883245 -76.102959 -8.571146 -76.719727 -0.35257214 -93.288376
9202562500 -1.2662505 123.03149 -8.5934343 -76.066109 -8.569849 -76.736366 -0.35644713 -93.335274
9202625000 -1.2717868 123.00461 -8.5915051 -76.019493 -8.5692205 -76.730354 -0.35769665 -93.257454
9202687500 -1.2668196 122.98888 -8.5843306 -76.00592 -8.5658665 -76.727707 -0.35307562 -93.254456
9202750000 -1.2680522 123.01045 -8.5863543 -76.016991 -8.5745659 -76.711174 -0.36237961 -93.227051
9202812500 -1.2660155 122.96107 -8.5831013 -76.039368 -8.5628195 -76.718903 -0.35239279 -93.205368
9202875000 -1.2663608 122.91131 -8.5820942 -76.027031 -8.5677137 -76.686478 -0.35871944 -93.186874
9202937500 -1.2721163 122.90343 -8.5845823 -76.06073 -8.5671406 -76.72953 -0.36087412 -93.185219
9203000000 -1.2619016 122.91359 -8.5772009 -76.046928 -8.5683575 -76.673958 -0.36137071 -93.174202
9203062500 -1.2620931 122.8974 -8.5758963 -76.093773 -8.5609808 -76.740158 -0.36386397 -93.183907
9203125000 -1.2621273 122.90961 -8.5762234 -76.038742 -8.5638151 -76.732071 -0.36563727 -93.11261
9203187500 -1.2623303 122.86827 -8.5775833 -76.053856 -8.5674753 -76.720078 -0.36146423 -93.102539
9203250000 -1.2636638 122.86464 -8.5631342 -76.045792 -8.5648746 -76.672279 -0.35699403 -93.076683
9203312500 -1.2656021 122.87457 -8.5656662 -76.074509 -8.571619 -76.703964 -0.35949132 -93.075287
9203375000 -1.264058 122.86292 -8.5620766 -75.976898 -8.5622177 -76.661659 -0.3540425 -93.002525
9203437500 -1.2551343 122.88368 -8.546999 -75.98597 -8.5635166 -76.647888 -0.35365093 -93.003151
9203500000 -1.262444 122.85641 -8.5593586 -76.025597 -8.5708332 -76.693916 -0.3539784 -92.987663
9203562500 -1.2694142 122.82578 -8.5647888 -76.020035 -8.5649691 -76.688416 -0.35518986 -92.945648
9203625000 -1.266382 122.82835 -8.569355 -76.047913 -8.559473 -76.633339 -0.35476667 -92.957916
9203687500 -1.2669472 122.79963 -8.5647202 -76.020081 -8.5573692 -76.668083 -0.35640645 -92.950859
9203750000 -1.2695866 122.73838 -8.5725117 -76.035202 -8.5518684 -76.653755 -0.35743707 -92.934776
9203812500 -1.2656202 122.73103 -8.5718784 -76.088844 -8.5664082 -76.715782 -0.36485264 -92.935669
9203875000 -1.2686247 122.71626 -8.5671539 -76.047539 -8.5595121 -76.696678 -0.36281386 -92.949989
9203937500 -1.2693008 122.69803 -8.565731 -76.046173 -8.5551023 -76.692207 -0.35850945 -92.957405
9204000000 -1.2694851 122.67625 -8.5746737 -76.062614 -8.5527067 -76.620193 -0.35917079 -92.873573
9204062500 -1.2699076 122.65421 -8.5610514 -76.061195 -8.5578394 -76.668907 -0.35677907 -92.87957
9204125000 -1.2707927 122.68193 -8.5696812 -76.036667 -8.5535278 -76.660355 -0.35521546 -92.874908
9204187500 -1.2699053 122.66499 -8.5602102 -76.016663 -8.5507021 -76.668083 -0.35589081 -92.877213
9204250000 -1.2632024 122.64793 -8.5569 -75.998146 -8.5597706 -76.614212 -0.35414746 -92.808243
9204312500 -1.2610817 122.64462 -8.5476246 -75.998863 -8.5513515 -76.61451 -0.35883233 -92.800117
9204375000 -1.2622452 122.66531 -8.5574694 -75.975853 -8.5580215 -76.636246 -0.35905257 -92.769806
9204437500 -1.2639232 122.61237 -8.5469828 -75.960503 -8.5531178 -76.688454 -0.36583671 -92.742279
9204500000 -1.2586672 122.59799 -8.548624 -75.932762 -8.5479517 -76.643433 -0.36319831 -92.717613
9204562500 -1.2664876 122.5744 -8.5518713 -75.982384 -8.5458536 -76.701897 -0.36773598 -92.747192
9204625000 -1.2558237 122.51466 -8.5492859 -75.936592 -8.5424938 -76.62722 -0.36896336 -92.665031
9204687500 -1.2582903 122.55257 -8.5529366 -75.900063 -8.5441599 -76.662903 -0.36446485 -92.711121
9204750000 -1.2650156 122.48662 -8.5511827 -75.98912 -8.5474081 -76.616829 -0.3674742 -92.697403
9204812500 -1.2679657 122.49401 -8.545435 -75.990517 -8.5319023 -76.641197 -0.35855862 -92.675049
9204875000 -1.2662059 122.48983 -8.5484562 -76.087906 -8.5414429 -76.633644 -0.36385104 -92.647247
9204937500 -1.2706417 122.45689 -8.5570183 -76.037537 -8.5422945 -76.619789 -0.36402327 -92.6259
9205000000 -1.2673578 122.44743 -8.5509748 -75.992661 -8.5363493 -76.637047 -0.36719307 -92.596336
9205062500 -1.2743143 122.47103 -8.5556364 -76.022346 -8.5459013 -76.650368 -0.36253321 -92.607994
9205125000 -1.2661644 122.44076 -8.5476084 -76.02536 -8.5479231 -76.696526 -0.3602401 -92.563278
9205187500 -1.2691625 122.43911 -8.5447788 -76.035545 -8.5394096 -76.72229 -0.35541961 -92.561478
9205250000 -1.2668751 122.44146 -8.5467911 -75.983353 -8.5460577 -76.693871 -0.35907406 -92.523964
9205312500 -1.272193 122.4547 -8.545578 -75.931908 -8.5543213 -76.635765 -0.35627696 -92.468056
9205375000 -1.2651417 122.43958 -8.5390425 -75.997139 -8.5439625 -76.699295 -0.35676554 -92.484871
9205437500 -1.2687331 122.39867 -8.5501337 -76.008163 -8.5491362 -76.711052 -0.36625096 -92.467789
9205500000 -1.271262 122.38995 -8.5521164 -75.996185 -8.5423641 -76.659821 -0.36383164 -92.432007
9205562500 -1.2668341 122.40488 -8.5535631 -75.941383 -8.5314293 -76.619019 -0.36282131 -92.373047
9205625000 -1.2679176 122.30981 -8.544611 -75.937637 -8.5310526 -76.57843 -0.36586937 -92.34137
9205687500 -1.2709541 122.29323 -8.5500555 -75.931313 -8.5286846 -76.604668 -0.36927727 -92.309891
9205750000 -1.2671219 122.27417 -8.5471487 -75.98922 -8.532711 -76.678543 -0.36974406 -92.344093
9205812500 -1.2701863 122.2595 -8.5534964 -75.940132 -8.5407028 -76.635178 -0.37361875 -92.316147
9205875000 -1.2722074 122.23106 -8.5484056 -76.00486 -8.5354052 -76.668167 -0.37609547 -92.317986
9205937500 -1.2697562 122.21832 -8.5369434 -75.997757 -8.5343285 -76.651733 -0.37546691 -92.296089
9206000000 -1.2756276 122.23566 -8.5448952 -75.946617 -8.5282326 -76.648903 -0.37215173 -92.261818
9206062500 -1.2733121 122.20441 -8.5377388 -75.946602 -8.5270481 -76.65596 -0.36956719 -92.251762
9206125000 -1.273083 122.19924 -8.5386648 -76.01178 -8.5295887 -76.625763 -0.37365311 -92.242867
9206187500 -1.2736034 122.17027 -8.5337677 -76.047363 -8.5318556 -76.68129 -0.37127432 -92.255264
9206250000 -1.2702708 122.17866 -8.5412235 -75.92971 -8.5395718 -76.610771 -0.37884346 -92.173134
9206312500 -1.2721242 122.15662 -8.5296221 -75.976891 -8.5232439 -76.59388 -0.36965632 -92.21067
9206375000 -1.273013 122.12666 -8.5235996 -75.985092 -8.5179539 -76.638123 -0.3690334 -92.153603
9206437500 -1.2743537 122.06969 -8.5428638 -76.081978 -8.5319223 -76.577629 -0.38465217 -92.125
9206500000 -1.2705616 122.09607 -8.5316248 -75.981461 -8.526722 -76.620056 -0.37985596 -92.101021
9206562500 -1.2712082 122.0799 -8.5380936 -76.063461 -8.5213184 -76.662666 -0.37012586 -92.140213
9206625000 -1.2773128 122.08297 -8.5287237 -75.996346 -8.5174026 -76.597031 -0.36266997 -92.13208
9206687500 -1.272657 122.08858 -8.526515 -76.051773 -8.5238056 -76.633385 -0.37388062 -92.090706
9206750000 -1.274142 122.10589 -8.5279093 -76.056129 -8.5195332 -76.614777 -0.3653172 -92.088753
9206812500 -1.2707603 122.12523 -8.5328341 -76.031769 -8.5137701 -76.551598 -0.3638218 -92.060013
9206875000 -1.2711377 122.10053 -8.5318747 -75.970108 -8.5163288 -76.609177 -0.36333257 -92.076256
9206937500 -1.2697345 122.08676 -8.534421 -75.990257 -8.5181751 -76.578392 -0.36875299 -91.994888
9207000000 -1.2683585 122.0675 -8.5346079 -76.016685 -8.5180073 -76.622437 -0.36676171 -92.046967
9207062500 -1.2709692 122.01324 -8.5307274 -76.04451 -8.5130911 -76.623466 -0.36162385 -92.021332
9207125000 -1.2709479 122.00778 -8.5292263 -75.968369 -8.5095673 -76.614258 -0.3643086 -91.987289
9207187500 -1.2707074 121.96751 -8.5257483 -75.972466 -8.5121069 -76.609589 -0.36835825 -91.96283
9207250000 -1.2647434 121.98673 -8.5231323 -75.915016 -8.4998131 -76.620789 -0.36452544 -91.915283
9207312500 -1.2698888 121.94009 -8.5207825 -75.965134 -8.5076685 -76.627304 -0.37521291 -91.951355
9207375000 -1.2674043 121.89786 -8.5186501 -75.971703 -8.5048237 -76.645203 -0.37140515 -91.912704
9207437500 -1.2664758 121.91721 -8.5136232 -75.923035 -8.5130663 -76.593117 -0.37143743 -91.871498
9207500000 -1.2687531 121.89358 -8.5242033 -75.941483 -8.5063133 -76.609894 -0.37235376 -91.88446
9207562500 -1.2768786 121.87366 -8.5222769 -75.998573 -8.5014172 -76.625412 -0.37009647 -91.845512
9207625000 -1.2736653 121.80962 -8.5233183 -76.033279 -8.5168056 -76.616776 -0.37981391 -91.915497
9207687500 -1.2762314 121.81319 -8.5150814 -76.103874 -8.5129156 -76.640251 -0.37455499 -91.885468
9207750000 -1.2825999 121.80021 -8.5226402 -76.012848 -8.5079775 -76.612083 -0.37198204 -91.850166
9207812500 -1.2770119 121.77337 -8.5109119 -76.020256 -8.5094051 -76.630684 -0.36763462 -91.833099
9207875000 -1.2849356 121.8219 -8.5152683 -75.974937 -8.5170574 -76.630524 -0.37243715 -91.817444
9207937500 -1.2842159 121.81025 -8.5124111 -76.037178 -8.5103264 -76.60701 -0.36156487 -91.797272
9208000000 -1.2822627 121.80035 -8.5170431 -76.009789 -8.5155058 -76.645142 -0.37357396 -91.776451
9208062500 -1.2813339 121.7831 -8.5130873 -75.965614 -8.5155811 -76.630768 -0.36627227 -91.759026
9208125000 -1.2798607 121.76072 -8.517046 -75.956429 -8.5060883 -76.612068 -0.36663184 -91.714302
9208187500 -1.2775083 121.76822 -8.5073738 -75.965385 -8.5119915 -76.633873 -0.37291786 -91.659134
9208250000 -1.2749135 121.70549 -8.50214 -75.966438 -8.5084105 -76.601151 -0.36937961 -91.664375
9208312500 -1.2765915 121.75436 -8.5125837 -75.92907 -8.5034771 -76.615158 -0.37160584 -91.645264
9208375000 -1.2759997 121.74065 -8.5045242 -75.926094 -8.513525 -76.616577 -0.38025087 -91.59153
9208437500 -1.2763066 121.70577 -8.5061903 -75.962784 -8.5019732 -76.622826 -0.36798072 -91.593636
9208500000 -1.2757937 121.68123 -8.498642 -75.968163 -8.4943657 -76.595901 -0.36932307 -91.606392
9208562500 -1.2738316 121.65973 -8.5029917 -75.957527 -8.4998369 -76.599106 -0.36749053 -91.601852
9208625000 -1.2727491 121.70441 -8.5002632 -75.913063 -8.4959793 -76.59462 -0.37576276 -91.591606
9208687500 -1.2692503 121.6859 -8.505332 -75.907242 -8.4985962 -76.596931 -0.37663066 -91.573563
9208750000 -1.2719797 121.63608 -8.4948082 -75.948418 -8.5042543 -76.562004 -0.38012767 -91.542824
9208812500 -1.2695819 121.60687 -8.4962873 -75.921234 -8.5016384 -76.580826 -0.37980026 -91.524712
9208875000 -1.2705457 121.61853 -8.5027637 -75.933075 -8.498848 -76.565994 -0.38170865 -91.482994
9208937500 -1.2689266 121.61584 -8.4999838 -75.947098 -8.4955101 -76.554306 -0.38209397 -91.507751
9209000000 -1.2702073 121.60738 -8.507987 -75.924423 -8.4898329 -76.565727 -0.37925145 -91.46151
9209062500 -1.2693162 121.58727 -8.5058327 -75.925308 -8.4903975 -76.621552 -0.38020813 -91.461899
9209125000 -1.2652917 121.56005 -8.495862 -75.904427 -8.4902754 -76.592484 -0.38596788 -91.458847
9209187500 -1.269845 121.55145 -8.4936228 -75.918739 -8.4836454 -76.593231 -0.37782675 -91.426941
9209250000 -1.2692933 121.52567 -8.496583 -75.949699 -8.4903669 -76.571663 -0.38752767 -91.417488
9209312500 -1.2734144 121.5106 -8.5017014 -75.920731 -8.4811068 -76.548454 -0.38183963 -91.386948
9209375000 -1.2650815 121.46088 -8.4847107 -75.977127 -8.4873962 -76.531021 -0.37510431 -91.365753
9209437500 -1.2667311 121.45694 -8.4913445 -75.930069 -8.4970465 -76.53289 -0.38456726 -91.368736
9209500000 -1.2670168 121.44419 -8.4966383 -75.855354 -8.4855156 -76.564133 -0.38204575 -91.310555
9209562500 -1.2741395 121.41813 -8.4931154 -75.93885 -8.4899988 -76.555237 -0.38011897 -91.299423
9209625000 -1.2723796 121.43474 -8.4913073 -75.934402 -8.4849796 -76.605515 -0.37673277 -91.304474
9209687500 -1.2707031 121.42886 -8.4842901 -75.995224 -8.4914246 -76.541725 -0.37467298 -91.333618
9209750000 -1.2756183 121.41666 -8.4914265 -75.941238 -8.5008316 -76.584236 -0.38062561 -91.260872
9209812500 -1.278542 121.39489 -8.4952993 -75.94117 -8.4835854 -76.61438 -0.3674151 -91.30249
9209875000 -1.2788678 121.401 -8.4844542 -75.990463 -8.4749517 -76.567673 -0.3699595 -91.247047
9209937500 -1.2756402 121.3744 -8.4809847 -75.945686 -8.4808855 -76.581123 -0.37104937 -91.243973
9210000000 -1.2814831 121.40206 -8.4813995 -75.90638 -8.4762545 -76.572388 -0.37244174 -91.247719
9210062500 -1.2776484 121.38103 -8.4869881 -75.915237 -8.4791765 -76.600487 -0.37812787 -91.197548
9210125000 -1.2770689 121.37163 -8.4795227 -75.901619 -8.4739819 -76.562134 -0.37387013 -91.121048
9210187500 -1.2796171 121.35197 -8.486371 -75.900131 -8.4759398 -76.586922 -0.38445887 -91.158852
9210250000 -1.2797736 121.34698 -8.4893599 -75.879814 -8.4676428 -76.520782 -0.37347725 -91.142303
9210312500 -1.2783371 121.33428 -8.4740572 -75.906601 -8.4747486 -76.570656 -0.38455808 -91.102356
9210375000 -1.2752161 121.26064 -8.4786568 -75.909019 -8.48172 -76.583237 -0.38987979 -91.108994
9210437500 -1.2785304 121.24668 -8.4766836 -75.927628 -8.4782238 -76.614883 -0.38007313 -91.143562
9210500000 -1.2797172 121.24746 -8.4765396 -75.995552 -8.4799232 -76.580322 -0.38547847 -91.119965
9210562500 -1.2809654 121.20058 -8.483304 -75.902679 -8.476469 -76.604996 -0.38772187 -91.083031
9210625000 -1.2724351 121.13303 -8.4658194 -75.925392 -8.4797506 -76.561226 -0.38826722 -91.048248
9210687500 -1.2790515 121.1256 -8.4748173 -75.912437 -8.4719353 -76.579185 -0.38615519 -91.033096
9210750000 -1.2757316 121.12991 -8.4711676 -75.927528 -8.4727573 -76.579651 -0.38330978 -91.012924
9210812500 -1.2790822 121.10025 -8.4716415 -75.94709 -8.4686689 -76.576256 -0.38375199 -91.009857
9210875000 -1.2717026 121.09059 -8.4620485 -75.981087 -8.4704609 -76.533302 -0.38594425 -90.972023
9210937500 -1.27149 121.08409 -8.4609756 -75.964035 -8.4591055 -76.535225 -0.38548425 -90.93792
9211000000 -1.2737623 121.09572 -8.4615726 -75.992256 -8.4644213 -76.530006 -0.38082951 -90.937195
9211062500 -1.2790985 121.07357 -8.4641914 -75.933533 -8.4652262 -76.474335 -0.38858238 -90.873611
9211125000 -1.2790848 121.07579 -8.4720068 -75.930595 -8.4636765 -76.540306 -0.38747317 -90.877747
9211187500 -1.2771921 121.03973 -8.4665394 -75.904999 -8.4603701 -76.500923 -0.38950846 -90.828598
9211250000 -1.2725737 121.05001 -8.4660521 -75.861885 -8.456851 -76.511467 -0.38876393 -90.827835
9211312500 -1.280087 121.05145 -8.4722185 -75.891083 -8.4604702 -76.556664 -0.39222789 -90.825119
9211375000 -1.2774014 121.02943 -8.4653263 -75.873199 -8.4681854 -76.533722 -0.39453739 -90.787804
9211437500 -1.2776393 120.99902 -8.4706249 -75.892914 -8.4627876 -76.518044 -0.38980207 -90.807274
9211500000 -1.2757136 121.01785 -8.4791231 -75.936073 -8.4698582 -76.529251 -0.39803001 -90.800278
9211562500 -1.2757928 121.0334 -8.4684038 -75.848953 -8.4669628 -76.572792 -0.38186768 -90.842552
9211625000 -1.2771454 121.00304 -8.4588385 -75.941376 -8.4600687 -76.601837 -0.38220176 -90.873894
9211687500 -1.2690419 121.02119 -8.4614401 -75.901543 -8.473052 -76.544708 -0.38916892 -90.825874
9211750000 -1.2696426 120.99625 -8.4662523 -75.906555 -8.4600201 -76.573349 -0.38522297 -90.836403
9211812500 -1.2754624 120.97361 -8.4587231 -75.940811 -8.4604359 -76.560242 -0.38770536 -90.784203
9211875000 -1.2715926 120.93791 -8.4681787 -75.941971 -8.4630566 -76.559921 -0.39488009 -90.761772
9211937500 -1.2758582 120.9156 -8.4507656 -75.901436 -8.4489899 -76.526871 -0.38248926 -90.727196
9212000000 -1.2796533 120.92806 -8.463685 -75.897606 -8.4508543 -76.547798 -0.38815263 -90.683823
9212062500 -1.2722979 120.86433 -8.4516048 -75.845329 -8.453989 -76.533813 -0.39099866 -90.623779
9212125000 -1.2714518 120.85277 -8.4549952 -75.828735 -8.4500713 -76.498466 -0.39076445 -90.575119
9212187500 -1.2809902 120.79945 -8.4528723 -75.879478 -8.4475536 -76.529984 -0.38593912 -90.589302
9212250000 -1.2735114 120.79465 -8.4526596 -75.91597 -8.4507656 -76.567238 -0.38430306 -90.619377
9212312500 -1.2736071 120.77869 -8.4485655 -75.894463 -8.4527121 -76.604927 -0.38675383 -90.600952
