!Agilent Technologies,N5242A,MY51221714,A.09.90.19
!Agilent N5242A: A.09.90.19
!Date: Saturday, December 30, 2023 10:05:32
!Correction: S11(Full 2 Port(1,2)) 
!S21(Full 2 Port(1,2)) 
!S12(Full 2 Port(1,2)) 
!S22(Full 2 Port(1,2)) 
!S2P File: Measurements: S11, S21, S12, S22:
# Hz S  dB   R 50
9200000000 -1.2067074 123.57749 -8.361598 -75.207863 -8.3522224 -75.912422 -0.3739416 -93.143776
9200062500 -1.21071 123.58342 -8.355855 -75.191238 -8.3410091 -75.924171 -0.36967579 -93.119217
9200125000 -1.2117386 123.54027 -8.3625193 -75.237854 -8.3497725 -75.875916 -0.37121591 -93.075058
9200187500 -1.2147813 123.5111 -8.3737097 -75.270523 -8.3449736 -75.930923 -0.37849507 -93.058937
9200250000 -1.2159734 123.51668 -8.3663025 -75.246407 -8.3514738 -75.977203 -0.37579161 -93.107262
9200312500 -1.214452 123.4887 -8.36551 -75.220078 -8.3434477 -75.907753 -0.37690002 -93.069183
9200375000 -1.2138383 123.48205 -8.3612585 -75.243835 -8.3458529 -75.878502 -0.38072562 -93.06266
9200437500 -1.213551 123.4588 -8.3605003 -75.252563 -8.3508615 -75.953629 -0.38037211 -93.075294
9200500000 -1.2085838 123.40824 -8.3669071 -75.267982 -8.3459244 -75.898636 -0.37578359 -93.042496
9200562500 -1.2171677 123.39217 -8.3605766 -75.253349 -8.3378048 -75.877327 -0.37154451 -93.036186
9200625000 -1.2136961 123.41078 -8.3667269 -75.238617 -8.3411407 -75.861038 -0.36942858 -92.965935
9200687500 -1.2134405 123.37803 -8.3611078 -75.271065 -8.3392658 -75.900543 -0.37268004 -93.002594
9200750000 -1.2125505 123.37299 -8.3622332 -75.225128 -8.3361731 -75.916069 -0.37341022 -92.946442
9200812500 -1.2100973 123.37848 -8.3568773 -75.210045 -8.3249321 -75.819405 -0.37113079 -92.886589
9200875000 -1.2098383 123.35911 -8.3510942 -75.261429 -8.3353338 -75.870293 -0.37792048 -92.882607
9200937500 -1.2121476 123.34594 -8.3649435 -75.22097 -8.3354445 -75.903748 -0.37683529 -92.925095
9201000000 -1.2091259 123.31959 -8.3536034 -75.255165 -8.3443108 -75.877487 -0.38792071 -92.86734
9201062500 -1.211156 123.34491 -8.3569679 -75.283066 -8.3418036 -75.867043 -0.37851921 -92.866829
9201125000 -1.20761 123.33454 -8.3565712 -75.254906 -8.3373528 -75.890694 -0.38738683 -92.895966
9201187500 -1.2095571 123.32068 -8.3528423 -75.227203 -8.3483477 -75.842697 -0.3839502 -92.855667
9201250000 -1.2125388 123.34048 -8.3643703 -75.232658 -8.3432732 -75.910728 -0.3827109 -92.876762
9201312500 -1.2144582 123.34107 -8.3567905 -75.228821 -8.3439827 -75.866631 -0.38558787 -92.847168
9201375000 -1.2160755 123.28873 -8.3556919 -75.22821 -8.3353052 -75.850845 -0.38531163 -92.782967
9201437500 -1.2162563 123.31052 -8.3558435 -75.169441 -8.3397083 -75.873169 -0.38491619 -92.744896
9201500000 -1.2170357 123.24048 -8.343627 -75.227676 -8.3350601 -75.896919 -0.3776038 -92.740288
9201562500 -1.2178688 123.24571 -8.3415232 -75.183128 -8.3366442 -75.904259 -0.37751487 -92.723701
9201625000 -1.2183884 123.22097 -8.3420391 -75.199158 -8.3321295 -75.934807 -0.37610805 -92.664063
9201687500 -1.2169962 123.22582 -8.3451395 -75.200287 -8.3364544 -75.888756 -0.37955219 -92.687332
9201750000 -1.2167823 123.21613 -8.3442497 -75.193291 -8.3323059 -75.900185 -0.38323283 -92.681053
9201812500 -1.2160274 123.16859 -8.3459415 -75.233849 -8.3264036 -75.870651 -0.3821564 -92.656021
9201875000 -1.2166268 123.21185 -8.3459091 -75.184616 -8.3287983 -75.861565 -0.38291055 -92.663597
9201937500 -1.210806 123.17398 -8.336628 -75.177734 -8.3396873 -75.886337 -0.39716721 -92.645866
9202000000 -1.2176229 123.15791 -8.3404827 -75.191788 -8.3294935 -75.845222 -0.38444641 -92.631348
9202062500 -1.2146592 123.16259 -8.3462038 -75.20121 -8.3254623 -75.861542 -0.39537847 -92.664413
9202125000 -1.2124299 123.13714 -8.3483181 -75.245842 -8.3213425 -75.85289 -0.39060485 -92.60968
9202187500 -1.2123811 123.11678 -8.3382978 -75.194656 -8.3281984 -75.922096 -0.38759276 -92.624733
9202250000 -1.2113626 123.06378 -8.3377934 -75.158676 -8.3214121 -75.865723 -0.38827521 -92.563637
9202312500 -1.2079684 123.03095 -8.3370609 -75.230835 -8.3270826 -75.894409 -0.38558346 -92.575485
9202375000 -1.2111924 123.03694 -8.3360071 -75.231865 -8.3282413 -75.92292 -0.38769603 -92.56649
9202437500 -1.2116636 123.00876 -8.3418312 -75.226707 -8.3307247 -75.893562 -0.38631508 -92.539284
9202500000 -1.2155402 123.04322 -8.3416748 -75.182419 -8.3306427 -75.934502 -0.38944972 -92.516479
9202562500 -1.2110026 122.98827 -8.3298531 -75.207756 -8.3270674 -75.912262 -0.39007667 -92.501488
9202625000 -1.2124637 123.01971 -8.3327255 -75.178749 -8.3185186 -75.905045 -0.38007006 -92.478691
9202687500 -1.2140138 122.95904 -8.3330975 -75.248344 -8.3203135 -75.920052 -0.38904274 -92.482323
9202750000 -1.2138641 122.97366 -8.3356361 -75.149017 -8.3190727 -75.904297 -0.38671461 -92.453247
9202812500 -1.2128046 122.96635 -8.335062 -75.196655 -8.3143063 -75.873894 -0.38467184 -92.424377
9202875000 -1.2103593 122.89946 -8.3348484 -75.186134 -8.3145266 -75.8237 -0.38809794 -92.39772
9202937500 -1.2119881 122.90713 -8.3266983 -75.197723 -8.3118715 -75.854523 -0.38435927 -92.391083
9203000000 -1.209922 122.86042 -8.3298588 -75.232292 -8.3140612 -75.865013 -0.38517171 -92.381653
9203062500 -1.2069691 122.91591 -8.3268576 -75.123543 -8.3034649 -75.837242 -0.38546309 -92.336823
9203125000 -1.2082384 122.88888 -8.3245001 -75.200264 -8.3115377 -75.904434 -0.38854155 -92.355293
9203187500 -1.2102742 122.84382 -8.3236122 -75.200256 -8.314395 -75.86953 -0.38712499 -92.358109
9203250000 -1.2119685 122.86676 -8.3181124 -75.216286 -8.3173962 -75.886063 -0.3880091 -92.329224
9203312500 -1.2099807 122.82021 -8.3210182 -75.17305 -8.3137703 -75.826233 -0.38571462 -92.245247
9203375000 -1.2076865 122.84207 -8.3164072 -75.224403 -8.3205557 -75.817665 -0.38774553 -92.255424
9203437500 -1.2127455 122.83704 -8.3101444 -75.150818 -8.3159761 -75.829887 -0.38307795 -92.206902
9203500000 -1.2125095 122.84108 -8.3051386 -75.22229 -8.3165598 -75.799347 -0.38597217 -92.18338
9203562500 -1.2140214 122.82836 -8.3141146 -75.159019 -8.3207626 -75.814285 -0.38649482 -92.181709
9203625000 -1.2150254 122.75838 -8.3177681 -75.187157 -8.3050308 -75.841751 -0.38571164 -92.18853
9203687500 -1.216971 122.77419 -8.3176231 -75.207115 -8.3046494 -75.810921 -0.38671011 -92.176308
9203750000 -1.2134854 122.76566 -8.3162441 -75.156441 -8.3048906 -75.819939 -0.38995886 -92.151489
9203812500 -1.2095076 122.68121 -8.3109446 -75.232407 -8.3088694 -75.862167 -0.38705921 -92.204201
9203875000 -1.2146832 122.70011 -8.3219442 -75.181488 -8.3101206 -75.900375 -0.39482179 -92.207886
9203937500 -1.2104467 122.64572 -8.3173647 -75.212311 -8.3083696 -75.819588 -0.38672972 -92.119217
9204000000 -1.2156644 122.66872 -8.3181515 -75.203918 -8.3092003 -75.870842 -0.38856864 -92.100929
9204062500 -1.2187462 122.64857 -8.3199253 -75.181023 -8.3010864 -75.8162 -0.38498813 -92.098328
9204125000 -1.2151645 122.64837 -8.3043346 -75.231339 -8.2993279 -75.886002 -0.37836125 -92.10878
9204187500 -1.2090653 122.6533 -8.3095112 -75.140831 -8.3075571 -75.880035 -0.38552862 -92.078529
9204250000 -1.2144109 122.64481 -8.3072968 -75.119934 -8.3008394 -75.810768 -0.38301954 -92.024963
9204312500 -1.2109866 122.60339 -8.3025465 -75.218201 -8.3007326 -75.866776 -0.38109022 -92.028191
9204375000 -1.2089205 122.59481 -8.2994385 -75.179092 -8.296402 -75.850113 -0.38109413 -92.004433
9204437500 -1.2088854 122.59991 -8.302247 -75.132538 -8.2933922 -75.803978 -0.38996401 -91.964546
9204500000 -1.2097192 122.5799 -8.3034439 -75.121826 -8.2901812 -75.835678 -0.39073989 -91.985687
9204562500 -1.2064377 122.56578 -8.2960997 -75.081902 -8.2918615 -75.851929 -0.389568 -91.951889
9204625000 -1.2074339 122.53269 -8.2958078 -75.132408 -8.2927027 -75.842674 -0.39699468 -91.902672
9204687500 -1.2038109 122.49068 -8.2938671 -75.141266 -8.2917871 -75.825226 -0.39326468 -91.909592
9204750000 -1.2134954 122.49448 -8.3092375 -75.111351 -8.2905407 -75.791405 -0.39314869 -91.884552
9204812500 -1.2117459 122.48605 -8.3031073 -75.146225 -8.2948847 -75.828499 -0.3996779 -91.889183
9204875000 -1.213933 122.45956 -8.3061666 -75.212288 -8.2849255 -75.81015 -0.39214021 -91.871239
9204937500 -1.2118775 122.44319 -8.299242 -75.201241 -8.2918301 -75.839127 -0.38991043 -91.850128
9205000000 -1.2158254 122.45378 -8.3056431 -75.22245 -8.2977781 -75.852242 -0.39893189 -91.867531
9205062500 -1.2157925 122.41914 -8.3002367 -75.245323 -8.2955446 -75.802589 -0.39369074 -91.787857
9205125000 -1.2157526 122.44034 -8.2947836 -75.177589 -8.2930183 -75.801605 -0.38648912 -91.758186
9205187500 -1.2103202 122.43684 -8.2935429 -75.163506 -8.2921591 -75.832649 -0.38556057 -91.788155
9205250000 -1.2126595 122.43343 -8.2897959 -75.126854 -8.2891674 -75.872208 -0.38359985 -91.755417
9205312500 -1.2100719 122.41779 -8.2841349 -75.108757 -8.2926311 -75.886612 -0.37983891 -91.761444
9205375000 -1.2110717 122.40687 -8.2894592 -75.155853 -8.2945461 -75.824852 -0.38309377 -91.673691
9205437500 -1.2151475 122.40105 -8.2950659 -75.114967 -8.2934999 -75.864662 -0.38895464 -91.689781
9205500000 -1.212146 122.3214 -8.2985125 -75.129997 -8.2874546 -75.823181 -0.39164254 -91.654823
9205562500 -1.2160013 122.3435 -8.2988691 -75.127838 -8.2869444 -75.850464 -0.39340222 -91.630974
9205625000 -1.2150377 122.31514 -8.2958364 -75.073318 -8.2873802 -75.824104 -0.39359641 -91.606895
9205687500 -1.2192597 122.29163 -8.3026304 -75.075333 -8.2795677 -75.824333 -0.39009047 -91.576111
9205750000 -1.2119281 122.26145 -8.2973318 -75.079948 -8.2719803 -75.744942 -0.39203247 -91.539368
9205812500 -1.2166224 122.2354 -8.2893486 -75.130676 -8.2769337 -75.755768 -0.39649433 -91.508469
9205875000 -1.2161989 122.24845 -8.2967663 -75.12822 -8.2747755 -75.785812 -0.39855689 -91.479904
9205937500 -1.2192754 122.21357 -8.2907782 -75.109894 -8.2804699 -75.756233 -0.39704323 -91.474052
9206000000 -1.2144157 122.21323 -8.2921143 -75.117165 -8.2818909 -75.763298 -0.40346849 -91.488335
9206062500 -1.2178066 122.19274 -8.2935505 -75.124496 -8.2828407 -75.81559 -0.40276906 -91.463234
9206125000 -1.2193685 122.17359 -8.2901859 -75.117729 -8.2780066 -75.789848 -0.39899468 -91.432854
9206187500 -1.2149963 122.15358 -8.2862692 -75.157585 -8.2779102 -75.796394 -0.40568349 -91.444244
9206250000 -1.2193933 122.14161 -8.2843094 -75.12542 -8.2773762 -75.791992 -0.40405819 -91.43705
9206312500 -1.2120943 122.11403 -8.2797499 -75.167572 -8.2815132 -75.758759 -0.40606946 -91.390968
9206375000 -1.2180083 122.10549 -8.2873831 -75.12941 -8.2712498 -75.799782 -0.39868161 -91.405334
9206437500 -1.2172996 122.07288 -8.2791958 -75.159241 -8.2748804 -75.722733 -0.40838856 -91.299644
9206500000 -1.2135462 122.04401 -8.2815971 -75.142754 -8.2674456 -75.763504 -0.40165105 -91.338905
9206562500 -1.2187783 122.0518 -8.2774715 -75.145821 -8.2797976 -75.788963 -0.40574709 -91.346954
9206625000 -1.2190087 122.01826 -8.2788563 -75.175491 -8.2719765 -75.761253 -0.39970806 -91.325958
9206687500 -1.2146703 122.07604 -8.2769194 -75.193718 -8.2721128 -75.727036 -0.39556372 -91.298447
9206750000 -1.2208525 122.08292 -8.274375 -75.130699 -8.2586374 -75.697433 -0.39134151 -91.276863
9206812500 -1.2167255 122.09068 -8.2814922 -75.147598 -8.2724905 -75.784821 -0.39909911 -91.326591
9206875000 -1.220587 122.05007 -8.2782345 -75.162247 -8.257247 -75.788116 -0.38964096 -91.292564
9206937500 -1.2143775 122.05555 -8.2806654 -75.12014 -8.2625036 -75.798729 -0.38945737 -91.318581
9207000000 -1.2143978 122.01126 -8.2770252 -75.133789 -8.2595444 -75.757614 -0.39195552 -91.283356
9207062500 -1.2149968 121.9959 -8.276288 -75.113495 -8.265377 -75.747581 -0.39668444 -91.198074
9207125000 -1.2140818 121.96404 -8.2803364 -75.192627 -8.2551813 -75.742386 -0.38957256 -91.201012
9207187500 -1.2139542 121.93208 -8.2819118 -75.152084 -8.2569933 -75.750061 -0.39503655 -91.178688
9207250000 -1.2166523 121.92878 -8.2727327 -75.122993 -8.259903 -75.746696 -0.39505926 -91.120819
9207312500 -1.2161922 121.90284 -8.2783642 -75.121178 -8.2583532 -75.791832 -0.40198728 -91.159958
9207375000 -1.2112706 121.88202 -8.2712193 -75.175949 -8.2565041 -75.730293 -0.40028331 -91.111992
9207437500 -1.2120541 121.85587 -8.2681627 -75.137398 -8.2623463 -75.787903 -0.40322149 -91.129608
9207500000 -1.2157727 121.84698 -8.2705784 -75.118309 -8.2516737 -75.800323 -0.40431589 -91.14341
9207562500 -1.2124857 121.85571 -8.2602377 -75.085419 -8.2556505 -75.813881 -0.40368509 -91.100624
9207625000 -1.2183632 121.79048 -8.2697001 -75.147186 -8.2561941 -75.712639 -0.40145785 -91.036652
9207687500 -1.2182167 121.80636 -8.2648792 -75.15374 -8.2623091 -75.80397 -0.40171143 -91.091621
9207750000 -1.2185242 121.79585 -8.2579346 -75.118301 -8.2609339 -75.766617 -0.39661193 -91.045189
9207812500 -1.2230046 121.77902 -8.2627106 -75.202156 -8.2614155 -75.825531 -0.40088686 -91.070862
9207875000 -1.225142 121.80809 -8.2587185 -75.193611 -8.2664042 -75.822174 -0.39630783 -91.048531
9207937500 -1.226485 121.80123 -8.2601004 -75.117439 -8.2576399 -75.812256 -0.39077601 -91.035355
9208000000 -1.227452 121.76067 -8.2657862 -75.197197 -8.259203 -75.796791 -0.39172977 -91.009575
9208062500 -1.227316 121.77454 -8.2579088 -75.104721 -8.2490568 -75.843544 -0.39942652 -90.978111
9208125000 -1.2203337 121.75009 -8.2560358 -75.183731 -8.2630863 -75.78019 -0.40043971 -90.962563
9208187500 -1.222953 121.74157 -8.2535629 -75.142555 -8.2579565 -75.846535 -0.40256667 -90.952454
9208250000 -1.2189257 121.72761 -8.2506084 -75.141495 -8.2594852 -75.811264 -0.39914539 -90.880112
9208312500 -1.2187352 121.69265 -8.2468739 -75.142464 -8.2532158 -75.766029 -0.40101594 -90.848824
9208375000 -1.2161601 121.67691 -8.2470722 -75.111809 -8.2458019 -75.767075 -0.39500284 -90.829094
9208437500 -1.218051 121.68494 -8.2442026 -75.124565 -8.2507086 -75.797653 -0.40290761 -90.843681
9208500000 -1.2175528 121.66796 -8.2482891 -75.055771 -8.2448997 -75.788712 -0.40126538 -90.821091
9208562500 -1.2199322 121.66974 -8.2560863 -75.064003 -8.2420397 -75.801727 -0.40081602 -90.849716
9208625000 -1.2192578 121.63609 -8.2512779 -75.035942 -8.2455626 -75.749214 -0.40132445 -90.784599
9208687500 -1.2176813 121.63592 -8.2443743 -75.107086 -8.2519007 -75.747063 -0.40328282 -90.826782
9208750000 -1.2121663 121.63891 -8.2457085 -75.064445 -8.2471266 -75.738304 -0.40720066 -90.806755
9208812500 -1.2161049 121.60085 -8.2460251 -75.08606 -8.2449236 -75.743225 -0.40654358 -90.790062
9208875000 -1.2172513 121.59773 -8.2515402 -75.019455 -8.245163 -75.712189 -0.41111073 -90.749748
9208937500 -1.2085402 121.58558 -8.2415552 -75.041649 -8.2352533 -75.685684 -0.40647158 -90.697342
9209000000 -1.21618 121.56977 -8.2477074 -75.083603 -8.2341032 -75.727997 -0.40417391 -90.693626
9209062500 -1.2133175 121.58748 -8.2460623 -75.058723 -8.2346239 -75.737595 -0.4075577 -90.70298
9209125000 -1.213254 121.53474 -8.2438211 -75.086769 -8.2348204 -75.73716 -0.41001984 -90.680824
9209187500 -1.2167329 121.52333 -8.2507114 -75.07341 -8.2387886 -75.713661 -0.41496906 -90.623672
9209250000 -1.2155257 121.52978 -8.2466755 -75.04969 -8.2293587 -75.750542 -0.41388339 -90.658615
9209312500 -1.2128882 121.48791 -8.2548323 -75.055023 -8.2408772 -75.715858 -0.42137381 -90.592628
9209375000 -1.211313 121.4453 -8.2425117 -75.140106 -8.239275 -75.704758 -0.41654006 -90.590714
9209437500 -1.211303 121.43671 -8.2469444 -75.063492 -8.2419577 -75.692184 -0.41156107 -90.591393
9209500000 -1.2091268 121.38673 -8.2398939 -75.119942 -8.2318821 -75.716408 -0.40690315 -90.582138
9209562500 -1.2125633 121.41553 -8.2388639 -75.067009 -8.2421131 -75.739723 -0.40779498 -90.577682
9209625000 -1.2132165 121.3931 -8.2299385 -75.071732 -8.2293701 -75.749969 -0.39970922 -90.564003
9209687500 -1.2163939 121.36993 -8.2355461 -75.065559 -8.2333622 -75.735962 -0.40026298 -90.541603
9209750000 -1.225062 121.36093 -8.2431917 -75.147163 -8.2309809 -75.709213 -0.40390596 -90.509628
9209812500 -1.2195044 121.35331 -8.2301159 -75.097862 -8.2380495 -75.706345 -0.39822137 -90.504852
9209875000 -1.2243294 121.36822 -8.2286415 -75.104752 -8.2243767 -75.825104 -0.39991188 -90.509079
9209937500 -1.2249682 121.35992 -8.2370958 -75.108589 -8.2347164 -75.730598 -0.40603015 -90.499908
9210000000 -1.224967 121.32175 -8.2336102 -75.07901 -8.2297945 -75.752449 -0.40109929 -90.446411
9210062500 -1.2241174 121.32636 -8.2313375 -75.061142 -8.2185211 -75.717094 -0.39934373 -90.408134
9210125000 -1.2235345 121.32349 -8.2334614 -75.086845 -8.2238684 -75.774712 -0.40127242 -90.453552
9210187500 -1.2219095 121.32688 -8.2384148 -75.0327 -8.2251158 -75.717857 -0.40914378 -90.393288
9210250000 -1.2243087 121.30009 -8.2402306 -75.086174 -8.21978 -75.723412 -0.40770593 -90.370529
9210312500 -1.2200044 121.27316 -8.230957 -75.073891 -8.2171326 -75.737236 -0.4097966 -90.381699
9210375000 -1.2195202 121.27344 -8.2362833 -75.052284 -8.2265663 -75.740128 -0.4153178 -90.380325
9210437500 -1.2225361 121.23853 -8.223506 -75.062157 -8.2268686 -75.724365 -0.4077974 -90.357811
9210500000 -1.2203705 121.18938 -8.2222309 -75.109497 -8.2237577 -75.785423 -0.41470763 -90.37133
9210562500 -1.2201161 121.1974 -8.2252951 -75.045753 -8.229661 -75.734299 -0.41780078 -90.327332
9210625000 -1.2216831 121.11179 -8.2245884 -75.041107 -8.2250566 -75.742897 -0.41511816 -90.300507
9210687500 -1.2223879 121.07096 -8.2156048 -75.130394 -8.2193899 -75.719795 -0.41762206 -90.248947
9210750000 -1.2156371 121.05329 -8.2176266 -75.104485 -8.2229033 -75.709602 -0.41424933 -90.251358
9210812500 -1.2159925 121.06092 -8.2182045 -75.117599 -8.2188663 -75.744011 -0.41733402 -90.234718
9210875000 -1.2175453 121.06528 -8.216897 -75.07531 -8.2137928 -75.630013 -0.40805084 -90.174316
9210937500 -1.2164445 121.077 -8.2159786 -75.103203 -8.2160835 -75.659508 -0.41170612 -90.154526
9211000000 -1.2232246 121.05746 -8.2157154 -75.081726 -8.2045994 -75.676758 -0.40660599 -90.150185
9211062500 -1.2243547 121.00681 -8.2176228 -75.160057 -8.2024021 -75.708496 -0.41413799 -90.15947
9211125000 -1.2209196 121.04826 -8.2122841 -75.095024 -8.2052078 -75.703651 -0.41207749 -90.143326
9211187500 -1.2222682 121.04974 -8.2161379 -75.066933 -8.2189369 -75.679161 -0.42380965 -90.077011
9211250000 -1.2229865 121.02219 -8.2187786 -75.029922 -8.2133503 -75.689079 -0.41840491 -90.080826
9211312500 -1.2196033 120.96743 -8.2132874 -75.073509 -8.2109766 -75.65107 -0.41474357 -90.033577
9211375000 -1.225227 121.00451 -8.222558 -75.049591 -8.2076702 -75.671745 -0.42392349 -90.053513
9211437500 -1.2139347 120.96093 -8.2085762 -75.12059 -8.2102375 -75.689011 -0.42322084 -90.066017
9211500000 -1.2149584 120.97101 -8.209506 -75.130508 -8.2050352 -75.747597 -0.41477886 -90.048721
9211562500 -1.2183586 121.00671 -8.2143812 -75.070183 -8.2115393 -75.681679 -0.41762224 -90.015724
9211625000 -1.2144835 120.98766 -8.2119398 -75.045219 -8.2129116 -75.718544 -0.411055 -90.100586
9211687500 -1.2101859 120.96462 -8.2070236 -75.083076 -8.2080107 -75.719872 -0.41072172 -90.09211
9211750000 -1.2155557 120.9724 -8.2121582 -75.085037 -8.2100649 -75.690231 -0.41338226 -90.066528
9211812500 -1.21257 120.9223 -8.2017756 -75.159187 -8.2149982 -75.659554 -0.41248333 -90.01461
9211875000 -1.210628 120.92301 -8.2044058 -75.047302 -8.2074537 -75.653801 -0.41606137 -89.990379
9211937500 -1.2154706 120.87608 -8.2004547 -75.057098 -8.1993093 -75.65419 -0.41551661 -89.931992
9212000000 -1.2186887 120.85622 -8.2070646 -75.103127 -8.2043285 -75.656601 -0.42290086 -89.896027
9212062500 -1.2198507 120.81976 -8.2067757 -74.993919 -8.1934805 -75.682411 -0.41746312 -89.877541
9212125000 -1.21639 120.79672 -8.2001362 -75.084328 -8.194499 -75.653839 -0.41484827 -89.851173
9212187500 -1.2126336 120.77322 -8.1979523 -75.031586 -8.1935959 -75.731422 -0.41038111 -89.840271
9212250000 -1.2180196 120.7496 -8.2008905 -75.066093 -8.1924486 -75.72599 -0.41318679 -89.861382
9212312500 -1.2135286 120.69866 -8.1951866 -75.099678 -8.1965256 -75.742233 -0.41646048 -89.886452
