!Agilent Technologies,N5242A,MY51221714,A.09.90.19
!Agilent N5242A: A.09.90.19
!Date: Saturday, December 30, 2023 10:04:34
!Correction: S11(Full 2 Port(1,2)) 
!S21(Full 2 Port(1,2)) 
!S12(Full 2 Port(1,2)) 
!S22(Full 2 Port(1,2)) 
!S2P File: Measurements: S11, S21, S12, S22:
# Hz S  dB   R 50
9200000000 -1.0596633 125.04819 -8.689208 -73.694351 -8.6652107 -74.284103 -0.22765626 -93.039711
9200062500 -1.0591618 125.04458 -8.6875057 -73.621269 -8.6646681 -74.344025 -0.22563475 -92.999176
9200125000 -1.0558985 125.00879 -8.6838455 -73.687897 -8.6617956 -74.3172 -0.22752438 -92.991516
9200187500 -1.0604738 125.01102 -8.690794 -73.692039 -8.6709681 -74.330544 -0.23166868 -92.95314
9200250000 -1.0583971 124.98703 -8.6861639 -73.698158 -8.6662273 -74.338959 -0.22518337 -92.972481
9200312500 -1.062222 124.96035 -8.6876526 -73.658096 -8.6695995 -74.308327 -0.237239 -92.940712
9200375000 -1.0604756 124.95625 -8.6836538 -73.638969 -8.6642962 -74.331657 -0.22788948 -92.922539
9200437500 -1.0661148 124.92149 -8.6878729 -73.714081 -8.6693497 -74.29525 -0.22301558 -92.946083
9200500000 -1.0562685 124.89202 -8.6780014 -73.713425 -8.6693001 -74.297401 -0.2320234 -92.934059
9200562500 -1.0624205 124.87228 -8.6852856 -73.718849 -8.6587887 -74.312531 -0.2284932 -92.94149
9200625000 -1.0613371 124.86926 -8.6876211 -73.713493 -8.6577044 -74.337944 -0.22946848 -92.948639
9200687500 -1.0654823 124.85313 -8.6796474 -73.685417 -8.6582327 -74.297752 -0.22648413 -92.911377
9200750000 -1.0602287 124.84672 -8.6751842 -73.707634 -8.6575871 -74.308891 -0.22552635 -92.873604
9200812500 -1.0567504 124.8755 -8.6728153 -73.610504 -8.6549721 -74.354523 -0.22527486 -92.859642
9200875000 -1.052824 124.83801 -8.6691284 -73.656853 -8.6521072 -74.326729 -0.22667037 -92.830185
9200937500 -1.0606859 124.81664 -8.6820726 -73.727829 -8.6576214 -74.304108 -0.22944601 -92.822014
9201000000 -1.0613747 124.81806 -8.6788769 -73.666931 -8.6606245 -74.307579 -0.2335107 -92.802605
9201062500 -1.0583956 124.84402 -8.6788921 -73.706497 -8.6566563 -74.342049 -0.23389769 -92.842308
9201125000 -1.0592493 124.82233 -8.6817532 -73.67495 -8.6628962 -74.301125 -0.23711996 -92.750221
9201187500 -1.0616038 124.84381 -8.6836824 -73.67617 -8.6645269 -74.238235 -0.2353186 -92.748405
9201250000 -1.0565751 124.83636 -8.6760359 -73.613724 -8.6632833 -74.283394 -0.23800328 -92.797417
9201312500 -1.057528 124.82724 -8.6727648 -73.631233 -8.658637 -74.281212 -0.23085253 -92.727135
9201375000 -1.0639547 124.80277 -8.6619282 -73.590546 -8.6514788 -74.309776 -0.22813305 -92.739563
9201437500 -1.0658118 124.7857 -8.6816378 -73.53978 -8.6493835 -74.275887 -0.23033138 -92.649002
9201500000 -1.06186 124.78522 -8.6682892 -73.547607 -8.6532698 -74.323494 -0.23536627 -92.627907
9201562500 -1.0661043 124.74911 -8.669589 -73.602219 -8.6492348 -74.358414 -0.22168954 -92.65567
9201625000 -1.0635402 124.73561 -8.6705961 -73.575111 -8.6534662 -74.328331 -0.23162203 -92.61441
9201687500 -1.0641685 124.70734 -8.6621132 -73.638275 -8.6526985 -74.314049 -0.23215814 -92.566193
9201750000 -1.0610167 124.68745 -8.6670027 -73.580048 -8.6532869 -74.260262 -0.23522858 -92.536194
9201812500 -1.0604235 124.72446 -8.6597109 -73.586174 -8.652174 -74.302361 -0.23726657 -92.574371
9201875000 -1.0609723 124.672 -8.666296 -73.593124 -8.6436529 -74.231071 -0.23827913 -92.558769
9201937500 -1.0582362 124.66441 -8.6605244 -73.576828 -8.6477795 -74.251472 -0.23556431 -92.549683
9202000000 -1.0607787 124.65942 -8.667511 -73.613564 -8.6523037 -74.195091 -0.23822227 -92.511772
9202062500 -1.062055 124.61169 -8.6635914 -73.643036 -8.6475954 -74.228813 -0.23811139 -92.502876
9202125000 -1.0553316 124.61914 -8.6576643 -73.575722 -8.6465149 -74.275658 -0.24141395 -92.519196
9202187500 -1.0558491 124.5703 -8.659338 -73.614143 -8.6487284 -74.253555 -0.23709735 -92.494751
9202250000 -1.0592545 124.55617 -8.6602583 -73.598221 -8.6553755 -74.227051 -0.24337302 -92.459816
9202312500 -1.059432 124.55598 -8.6653185 -73.633507 -8.6581297 -74.332993 -0.2468712 -92.479324
9202375000 -1.061833 124.52016 -8.660533 -73.643982 -8.6422997 -74.264297 -0.23330799 -92.430168
9202437500 -1.0565438 124.53844 -8.6516619 -73.57663 -8.6479568 -74.255363 -0.23658943 -92.403236
9202500000 -1.0561018 124.52823 -8.6565256 -73.626083 -8.6474562 -74.332344 -0.23644522 -92.386681
9202562500 -1.060208 124.45382 -8.6591702 -73.644547 -8.6480865 -74.279457 -0.24192593 -92.378929
9202625000 -1.0626734 124.4736 -8.6596937 -73.584549 -8.6457872 -74.264854 -0.23896119 -92.358147
9202687500 -1.0621525 124.47986 -8.6575527 -73.561493 -8.6486025 -74.276207 -0.24092948 -92.353783
9202750000 -1.0580511 124.47915 -8.6574125 -73.595169 -8.6395969 -74.313972 -0.23836264 -92.342133
9202812500 -1.0652117 124.45049 -8.6653051 -73.591324 -8.6379776 -74.279129 -0.23674008 -92.316307
9202875000 -1.0627239 124.42207 -8.6628761 -73.606255 -8.6481686 -74.308029 -0.24485467 -92.320061
9202937500 -1.0604423 124.41117 -8.6618481 -73.597824 -8.6367989 -74.291496 -0.23941119 -92.336563
9203000000 -1.0568585 124.41813 -8.653513 -73.593224 -8.6347408 -74.243874 -0.24033453 -92.312546
9203062500 -1.0556155 124.37429 -8.6518421 -73.556145 -8.6315269 -74.31601 -0.23907425 -92.244392
9203125000 -1.0520804 124.36981 -8.6522932 -73.584465 -8.6317816 -74.230446 -0.23577133 -92.2519
9203187500 -1.054125 124.37882 -8.6404562 -73.552612 -8.6263847 -74.257179 -0.23302931 -92.221458
9203250000 -1.0524169 124.35473 -8.6338997 -73.546333 -8.6303196 -74.289566 -0.22986303 -92.224312
9203312500 -1.0556118 124.34185 -8.6349115 -73.616989 -8.6329508 -74.233917 -0.23579614 -92.150055
9203375000 -1.0560124 124.34327 -8.6336708 -73.636101 -8.6331158 -74.235123 -0.23749992 -92.122635
9203437500 -1.0535178 124.3343 -8.6336107 -73.567696 -8.6322126 -74.262161 -0.22985303 -92.121635
9203500000 -1.0592383 124.31635 -8.6296387 -73.548363 -8.6337795 -74.214081 -0.23322631 -92.05571
9203562500 -1.058758 124.30475 -8.638875 -73.569061 -8.6300011 -74.238861 -0.23384322 -92.068558
9203625000 -1.0544642 124.29578 -8.6356697 -73.56353 -8.636694 -74.232887 -0.23617096 -92.066292
9203687500 -1.0595783 124.25343 -8.6357708 -73.593407 -8.6291533 -74.260986 -0.23978774 -92.092628
9203750000 -1.0598263 124.22804 -8.643796 -73.631432 -8.6232033 -74.238045 -0.23238444 -92.077415
9203812500 -1.0593076 124.22952 -8.6453238 -73.577965 -8.6266155 -74.21418 -0.24071226 -92.043709
9203875000 -1.0570568 124.19611 -8.6403999 -73.636841 -8.6286182 -74.266319 -0.24111566 -92.066002
9203937500 -1.0620613 124.17863 -8.6483755 -73.618675 -8.6284218 -74.298531 -0.23766829 -92.097061
9204000000 -1.0593916 124.16473 -8.6408281 -73.615334 -8.6248951 -74.253838 -0.23377068 -92.022888
9204062500 -1.0597814 124.15574 -8.6393528 -73.626968 -8.6228743 -74.266762 -0.23313531 -92.004616
9204125000 -1.0545229 124.18441 -8.6268902 -73.550117 -8.6269341 -74.246513 -0.23206598 -91.965797
9204187500 -1.0617553 124.16267 -8.6400738 -73.550835 -8.6278391 -74.214401 -0.23230721 -91.945618
9204250000 -1.0591584 124.13451 -8.6259928 -73.585457 -8.625186 -74.225159 -0.23324569 -91.938187
9204312500 -1.0523784 124.11439 -8.6263218 -73.60099 -8.618825 -74.221413 -0.23406971 -91.946098
9204375000 -1.0522293 124.11532 -8.6229095 -73.550972 -8.6238747 -74.223 -0.2361801 -91.897957
9204437500 -1.0488452 124.09873 -8.6234245 -73.544327 -8.6257668 -74.192368 -0.23831975 -91.869415
9204500000 -1.0546592 124.10794 -8.6207418 -73.532524 -8.61481 -74.21875 -0.24128689 -91.824074
9204562500 -1.0537266 124.04626 -8.6268663 -73.486557 -8.6171217 -74.171944 -0.24141394 -91.818596
9204625000 -1.0512341 124.05231 -8.6176701 -73.498558 -8.6227255 -74.247032 -0.24109124 -91.813385
9204687500 -1.0558398 124.02653 -8.6228333 -73.453773 -8.6088953 -74.177544 -0.24121571 -91.76152
9204750000 -1.0553666 123.97481 -8.6245937 -73.542145 -8.6160851 -74.160477 -0.24156009 -91.733231
9204812500 -1.05479 123.98084 -8.6300125 -73.5382 -8.6102972 -74.162125 -0.24340074 -91.759293
9204875000 -1.055872 123.95689 -8.623044 -73.582977 -8.6135273 -74.24485 -0.24559614 -91.777863
9204937500 -1.0597552 123.99534 -8.6159906 -73.551941 -8.6174898 -74.204529 -0.24688968 -91.766899
9205000000 -1.0635926 123.91847 -8.6249132 -73.672401 -8.6128111 -74.223358 -0.24329023 -91.769157
9205062500 -1.0601197 123.96594 -8.6193285 -73.559769 -8.6139107 -74.226982 -0.24280374 -91.695786
9205125000 -1.0552124 123.93555 -8.6160078 -73.593185 -8.6182089 -74.201958 -0.24143337 -91.668991
9205187500 -1.0623664 123.91165 -8.6210527 -73.59465 -8.6257181 -74.214142 -0.23509128 -91.670868
9205250000 -1.0574976 123.92051 -8.6154499 -73.531113 -8.617897 -74.258339 -0.23843081 -91.659348
9205312500 -1.0595579 123.92025 -8.6206398 -73.497192 -8.610465 -74.279968 -0.23319596 -91.630562
9205375000 -1.052793 123.90866 -8.6100998 -73.489067 -8.6117315 -74.297539 -0.23156366 -91.574554
9205437500 -1.0598654 123.89006 -8.6260815 -73.59156 -8.6130552 -74.235855 -0.24249499 -91.564651
9205500000 -1.0559205 123.884 -8.6105118 -73.511192 -8.6146307 -74.237778 -0.24108389 -91.526215
9205562500 -1.0554942 123.81873 -8.6109438 -73.475883 -8.6092815 -74.2043 -0.24282071 -91.503838
9205625000 -1.0556771 123.80771 -8.6151266 -73.504257 -8.6046267 -74.193977 -0.24437925 -91.465042
9205687500 -1.0574216 123.80525 -8.6165552 -73.492897 -8.6030588 -74.185608 -0.24402042 -91.460045
9205750000 -1.0615851 123.75657 -8.6251717 -73.532951 -8.6087389 -74.163429 -0.25547427 -91.420364
9205812500 -1.0608517 123.73964 -8.619318 -73.534294 -8.6055098 -74.118317 -0.24412329 -91.383873
9205875000 -1.0592253 123.75336 -8.612833 -73.483093 -8.6001272 -74.175476 -0.2482032 -91.406372
9205937500 -1.0590348 123.73426 -8.6214056 -73.526253 -8.6065664 -74.14888 -0.25304538 -91.38018
9206000000 -1.0649719 123.7077 -8.6196156 -73.47924 -8.598834 -74.160347 -0.25094619 -91.383766
9206062500 -1.0646245 123.70423 -8.6181698 -73.481026 -8.5984907 -74.153915 -0.23962432 -91.354614
9206125000 -1.062768 123.68324 -8.6127691 -73.551178 -8.6083689 -74.151222 -0.25003418 -91.346436
9206187500 -1.0638899 123.66348 -8.6133194 -73.497505 -8.6075869 -74.179993 -0.25841725 -91.318008
9206250000 -1.0629605 123.6421 -8.6145287 -73.540306 -8.6100941 -74.199471 -0.25490993 -91.355629
9206312500 -1.0599927 123.62266 -8.6062546 -73.509155 -8.6028233 -74.174568 -0.24900819 -91.324135
9206375000 -1.0590955 123.58955 -8.6129541 -73.595245 -8.5997353 -74.129753 -0.25386295 -91.265274
9206437500 -1.0593773 123.58308 -8.600502 -73.50753 -8.5997505 -74.204277 -0.24912845 -91.272858
9206500000 -1.0613114 123.56235 -8.5992451 -73.528412 -8.5902052 -74.193336 -0.24505022 -91.248985
9206562500 -1.0541449 123.5937 -8.594759 -73.523132 -8.6003342 -74.152199 -0.2545681 -91.222939
9206625000 -1.0565683 123.60502 -8.5959368 -73.485596 -8.5976152 -74.139954 -0.24683119 -91.215782
9206687500 -1.0599332 123.57872 -8.6023359 -73.558197 -8.5919294 -74.133629 -0.24761498 -91.216934
9206750000 -1.0651783 123.59486 -8.6052141 -73.566978 -8.5954828 -74.17482 -0.23958497 -91.227631
9206812500 -1.0642556 123.57486 -8.6034021 -73.48201 -8.5874996 -74.064316 -0.23810254 -91.17627
9206875000 -1.0577981 123.59012 -8.6039143 -73.533813 -8.5881443 -74.105309 -0.23931651 -91.157684
9206937500 -1.0572915 123.55692 -8.5981874 -73.548485 -8.5892286 -74.126526 -0.2378816 -91.147034
9207000000 -1.0590706 123.52676 -8.6125755 -73.526665 -8.5846167 -74.183197 -0.23614275 -91.12484
9207062500 -1.0586406 123.509 -8.6048546 -73.492828 -8.5898371 -74.143066 -0.24530569 -91.093895
9207125000 -1.0600476 123.49873 -8.6013174 -73.496696 -8.5839176 -74.11422 -0.24082717 -91.080231
9207187500 -1.0580659 123.45474 -8.6014442 -73.486298 -8.5826426 -74.137703 -0.23925599 -91.047821
9207250000 -1.0610991 123.42673 -8.6069231 -73.52787 -8.5839252 -74.142387 -0.2427436 -91.057564
9207312500 -1.0589702 123.42013 -8.5955839 -73.49118 -8.5889816 -74.143616 -0.24855877 -91.029549
9207375000 -1.0577611 123.37921 -8.5905704 -73.548561 -8.5873156 -74.160843 -0.25052673 -91.039673
9207437500 -1.0570768 123.34696 -8.590127 -73.562012 -8.5846128 -74.103943 -0.24992612 -91.001389
9207500000 -1.063445 123.3493 -8.5957346 -73.473587 -8.5724545 -74.124992 -0.24441336 -90.986778
9207562500 -1.0603582 123.31107 -8.5906258 -73.563866 -8.5858107 -74.107826 -0.25610065 -90.966515
9207625000 -1.0630434 123.28895 -8.598321 -73.547729 -8.5880165 -74.130173 -0.2563813 -91.004509
9207687500 -1.0628432 123.32413 -8.5917854 -73.488037 -8.5858297 -74.090958 -0.25025743 -90.966034
9207750000 -1.0638613 123.28963 -8.5861397 -73.552986 -8.5859003 -74.156555 -0.23953693 -90.965752
9207812500 -1.0700039 123.31622 -8.5915136 -73.523262 -8.5873089 -74.127548 -0.24404871 -90.943764
9207875000 -1.0665647 123.29865 -8.582303 -73.531906 -8.5814266 -74.208405 -0.2369151 -90.952858
9207937500 -1.0710912 123.29633 -8.6006021 -73.544838 -8.5907259 -74.114624 -0.24742983 -90.877724
9208000000 -1.0718706 123.29922 -8.5925293 -73.516014 -8.5881958 -74.160675 -0.24421613 -90.881729
9208062500 -1.0702685 123.30034 -8.5871363 -73.497894 -8.584569 -74.21801 -0.24845892 -90.906487
9208125000 -1.0671743 123.26559 -8.5871906 -73.477531 -8.5897512 -74.136436 -0.24742265 -90.819221
9208187500 -1.0640272 123.26683 -8.5890713 -73.555794 -8.585906 -74.200317 -0.24853358 -90.857368
9208250000 -1.0665119 123.23268 -8.5767241 -73.455765 -8.5738773 -74.125351 -0.24577917 -90.777702
9208312500 -1.0568364 123.18229 -8.5668936 -73.489609 -8.5761232 -74.078163 -0.24146362 -90.709351
9208375000 -1.0584786 123.25517 -8.5810976 -73.414818 -8.5716982 -74.174561 -0.25032359 -90.744942
9208437500 -1.0628821 123.22641 -8.5748463 -73.38858 -8.577076 -74.177879 -0.2528691 -90.70034
9208500000 -1.05809 123.19356 -8.5803175 -73.432434 -8.5848789 -74.139725 -0.24974416 -90.711578
9208562500 -1.0581404 123.18499 -8.571208 -73.40377 -8.5749807 -74.162605 -0.24875899 -90.734123
9208625000 -1.061673 123.17006 -8.5809431 -73.415871 -8.5827484 -74.070976 -0.25245374 -90.662262
9208687500 -1.0577157 123.14405 -8.5744314 -73.419579 -8.5688887 -74.096123 -0.2447561 -90.674263
9208750000 -1.0555201 123.1365 -8.5736103 -73.397331 -8.5753174 -74.112373 -0.25072765 -90.670319
9208812500 -1.0568991 123.16149 -8.5714779 -73.394096 -8.5770674 -74.113144 -0.25657392 -90.644058
9208875000 -1.049337 123.11552 -8.5691681 -73.433472 -8.5666265 -74.072655 -0.25187895 -90.636002
9208937500 -1.0579277 123.08015 -8.5792875 -73.501007 -8.5674839 -74.045395 -0.25742689 -90.574089
9209000000 -1.0634459 123.10861 -8.5754128 -73.40995 -8.5719643 -74.082619 -0.26134464 -90.578171
9209062500 -1.057438 123.0788 -8.5740128 -73.431519 -8.567071 -74.098228 -0.25523755 -90.554688
9209125000 -1.0581737 123.09385 -8.5714731 -73.444923 -8.565197 -74.122032 -0.25512707 -90.564842
9209187500 -1.05742 123.04605 -8.5741396 -73.42762 -8.5669003 -74.069298 -0.26093057 -90.542961
9209250000 -1.0574185 123.02637 -8.5779238 -73.41674 -8.5597191 -74.082153 -0.25155279 -90.496155
9209312500 -1.0538465 122.9892 -8.573494 -73.463142 -8.5697546 -74.082283 -0.26178828 -90.477531
9209375000 -1.0560714 122.98569 -8.5771589 -73.438416 -8.5624018 -74.086472 -0.25500467 -90.466156
9209437500 -1.0509785 122.99995 -8.5666332 -73.434814 -8.5632782 -74.03801 -0.25696847 -90.453491
9209500000 -1.055034 122.97295 -8.5665874 -73.38633 -8.5689058 -74.078819 -0.25760946 -90.436333
9209562500 -1.0554506 122.94881 -8.571229 -73.440117 -8.5685978 -74.064903 -0.25570342 -90.444229
9209625000 -1.0592984 122.90443 -8.5636578 -73.446487 -8.571023 -74.091949 -0.25209707 -90.428993
9209687500 -1.0593674 122.90382 -8.557723 -73.444275 -8.5643368 -74.032455 -0.24221978 -90.382759
9209750000 -1.059018 122.89547 -8.5591249 -73.448074 -8.560071 -74.088356 -0.24625732 -90.396545
9209812500 -1.0663154 122.85973 -8.5643682 -73.4953 -8.5619736 -74.082298 -0.2521432 -90.388809
9209875000 -1.0702932 122.87083 -8.5628052 -73.477417 -8.5575485 -74.105026 -0.24709679 -90.384682
9209937500 -1.069418 122.86405 -8.5706606 -73.430183 -8.5587349 -74.035248 -0.24277896 -90.343224
9210000000 -1.0744671 122.82269 -8.5670424 -73.518829 -8.5564032 -74.044746 -0.24995689 -90.337563
9210062500 -1.0697972 122.86685 -8.5669918 -73.427864 -8.5586824 -74.079697 -0.25443053 -90.301888
9210125000 -1.0648788 122.84586 -8.5657825 -73.441742 -8.554203 -74.069511 -0.25356746 -90.281876
9210187500 -1.0662726 122.8556 -8.5551405 -73.450615 -8.5467787 -74.039909 -0.24861421 -90.275162
9210250000 -1.0622202 122.82876 -8.5549603 -73.384003 -8.5489082 -74.084381 -0.25326753 -90.287277
9210312500 -1.0670265 122.81149 -8.5629082 -73.385056 -8.5566053 -74.063759 -0.25413787 -90.258751
9210375000 -1.0639173 122.76566 -8.5641098 -73.372856 -8.5543356 -74.070374 -0.25583225 -90.185135
9210437500 -1.0665584 122.75798 -8.5559111 -73.421799 -8.5454569 -74.108521 -0.2511014 -90.219925
9210500000 -1.065411 122.74849 -8.5564384 -73.363869 -8.5534325 -74.13063 -0.26013342 -90.232697
9210562500 -1.0657316 122.70699 -8.5585642 -73.390213 -8.5565662 -74.11631 -0.26117983 -90.258583
9210625000 -1.0654428 122.64424 -8.5453329 -73.437698 -8.5490551 -74.055084 -0.25793412 -90.166161
9210687500 -1.061659 122.64412 -8.5561104 -73.420242 -8.5465584 -74.059448 -0.25817844 -90.158554
9210750000 -1.0623937 122.62595 -8.5478773 -73.409576 -8.5456371 -74.035782 -0.25529131 -90.126343
9210812500 -1.0638645 122.57508 -8.5493774 -73.472649 -8.5443306 -74.049805 -0.26042619 -90.088524
9210875000 -1.0623271 122.58144 -8.5497198 -73.455505 -8.5421734 -74.023392 -0.25738415 -90.055756
9210937500 -1.0605783 122.60171 -8.5433903 -73.398293 -8.5399551 -73.992256 -0.25666651 -90.0373
9211000000 -1.0636493 122.58508 -8.5436373 -73.429527 -8.5414972 -73.972656 -0.25273517 -89.967606
9211062500 -1.058244 122.59563 -8.5466919 -73.433006 -8.539609 -73.950134 -0.25227621 -89.967125
9211125000 -1.0645272 122.54429 -8.5422201 -73.416008 -8.5364475 -73.958862 -0.26313558 -89.957436
9211187500 -1.0627819 122.55903 -8.5492716 -73.395187 -8.5386915 -74.033752 -0.26140502 -89.961136
9211250000 -1.0664872 122.53566 -8.5406828 -73.408028 -8.5381136 -73.969955 -0.25759998 -89.903694
9211312500 -1.064208 122.51135 -8.5482168 -73.448952 -8.5343142 -74.087547 -0.26076293 -89.935715
9211375000 -1.0634342 122.52849 -8.5402431 -73.40535 -8.5405197 -74.036552 -0.26408345 -89.913902
9211437500 -1.0634722 122.55058 -8.5515957 -73.39843 -8.5435972 -74.070129 -0.26771471 -89.951263
9211500000 -1.0592786 122.50801 -8.5411644 -73.418991 -8.5358734 -74.042572 -0.25614449 -89.932129
9211562500 -1.0550398 122.54681 -8.546874 -73.42054 -8.5432482 -74.042 -0.2638016 -89.948814
9211625000 -1.0543242 122.4817 -8.5389538 -73.450386 -8.5388317 -74.015007 -0.26201075 -89.948891
9211687500 -1.0589727 122.52324 -8.5372353 -73.417961 -8.5433578 -74.046356 -0.26817518 -89.948814
9211750000 -1.0605112 122.47282 -8.5407944 -73.462555 -8.5414724 -73.964241 -0.26158956 -89.878059
9211812500 -1.0583568 122.48633 -8.5462875 -73.392021 -8.5464067 -73.982094 -0.264626 -89.856796
9211875000 -1.0579689 122.43011 -8.5428562 -73.403549 -8.5367193 -73.990921 -0.25988489 -89.820259
9211937500 -1.0551186 122.40436 -8.5349827 -73.330017 -8.5312328 -73.987289 -0.26238489 -89.829231
9212000000 -1.0562938 122.38986 -8.5288544 -73.388245 -8.5388842 -74.020271 -0.2654357 -89.791382
9212062500 -1.0583053 122.36458 -8.5301733 -73.37912 -8.5331202 -74.010139 -0.26899329 -89.769699
9212125000 -1.0597405 122.36411 -8.535738 -73.343193 -8.5269709 -73.995125 -0.2608169 -89.745941
9212187500 -1.0635535 122.3284 -8.5399504 -73.353218 -8.5305414 -73.963158 -0.26083666 -89.647545
9212250000 -1.0628207 122.26954 -8.5308599 -73.414551 -8.5176725 -73.968719 -0.25431052 -89.692108
9212312500 -1.0627979 122.28485 -8.5384827 -73.380859 -8.5274372 -74.041748 -0.25969985 -89.681229
