!Agilent Technologies,N5242A,MY51221714,A.09.90.19
!Agilent N5242A: A.09.90.19
!Date: Saturday, December 30, 2023 10:07:18
!Correction: S11(Full 2 Port(1,2)) 
!S21(Full 2 Port(1,2)) 
!S12(Full 2 Port(1,2)) 
!S22(Full 2 Port(1,2)) 
!S2P File: Measurements: S11, S21, S12, S22:
# Hz S  dB   R 50
9200000000 -1.1220136 124.31566 -8.57265 -74.501419 -8.5470037 -75.189232 -0.29020652 -93.145309
9200062500 -1.1245017 124.29046 -8.5731249 -74.519142 -8.5524759 -75.238075 -0.29437438 -93.163208
9200125000 -1.1275001 124.27277 -8.5658579 -74.508766 -8.5558414 -75.218933 -0.29784033 -93.104225
9200187500 -1.1257455 124.20772 -8.568965 -74.523361 -8.551466 -75.187477 -0.29276991 -93.101707
9200250000 -1.1248636 124.2093 -8.5697155 -74.454544 -8.5501738 -75.188858 -0.29662913 -93.119293
9200312500 -1.1243972 124.15705 -8.5669565 -74.543594 -8.5555067 -75.207176 -0.29431999 -93.106705
9200375000 -1.1297811 124.16939 -8.5728226 -74.514503 -8.5492725 -75.179588 -0.2932657 -93.093376
9200437500 -1.1241748 124.16393 -8.5699902 -74.526726 -8.5564585 -75.169594 -0.29749352 -93.037949
9200500000 -1.1235969 124.14205 -8.5731764 -74.542107 -8.5538921 -75.227806 -0.30106804 -93.070915
9200562500 -1.124585 124.12469 -8.5645075 -74.542297 -8.5420341 -75.167091 -0.29012969 -93.010323
9200625000 -1.1245316 124.12362 -8.5677357 -74.521172 -8.5467319 -75.161209 -0.29746157 -92.990334
9200687500 -1.1216753 124.09871 -8.5603838 -74.47319 -8.5506868 -75.16954 -0.29941955 -93.008362
9200750000 -1.1278195 124.07132 -8.5638447 -74.535919 -8.5414486 -75.153214 -0.29579067 -92.957565
9200812500 -1.1269246 124.06686 -8.5646257 -74.513046 -8.5427876 -75.146278 -0.29786465 -92.955086
9200875000 -1.1202579 124.02371 -8.560483 -74.55085 -8.5390301 -75.170158 -0.29703805 -92.942497
9200937500 -1.1233994 124.03139 -8.5675535 -74.506866 -8.5415659 -75.16848 -0.30358234 -92.961517
9201000000 -1.1205374 124.07188 -8.5610037 -74.518372 -8.5494375 -75.197762 -0.30413154 -92.92807
9201062500 -1.123664 124.07817 -8.5635595 -74.520035 -8.5477734 -75.173859 -0.30186629 -92.925774
9201125000 -1.1218823 124.07523 -8.5574961 -74.510124 -8.5482368 -75.211243 -0.30421957 -92.931458
9201187500 -1.1272323 124.04346 -8.5723295 -74.559563 -8.5471134 -75.098419 -0.30482492 -92.883583
9201250000 -1.1222314 124.04606 -8.558897 -74.486137 -8.5500088 -75.162338 -0.30484435 -92.867355
9201312500 -1.1253526 124.0486 -8.5547533 -74.493095 -8.5514984 -75.128944 -0.30921397 -92.830925
9201375000 -1.1236999 124.0346 -8.5573158 -74.477066 -8.5431919 -75.15081 -0.30772817 -92.793808
9201437500 -1.1250449 124.02886 -8.5571213 -74.416466 -8.5413961 -75.168488 -0.29777142 -92.778328
9201500000 -1.1247394 123.98077 -8.5475473 -74.458458 -8.5414858 -75.1521 -0.30495334 -92.737061
9201562500 -1.1247798 123.93788 -8.5495787 -74.465118 -8.5505037 -75.191292 -0.31002092 -92.729256
9201625000 -1.1229725 123.97635 -8.5371437 -74.435081 -8.5362768 -75.158409 -0.29738736 -92.691673
9201687500 -1.1242868 123.93256 -8.5383816 -74.444489 -8.5390348 -75.171783 -0.30557835 -92.662613
9201750000 -1.120262 123.91198 -8.5456591 -74.450851 -8.5402174 -75.154305 -0.30620316 -92.687492
9201812500 -1.1284943 123.86942 -8.5519247 -74.526245 -8.5317068 -75.163322 -0.30112019 -92.677841
9201875000 -1.1230083 123.90997 -8.5533276 -74.453758 -8.5397415 -75.092865 -0.30752027 -92.669998
9201937500 -1.1241028 123.91463 -8.5489979 -74.460983 -8.5470114 -75.137901 -0.31528285 -92.710434
9202000000 -1.1267236 123.88003 -8.5418663 -74.460556 -8.5404854 -75.065086 -0.30984935 -92.654228
9202062500 -1.1268351 123.85816 -8.5497503 -74.52697 -8.5322294 -75.095993 -0.31131145 -92.649788
9202125000 -1.1176455 123.87775 -8.537571 -74.465912 -8.5354242 -75.099121 -0.31268805 -92.596542
9202187500 -1.121781 123.79199 -8.5331202 -74.498306 -8.5359583 -75.124603 -0.30776078 -92.626282
9202250000 -1.1208304 123.79486 -8.5383463 -74.49469 -8.5314474 -75.103828 -0.307392 -92.545967
9202312500 -1.1220777 123.77112 -8.5384693 -74.544815 -8.5352173 -75.174858 -0.31074893 -92.58564
9202375000 -1.1189284 123.76553 -8.5419865 -74.48719 -8.5275965 -75.192184 -0.30889684 -92.581047
9202437500 -1.1247723 123.75515 -8.5436325 -74.485184 -8.5325708 -75.102676 -0.3080143 -92.531265
9202500000 -1.1216105 123.71351 -8.5428772 -74.519287 -8.5267763 -75.154686 -0.30162948 -92.555542
9202562500 -1.1204871 123.72775 -8.5334883 -74.469276 -8.5286179 -75.235001 -0.31213129 -92.562752
9202625000 -1.1244625 123.67665 -8.5402241 -74.503937 -8.5248232 -75.125687 -0.30552843 -92.462769
9202687500 -1.124272 123.7109 -8.5411749 -74.465088 -8.5277748 -75.189423 -0.30940452 -92.474869
9202750000 -1.1230609 123.67528 -8.5402889 -74.532303 -8.522769 -75.188644 -0.30953652 -92.477501
9202812500 -1.1230955 123.67775 -8.5391588 -74.45517 -8.529026 -75.149162 -0.31128436 -92.390022
9202875000 -1.1217629 123.66469 -8.542944 -74.479881 -8.5223303 -75.191475 -0.30891144 -92.477348
9202937500 -1.1221384 123.65447 -8.5373907 -74.409904 -8.5203648 -75.142303 -0.30076748 -92.383873
9203000000 -1.1164083 123.62442 -8.5408936 -74.450333 -8.5216198 -75.160545 -0.31131193 -92.430817
9203062500 -1.1197542 123.61388 -8.5338163 -74.521614 -8.5238743 -75.150864 -0.31398615 -92.412354
9203125000 -1.1147178 123.58746 -8.5260487 -74.490562 -8.5225658 -75.105652 -0.3130205 -92.377739
9203187500 -1.1147645 123.58685 -8.5341711 -74.491585 -8.519968 -75.127335 -0.30600387 -92.327354
9203250000 -1.1174098 123.59904 -8.5312176 -74.468956 -8.524354 -75.153603 -0.30912849 -92.325294
9203312500 -1.1161098 123.57413 -8.5228186 -74.45475 -8.5166492 -75.091331 -0.30708987 -92.282288
9203375000 -1.118837 123.57143 -8.5135422 -74.406853 -8.5252361 -75.149101 -0.30702132 -92.265678
9203437500 -1.1202756 123.52917 -8.5145884 -74.415855 -8.5277376 -75.058388 -0.30290619 -92.197868
9203500000 -1.1258401 123.55179 -8.5168314 -74.475548 -8.5167313 -75.106064 -0.29962569 -92.196114
9203562500 -1.1259732 123.54362 -8.5177183 -74.425743 -8.5245571 -75.110626 -0.30722353 -92.196632
9203625000 -1.1276221 123.48884 -8.514802 -74.461784 -8.526309 -75.118668 -0.31220061 -92.247047
9203687500 -1.1273664 123.46188 -8.5204792 -74.484596 -8.5148582 -75.089378 -0.31097358 -92.18515
9203750000 -1.1309489 123.46428 -8.5314941 -74.478668 -8.5198631 -75.076759 -0.31273603 -92.175026
9203812500 -1.1263394 123.45915 -8.5244455 -74.51825 -8.5205927 -75.160187 -0.3166205 -92.186577
9203875000 -1.1301602 123.3874 -8.5307703 -74.476418 -8.5078621 -75.190102 -0.30723029 -92.220268
9203937500 -1.1259207 123.41156 -8.5333538 -74.462669 -8.5088396 -75.111786 -0.30699578 -92.167671
9204000000 -1.1270261 123.38311 -8.5267897 -74.489014 -8.5113182 -75.103477 -0.30829483 -92.151695
9204062500 -1.1259118 123.3701 -8.5260649 -74.480301 -8.5151405 -75.108353 -0.30544543 -92.121902
9204125000 -1.1207566 123.37865 -8.5104475 -74.441505 -8.506856 -75.100662 -0.30224261 -92.089821
9204187500 -1.1238726 123.38469 -8.5186672 -74.441818 -8.5088282 -75.093819 -0.30262023 -92.093994
9204250000 -1.1218141 123.35379 -8.5193577 -74.397881 -8.5080061 -75.075836 -0.30496788 -92.056213
9204312500 -1.1184115 123.36539 -8.5087204 -74.420876 -8.5028381 -75.085747 -0.30665404 -92.050957
9204375000 -1.1202461 123.33238 -8.5145903 -74.426552 -8.5030622 -75.040367 -0.30803964 -92.004593
9204437500 -1.1157687 123.32265 -8.4992647 -74.460648 -8.5095377 -75.089272 -0.31447235 -91.982872
9204500000 -1.1194334 123.32345 -8.5137243 -74.377808 -8.4955664 -75.119469 -0.30728409 -91.989532
9204562500 -1.1222394 123.30063 -8.5043583 -74.37851 -8.5023451 -75.121048 -0.31760439 -91.989311
9204625000 -1.1175748 123.25712 -8.5064096 -74.364052 -8.4965706 -75.050018 -0.30962318 -91.920784
9204687500 -1.117784 123.2425 -8.506815 -74.40892 -8.4933653 -75.033226 -0.30715254 -91.917938
9204750000 -1.1209761 123.21271 -8.5034761 -74.440712 -8.5000315 -75.063408 -0.31903011 -91.860504
9204812500 -1.1220489 123.18192 -8.5090656 -74.421371 -8.4884672 -75.051605 -0.3095853 -91.855865
9204875000 -1.1242112 123.18496 -8.5061588 -74.456093 -8.4998283 -75.046677 -0.31403664 -91.891449
9204937500 -1.1204849 123.15328 -8.5120134 -74.50782 -8.5011187 -75.048325 -0.3166014 -91.846954
9205000000 -1.1270649 123.14896 -8.5091877 -74.449699 -8.4960232 -75.078239 -0.31819519 -91.85305
9205062500 -1.1275169 123.1155 -8.5104094 -74.467712 -8.4950018 -75.055611 -0.30604634 -91.838989
9205125000 -1.124661 123.14255 -8.5039368 -74.405823 -8.4997568 -75.133499 -0.31010064 -91.828674
9205187500 -1.1232078 123.16793 -8.4980297 -74.446564 -8.5131378 -75.115761 -0.3107965 -91.796196
9205250000 -1.1235617 123.17966 -8.5084219 -74.353088 -8.5074005 -75.111397 -0.30928662 -91.732491
9205312500 -1.1208878 123.113 -8.5039406 -74.453033 -8.508194 -75.15873 -0.30694342 -91.783943
9205375000 -1.1194524 123.14806 -8.4934464 -74.380905 -8.4970303 -75.129303 -0.30860257 -91.710762
9205437500 -1.1246248 123.14701 -8.4963808 -74.345543 -8.4914322 -75.141792 -0.30511683 -91.704735
9205500000 -1.12577 123.07242 -8.504282 -74.387871 -8.4941044 -75.095421 -0.30725506 -91.662437
9205562500 -1.1198279 123.06799 -8.5104256 -74.370842 -8.4957209 -75.071533 -0.31631765 -91.666031
9205625000 -1.1209154 123.03375 -8.5057993 -74.363647 -8.4919147 -75.037735 -0.31124619 -91.571838
9205687500 -1.1283287 122.98666 -8.508461 -74.362679 -8.4923067 -75.047699 -0.31912547 -91.59436
9205750000 -1.1250548 122.97847 -8.5036631 -74.363579 -8.4854155 -75.065544 -0.32216522 -91.577278
9205812500 -1.1261309 122.98194 -8.5042324 -74.343987 -8.4886694 -75.044174 -0.3240445 -91.516205
9205875000 -1.1276006 122.97078 -8.5108366 -74.348274 -8.487298 -75.068619 -0.31756204 -91.514992
9205937500 -1.1251372 122.93928 -8.4930458 -74.376556 -8.4843998 -75.035561 -0.31614992 -91.523003
9206000000 -1.1301558 122.95406 -8.5034809 -74.37645 -8.4842634 -75.064384 -0.31821489 -91.478882
9206062500 -1.1294554 122.94305 -8.4983625 -74.384903 -8.4869051 -75.04348 -0.32246587 -91.503662
9206125000 -1.1245407 122.87554 -8.4895477 -74.388145 -8.4961529 -75.093712 -0.32665235 -91.481461
9206187500 -1.1266391 122.90803 -8.4974909 -74.384056 -8.4884062 -75.053818 -0.32333943 -91.487892
9206250000 -1.1277802 122.88105 -8.4863577 -74.459038 -8.4840193 -75.051414 -0.32690305 -91.455132
9206312500 -1.1249243 122.83359 -8.4843597 -74.377914 -8.4763527 -75.031792 -0.31933257 -91.397667
9206375000 -1.1224403 122.85278 -8.4892387 -74.381836 -8.4854755 -75.084595 -0.32517117 -91.392052
9206437500 -1.1261047 122.80395 -8.4869041 -74.396141 -8.4868307 -75.005447 -0.3283942 -91.359428
9206500000 -1.1233692 122.78172 -8.4895191 -74.449471 -8.482481 -75.029556 -0.32363793 -91.356445
9206562500 -1.1249775 122.79216 -8.4807091 -74.416122 -8.4772673 -75.004929 -0.32138121 -91.333328
9206625000 -1.1273206 122.79385 -8.4914904 -74.418175 -8.4739237 -75.023018 -0.31640136 -91.326401
9206687500 -1.1319487 122.8092 -8.4920998 -74.441147 -8.4746733 -75.048149 -0.31375456 -91.319489
9206750000 -1.124613 122.81769 -8.4869356 -74.380814 -8.4769306 -75.009926 -0.31679699 -91.326302
9206812500 -1.126049 122.82553 -8.4856281 -74.408684 -8.4751549 -75.0411 -0.3138189 -91.312889
9206875000 -1.1275506 122.81451 -8.4877176 -74.413719 -8.4672174 -75.027489 -0.31208864 -91.316284
9206937500 -1.1222901 122.80151 -8.4850349 -74.398499 -8.4703236 -75.058884 -0.30532947 -91.297272
9207000000 -1.1250368 122.7497 -8.4841528 -74.401665 -8.476244 -75.031967 -0.31810895 -91.248329
9207062500 -1.1233444 122.74757 -8.4882908 -74.372131 -8.4655514 -75.070663 -0.31062615 -91.303688
9207125000 -1.1250418 122.69658 -8.4875202 -74.372421 -8.4717302 -75.034241 -0.31502849 -91.23439
9207187500 -1.1253895 122.66129 -8.4817066 -74.356071 -8.4572296 -75.09684 -0.31273079 -91.21711
9207250000 -1.1279196 122.6552 -8.4845667 -74.406815 -8.4625235 -75.064209 -0.31508854 -91.185448
9207312500 -1.1204306 122.6074 -8.478199 -74.459587 -8.4759588 -75.009468 -0.3281115 -91.151184
9207375000 -1.1285324 122.64222 -8.484601 -74.382248 -8.4670458 -74.994202 -0.31982434 -91.15451
9207437500 -1.1272211 122.58583 -8.4867668 -74.396545 -8.4634409 -75.067635 -0.32542974 -91.186935
9207500000 -1.1273085 122.58508 -8.4722013 -74.406815 -8.4667006 -75.028671 -0.31947353 -91.134285
9207562500 -1.1253922 122.55858 -8.4828835 -74.413628 -8.4688568 -75.049957 -0.3328464 -91.119034
9207625000 -1.1248124 122.5126 -8.4693203 -74.439743 -8.4642878 -75.028564 -0.32775515 -91.108131
9207687500 -1.1351247 122.51574 -8.4761858 -74.387909 -8.4686775 -75.039909 -0.32203677 -91.093338
9207750000 -1.1340395 122.5125 -8.4738426 -74.387955 -8.4643946 -75.034187 -0.3211548 -91.09304
9207812500 -1.1336755 122.53302 -8.4718742 -74.429832 -8.4701452 -74.995407 -0.32157129 -91.055969
9207875000 -1.1344856 122.54536 -8.4720383 -74.401451 -8.470645 -75.02858 -0.31739065 -91.043831
9207937500 -1.1318474 122.53291 -8.4574423 -74.396927 -8.4731159 -74.986923 -0.31675032 -91.021484
9208000000 -1.1385151 122.5117 -8.4638128 -74.443771 -8.4698086 -75.030991 -0.31503621 -91.037277
9208062500 -1.1318617 122.51353 -8.468647 -74.42466 -8.4675617 -75.067513 -0.31884944 -90.997902
9208125000 -1.1299262 122.46336 -8.4614792 -74.412994 -8.4638538 -75.055008 -0.31521016 -90.955406
9208187500 -1.1288315 122.50568 -8.467329 -74.405464 -8.4648991 -75.01973 -0.31684273 -90.904495
9208250000 -1.1328675 122.47159 -8.4623652 -74.38559 -8.4601736 -75.05703 -0.31725734 -90.908974
9208312500 -1.1346151 122.4804 -8.4763412 -74.338547 -8.4613819 -75.043541 -0.32265592 -90.893829
9208375000 -1.1268576 122.41335 -8.4593153 -74.380913 -8.4615316 -75.035515 -0.32228318 -90.825218
9208437500 -1.1310812 122.41361 -8.4594889 -74.313011 -8.4569359 -75.006943 -0.32027528 -90.848068
9208500000 -1.1284074 122.4276 -8.4632616 -74.311699 -8.4606886 -75.048042 -0.32346487 -90.819046
9208562500 -1.1287521 122.37167 -8.4555159 -74.315521 -8.4618683 -75.010239 -0.32854575 -90.818428
9208625000 -1.1280009 122.39629 -8.4590979 -74.280518 -8.4589911 -75.011269 -0.31838176 -90.823051
9208687500 -1.1260927 122.35919 -8.4591236 -74.374397 -8.457592 -75.028969 -0.31834036 -90.815392
9208750000 -1.1237522 122.34489 -8.4585552 -74.307434 -8.4507246 -74.973976 -0.32611722 -90.817169
9208812500 -1.1223491 122.35165 -8.4661503 -74.302689 -8.4514647 -74.97403 -0.32183388 -90.78154
9208875000 -1.1278783 122.35297 -8.4551334 -74.293236 -8.4520407 -75.009804 -0.32287401 -90.7397
9208937500 -1.1191416 122.32093 -8.4515524 -74.32428 -8.450387 -75.003822 -0.3269434 -90.780075
9209000000 -1.1188401 122.31314 -8.4515572 -74.351295 -8.4499483 -74.960854 -0.32814917 -90.693001
9209062500 -1.1227674 122.27603 -8.4593897 -74.361885 -8.4487505 -74.979156 -0.33237433 -90.702011
9209125000 -1.1246518 122.30223 -8.4528551 -74.344933 -8.4420795 -74.995316 -0.32724077 -90.708801
9209187500 -1.1286755 122.28075 -8.4692364 -74.341873 -8.4397793 -74.930351 -0.32636499 -90.645508
9209250000 -1.1199721 122.22281 -8.4568167 -74.319946 -8.4456396 -74.89888 -0.33114454 -90.594536
9209312500 -1.1254277 122.23038 -8.4656963 -74.24884 -8.4479733 -74.954865 -0.33764493 -90.636513
9209375000 -1.1244261 122.2064 -8.4522982 -74.333183 -8.4456472 -75.002869 -0.32927072 -90.61937
9209437500 -1.1201924 122.18549 -8.4529314 -74.325989 -8.4450207 -74.965294 -0.32975534 -90.568672
9209500000 -1.1269466 122.15018 -8.4544649 -74.353088 -8.4485178 -74.989609 -0.33017418 -90.612442
9209562500 -1.125653 122.14669 -8.4454651 -74.28521 -8.4487391 -74.998283 -0.33214477 -90.545486
9209625000 -1.1240342 122.13344 -8.4493284 -74.307022 -8.4549732 -74.946358 -0.33160624 -90.541046
9209687500 -1.128818 122.12612 -8.4465179 -74.334244 -8.4453573 -74.954651 -0.32221746 -90.51342
9209750000 -1.1276153 122.10622 -8.4449568 -74.345535 -8.4485493 -74.972481 -0.31872338 -90.569382
9209812500 -1.1375942 122.09998 -8.4513521 -74.377441 -8.4465761 -74.975243 -0.32541347 -90.499748
9209875000 -1.133104 122.09844 -8.4411411 -74.352875 -8.4414206 -74.981483 -0.31879294 -90.50975
9209937500 -1.1338789 122.07461 -8.4448643 -74.38382 -8.4388819 -74.988533 -0.32078278 -90.46936
9210000000 -1.1320089 122.08548 -8.4480076 -74.305611 -8.442646 -74.979515 -0.32903668 -90.486801
9210062500 -1.1354628 122.04411 -8.4541845 -74.376823 -8.4274483 -74.992279 -0.31742087 -90.457199
9210125000 -1.1345379 122.03954 -8.4442606 -74.355484 -8.4424372 -74.999352 -0.3298108 -90.424568
9210187500 -1.1307862 122.04601 -8.4467239 -74.285896 -8.4329443 -74.949883 -0.31727672 -90.388786
9210250000 -1.13451 122.03625 -8.4487028 -74.34243 -8.4290113 -74.992439 -0.32790801 -90.357933
9210312500 -1.130892 121.99693 -8.4360514 -74.332115 -8.4288816 -74.991577 -0.32571411 -90.352814
9210375000 -1.1331402 122.03578 -8.4454584 -74.330284 -8.4351864 -75.018364 -0.32819164 -90.395912
9210437500 -1.1335478 121.99586 -8.4450274 -74.311783 -8.4372616 -74.949432 -0.33110386 -90.33197
9210500000 -1.1372823 121.94051 -8.4385366 -74.360268 -8.4341145 -75.019638 -0.33230466 -90.336555
9210562500 -1.1318362 121.93439 -8.4415989 -74.319695 -8.4384794 -74.967224 -0.33550856 -90.320465
9210625000 -1.1306381 121.84653 -8.4382715 -74.331253 -8.431778 -74.982727 -0.33277604 -90.312584
9210687500 -1.1280156 121.836 -8.4298 -74.364647 -8.4319477 -74.967064 -0.33255243 -90.284424
9210750000 -1.1275022 121.84571 -8.4303026 -74.220596 -8.4297495 -74.971542 -0.32850406 -90.225037
9210812500 -1.1259435 121.84303 -8.4199038 -74.308075 -8.4263821 -74.967834 -0.32721856 -90.250664
9210875000 -1.1271095 121.80012 -8.4244137 -74.352226 -8.4294558 -74.897987 -0.3281689 -90.154823
9210937500 -1.124614 121.81652 -8.4252987 -74.282906 -8.4222746 -74.913506 -0.32749149 -90.162483
9211000000 -1.133063 121.77914 -8.4276409 -74.349457 -8.4197912 -74.933052 -0.32701677 -90.143959
9211062500 -1.1297605 121.80743 -8.427309 -74.337334 -8.4156961 -74.855789 -0.32938436 -90.071121
9211125000 -1.1265974 121.79366 -8.4264517 -74.282394 -8.4237051 -74.882553 -0.33542904 -90.107155
9211187500 -1.1300051 121.77718 -8.4352856 -74.32486 -8.4179487 -74.899681 -0.33529732 -90.088028
9211250000 -1.127848 121.72777 -8.423708 -74.361267 -8.418622 -74.901024 -0.33476314 -90.066254
9211312500 -1.1354644 121.73831 -8.4263258 -74.337303 -8.4216862 -74.937195 -0.34047544 -90.02726
9211375000 -1.128572 121.74558 -8.4280176 -74.277916 -8.4128733 -74.917793 -0.33085883 -90.084732
9211437500 -1.1318169 121.74673 -8.4346294 -74.352081 -8.4215775 -74.862061 -0.34075889 -90.013176
9211500000 -1.1207666 121.73737 -8.4287262 -74.328857 -8.4250402 -74.921471 -0.34238154 -90.070045
9211562500 -1.1290601 121.7487 -8.4337234 -74.254318 -8.4184771 -74.94429 -0.32898274 -90.054688
9211625000 -1.1272024 121.7317 -8.4213629 -74.284157 -8.4195356 -74.956604 -0.3274155 -90.105316
9211687500 -1.1220424 121.71289 -8.4220705 -74.346214 -8.420927 -74.938324 -0.33502576 -90.117104
9211750000 -1.122326 121.71628 -8.418725 -74.361397 -8.4214201 -74.926369 -0.33405626 -90.051811
9211812500 -1.1276784 121.71341 -8.4282398 -74.275291 -8.417201 -74.902672 -0.33015704 -90.0252
9211875000 -1.1241579 121.66798 -8.411911 -74.328621 -8.420085 -74.893669 -0.33190197 -89.970024
9211937500 -1.1230072 121.63361 -8.4148579 -74.295708 -8.4207315 -74.884392 -0.33529821 -89.957916
9212000000 -1.1250964 121.59996 -8.4207077 -74.306847 -8.4152126 -74.911026 -0.33767822 -89.909889
9212062500 -1.1220852 121.57592 -8.4090157 -74.318405 -8.4161425 -74.877289 -0.33930081 -89.855026
9212125000 -1.1240622 121.54465 -8.4192429 -74.307449 -8.4157982 -74.908272 -0.33528066 -89.841232
9212187500 -1.124211 121.52464 -8.4126844 -74.222229 -8.4148283 -74.961937 -0.34076881 -89.81189
9212250000 -1.1247535 121.50203 -8.4153872 -74.258911 -8.402648 -74.902557 -0.32723889 -89.791649
9212312500 -1.1265807 121.45947 -8.4099407 -74.278679 -8.4065514 -74.951881 -0.32936606 -89.798904
