!Agilent Technologies,N5242A,MY51221714,A.09.90.19
!Agilent N5242A: A.09.90.19
!Date: Saturday, December 30, 2023 10:06:22
!Correction: S11(Full 2 Port(1,2)) 
!S21(Full 2 Port(1,2)) 
!S12(Full 2 Port(1,2)) 
!S22(Full 2 Port(1,2)) 
!S2P File: Measurements: S11, S21, S12, S22:
# Hz S  dB   R 50
9200000000 -1.0839469 124.62183 -8.5793896 -73.686264 -8.5578108 -74.344482 -0.23781462 -92.686417
9200062500 -1.0840849 124.60925 -8.5740461 -73.641731 -8.5622015 -74.305901 -0.24588312 -92.621231
9200125000 -1.0868185 124.59193 -8.5684776 -73.70018 -8.5545349 -74.313759 -0.24616779 -92.57473
9200187500 -1.0882825 124.58223 -8.577076 -73.656532 -8.5586834 -74.306923 -0.24965808 -92.602951
9200250000 -1.0863262 124.55562 -8.576396 -73.704414 -8.5615206 -74.351501 -0.24729803 -92.604065
9200312500 -1.088057 124.51307 -8.5743027 -73.695068 -8.5630512 -74.338028 -0.24624769 -92.596779
9200375000 -1.0900379 124.54182 -8.5790081 -73.671394 -8.5677776 -74.332748 -0.25237808 -92.595589
9200437500 -1.0903292 124.51047 -8.5802774 -73.684059 -8.5518637 -74.325577 -0.24573764 -92.562721
9200500000 -1.0864935 124.49171 -8.5772028 -73.695107 -8.5630445 -74.302948 -0.25071374 -92.538277
9200562500 -1.0867951 124.47506 -8.5796127 -73.694153 -8.5549526 -74.381531 -0.25005433 -92.565384
9200625000 -1.0849379 124.41029 -8.5749016 -73.663483 -8.5473557 -74.322441 -0.2437112 -92.517128
9200687500 -1.0888603 124.4351 -8.5703144 -73.697083 -8.5597496 -74.333687 -0.25294685 -92.50898
9200750000 -1.0858427 124.38573 -8.5710974 -73.720253 -8.5429411 -74.307465 -0.24295855 -92.483742
9200812500 -1.0918882 124.40224 -8.5704784 -73.737106 -8.5450592 -74.359787 -0.24800412 -92.464592
9200875000 -1.0843099 124.36732 -8.5589294 -73.716995 -8.5423107 -74.276924 -0.24534021 -92.44973
9200937500 -1.0859276 124.39482 -8.5638323 -73.701477 -8.5453453 -74.34919 -0.25162128 -92.433044
9201000000 -1.0845331 124.39948 -8.5733566 -73.683266 -8.5496778 -74.310402 -0.2539618 -92.437332
9201062500 -1.0899323 124.41355 -8.5810623 -73.662788 -8.5549793 -74.326576 -0.2588672 -92.414803
9201125000 -1.0887798 124.42764 -8.5738382 -73.682327 -8.5607405 -74.323669 -0.25916755 -92.426323
9201187500 -1.091785 124.40999 -8.567811 -73.71019 -8.5543413 -74.340775 -0.25658274 -92.415955
9201250000 -1.0827485 124.40317 -8.5653343 -73.633575 -8.5515175 -74.294151 -0.25610858 -92.375679
9201312500 -1.0866026 124.39803 -8.5691833 -73.624123 -8.5542488 -74.329918 -0.25954357 -92.36554
9201375000 -1.0874873 124.35921 -8.5652399 -73.640457 -8.5486736 -74.337791 -0.25078198 -92.378487
9201437500 -1.0915042 124.34828 -8.5648556 -73.620285 -8.5477591 -74.345322 -0.25193352 -92.278374
9201500000 -1.0917281 124.34951 -8.5617847 -73.636391 -8.5487137 -74.285828 -0.25391811 -92.237907
9201562500 -1.0923493 124.3201 -8.5501451 -73.605446 -8.5462275 -74.343117 -0.25005391 -92.277527
9201625000 -1.0895176 124.29716 -8.550828 -73.586441 -8.5487928 -74.360062 -0.24391837 -92.209763
9201687500 -1.0933661 124.25815 -8.5611582 -73.686852 -8.5413103 -74.296921 -0.25011787 -92.195381
9201750000 -1.0898231 124.25648 -8.5522099 -73.670639 -8.5428295 -74.269875 -0.25377223 -92.163971
9201812500 -1.0876935 124.26079 -8.5589886 -73.671158 -8.5435905 -74.310089 -0.25508279 -92.191223
9201875000 -1.0872109 124.22859 -8.5557852 -73.637459 -8.5522013 -74.277344 -0.26340032 -92.209198
9201937500 -1.0948483 124.26752 -8.561718 -73.588242 -8.541791 -74.248932 -0.25983596 -92.17392
9202000000 -1.0898416 124.21844 -8.5525055 -73.629837 -8.5371838 -74.273399 -0.25585073 -92.181335
9202062500 -1.088835 124.19627 -8.5613556 -73.668404 -8.5324945 -74.277359 -0.25771329 -92.181488
9202125000 -1.0882937 124.20418 -8.5543184 -73.627876 -8.5420771 -74.32473 -0.26198134 -92.160851
9202187500 -1.0914943 124.19885 -8.5586491 -73.638237 -8.5300722 -74.334312 -0.25297692 -92.165642
9202250000 -1.0811098 124.13326 -8.5496159 -73.694633 -8.5453758 -74.232689 -0.26558518 -92.12896
9202312500 -1.0853291 124.13503 -8.5420675 -73.619102 -8.5386162 -74.362404 -0.25443757 -92.120583
9202375000 -1.0863572 124.09876 -8.5498333 -73.648148 -8.5368347 -74.298927 -0.25534669 -92.070183
9202437500 -1.0819153 124.10032 -8.5434713 -73.633919 -8.5428896 -74.351013 -0.25985768 -92.089272
9202500000 -1.0848759 124.07837 -8.5431509 -73.621239 -8.5491343 -74.341415 -0.25891188 -92.062065
9202562500 -1.0879495 124.06864 -8.5522614 -73.625237 -8.5367193 -74.307251 -0.25951654 -91.994171
9202625000 -1.0863485 124.03129 -8.5436201 -73.602608 -8.5420074 -74.368164 -0.26529726 -92.036835
9202687500 -1.087226 124.01492 -8.5434055 -73.606804 -8.536623 -74.372734 -0.25932679 -92.012848
9202750000 -1.0890006 124.02808 -8.5500488 -73.654358 -8.5320292 -74.33062 -0.25933978 -91.998436
9202812500 -1.0857865 124.00163 -8.5448647 -73.629326 -8.5286274 -74.329887 -0.25126806 -91.983368
9202875000 -1.083609 124.0124 -8.5458813 -73.653793 -8.5391235 -74.285988 -0.26616007 -91.923889
9202937500 -1.0872943 123.98624 -8.5424004 -73.589638 -8.528841 -74.270012 -0.26664248 -91.917999
9203000000 -1.0797588 123.99931 -8.5339918 -73.589233 -8.5280113 -74.314148 -0.25913492 -91.890358
9203062500 -1.0801626 123.94737 -8.5387115 -73.603943 -8.5282803 -74.278755 -0.26463765 -91.886353
9203125000 -1.0828936 123.9379 -8.5366621 -73.633675 -8.5248241 -74.287819 -0.25851175 -91.851967
9203187500 -1.086834 123.93907 -8.5427313 -73.657753 -8.5298805 -74.30925 -0.26214918 -91.852417
9203250000 -1.0809765 123.91697 -8.5288601 -73.621758 -8.5288115 -74.283081 -0.25689465 -91.826614
9203312500 -1.0833373 123.9337 -8.5337048 -73.63047 -8.5312462 -74.275719 -0.25801235 -91.814232
9203375000 -1.0871383 123.89112 -8.5322123 -73.590416 -8.5253792 -74.282501 -0.25332618 -91.768181
9203437500 -1.0870917 123.89888 -8.5214062 -73.578064 -8.5243406 -74.283554 -0.25736219 -91.737442
9203500000 -1.0866379 123.90947 -8.5259676 -73.579468 -8.5191393 -74.281075 -0.25100899 -91.735825
9203562500 -1.0834001 123.86627 -8.5273438 -73.627983 -8.5311623 -74.226768 -0.26136115 -91.679291
9203625000 -1.089067 123.85894 -8.5346842 -73.585457 -8.5295191 -74.288498 -0.26201501 -91.723045
9203687500 -1.0881327 123.80627 -8.5361776 -73.653313 -8.5308228 -74.208221 -0.25851345 -91.685646
9203750000 -1.0819042 123.78159 -8.5310154 -73.676773 -8.5216417 -74.251434 -0.26240924 -91.6838
9203812500 -1.086161 123.76441 -8.5357857 -73.635078 -8.5211563 -74.289925 -0.2650795 -91.763817
9203875000 -1.0872138 123.77076 -8.5395613 -73.624077 -8.5287485 -74.31971 -0.26799121 -91.731529
9203937500 -1.0847143 123.73908 -8.5245714 -73.660591 -8.5146351 -74.304276 -0.25517944 -91.708504
9204000000 -1.0887963 123.73531 -8.5226746 -73.64003 -8.5090103 -74.292061 -0.25243938 -91.687485
9204062500 -1.0850147 123.73951 -8.5229778 -73.627632 -8.5175953 -74.288795 -0.25714937 -91.683922
9204125000 -1.0833023 123.75684 -8.5244961 -73.564728 -8.510603 -74.302452 -0.25164476 -91.607674
9204187500 -1.0849271 123.71403 -8.5258093 -73.575317 -8.5157423 -74.252762 -0.25193217 -91.623871
9204250000 -1.0864837 123.70862 -8.5225277 -73.56208 -8.5153627 -74.250992 -0.25104234 -91.565651
9204312500 -1.0844678 123.69813 -8.5176477 -73.581123 -8.5059595 -74.212852 -0.24986435 -91.547516
9204375000 -1.0821384 123.68921 -8.519805 -73.537766 -8.5196743 -74.222733 -0.25985989 -91.509827
9204437500 -1.0803494 123.68443 -8.5162659 -73.571503 -8.5112915 -74.220337 -0.26370275 -91.506508
9204500000 -1.0840715 123.63179 -8.5211353 -73.565628 -8.5059175 -74.187019 -0.2552124 -91.443024
9204562500 -1.0812746 123.65891 -8.5112429 -73.492851 -8.5044708 -74.235497 -0.25756225 -91.463623
9204625000 -1.0756996 123.62658 -8.5202923 -73.45636 -8.5039721 -74.188454 -0.25468796 -91.42083
9204687500 -1.0762377 123.57528 -8.5141697 -73.57653 -8.5099764 -74.272614 -0.26731536 -91.431282
9204750000 -1.0829934 123.56384 -8.5081377 -73.610085 -8.5071764 -74.249878 -0.26335472 -91.432793
9204812500 -1.0880681 123.53912 -8.5205946 -73.611382 -8.5083036 -74.173859 -0.2616969 -91.377075
9204875000 -1.0849128 123.53384 -8.5165443 -73.553009 -8.5034771 -74.191368 -0.25688988 -91.356018
9204937500 -1.0912367 123.49974 -8.5232925 -73.633766 -8.5105562 -74.194969 -0.27323392 -91.365837
9205000000 -1.0901661 123.50295 -8.5199671 -73.635666 -8.5104971 -74.26722 -0.26963779 -91.348801
9205062500 -1.0888247 123.49611 -8.5132236 -73.624008 -8.5122499 -74.196892 -0.2605409 -91.272995
9205125000 -1.0894892 123.50333 -8.5105438 -73.632317 -8.5133619 -74.249794 -0.26337555 -91.338463
9205187500 -1.0875342 123.48398 -8.5124521 -73.567352 -8.5023088 -74.307907 -0.25443488 -91.289314
9205250000 -1.0847733 123.48466 -8.5129452 -73.621986 -8.5092144 -74.262001 -0.25579759 -91.305573
9205312500 -1.0865221 123.49689 -8.5064001 -73.55835 -8.5066452 -74.24929 -0.25609478 -91.239174
9205375000 -1.0883733 123.5125 -8.5091028 -73.489609 -8.5093622 -74.275551 -0.25593397 -91.218925
9205437500 -1.0870632 123.47984 -8.5115347 -73.526192 -8.5031471 -74.225212 -0.25491425 -91.185928
9205500000 -1.0832039 123.44238 -8.509059 -73.541061 -8.5017023 -74.245354 -0.26113614 -91.144989
9205562500 -1.0901579 123.40884 -8.5106497 -73.554749 -8.4954891 -74.235329 -0.26085076 -91.152153
9205625000 -1.080325 123.38028 -8.5078707 -73.489799 -8.4980593 -74.22406 -0.26956785 -91.124695
9205687500 -1.0837532 123.34029 -8.5161648 -73.56736 -8.4993916 -74.19442 -0.26856112 -91.080002
9205750000 -1.0908505 123.32243 -8.5112247 -73.533295 -8.496974 -74.197937 -0.27227852 -91.074936
9205812500 -1.0907232 123.31833 -8.5144043 -73.531311 -8.4983101 -74.181343 -0.26869324 -91.049026
9205875000 -1.0934372 123.31777 -8.5111084 -73.53788 -8.5021067 -74.153893 -0.27358997 -91.003761
9205937500 -1.0893949 123.29176 -8.5057726 -73.477341 -8.4941978 -74.210686 -0.2713221 -91.038864
9206000000 -1.0884635 123.2822 -8.5079575 -73.519341 -8.4950867 -74.204697 -0.26883945 -91.015846
9206062500 -1.0919803 123.271 -8.5029097 -73.527412 -8.4970388 -74.20974 -0.27014369 -91.017464
9206125000 -1.0965112 123.23158 -8.5091448 -73.546501 -8.499258 -74.155098 -0.27264124 -90.959656
9206187500 -1.0937645 123.23813 -8.5038424 -73.518303 -8.4989901 -74.136169 -0.28008077 -90.940971
9206250000 -1.0869694 123.18465 -8.4905224 -73.587036 -8.4991722 -74.215508 -0.27855754 -90.944977
9206312500 -1.0901957 123.18115 -8.5033712 -73.544136 -8.4917946 -74.167664 -0.27686197 -90.900658
9206375000 -1.0923256 123.14999 -8.4994526 -73.59259 -8.4892435 -74.151527 -0.27148473 -90.88195
9206437500 -1.0899053 123.12907 -8.4945602 -73.576805 -8.4977093 -74.175346 -0.27627531 -90.878761
9206500000 -1.0840724 123.15744 -8.4919329 -73.542046 -8.494771 -74.159546 -0.27547896 -90.831017
9206562500 -1.0865135 123.13358 -8.5004358 -73.579025 -8.4912338 -74.17186 -0.27138081 -90.86264
9206625000 -1.0867654 123.1553 -8.4895487 -73.58873 -8.488307 -74.20562 -0.26655683 -90.865356
9206687500 -1.0911561 123.16142 -8.4914427 -73.500641 -8.4732656 -74.172127 -0.26127824 -90.835373
9206750000 -1.0906967 123.12767 -8.5014725 -73.55629 -8.4810629 -74.161201 -0.26560518 -90.811821
9206812500 -1.0905802 123.16232 -8.4900913 -73.573647 -8.483634 -74.18425 -0.26498333 -90.857948
9206875000 -1.087501 123.14255 -8.4918299 -73.568535 -8.4851227 -74.171745 -0.26460558 -90.803223
9206937500 -1.0880768 123.13026 -8.4891586 -73.566223 -8.4816923 -74.161224 -0.26764646 -90.808517
9207000000 -1.0876349 123.09114 -8.5019646 -73.506508 -8.4801121 -74.143936 -0.26098099 -90.797104
9207062500 -1.0840621 123.07388 -8.5008945 -73.535522 -8.4718399 -74.124016 -0.2631675 -90.766029
9207125000 -1.0820172 123.04771 -8.4875851 -73.522545 -8.4804735 -74.226944 -0.26713136 -90.718864
9207187500 -1.0858592 123.0319 -8.4941425 -73.522415 -8.4820938 -74.191795 -0.26824737 -90.721382
9207250000 -1.081643 122.97365 -8.4899569 -73.534996 -8.4724731 -74.15976 -0.26494175 -90.681534
9207312500 -1.0816488 122.9658 -8.483222 -73.554321 -8.4735394 -74.158707 -0.26869142 -90.653702
9207375000 -1.0871466 122.95626 -8.48944 -73.503502 -8.4712725 -74.215988 -0.26795796 -90.681084
9207437500 -1.0844561 122.93439 -8.4841785 -73.564476 -8.473031 -74.150566 -0.27652133 -90.647926
9207500000 -1.0840639 122.91667 -8.4782095 -73.538055 -8.4777546 -74.196083 -0.27173701 -90.634224
9207562500 -1.0921274 122.90205 -8.4867229 -73.577972 -8.4734278 -74.171638 -0.27720514 -90.598564
9207625000 -1.087832 122.83806 -8.4712639 -73.595551 -8.4753265 -74.087669 -0.27837437 -90.588623
9207687500 -1.092033 122.90102 -8.4830036 -73.526405 -8.4765549 -74.14782 -0.27545288 -90.577065
9207750000 -1.0944781 122.86848 -8.4802227 -73.536751 -8.4732285 -74.155937 -0.26351601 -90.589561
9207812500 -1.0990524 122.88859 -8.4824266 -73.512367 -8.4753895 -74.168785 -0.27019683 -90.585342
9207875000 -1.0980968 122.87587 -8.4753637 -73.538841 -8.4756737 -74.151474 -0.26128376 -90.548874
9207937500 -1.0945226 122.85751 -8.4696198 -73.567986 -8.4780064 -74.138809 -0.26605213 -90.553436
9208000000 -1.1007792 122.84684 -8.4782019 -73.601257 -8.4740868 -74.214218 -0.25985494 -90.541161
9208062500 -1.0948765 122.82346 -8.4780073 -73.594688 -8.4723177 -74.190475 -0.25850275 -90.539268
9208125000 -1.0944244 122.82467 -8.4761295 -73.551498 -8.4716768 -74.185089 -0.26411942 -90.458
9208187500 -1.0961121 122.82413 -8.4737368 -73.547577 -8.4735031 -74.218323 -0.26652557 -90.473335
9208250000 -1.0884022 122.81993 -8.4711504 -73.505165 -8.4686346 -74.209488 -0.27123842 -90.447769
9208312500 -1.0900613 122.78905 -8.4689941 -73.428886 -8.4683113 -74.124329 -0.26390103 -90.356575
9208375000 -1.0850382 122.78406 -8.4621811 -73.487068 -8.4638624 -74.20533 -0.26409078 -90.380905
9208437500 -1.0898895 122.772 -8.4677877 -73.465355 -8.4691448 -74.151009 -0.26699492 -90.307335
9208500000 -1.0881039 122.74533 -8.4679756 -73.471382 -8.4657459 -74.142075 -0.26644003 -90.331558
9208562500 -1.0926642 122.72095 -8.4621515 -73.488426 -8.4678679 -74.168686 -0.27487648 -90.323418
9208625000 -1.0873381 122.73071 -8.4590111 -73.493492 -8.4641113 -74.156425 -0.26848426 -90.333542
9208687500 -1.0860695 122.71423 -8.4648895 -73.441223 -8.4639454 -74.102119 -0.2732054 -90.286667
9208750000 -1.0807997 122.6991 -8.4662552 -73.453362 -8.4635592 -74.111778 -0.27364597 -90.318329
9208812500 -1.0839293 122.67603 -8.4607811 -73.487144 -8.4685516 -74.082565 -0.27743974 -90.293922
9208875000 -1.0819558 122.67873 -8.4649782 -73.447189 -8.461092 -74.113617 -0.27409104 -90.290466
9208937500 -1.0802202 122.67535 -8.4623156 -73.42588 -8.4595757 -74.158478 -0.27977487 -90.305412
9209000000 -1.0849727 122.64008 -8.4610748 -73.496422 -8.4558687 -74.107811 -0.27514824 -90.213104
9209062500 -1.0830365 122.61237 -8.4632406 -73.487236 -8.4545717 -74.144165 -0.27413523 -90.173096
9209125000 -1.0834846 122.62514 -8.4599409 -73.518723 -8.4461098 -74.111191 -0.27595288 -90.201759
9209187500 -1.0827363 122.61277 -8.4659204 -73.469734 -8.4526644 -74.129906 -0.27713984 -90.212639
9209250000 -1.082983 122.5671 -8.4629927 -73.456482 -8.4613008 -74.0858 -0.27826056 -90.157356
9209312500 -1.0812042 122.56851 -8.4614544 -73.414154 -8.4547625 -74.127983 -0.27724177 -90.11412
9209375000 -1.0863439 122.55875 -8.4666033 -73.497955 -8.4535275 -74.118149 -0.27828896 -90.106712
9209437500 -1.0844647 122.51066 -8.4599848 -73.506378 -8.4505348 -74.084061 -0.27343032 -90.086479
9209500000 -1.0802708 122.51266 -8.4549427 -73.426353 -8.4577541 -74.104988 -0.27564293 -90.065804
9209562500 -1.0805779 122.48215 -8.4561949 -73.467567 -8.4630089 -74.114861 -0.27768674 -90.079803
9209625000 -1.0797302 122.48435 -8.4476814 -73.489365 -8.456706 -74.081062 -0.27458638 -90.063141
9209687500 -1.0859609 122.45515 -8.4504213 -73.523972 -8.4572611 -74.080986 -0.27364489 -90.01889
9209750000 -1.0907577 122.44746 -8.4549961 -73.535049 -8.4496384 -74.084846 -0.26933154 -90.034492
9209812500 -1.0910294 122.47298 -8.4522619 -73.496216 -8.4610291 -74.120552 -0.27439016 -90.004486
9209875000 -1.0933356 122.43651 -8.4518976 -73.496857 -8.4438705 -74.175034 -0.26535606 -90.040352
9209937500 -1.0966526 122.42173 -8.45399 -73.512321 -8.4588366 -74.102394 -0.27631503 -89.971008
9210000000 -1.0919501 122.39413 -8.4462843 -73.503548 -8.4453077 -74.07692 -0.27038103 -89.981659
9210062500 -1.0891235 122.44779 -8.4471798 -73.449974 -8.4448881 -74.12175 -0.27485284 -89.977798
9210125000 -1.0958359 122.38623 -8.4587173 -73.432076 -8.4318142 -74.116661 -0.2712183 -89.949814
9210187500 -1.0936251 122.39052 -8.4487543 -73.490265 -8.4449959 -74.133919 -0.27605686 -89.94249
9210250000 -1.0902162 122.39146 -8.453186 -73.427277 -8.4456873 -74.055992 -0.27505535 -89.853348
9210312500 -1.0925808 122.36047 -8.4466972 -73.407921 -8.4453669 -74.057671 -0.27935758 -89.849144
9210375000 -1.0881526 122.31694 -8.4415388 -73.438438 -8.4509983 -74.128799 -0.28271329 -89.841751
9210437500 -1.0921471 122.31503 -8.4468079 -73.432648 -8.4421921 -74.127769 -0.27989048 -89.87352
9210500000 -1.0919192 122.25181 -8.4395618 -73.521538 -8.4405546 -74.143784 -0.28435388 -89.890137
9210562500 -1.0893373 122.28181 -8.4461298 -73.460449 -8.4393873 -74.12603 -0.28226563 -89.834267
9210625000 -1.0888222 122.17313 -8.4436245 -73.501015 -8.4444838 -74.089508 -0.28436401 -89.814713
9210687500 -1.0889311 122.16505 -8.4383945 -73.444572 -8.4441299 -74.113663 -0.27907646 -89.800873
9210750000 -1.0869521 122.17923 -8.4305668 -73.451927 -8.4346724 -74.104561 -0.27005467 -89.785576
9210812500 -1.0901996 122.18586 -8.4340868 -73.453575 -8.437624 -74.112015 -0.28388122 -89.743729
9210875000 -1.0872761 122.18834 -8.4283247 -73.472221 -8.4321289 -74.086243 -0.27805001 -89.719162
9210937500 -1.0840193 122.13457 -8.4389715 -73.461479 -8.4374027 -74.039528 -0.27643588 -89.674667
9211000000 -1.0853752 122.15405 -8.4305382 -73.441689 -8.4276361 -74.026161 -0.2738674 -89.633034
9211062500 -1.090019 122.12585 -8.4426136 -73.461967 -8.4300022 -74.014198 -0.28270602 -89.595589
9211125000 -1.0906792 122.13518 -8.4395924 -73.450958 -8.4301615 -74.030594 -0.28351381 -89.573318
9211187500 -1.0928715 122.10948 -8.4300127 -73.49041 -8.4325275 -74.025818 -0.28391257 -89.586044
9211250000 -1.0895548 122.10713 -8.4362965 -73.390343 -8.4245396 -74.019493 -0.28364334 -89.541412
9211312500 -1.0932941 122.08682 -8.4515762 -73.431503 -8.4354124 -74.036934 -0.2915619 -89.549187
9211375000 -1.0952082 122.07399 -8.4387798 -73.457413 -8.428731 -74.064896 -0.28158283 -89.577446
9211437500 -1.0907243 122.09673 -8.4353609 -73.443146 -8.4290876 -74.086311 -0.28759301 -89.565399
9211500000 -1.0830016 122.07271 -8.4332943 -73.478462 -8.4241943 -74.113823 -0.27967241 -89.585838
9211562500 -1.0876946 122.09731 -8.439887 -73.407425 -8.4320612 -74.006599 -0.28121713 -89.545708
9211625000 -1.0840269 122.06894 -8.4230185 -73.474396 -8.4281054 -74.056015 -0.27535406 -89.570213
9211687500 -1.082015 122.05467 -8.429431 -73.496178 -8.4253511 -74.06176 -0.2745001 -89.590424
9211750000 -1.0850295 122.05738 -8.4308128 -73.455986 -8.435298 -74.074478 -0.28244117 -89.574547
9211812500 -1.0813559 122.04375 -8.4238739 -73.443108 -8.4280519 -74.033424 -0.2773703 -89.534309
9211875000 -1.0882021 122.01401 -8.4267559 -73.404808 -8.4266777 -74.035286 -0.28352332 -89.464401
9211937500 -1.0873481 122.01024 -8.42661 -73.386452 -8.4256058 -74.114906 -0.2830902 -89.458122
9212000000 -1.0854728 121.97467 -8.4286165 -73.425781 -8.4206343 -74.134659 -0.28700137 -89.450485
9212062500 -1.080954 121.92005 -8.4262104 -73.42141 -8.4217968 -74.041359 -0.28412658 -89.36483
9212125000 -1.0837615 121.8637 -8.4273882 -73.461548 -8.4110355 -74.062469 -0.27924711 -89.36718
9212187500 -1.0865539 121.88013 -8.4220324 -73.435493 -8.4158907 -74.089149 -0.28187212 -89.370667
9212250000 -1.0855879 121.85876 -8.4132042 -73.414238 -8.4125919 -74.084587 -0.27543899 -89.30629
9212312500 -1.0878699 121.81768 -8.4168949 -73.456947 -8.4146938 -74.100937 -0.2768909 -89.330132
