!Agilent Technologies,N5242A,MY51221714,A.09.90.19
!Agilent N5242A: A.09.90.19
!Date: Saturday, December 30, 2023 10:08:21
!Correction: S11(Full 2 Port(1,2)) 
!S21(Full 2 Port(1,2)) 
!S12(Full 2 Port(1,2)) 
!S22(Full 2 Port(1,2)) 
!S2P File: Measurements: S11, S21, S12, S22:
# Hz S  dB   R 50
9200000000 -1.0615128 124.72748 -8.6458683 -73.616745 -8.6286879 -74.37484 -0.22828482 -92.69577
9200062500 -1.0627152 124.66734 -8.6403704 -73.660713 -8.6327753 -74.355476 -0.23681524 -92.682465
9200125000 -1.0625855 124.65038 -8.6429844 -73.67514 -8.6255369 -74.36142 -0.23357444 -92.654953
9200187500 -1.0693194 124.62675 -8.6462975 -73.683853 -8.6302834 -74.349625 -0.233918 -92.647652
9200250000 -1.0593754 124.65234 -8.6395645 -73.658783 -8.6226006 -74.379311 -0.23134737 -92.661049
9200312500 -1.0691146 124.57935 -8.6451626 -73.707748 -8.6254501 -74.309731 -0.23345326 -92.611862
9200375000 -1.0617182 124.55154 -8.639451 -73.685257 -8.6227512 -74.354134 -0.22989263 -92.642731
9200437500 -1.0661664 124.5522 -8.640871 -73.693169 -8.632473 -74.343765 -0.23651049 -92.584328
9200500000 -1.0654684 124.5415 -8.6430531 -73.686066 -8.6254311 -74.304848 -0.23632692 -92.601295
9200562500 -1.0700517 124.53049 -8.6487122 -73.697937 -8.6178722 -74.280746 -0.23260404 -92.546715
9200625000 -1.0644175 124.51762 -8.6414995 -73.67263 -8.6200495 -74.359558 -0.23170349 -92.560326
9200687500 -1.0641434 124.50901 -8.6352749 -73.694572 -8.6129942 -74.315331 -0.22834195 -92.521652
9200750000 -1.0686659 124.44602 -8.6375465 -73.749809 -8.6083336 -74.316734 -0.22243233 -92.490936
9200812500 -1.0693408 124.43717 -8.63766 -73.734879 -8.605794 -74.348495 -0.22799462 -92.5103
9200875000 -1.0616952 124.42664 -8.6302366 -73.688103 -8.6032209 -74.299599 -0.22695899 -92.475792
9200937500 -1.0656434 124.44747 -8.6404095 -73.693336 -8.6063852 -74.35807 -0.23323618 -92.469635
9201000000 -1.0621696 124.46434 -8.6246376 -73.669174 -8.6232777 -74.336632 -0.24275817 -92.451279
9201062500 -1.064356 124.47018 -8.6321526 -73.672699 -8.6220512 -74.386208 -0.24148178 -92.507156
9201125000 -1.0651726 124.4546 -8.6447582 -73.718597 -8.6138783 -74.339493 -0.23918712 -92.471771
9201187500 -1.0637376 124.50697 -8.6353893 -73.65023 -8.6303215 -74.368248 -0.24787518 -92.458107
9201250000 -1.0614381 124.45027 -8.6346893 -73.670273 -8.6255913 -74.31266 -0.2469511 -92.398743
9201312500 -1.067184 124.47151 -8.6321278 -73.651276 -8.6175642 -74.311684 -0.2425006 -92.407471
9201375000 -1.0644909 124.43009 -8.6283436 -73.669167 -8.618206 -74.268898 -0.23112604 -92.352219
9201437500 -1.0658344 124.42397 -8.6240435 -73.616341 -8.6186438 -74.356331 -0.2374952 -92.34581
9201500000 -1.0697976 124.38161 -8.6271839 -73.608818 -8.6199713 -74.314903 -0.23803073 -92.254181
9201562500 -1.068421 124.38359 -8.6230869 -73.609482 -8.6130104 -74.343666 -0.23139089 -92.260559
9201625000 -1.0714581 124.34531 -8.6257267 -73.617317 -8.6071014 -74.344246 -0.22810654 -92.22467
9201687500 -1.0650754 124.31946 -8.6215668 -73.62394 -8.6112709 -74.346054 -0.23541665 -92.217003
9201750000 -1.0745562 124.34282 -8.6368599 -73.645073 -8.6070805 -74.311943 -0.23772512 -92.24012
9201812500 -1.0671469 124.32317 -8.6168823 -73.666855 -8.6129522 -74.264053 -0.23897769 -92.190155
9201875000 -1.0685381 124.30083 -8.6277037 -73.656662 -8.6059179 -74.322479 -0.23862346 -92.249268
9201937500 -1.065677 124.31071 -8.6267195 -73.584541 -8.6061964 -74.269623 -0.24127094 -92.184586
9202000000 -1.0652288 124.27297 -8.6267042 -73.645966 -8.6220493 -74.25705 -0.25030112 -92.163429
9202062500 -1.0718828 124.25156 -8.6256008 -73.646683 -8.6037855 -74.324158 -0.24646354 -92.204041
9202125000 -1.0622641 124.27071 -8.6119194 -73.630753 -8.6106768 -74.284142 -0.24369262 -92.196297
9202187500 -1.0647135 124.22751 -8.6151075 -73.67601 -8.5994415 -74.326744 -0.24056192 -92.181641
9202250000 -1.065931 124.20782 -8.6223993 -73.640457 -8.6071739 -74.261185 -0.24500291 -92.150185
9202312500 -1.0638555 124.19704 -8.6095076 -73.640762 -8.6112452 -74.28524 -0.24705343 -92.159027
9202375000 -1.066219 124.16847 -8.627594 -73.643578 -8.6027498 -74.297066 -0.237802 -92.116348
9202437500 -1.0655349 124.15762 -8.6232471 -73.649445 -8.6057158 -74.303612 -0.2458849 -92.068962
9202500000 -1.0569084 124.10847 -8.6081448 -73.703392 -8.6084766 -74.331635 -0.24559744 -92.050728
9202562500 -1.0667711 124.12386 -8.61588 -73.658379 -8.608182 -74.335793 -0.24366838 -92.054871
9202625000 -1.0679507 124.13462 -8.6249723 -73.622223 -8.5998068 -74.334221 -0.2441096 -92.039619
9202687500 -1.0680726 124.13274 -8.6214809 -73.570587 -8.6030016 -74.367004 -0.2409894 -92.056236
9202750000 -1.0656695 124.08861 -8.6121283 -73.606705 -8.6032705 -74.314117 -0.24476676 -91.98365
9202812500 -1.0612998 124.10391 -8.6053162 -73.593025 -8.5962019 -74.340218 -0.24147536 -91.997223
9202875000 -1.0613883 124.01624 -8.6070127 -73.694794 -8.5971708 -74.302414 -0.24786815 -91.970665
9202937500 -1.0639484 124.04984 -8.6126585 -73.626411 -8.5956726 -74.32309 -0.24671963 -91.991386
9203000000 -1.0577602 123.99487 -8.6042795 -73.617722 -8.5868454 -74.283226 -0.24250241 -91.96962
9203062500 -1.0612937 123.99129 -8.6039734 -73.627243 -8.5976191 -74.271355 -0.24434026 -91.922165
9203125000 -1.0560757 123.98682 -8.6074362 -73.638458 -8.5880165 -74.318558 -0.24144372 -91.905174
9203187500 -1.0646625 123.98956 -8.6107731 -73.615189 -8.5907211 -74.253838 -0.24230944 -91.885597
9203250000 -1.0620275 123.9726 -8.5990438 -73.582367 -8.5922804 -74.313118 -0.24010807 -91.888519
9203312500 -1.0579104 123.98405 -8.5914755 -73.577728 -8.6004972 -74.269882 -0.23646243 -91.837288
9203375000 -1.0652639 123.968 -8.5955687 -73.559547 -8.5928965 -74.286758 -0.23612148 -91.788658
9203437500 -1.0633754 123.97329 -8.5904999 -73.558159 -8.5863829 -74.245262 -0.23779151 -91.769501
9203500000 -1.0631338 123.97472 -8.591383 -73.550934 -8.602747 -74.276558 -0.23741211 -91.765717
9203562500 -1.0650783 123.9872 -8.5975409 -73.531052 -8.5862827 -74.293587 -0.23515296 -91.741585
9203625000 -1.0635657 123.92209 -8.5971127 -73.576279 -8.5857439 -74.275719 -0.23722498 -91.790329
9203687500 -1.0598972 123.90358 -8.5937252 -73.572495 -8.5821104 -74.318626 -0.24216305 -91.776672
9203750000 -1.0699553 123.89146 -8.6075125 -73.640472 -8.5891266 -74.273666 -0.24408081 -91.723503
9203812500 -1.0670897 123.869 -8.5993423 -73.612846 -8.5767078 -74.288017 -0.24145666 -91.752312
9203875000 -1.0665797 123.8124 -8.6036539 -73.615936 -8.5848541 -74.268318 -0.24502575 -91.737038
9203937500 -1.066788 123.83665 -8.5979433 -73.543144 -8.5854511 -74.294586 -0.23893346 -91.697914
9204000000 -1.0685691 123.79792 -8.5978966 -73.604233 -8.5905066 -74.296249 -0.24238458 -91.698509
9204062500 -1.063677 123.80939 -8.5928793 -73.627907 -8.5892229 -74.253258 -0.24248874 -91.678658
9204125000 -1.0617477 123.78738 -8.5900946 -73.616035 -8.5879383 -74.260132 -0.24045707 -91.631371
9204187500 -1.0662135 123.76801 -8.5919914 -73.627365 -8.5881891 -74.288376 -0.2342774 -91.629135
9204250000 -1.0633602 123.79495 -8.5794353 -73.553864 -8.580224 -74.259804 -0.23342796 -91.586815
9204312500 -1.0578989 123.75743 -8.5820494 -73.55072 -8.5838814 -74.239517 -0.23297851 -91.559959
9204375000 -1.0557685 123.73573 -8.5791979 -73.545975 -8.5864611 -74.21431 -0.24497573 -91.55246
9204437500 -1.0598328 123.74158 -8.579833 -73.543037 -8.5730963 -74.262871 -0.23775895 -91.522713
9204500000 -1.0571225 123.73689 -8.5740538 -73.567741 -8.5841265 -74.232964 -0.24543941 -91.534805
9204562500 -1.0595809 123.69363 -8.5851679 -73.52549 -8.5775509 -74.255348 -0.24718125 -91.505516
9204625000 -1.0569508 123.69073 -8.5799694 -73.517715 -8.5717964 -74.197845 -0.24923104 -91.448738
9204687500 -1.0578222 123.65388 -8.5832539 -73.491096 -8.5811825 -74.260483 -0.25046006 -91.472069
9204750000 -1.0609977 123.61179 -8.5802155 -73.565842 -8.5746679 -74.190147 -0.24650642 -91.43
9204812500 -1.0634042 123.59673 -8.5828457 -73.59613 -8.5720692 -74.241119 -0.24864623 -91.420853
9204875000 -1.0674732 123.5955 -8.5802164 -73.617905 -8.5768213 -74.253998 -0.24978566 -91.433418
9204937500 -1.0671611 123.58148 -8.5802412 -73.555229 -8.5654049 -74.203781 -0.23724627 -91.386993
9205000000 -1.0682712 123.54726 -8.5890894 -73.599327 -8.5737028 -74.230766 -0.24884304 -91.419113
9205062500 -1.0659057 123.56293 -8.579463 -73.571144 -8.5686722 -74.244087 -0.24443088 -91.376221
9205125000 -1.068837 123.56973 -8.5724506 -73.562897 -8.5699759 -74.258438 -0.23890686 -91.353691
9205187500 -1.0622944 123.57288 -8.5737457 -73.536079 -8.5838003 -74.30555 -0.24733914 -91.369453
9205250000 -1.0662736 123.55433 -8.5738239 -73.55217 -8.5801611 -74.271477 -0.24355526 -91.312904
9205312500 -1.0627031 123.57044 -8.5740366 -73.515671 -8.5733089 -74.252548 -0.23740198 -91.255394
9205375000 -1.0651807 123.53978 -8.5652962 -73.52594 -8.5768185 -74.269836 -0.23448119 -91.233444
9205437500 -1.0657203 123.50491 -8.5799017 -73.534187 -8.5745869 -74.266678 -0.24241906 -91.194366
9205500000 -1.0652893 123.48467 -8.5756054 -73.483421 -8.5671549 -74.260475 -0.24434234 -91.203514
9205562500 -1.0664808 123.47317 -8.5757122 -73.568825 -8.5678825 -74.262619 -0.2461485 -91.208229
9205625000 -1.0617189 123.46577 -8.5721378 -73.551331 -8.5598936 -74.173454 -0.24721453 -91.125404
9205687500 -1.0665838 123.44567 -8.588131 -73.462669 -8.5683451 -74.261879 -0.25868624 -91.114052
9205750000 -1.0657035 123.39101 -8.5792646 -73.492035 -8.5793381 -74.167252 -0.26112521 -91.058502
9205812500 -1.0706067 123.38163 -8.5731745 -73.484787 -8.5668859 -74.20713 -0.25033051 -91.07869
9205875000 -1.072409 123.39032 -8.5826845 -73.516624 -8.5551147 -74.218681 -0.25462863 -91.078735
9205937500 -1.0682775 123.34483 -8.5793858 -73.487991 -8.5641193 -74.189583 -0.25647566 -91.064148
9206000000 -1.0687934 123.36293 -8.5756245 -73.550484 -8.5581961 -74.215324 -0.25371909 -91.067627
9206062500 -1.0713679 123.32561 -8.5775719 -73.46991 -8.5616436 -74.180916 -0.25208771 -91.035088
9206125000 -1.0683908 123.3161 -8.5676804 -73.4925 -8.5542717 -74.251961 -0.2491948 -91.024918
9206187500 -1.0699008 123.28655 -8.5707035 -73.505974 -8.5651007 -74.187798 -0.2563051 -91.00248
9206250000 -1.0702668 123.26562 -8.5692549 -73.506851 -8.5591869 -74.134659 -0.25338408 -90.960411
9206312500 -1.0683442 123.25825 -8.5706511 -73.495468 -8.5566273 -74.202461 -0.26401654 -91.006836
9206375000 -1.0669615 123.21725 -8.5661116 -73.538467 -8.5623074 -74.130814 -0.25813228 -90.950912
9206437500 -1.0669875 123.20332 -8.5740042 -73.583603 -8.5532608 -74.158218 -0.2556313 -90.924995
9206500000 -1.0677551 123.18294 -8.5657101 -73.578842 -8.5560026 -74.198334 -0.25738069 -90.921661
9206562500 -1.0690764 123.22757 -8.5612965 -73.566025 -8.5556746 -74.148087 -0.25853106 -90.884453
9206625000 -1.0729251 123.20409 -8.5617809 -73.569885 -8.5477467 -74.157021 -0.24821253 -90.874939
9206687500 -1.0695883 123.22227 -8.5680761 -73.519142 -8.5464888 -74.181885 -0.24960838 -90.874092
9206750000 -1.0735921 123.20694 -8.5589714 -73.532196 -8.5526562 -74.167892 -0.24409403 -90.915604
9206812500 -1.0683364 123.24514 -8.565773 -73.553024 -8.5484161 -74.13047 -0.24769121 -90.827026
9206875000 -1.0685152 123.19787 -8.5651073 -73.603287 -8.545908 -74.200401 -0.24247228 -90.854347
9206937500 -1.0668648 123.2085 -8.5604582 -73.56884 -8.5419235 -74.218079 -0.23811156 -90.889908
9207000000 -1.0645282 123.15223 -8.5624599 -73.524437 -8.5482178 -74.137283 -0.24354371 -90.793724
9207062500 -1.0638877 123.13163 -8.5612745 -73.558159 -8.54282 -74.155434 -0.24543196 -90.771172
9207125000 -1.064597 123.12627 -8.5620489 -73.538513 -8.544939 -74.138893 -0.25399292 -90.72435
9207187500 -1.0654656 123.10017 -8.5630913 -73.493851 -8.5353355 -74.2089 -0.24570444 -90.697845
9207250000 -1.0654782 123.06642 -8.5554075 -73.536751 -8.5433388 -74.205261 -0.24866131 -90.720932
9207312500 -1.0728991 123.04034 -8.5633774 -73.563408 -8.541275 -74.14431 -0.25181529 -90.705505
9207375000 -1.0646122 123.05473 -8.5609894 -73.494247 -8.5430574 -74.200798 -0.2525984 -90.654503
9207437500 -1.0703253 122.98189 -8.550436 -73.501747 -8.5359364 -74.134903 -0.25676551 -90.673042
9207500000 -1.0650334 123.00474 -8.557373 -73.480469 -8.5395985 -74.151871 -0.25917202 -90.677834
9207562500 -1.0653417 122.9754 -8.5450497 -73.530479 -8.5465288 -74.170898 -0.2579585 -90.661606
9207625000 -1.0695022 122.91606 -8.5487642 -73.510536 -8.5448132 -74.197044 -0.25905225 -90.700813
9207687500 -1.0722827 122.94978 -8.5501461 -73.542374 -8.5424738 -74.198341 -0.25612241 -90.64489
9207750000 -1.0747085 122.93141 -8.5470953 -73.51815 -8.5375662 -74.124649 -0.24887651 -90.60392
9207812500 -1.0769464 122.932 -8.5482998 -73.575386 -8.5415621 -74.163635 -0.24695665 -90.619644
9207875000 -1.0744393 122.94883 -8.5429268 -73.516556 -8.5441465 -74.200546 -0.2517696 -90.624565
9207937500 -1.0759541 122.92831 -8.5475388 -73.555252 -8.5469379 -74.142677 -0.25077859 -90.596352
9208000000 -1.0788074 122.9251 -8.5542402 -73.546059 -8.5407591 -74.231262 -0.24545152 -90.596413
9208062500 -1.0728308 122.88643 -8.5494862 -73.49292 -8.5383768 -74.20105 -0.24553174 -90.534988
9208125000 -1.0736015 122.91363 -8.5456238 -73.474251 -8.5420322 -74.205704 -0.25103411 -90.488892
9208187500 -1.0715443 122.89102 -8.5395689 -73.468025 -8.5428457 -74.129913 -0.24570677 -90.468109
9208250000 -1.069167 122.88002 -8.539422 -73.471321 -8.5451231 -74.14006 -0.25413975 -90.411201
9208312500 -1.0695994 122.85415 -8.5409718 -73.487404 -8.5391684 -74.163582 -0.25317109 -90.401848
9208375000 -1.0667081 122.83911 -8.5320148 -73.471603 -8.5414238 -74.195679 -0.25643951 -90.466606
9208437500 -1.0734618 122.86445 -8.5333748 -73.383888 -8.53228 -74.156433 -0.25278288 -90.378769
9208500000 -1.0694659 122.81948 -8.5295696 -73.473068 -8.5331612 -74.144592 -0.25238568 -90.395035
9208562500 -1.0596861 122.8199 -8.5228968 -73.489166 -8.535367 -74.174393 -0.25461888 -90.392776
9208625000 -1.0667676 122.81068 -8.5334139 -73.430923 -8.5319529 -74.120277 -0.25307298 -90.317261
9208687500 -1.0632504 122.80265 -8.5366726 -73.410614 -8.5324354 -74.168213 -0.25586438 -90.344101
9208750000 -1.0685263 122.7701 -8.5349016 -73.391357 -8.536376 -74.112854 -0.26258481 -90.328545
9208812500 -1.0654689 122.75693 -8.5376997 -73.432831 -8.525485 -74.121796 -0.25896773 -90.364525
9208875000 -1.0663425 122.76649 -8.5356398 -73.418381 -8.5341387 -74.176323 -0.26325333 -90.293022
9208937500 -1.0670487 122.74589 -8.5390787 -73.42141 -8.5279274 -74.181534 -0.26549792 -90.304832
9209000000 -1.0634431 122.74312 -8.5356398 -73.463051 -8.5205421 -74.104317 -0.26494896 -90.278137
9209062500 -1.0668439 122.71308 -8.5430212 -73.435074 -8.5303316 -74.089691 -0.26225811 -90.243401
9209125000 -1.0619314 122.66872 -8.5316229 -73.473167 -8.5151167 -74.074394 -0.263082 -90.213409
9209187500 -1.0603706 122.71085 -8.5308733 -73.462318 -8.524744 -74.103561 -0.26471812 -90.196045
9209250000 -1.0643711 122.63644 -8.5313864 -73.508797 -8.5256729 -74.107635 -0.2681278 -90.179939
9209312500 -1.0641103 122.65972 -8.531827 -73.437546 -8.5221567 -74.104797 -0.26193905 -90.170219
9209375000 -1.0613018 122.59858 -8.5298653 -73.449615 -8.526803 -74.110405 -0.26316094 -90.159363
9209437500 -1.0605371 122.58026 -8.5277319 -73.41494 -8.5324955 -74.094589 -0.26715255 -90.107841
9209500000 -1.0566509 122.5935 -8.5269213 -73.395287 -8.5268278 -74.097656 -0.266343 -90.10479
9209562500 -1.0584974 122.58488 -8.5185213 -73.451714 -8.5206938 -74.082405 -0.25774527 -90.107323
9209625000 -1.0645622 122.55106 -8.5252466 -73.47142 -8.5209303 -74.202576 -0.25816801 -90.1502
9209687500 -1.0620099 122.52761 -8.5238218 -73.4394 -8.5181208 -74.145271 -0.25357074 -90.082794
9209750000 -1.0736142 122.48916 -8.5256329 -73.478668 -8.5218582 -74.105209 -0.25509945 -90.024422
9209812500 -1.071736 122.50477 -8.5233612 -73.471451 -8.5210552 -74.146332 -0.25531745 -90.065323
9209875000 -1.0728782 122.49966 -8.5263071 -73.497765 -8.5229712 -74.081909 -0.25589743 -90.017738
9209937500 -1.0698696 122.50269 -8.5190458 -73.486389 -8.5160809 -74.100296 -0.25428739 -90.03273
9210000000 -1.0708034 122.49361 -8.5132513 -73.46933 -8.5227432 -74.175484 -0.25527272 -90.051025
9210062500 -1.0702585 122.50428 -8.5141916 -73.412544 -8.5211649 -74.11116 -0.2553688 -89.989365
9210125000 -1.0727156 122.50338 -8.5268059 -73.433533 -8.508256 -74.045464 -0.25479239 -89.911613
9210187500 -1.0719228 122.49711 -8.5260754 -73.41478 -8.5126963 -74.129951 -0.2589581 -89.926003
9210250000 -1.0708847 122.44155 -8.5207815 -73.453171 -8.5070238 -74.090927 -0.24848345 -89.902847
9210312500 -1.0717098 122.41859 -8.5233736 -73.451439 -8.5162897 -74.100777 -0.26363534 -89.895607
9210375000 -1.0665406 122.40754 -8.509943 -73.405891 -8.5112801 -74.093231 -0.25808322 -89.914978
9210437500 -1.0672652 122.39986 -8.5077534 -73.447792 -8.5090523 -74.190147 -0.26283887 -89.985466
9210500000 -1.0720462 122.35474 -8.5125418 -73.444817 -8.5053549 -74.110146 -0.2637203 -89.912888
9210562500 -1.0650667 122.35786 -8.498847 -73.453209 -8.5187893 -74.167282 -0.26807448 -89.891708
9210625000 -1.069401 122.25879 -8.5127716 -73.450943 -8.5082054 -74.133293 -0.26099283 -89.845306
9210687500 -1.0699196 122.25334 -8.5021181 -73.463432 -8.5148335 -74.126328 -0.26377562 -89.815727
9210750000 -1.0679985 122.28156 -8.5069075 -73.45092 -8.508646 -74.09861 -0.26700234 -89.784424
9210812500 -1.0669709 122.25179 -8.5020514 -73.412346 -8.4995632 -74.065689 -0.2570112 -89.780022
9210875000 -1.0656961 122.23487 -8.4988165 -73.498779 -8.5020981 -74.019867 -0.26260841 -89.718529
9210937500 -1.0678438 122.25675 -8.5062447 -73.414063 -8.5054979 -74.032501 -0.26288655 -89.68235
9211000000 -1.0662276 122.21516 -8.5058002 -73.497108 -8.5020809 -74.00943 -0.26087984 -89.674278
9211062500 -1.0687884 122.24389 -8.4998674 -73.377296 -8.4957409 -74.075714 -0.25834653 -89.651512
9211125000 -1.0685816 122.18513 -8.4993792 -73.4785 -8.4965582 -74.002556 -0.26379126 -89.607506
9211187500 -1.0703644 122.19785 -8.4973421 -73.425026 -8.4922304 -74.069374 -0.25480789 -89.598831
9211250000 -1.0711824 122.16931 -8.5000048 -73.391182 -8.4923401 -74.089493 -0.26730222 -89.631508
9211312500 -1.0697567 122.17595 -8.5035076 -73.38459 -8.4974136 -74.05072 -0.26733789 -89.615852
9211375000 -1.0709552 122.17349 -8.506876 -73.386528 -8.496665 -74.031288 -0.27017239 -89.571182
9211437500 -1.0674119 122.16853 -8.5068703 -73.353027 -8.5008316 -74.070267 -0.26635665 -89.597931
9211500000 -1.0633301 122.1281 -8.496767 -73.454597 -8.4940157 -74.043701 -0.26372185 -89.568794
9211562500 -1.0647019 122.1265 -8.4994564 -73.470116 -8.5089989 -74.037659 -0.26492497 -89.567963
9211625000 -1.0641092 122.16299 -8.498847 -73.429253 -8.4972658 -74.05201 -0.26547149 -89.598351
9211687500 -1.0620275 122.14056 -8.4974585 -73.462814 -8.4929552 -74.010277 -0.26208404 -89.600288
9211750000 -1.0614438 122.12972 -8.4867859 -73.446976 -8.502533 -74.099716 -0.26548114 -89.611694
9211812500 -1.0600705 122.11951 -8.4918184 -73.387596 -8.4927092 -74.078316 -0.2611199 -89.564575
9211875000 -1.0623759 122.08559 -8.497097 -73.42746 -8.4948769 -74.032104 -0.26197472 -89.525597
9211937500 -1.0648602 122.04758 -8.4926481 -73.448555 -8.4976749 -74.035484 -0.26920149 -89.50808
9212000000 -1.0656219 122.03391 -8.4985256 -73.399971 -8.4882956 -74.095207 -0.26043355 -89.473801
9212062500 -1.0643781 121.97787 -8.4940615 -73.403419 -8.4914684 -74.024239 -0.26741371 -89.377663
9212125000 -1.0699456 121.99097 -8.4941921 -73.352455 -8.4887657 -74.084396 -0.26956815 -89.37751
9212187500 -1.0588564 121.95689 -8.4875937 -73.372673 -8.4856062 -74.112221 -0.26721847 -89.401924
9212250000 -1.065309 121.91982 -8.4895535 -73.432701 -8.4824114 -74.058876 -0.25849652 -89.366325
9212312500 -1.0663537 121.86366 -8.4855871 -73.420158 -8.4883127 -74.066216 -0.26676145 -89.333031
