!Agilent Technologies,N5242A,MY51221714,A.09.90.19
!Agilent N5242A: A.09.90.19
!Date: Saturday, December 30, 2023 10:10:50
!Correction: S11(Full 2 Port(1,2)) 
!S21(Full 2 Port(1,2)) 
!S12(Full 2 Port(1,2)) 
!S22(Full 2 Port(1,2)) 
!S2P File: Measurements: S11, S21, S12, S22:
# Hz S  dB   R 50
9200000000 -1.1931444 123.18085 -8.2505836 -75.073074 -8.2349701 -75.818649 -0.37972888 -92.756729
9200062500 -1.1954756 123.17387 -8.2547464 -75.069855 -8.2410393 -75.803192 -0.39145353 -92.701637
9200125000 -1.1963488 123.12791 -8.2467337 -75.113762 -8.2376366 -75.830841 -0.3871733 -92.728645
9200187500 -1.1982447 123.09557 -8.2541752 -75.123878 -8.236124 -75.797867 -0.39109951 -92.696999
9200250000 -1.2014891 123.1223 -8.2531929 -75.075089 -8.2334185 -75.85157 -0.38687706 -92.726967
9200312500 -1.1985908 123.10061 -8.2538633 -75.092392 -8.241581 -75.790421 -0.39332095 -92.661629
9200375000 -1.1996349 123.0581 -8.2520409 -75.117271 -8.2393055 -75.793671 -0.38929817 -92.667686
9200437500 -1.1974983 123.06985 -8.2477531 -75.129738 -8.2336931 -75.818848 -0.37893176 -92.687782
9200500000 -1.2010549 122.99787 -8.2520733 -75.167274 -8.2438192 -75.869415 -0.400493 -92.662003
9200562500 -1.1963342 122.98917 -8.2405396 -75.186394 -8.2365551 -75.827171 -0.387472 -92.663193
9200625000 -1.1999338 122.99937 -8.2553778 -75.129318 -8.2269087 -75.777618 -0.38724637 -92.606514
9200687500 -1.2000968 122.97701 -8.2491293 -75.124123 -8.2198172 -75.81076 -0.38618731 -92.606552
9200750000 -1.2007771 122.95362 -8.2485132 -75.149208 -8.2245073 -75.796417 -0.38123363 -92.569038
9200812500 -1.1955043 122.95792 -8.2357912 -75.16774 -8.2211685 -75.79216 -0.3796041 -92.541077
9200875000 -1.1964839 122.9129 -8.2322912 -75.134621 -8.2200193 -75.794678 -0.37893662 -92.538902
9200937500 -1.2019062 122.94876 -8.2497263 -75.148361 -8.2250357 -75.791565 -0.38595769 -92.546982
9201000000 -1.1997671 122.95051 -8.2477083 -75.115761 -8.2289877 -75.84211 -0.39331755 -92.566048
9201062500 -1.1954012 122.94862 -8.2456331 -75.127823 -8.2278461 -75.809738 -0.39071307 -92.525429
9201125000 -1.1959662 122.97563 -8.2491865 -75.050156 -8.2269621 -75.797234 -0.39233485 -92.507233
9201187500 -1.1971483 122.956 -8.2361488 -75.096672 -8.2379255 -75.774895 -0.3955543 -92.519775
9201250000 -1.1981529 122.93245 -8.2440052 -75.117699 -8.2375889 -75.758026 -0.39820081 -92.471176
9201312500 -1.1988052 122.94809 -8.2401381 -75.124046 -8.2348013 -75.804756 -0.39424095 -92.44014
9201375000 -1.1991572 122.91423 -8.2359791 -75.077362 -8.2243872 -75.792213 -0.3954325 -92.395973
9201437500 -1.1972991 122.88197 -8.2367058 -75.093704 -8.2242575 -75.835793 -0.38918558 -92.407333
9201500000 -1.2026106 122.88699 -8.2387037 -75.080032 -8.2160349 -75.825462 -0.39070866 -92.383217
9201562500 -1.1994842 122.86899 -8.2261248 -75.061729 -8.2286167 -75.833435 -0.3880251 -92.333206
9201625000 -1.2048342 122.84193 -8.2313099 -75.066223 -8.2090492 -75.790901 -0.38041702 -92.305603
9201687500 -1.2003248 122.83537 -8.2368469 -75.065674 -8.2226629 -75.824768 -0.39229035 -92.315933
9201750000 -1.2008119 122.8032 -8.2344923 -75.067352 -8.214963 -75.821938 -0.39205614 -92.293724
9201812500 -1.208185 122.80564 -8.2378426 -75.056801 -8.2188282 -75.780167 -0.39214957 -92.295578
9201875000 -1.20137 122.7778 -8.2330694 -75.071602 -8.2220993 -75.768242 -0.40031192 -92.241104
9201937500 -1.1997973 122.79565 -8.2307596 -75.079445 -8.2118139 -75.740341 -0.39438552 -92.264282
9202000000 -1.2018265 122.74924 -8.2300014 -75.081398 -8.2185011 -75.73008 -0.40037808 -92.261864
9202062500 -1.2003647 122.73035 -8.2273121 -75.096375 -8.2142344 -75.761642 -0.3954092 -92.240181
9202125000 -1.199289 122.73102 -8.2333279 -75.096146 -8.2127714 -75.774864 -0.39848927 -92.240257
9202187500 -1.1998383 122.6694 -8.2282667 -75.153488 -8.2165108 -75.712051 -0.40120623 -92.186455
9202250000 -1.1992111 122.68488 -8.2253742 -75.124069 -8.2160501 -75.800591 -0.40098926 -92.224258
9202312500 -1.1941764 122.66012 -8.2173901 -75.153053 -8.2145147 -75.816658 -0.39696836 -92.183014
9202375000 -1.19547 122.63446 -8.2192316 -75.095818 -8.2156639 -75.743279 -0.39768487 -92.123825
9202437500 -1.1966724 122.61747 -8.224515 -75.126945 -8.2191772 -75.772141 -0.40346754 -92.158226
9202500000 -1.1955534 122.60511 -8.2224321 -75.082237 -8.2102051 -75.78405 -0.39303857 -92.148689
9202562500 -1.1938726 122.60617 -8.2160378 -75.069603 -8.2143068 -75.817879 -0.39561647 -92.1035
9202625000 -1.1984249 122.58977 -8.2215633 -75.087196 -8.2023897 -75.784859 -0.39290288 -92.088402
9202687500 -1.2015637 122.58543 -8.2269268 -75.112747 -8.2071724 -75.791351 -0.39362469 -92.066948
9202750000 -1.1993039 122.58623 -8.2188349 -75.00946 -8.2113733 -75.802299 -0.39638159 -92.076439
9202812500 -1.19499 122.54074 -8.2192459 -75.135132 -8.2016821 -75.818077 -0.4019483 -92.073608
9202875000 -1.1967329 122.54067 -8.2144642 -75.109024 -8.2067652 -75.847 -0.39711809 -92.075333
9202937500 -1.1990752 122.52125 -8.2177343 -75.063911 -8.2005444 -75.814148 -0.39790967 -92.049644
9203000000 -1.1938225 122.46677 -8.2177 -75.097328 -8.2006302 -75.835693 -0.39834931 -92.00563
9203062500 -1.1978744 122.47509 -8.2195425 -75.124626 -8.1981344 -75.705101 -0.39952755 -91.961479
9203125000 -1.1995025 122.4324 -8.2205648 -75.130692 -8.1969595 -75.782501 -0.39886871 -91.988014
9203187500 -1.1931124 122.48586 -8.2099676 -75.05162 -8.2007904 -75.732094 -0.39624336 -91.924149
9203250000 -1.1924654 122.46498 -8.1995344 -75.046188 -8.1978531 -75.766953 -0.39321345 -91.905891
9203312500 -1.1943843 122.45 -8.210907 -75.05069 -8.2047796 -75.728462 -0.39326948 -91.898636
9203375000 -1.1946589 122.47487 -8.1976671 -75.051071 -8.2062798 -75.739037 -0.39567432 -91.883545
9203437500 -1.2002896 122.43173 -8.20084 -75.070656 -8.2011089 -75.743202 -0.39426395 -91.835045
9203500000 -1.2013401 122.46842 -8.1961813 -75.027756 -8.1990337 -75.737717 -0.39716884 -91.820549
9203562500 -1.2019724 122.4155 -8.1932898 -75.08503 -8.199604 -75.747917 -0.39174169 -91.792717
9203625000 -1.2009829 122.39942 -8.2059584 -75.092491 -8.1917267 -75.721985 -0.39604378 -91.806107
9203687500 -1.1995513 122.34351 -8.2071943 -75.082344 -8.1945887 -75.762253 -0.39862663 -91.799683
9203750000 -1.2036748 122.35686 -8.204793 -75.083633 -8.1955528 -75.746819 -0.39926839 -91.804306
9203812500 -1.2016358 122.30055 -8.2056713 -75.046455 -8.1940737 -75.721817 -0.40050414 -91.767654
9203875000 -1.1987988 122.30801 -8.2013178 -75.068748 -8.1936579 -75.78701 -0.40088922 -91.808472
9203937500 -1.2011801 122.29484 -8.2036352 -75.116417 -8.1819696 -75.793488 -0.39292452 -91.795822
9204000000 -1.1988034 122.28284 -8.2052813 -75.042671 -8.1874294 -75.736137 -0.39881888 -91.737534
9204062500 -1.2016714 122.22748 -8.1976805 -75.181267 -8.1883183 -75.740555 -0.39498845 -91.751732
9204125000 -1.2018487 122.25374 -8.1971512 -75.07869 -8.1865101 -75.680923 -0.39181486 -91.675476
9204187500 -1.2018318 122.23952 -8.1944351 -75.076897 -8.1865664 -75.703674 -0.39053109 -91.674667
9204250000 -1.1985464 122.21875 -8.1881618 -75.103279 -8.1834192 -75.788315 -0.39113358 -91.728325
9204312500 -1.2027159 122.19385 -8.1914034 -75.083466 -8.1827993 -75.692101 -0.39380687 -91.653954
9204375000 -1.1951269 122.18661 -8.1853333 -75.053452 -8.1900597 -75.733047 -0.39803663 -91.624878
9204437500 -1.1931596 122.19326 -8.1814632 -75.024353 -8.1784344 -75.731316 -0.39834601 -91.598236
9204500000 -1.1962584 122.19537 -8.1833382 -75.01223 -8.1823072 -75.70639 -0.399872 -91.55204
9204562500 -1.1906002 122.16191 -8.1860523 -75.037468 -8.1767464 -75.730072 -0.40409017 -91.561485
9204625000 -1.1865146 122.14381 -8.1844769 -75.002342 -8.1839495 -75.766678 -0.4040319 -91.542252
9204687500 -1.1916176 122.12682 -8.1841278 -74.980118 -8.182085 -75.738312 -0.40559521 -91.509857
9204750000 -1.1967303 122.08655 -8.1844416 -75.055702 -8.1820078 -75.720909 -0.40558043 -91.506767
9204812500 -1.1994256 122.06471 -8.1869946 -75.082771 -8.1732731 -75.739182 -0.40179476 -91.536766
9204875000 -1.1971197 122.07679 -8.1886244 -75.03891 -8.1871748 -75.768135 -0.41013139 -91.497169
9204937500 -1.2021538 122.04812 -8.192585 -75.087524 -8.1761179 -75.718216 -0.4050152 -91.454369
9205000000 -1.2023449 122.0453 -8.1931448 -75.051704 -8.1745033 -75.72757 -0.4032726 -91.469078
9205062500 -1.2058387 122.02242 -8.1937408 -75.09333 -8.1836433 -75.701477 -0.40673497 -91.404419
9205125000 -1.1961792 122.0219 -8.1812582 -75.059296 -8.1873589 -75.749359 -0.39911368 -91.419571
9205187500 -1.2046813 122.04323 -8.1784678 -75.068977 -8.1810207 -75.813332 -0.40236974 -91.440948
9205250000 -1.2027957 122.01625 -8.1867218 -75.027504 -8.1801329 -75.769943 -0.40104926 -91.364166
9205312500 -1.2012773 122.03174 -8.1825562 -75.055969 -8.1776781 -75.785583 -0.39303678 -91.377876
9205375000 -1.201839 122.01005 -8.1816273 -74.997108 -8.1796436 -75.771538 -0.39532688 -91.32608
9205437500 -1.2035683 122.02887 -8.1828976 -74.979538 -8.1745872 -75.785362 -0.40379462 -91.303886
9205500000 -1.2010237 121.97379 -8.1814833 -74.963936 -8.17031 -75.748268 -0.39958668 -91.296562
9205562500 -1.2034748 121.93633 -8.187129 -75.022476 -8.1780558 -75.752808 -0.40694004 -91.270752
9205625000 -1.2053455 121.8894 -8.1899414 -75.033539 -8.1693888 -75.715248 -0.40457597 -91.238037
9205687500 -1.2009907 121.87708 -8.1811199 -74.983665 -8.1622829 -75.704041 -0.40679115 -91.177322
9205750000 -1.1993177 121.86858 -8.1755514 -74.969421 -8.1638908 -75.69931 -0.40609252 -91.150452
9205812500 -1.2065403 121.85725 -8.1780796 -74.991508 -8.1596575 -75.722801 -0.40531075 -91.154869
9205875000 -1.2047726 121.82693 -8.1798019 -75.01281 -8.1671925 -75.692894 -0.40965798 -91.137436
9205937500 -1.2042506 121.81341 -8.1772995 -74.983727 -8.1661224 -75.681244 -0.40738174 -91.133255
9206000000 -1.1995926 121.84502 -8.1667385 -74.940819 -8.1664314 -75.749031 -0.40971762 -91.133484
9206062500 -1.2056454 121.78749 -8.1811218 -75.024132 -8.1637545 -75.680664 -0.40828589 -91.130539
9206125000 -1.2031275 121.77364 -8.1764936 -75.052162 -8.1664915 -75.679482 -0.41058102 -91.074097
9206187500 -1.2006949 121.78282 -8.1700983 -75.003891 -8.1677017 -75.653984 -0.41547638 -91.071442
9206250000 -1.2017454 121.72775 -8.1721239 -75.013565 -8.1642389 -75.668259 -0.4102295 -91.011856
9206312500 -1.203023 121.70832 -8.1728868 -75.020973 -8.1620779 -75.709846 -0.4168078 -91.032219
9206375000 -1.1980336 121.68989 -8.1639872 -74.977585 -8.1588974 -75.719765 -0.41318482 -91.036461
9206437500 -1.2018312 121.67503 -8.1722765 -75.03495 -8.1689081 -75.682823 -0.42103645 -90.996574
9206500000 -1.1992509 121.65251 -8.1709461 -75.036713 -8.1610279 -75.687851 -0.41882831 -90.993942
9206562500 -1.2026457 121.6575 -8.1605396 -75.037071 -8.162591 -75.673515 -0.41323462 -90.943436
9206625000 -1.2024502 121.6541 -8.1611242 -75.013382 -8.1541691 -75.677071 -0.40589744 -90.954155
9206687500 -1.2012908 121.67556 -8.1642246 -74.99781 -8.150526 -75.676323 -0.40464205 -90.944862
9206750000 -1.2034297 121.68137 -8.1660919 -75.100243 -8.1474943 -75.704987 -0.40195182 -90.986015
9206812500 -1.2062697 121.67011 -8.163456 -75.006454 -8.1530704 -75.647881 -0.40032971 -90.904129
9206875000 -1.203878 121.69855 -8.1648169 -75.056564 -8.145257 -75.684242 -0.39870846 -90.956627
9206937500 -1.2039727 121.63445 -8.1663256 -74.997581 -8.155035 -75.638481 -0.40467304 -90.857231
9207000000 -1.1994725 121.62074 -8.1623363 -75.026497 -8.148819 -75.690201 -0.406459 -90.897446
9207062500 -1.2009888 121.62189 -8.1651764 -74.958435 -8.1472483 -75.636139 -0.40112051 -90.846199
9207125000 -1.2028036 121.55936 -8.1687441 -75.033508 -8.1485062 -75.662025 -0.40315607 -90.82325
9207187500 -1.2024395 121.55672 -8.1630363 -75.013458 -8.1419935 -75.66391 -0.40459377 -90.81459
9207250000 -1.1992891 121.5517 -8.160862 -74.937523 -8.1433487 -75.693718 -0.40522394 -90.793518
9207312500 -1.1997055 121.53008 -8.1549864 -74.918327 -8.1426411 -75.710526 -0.41024753 -90.789764
9207375000 -1.1983294 121.5112 -8.15728 -75.001015 -8.1449709 -75.70385 -0.41238776 -90.787323
9207437500 -1.2032738 121.45167 -8.1577187 -75.056664 -8.1443663 -75.718246 -0.41422832 -90.787697
9207500000 -1.2027135 121.44464 -8.158783 -75.074112 -8.1483679 -75.679573 -0.42060292 -90.756287
9207562500 -1.2037369 121.40892 -8.1539583 -75.043282 -8.1396885 -75.675934 -0.41847068 -90.738991
9207625000 -1.20359 121.405 -8.1517458 -75.084984 -8.1441717 -75.652977 -0.41770476 -90.700996
9207687500 -1.2098272 121.37775 -8.1560955 -75.040909 -8.1484089 -75.652695 -0.41822204 -90.706505
9207750000 -1.2098968 121.36886 -8.15343 -75.009224 -8.1544294 -75.661316 -0.41305169 -90.716423
9207812500 -1.2148123 121.393 -8.1582718 -75.046745 -8.1485147 -75.706047 -0.41067475 -90.727577
9207875000 -1.208147 121.38763 -8.1451931 -75.039879 -8.1529198 -75.698975 -0.41412118 -90.702385
9207937500 -1.2217151 121.39249 -8.1540241 -75.041862 -8.1467714 -75.72007 -0.40119937 -90.670105
9208000000 -1.2181082 121.35338 -8.1567211 -75.033112 -8.1386595 -75.624176 -0.40402231 -90.601685
9208062500 -1.2146673 121.34373 -8.1430283 -75.043175 -8.1401358 -75.673622 -0.40754765 -90.566132
9208125000 -1.2119037 121.36361 -8.1451778 -75.046402 -8.1470518 -75.717781 -0.40307438 -90.615738
9208187500 -1.2101017 121.35287 -8.1456223 -74.989174 -8.1400433 -75.683807 -0.41228679 -90.582733
9208250000 -1.2106211 121.28621 -8.145709 -75.086273 -8.1412668 -75.730034 -0.41273975 -90.53183
9208312500 -1.2055626 121.2961 -8.1333666 -74.976555 -8.1409531 -75.688362 -0.40975291 -90.490158
9208375000 -1.2059828 121.30817 -8.1400375 -74.952972 -8.1349173 -75.666306 -0.40846547 -90.437195
9208437500 -1.2051479 121.24864 -8.1337662 -75.022041 -8.1436262 -75.68026 -0.41563827 -90.427078
9208500000 -1.2059951 121.25755 -8.1428947 -74.997993 -8.145853 -75.680092 -0.41936025 -90.427261
9208562500 -1.2051506 121.24375 -8.1307249 -74.924347 -8.1264277 -75.713249 -0.40359643 -90.481789
9208625000 -1.2044445 121.23193 -8.1346006 -75.007401 -8.1389847 -75.668991 -0.42074728 -90.448555
9208687500 -1.2037911 121.21544 -8.1350574 -74.962929 -8.1354866 -75.691345 -0.41695669 -90.447083
9208750000 -1.2000353 121.22671 -8.1334829 -74.935104 -8.1332216 -75.690903 -0.41268694 -90.453186
9208812500 -1.1972464 121.23869 -8.1388388 -74.94883 -8.1375628 -75.673706 -0.42517853 -90.411736
9208875000 -1.2013062 121.20108 -8.1378746 -74.961494 -8.1292591 -75.701988 -0.41580242 -90.416252
9208937500 -1.1979812 121.18627 -8.1364298 -74.969803 -8.1350594 -75.659355 -0.42594662 -90.367065
9209000000 -1.2030046 121.1631 -8.1337986 -75.003403 -8.1211014 -75.683868 -0.41166675 -90.365562
9209062500 -1.1976994 121.18631 -8.1337662 -74.945923 -8.1272116 -75.658211 -0.41761839 -90.312416
9209125000 -1.1982871 121.13659 -8.1327391 -75.000198 -8.1291933 -75.693474 -0.42582151 -90.313362
9209187500 -1.2034292 121.14803 -8.1355896 -74.961281 -8.1296949 -75.630836 -0.42392191 -90.29158
9209250000 -1.2012837 121.10629 -8.1326008 -75.007141 -8.1318331 -75.59111 -0.43249875 -90.263847
9209312500 -1.2004875 121.0829 -8.1342602 -74.985367 -8.1345062 -75.592003 -0.42907 -90.205406
9209375000 -1.1951032 121.05864 -8.1309958 -74.992592 -8.1251316 -75.619751 -0.42230418 -90.225761
9209437500 -1.2010919 121.04407 -8.1282053 -74.986267 -8.1327944 -75.585754 -0.42511991 -90.201004
9209500000 -1.2004567 121.01048 -8.1310091 -74.969238 -8.1174736 -75.602531 -0.41548148 -90.201553
9209562500 -1.2 121.00848 -8.1275816 -74.95517 -8.1304121 -75.678619 -0.4247106 -90.201828
9209625000 -1.205377 121.01093 -8.1366577 -74.970901 -8.1327114 -75.663422 -0.41846383 -90.17601
9209687500 -1.2032648 120.9544 -8.1204185 -74.994408 -8.1180248 -75.657372 -0.40752611 -90.192284
9209750000 -1.2082777 121.00086 -8.1235752 -74.973076 -8.1202393 -75.662704 -0.41699848 -90.150154
9209812500 -1.2078595 120.97074 -8.1202593 -75.024361 -8.1265059 -75.631287 -0.41470084 -90.125626
9209875000 -1.2115045 120.94323 -8.1207256 -74.981781 -8.1183567 -75.671402 -0.41219696 -90.129692
9209937500 -1.2071384 120.94421 -8.1172543 -74.99482 -8.1186533 -75.570198 -0.41154814 -90.070656
9210000000 -1.2112672 120.94913 -8.1137486 -74.980095 -8.118022 -75.690247 -0.41409636 -90.092064
9210062500 -1.2112371 120.94382 -8.1261368 -74.966637 -8.116765 -75.658325 -0.41501057 -90.061104
9210125000 -1.215578 120.93857 -8.1298456 -74.943321 -8.1120825 -75.657875 -0.41617882 -90.04525
9210187500 -1.210095 120.91942 -8.1206207 -74.968048 -8.1089287 -75.632866 -0.41879937 -90.063477
9210250000 -1.2129775 120.89263 -8.1193466 -75.000832 -8.1076059 -75.600342 -0.41931322 -89.996017
9210312500 -1.2059115 120.89953 -8.1135645 -74.942856 -8.1143074 -75.692154 -0.42133316 -90.026711
9210375000 -1.2109172 120.87112 -8.1157255 -74.960304 -8.1066694 -75.64624 -0.42568168 -89.995384
9210437500 -1.2054043 120.85586 -8.1094666 -74.939903 -8.107626 -75.696609 -0.42253223 -90.013664
9210500000 -1.2071657 120.81442 -8.1103687 -74.971825 -8.1114235 -75.652527 -0.42891419 -89.942558
9210562500 -1.2071272 120.80509 -8.1175146 -74.94841 -8.1185312 -75.667839 -0.43416083 -89.938896
9210625000 -1.2028294 120.70158 -8.110549 -74.983482 -8.1087999 -75.645699 -0.42698082 -89.955009
9210687500 -1.21165 120.70111 -8.1092987 -74.957649 -8.103673 -75.650764 -0.42113099 -89.947395
9210750000 -1.2078698 120.66846 -8.0988092 -74.997429 -8.1122122 -75.645203 -0.42591795 -89.886131
9210812500 -1.2053149 120.67051 -8.1101952 -74.98159 -8.1056404 -75.637535 -0.42486042 -89.848846
9210875000 -1.2034522 120.68134 -8.0951462 -74.981972 -8.1103392 -75.595901 -0.42650232 -89.84449
9210937500 -1.204869 120.67386 -8.1018047 -74.976151 -8.0945177 -75.563156 -0.41982841 -89.789528
9211000000 -1.2068102 120.67097 -8.1027164 -74.956421 -8.1051893 -75.550072 -0.42038354 -89.762596
9211062500 -1.2054235 120.66909 -8.106842 -74.963547 -8.0998783 -75.563377 -0.42753577 -89.720184
9211125000 -1.2075603 120.65875 -8.1012106 -74.993927 -8.1001472 -75.592697 -0.42875019 -89.75705
9211187500 -1.2062854 120.63014 -8.1009579 -74.941895 -8.0994787 -75.547989 -0.42605668 -89.68763
9211250000 -1.212139 120.62166 -8.1088066 -74.944435 -8.0971642 -75.604523 -0.43269372 -89.692444
9211312500 -1.2088677 120.60912 -8.1015081 -75.024017 -8.0964718 -75.594589 -0.43314317 -89.68708
9211375000 -1.2103332 120.58984 -8.0989027 -74.984131 -8.0978785 -75.627663 -0.43058243 -89.694275
9211437500 -1.2034327 120.5996 -8.09515 -74.929482 -8.0992002 -75.563965 -0.4317857 -89.692635
9211500000 -1.2009294 120.60351 -8.0913029 -74.940979 -8.0945683 -75.579727 -0.42827871 -89.681099
9211562500 -1.2040795 120.54523 -8.1005201 -74.98027 -8.0947971 -75.572388 -0.42652225 -89.689087
9211625000 -1.2033159 120.61521 -8.0978184 -75.015419 -8.0938206 -75.596519 -0.42672047 -89.74221
9211687500 -1.2018722 120.57429 -8.0954618 -75.008415 -8.1028624 -75.615875 -0.42859483 -89.727837
9211750000 -1.2001445 120.55865 -8.0953283 -74.929695 -8.0925913 -75.622688 -0.42188549 -89.667923
9211812500 -1.2028772 120.51033 -8.1011286 -74.980309 -8.0908957 -75.564713 -0.42466557 -89.657196
9211875000 -1.201705 120.53773 -8.0905495 -74.959602 -8.0919895 -75.581818 -0.42039818 -89.592514
9211937500 -1.2009012 120.48901 -8.0907936 -74.90271 -8.1008368 -75.605888 -0.43222696 -89.607933
9212000000 -1.1992799 120.45585 -8.0927858 -74.917397 -8.0925398 -75.585274 -0.42623565 -89.561775
9212062500 -1.2049571 120.4383 -8.0978565 -74.935425 -8.0928049 -75.585922 -0.43057221 -89.523506
9212125000 -1.2006476 120.38845 -8.0931501 -74.895241 -8.0824404 -75.60775 -0.43016079 -89.43644
9212187500 -1.2071627 120.37348 -8.0944576 -74.878456 -8.087697 -75.567039 -0.42873293 -89.47113
9212250000 -1.2063094 120.36543 -8.0863609 -74.943428 -8.0822468 -75.611504 -0.42824578 -89.492706
9212312500 -1.2054323 120.31451 -8.0889702 -74.97316 -8.0879126 -75.640678 -0.43077177 -89.496155
