!Agilent Technologies,N5242A,MY51221714,A.09.90.19
!Agilent N5242A: A.09.90.19
!Date: Saturday, December 30, 2023 10:11:48
!Correction: S11(Full 2 Port(1,2)) 
!S21(Full 2 Port(1,2)) 
!S12(Full 2 Port(1,2)) 
!S22(Full 2 Port(1,2)) 
!S2P File: Measurements: S11, S21, S12, S22:
# Hz S  dB   R 50
9200000000 -1.0497067 124.52598 -8.6188679 -73.523033 -8.6068573 -74.264046 -0.24119999 -92.416992
9200062500 -1.0572107 124.50471 -8.6210527 -73.635963 -8.6013298 -74.256287 -0.24220306 -92.334076
9200125000 -1.0621284 124.49976 -8.6207027 -73.59137 -8.6037512 -74.267075 -0.24796271 -92.328506
9200187500 -1.0611144 124.45524 -8.6206474 -73.54818 -8.6097183 -74.307632 -0.249143 -92.356995
9200250000 -1.062343 124.44355 -8.6262207 -73.626923 -8.6022739 -74.272499 -0.24227087 -92.331726
9200312500 -1.0628201 124.44302 -8.6209641 -73.610245 -8.6084738 -74.297668 -0.24614704 -92.309303
9200375000 -1.0599803 124.40932 -8.6249371 -73.564911 -8.6009483 -74.295486 -0.24727267 -92.292625
9200437500 -1.065076 124.39261 -8.6196127 -73.620537 -8.6070013 -74.256004 -0.24572185 -92.318932
9200500000 -1.0650097 124.40002 -8.6289072 -73.623528 -8.6127768 -74.214699 -0.25160924 -92.268356
9200562500 -1.0603274 124.38367 -8.6199074 -73.596085 -8.6064472 -74.231873 -0.25082016 -92.244034
9200625000 -1.0579937 124.34593 -8.616477 -73.625206 -8.6015234 -74.307236 -0.24874373 -92.266365
9200687500 -1.0610939 124.346 -8.6183414 -73.610298 -8.5899992 -74.24659 -0.24241637 -92.226364
9200750000 -1.0574732 124.293 -8.6074018 -73.626534 -8.5889673 -74.212967 -0.23713291 -92.171661
9200812500 -1.0549296 124.28334 -8.6043148 -73.608177 -8.5916624 -74.256561 -0.23883618 -92.188202
9200875000 -1.0577376 124.29864 -8.6148329 -73.59198 -8.586278 -74.297997 -0.24095 -92.191437
9200937500 -1.0595218 124.27125 -8.6172943 -73.612358 -8.5890808 -74.228058 -0.24435937 -92.124153
9201000000 -1.0581815 124.28889 -8.6193762 -73.578926 -8.5959291 -74.243355 -0.24792144 -92.134605
9201062500 -1.0540725 124.33192 -8.6077414 -73.553856 -8.5998726 -74.208733 -0.25352877 -92.096275
9201125000 -1.0596553 124.28454 -8.6229515 -73.609818 -8.5957403 -74.223007 -0.24764562 -92.123764
9201187500 -1.0546844 124.29831 -8.6151857 -73.572227 -8.6055498 -74.225563 -0.25659972 -92.117401
9201250000 -1.0596082 124.28538 -8.6210384 -73.564369 -8.597003 -74.28022 -0.24879561 -92.103165
9201312500 -1.0627978 124.29532 -8.6140757 -73.574516 -8.5960693 -74.250992 -0.25345409 -92.079102
9201375000 -1.0592499 124.28301 -8.6115751 -73.540359 -8.5902901 -74.239838 -0.25102836 -92.03743
9201437500 -1.0636178 124.25564 -8.5999928 -73.51165 -8.598772 -74.231186 -0.25331154 -92.026306
9201500000 -1.0618175 124.21437 -8.598093 -73.541641 -8.5895367 -74.227692 -0.24135257 -91.951111
9201562500 -1.0576056 124.21183 -8.6006584 -73.505165 -8.6000834 -74.289322 -0.25108793 -91.933357
9201625000 -1.068725 124.16896 -8.6043177 -73.520233 -8.5964241 -74.296295 -0.24805993 -91.925301
9201687500 -1.0671055 124.18641 -8.6071625 -73.507477 -8.5880003 -74.233261 -0.24819221 -91.92717
9201750000 -1.0602757 124.14691 -8.6024618 -73.540733 -8.5887184 -74.270996 -0.24767588 -91.918335
9201812500 -1.0595627 124.165 -8.6037483 -73.490395 -8.5850163 -74.242554 -0.24869482 -91.915329
9201875000 -1.0607592 124.15646 -8.6057434 -73.503746 -8.5841675 -74.277222 -0.25409538 -91.890419
9201937500 -1.060807 124.11261 -8.6042652 -73.599579 -8.5794802 -74.208664 -0.24700455 -91.912086
9202000000 -1.0616622 124.1044 -8.602829 -73.563751 -8.5831776 -74.152435 -0.25477415 -91.847778
9202062500 -1.0602601 124.09599 -8.6060352 -73.582733 -8.5807867 -74.174843 -0.25085145 -91.875877
9202125000 -1.0599544 124.07289 -8.599822 -73.570557 -8.5928555 -74.152 -0.26342365 -91.827408
9202187500 -1.0564975 124.05921 -8.5995092 -73.549286 -8.5848656 -74.194 -0.25397614 -91.834328
9202250000 -1.0588605 124.02928 -8.5972614 -73.576202 -8.5853357 -74.242477 -0.25498772 -91.827339
9202312500 -1.0573729 124.04877 -8.5942945 -73.571754 -8.589179 -74.237144 -0.25629869 -91.80452
9202375000 -1.058727 124.00643 -8.5995378 -73.566864 -8.5859394 -74.245918 -0.25919133 -91.809631
9202437500 -1.0563998 123.96881 -8.5872126 -73.558525 -8.5852556 -74.247849 -0.25519624 -91.72908
9202500000 -1.0579845 124.01755 -8.597764 -73.555267 -8.5863962 -74.239807 -0.25454444 -91.789223
9202562500 -1.060052 123.96581 -8.5999632 -73.570015 -8.5834455 -74.218155 -0.25780818 -91.728134
9202625000 -1.0543293 123.94122 -8.5884066 -73.514435 -8.5853748 -74.290901 -0.25349739 -91.740723
9202687500 -1.0550816 123.95266 -8.5895014 -73.515968 -8.5812731 -74.260529 -0.26028338 -91.717796
9202750000 -1.055486 123.90578 -8.5861378 -73.536575 -8.5812092 -74.261871 -0.25548068 -91.680702
9202812500 -1.0629847 123.92677 -8.6031847 -73.501328 -8.5788059 -74.226837 -0.25648314 -91.680313
9202875000 -1.0593637 123.90765 -8.5836105 -73.530533 -8.5832329 -74.253838 -0.25679523 -91.657845
9202937500 -1.0568023 123.88377 -8.5881901 -73.525322 -8.56458 -74.281761 -0.25370091 -91.689903
9203000000 -1.0557771 123.84869 -8.5860538 -73.530869 -8.5684023 -74.22435 -0.25519761 -91.633354
9203062500 -1.0499183 123.82922 -8.5811491 -73.565765 -8.5759258 -74.256203 -0.25616753 -91.632561
9203125000 -1.0544107 123.84541 -8.5881453 -73.498077 -8.5676355 -74.234169 -0.25885746 -91.580246
9203187500 -1.0535092 123.82635 -8.5822363 -73.537392 -8.5742588 -74.224869 -0.25194618 -91.57177
9203250000 -1.0574139 123.84159 -8.5815649 -73.482323 -8.5762272 -74.22847 -0.25410339 -91.526031
9203312500 -1.0489564 123.773 -8.5772934 -73.556419 -8.5734873 -74.191895 -0.25549144 -91.517067
9203375000 -1.0557127 123.84918 -8.5774679 -73.492393 -8.5681477 -74.189301 -0.24869816 -91.486862
9203437500 -1.0620342 123.82894 -8.5736666 -73.500931 -8.5691423 -74.204689 -0.25028974 -91.475548
9203500000 -1.056493 123.79837 -8.5665627 -73.514328 -8.5778427 -74.196472 -0.25312254 -91.43631
9203562500 -1.0563216 123.79169 -8.5654955 -73.50161 -8.5761137 -74.171333 -0.25539494 -91.405632
9203625000 -1.0646707 123.72495 -8.5810795 -73.544701 -8.5763388 -74.145477 -0.25539428 -91.409241
9203687500 -1.0656726 123.71522 -8.581068 -73.516235 -8.5610247 -74.137939 -0.24662282 -91.345802
9203750000 -1.058313 123.70241 -8.574358 -73.545639 -8.571763 -74.201935 -0.25880009 -91.416138
9203812500 -1.0577697 123.67127 -8.5768747 -73.583626 -8.5704336 -74.2258 -0.25653988 -91.473579
9203875000 -1.0574727 123.66828 -8.5797215 -73.519432 -8.5620089 -74.167809 -0.25630558 -91.410011
9203937500 -1.0665294 123.63303 -8.5814981 -73.545479 -8.5648403 -74.111595 -0.25696498 -91.331604
9204000000 -1.0617925 123.64333 -8.5805674 -73.548164 -8.568121 -74.229767 -0.2528944 -91.413383
9204062500 -1.0594145 123.65327 -8.5769634 -73.548836 -8.5674858 -74.219627 -0.25149003 -91.374535
9204125000 -1.0585593 123.65753 -8.569499 -73.473671 -8.5615482 -74.225922 -0.25265107 -91.33046
9204187500 -1.0535202 123.62454 -8.5662165 -73.56694 -8.5658875 -74.217979 -0.24911246 -91.33313
9204250000 -1.0603116 123.62562 -8.5678988 -73.502182 -8.5669193 -74.181015 -0.24239725 -91.243233
9204312500 -1.0568256 123.59615 -8.5693045 -73.481789 -8.5665483 -74.135445 -0.25307596 -91.255043
9204375000 -1.0529977 123.59486 -8.5599289 -73.501663 -8.5567369 -74.131874 -0.25447696 -91.214317
9204437500 -1.0533541 123.57077 -8.5582209 -73.4748 -8.5655003 -74.19165 -0.25758108 -91.195526
9204500000 -1.050662 123.55355 -8.5604906 -73.443497 -8.5548687 -74.141762 -0.25772968 -91.170563
9204562500 -1.0526744 123.51528 -8.5599174 -73.390724 -8.5521231 -74.196312 -0.25750202 -91.174301
9204625000 -1.0505794 123.51196 -8.5564003 -73.45417 -8.5579987 -74.160988 -0.26332963 -91.124733
9204687500 -1.0478965 123.48851 -8.5565338 -73.458229 -8.5515985 -74.157166 -0.25979406 -91.125137
9204750000 -1.0607445 123.45097 -8.5663824 -73.49791 -8.5587807 -74.153435 -0.26116648 -91.103035
9204812500 -1.0591407 123.47135 -8.5567522 -73.446068 -8.553545 -74.150108 -0.25870782 -91.103065
9204875000 -1.0597553 123.44218 -8.5716667 -73.497307 -8.5586891 -74.133522 -0.26011574 -91.056763
9204937500 -1.064798 123.40593 -8.5702925 -73.581902 -8.5529308 -74.149307 -0.26737943 -91.056908
9205000000 -1.0620313 123.40719 -8.5668888 -73.523392 -8.5520306 -74.195938 -0.25604087 -91.083145
9205062500 -1.0613564 123.38435 -8.5693369 -73.532249 -8.5524817 -74.158295 -0.26086694 -91.030319
9205125000 -1.0543215 123.39087 -8.5623999 -73.497696 -8.5573721 -74.15123 -0.25111675 -91.033257
9205187500 -1.05612 123.39787 -8.5519218 -73.504211 -8.5538664 -74.177559 -0.25610632 -91.030579
9205250000 -1.0588375 123.40565 -8.555603 -73.446922 -8.5587568 -74.206619 -0.25352791 -90.96109
9205312500 -1.0565668 123.38454 -8.545785 -73.465355 -8.5530443 -74.165512 -0.25117978 -90.951614
9205375000 -1.0582821 123.41232 -8.5564899 -73.442879 -8.5548687 -74.187004 -0.24970275 -90.93248
9205437500 -1.0549043 123.36507 -8.556035 -73.44236 -8.5542431 -74.170044 -0.25704646 -90.849907
9205500000 -1.0601548 123.34883 -8.5611029 -73.450821 -8.5417099 -74.163544 -0.25054613 -90.878754
9205562500 -1.0564419 123.3438 -8.5643396 -73.388008 -8.5473909 -74.2033 -0.26053581 -90.858345
9205625000 -1.0627942 123.25731 -8.5656242 -73.41111 -8.5515976 -74.130211 -0.26237884 -90.804504
9205687500 -1.0582483 123.24788 -8.5649729 -73.368378 -8.5463123 -74.130424 -0.26515856 -90.786736
9205750000 -1.0613649 123.24556 -8.5664749 -73.400856 -8.5418425 -74.139412 -0.26197061 -90.802742
9205812500 -1.0647787 123.23242 -8.5524845 -73.412651 -8.5467615 -74.152374 -0.26763672 -90.744926
9205875000 -1.0633078 123.22142 -8.5540619 -73.412666 -8.5436153 -74.11393 -0.26496789 -90.746796
9205937500 -1.0597503 123.21086 -8.5605478 -73.399048 -8.5517654 -74.115448 -0.27087697 -90.70163
9206000000 -1.0655404 123.19465 -8.5575018 -73.450623 -8.5481787 -74.056931 -0.27223897 -90.691895
9206062500 -1.0617669 123.15864 -8.5569658 -73.421898 -8.5419159 -74.070412 -0.26790589 -90.703667
9206125000 -1.0618262 123.15043 -8.555625 -73.395813 -8.5413303 -74.138313 -0.2715379 -90.684357
9206187500 -1.0625811 123.13155 -8.5440283 -73.472137 -8.5417213 -74.114349 -0.26940358 -90.700638
9206250000 -1.0586647 123.14745 -8.543457 -73.422424 -8.5347595 -74.148911 -0.26889035 -90.672722
9206312500 -1.0650216 123.06734 -8.5526066 -73.482048 -8.5378237 -74.116013 -0.2669462 -90.635361
9206375000 -1.0559553 123.0764 -8.5428076 -73.439865 -8.5354338 -74.118538 -0.2702598 -90.618904
9206437500 -1.0599731 123.05732 -8.542738 -73.454468 -8.5291367 -74.082367 -0.26324341 -90.583633
9206500000 -1.0618497 123.03832 -8.5460587 -73.442879 -8.5374765 -74.127815 -0.27508968 -90.5606
9206562500 -1.0589 123.00858 -8.5427408 -73.511314 -8.5362654 -74.138115 -0.27189589 -90.570396
9206625000 -1.0614392 123.04974 -8.5435562 -73.485832 -8.5297785 -74.123123 -0.26073888 -90.539703
9206687500 -1.066142 123.07825 -8.541667 -73.449318 -8.5367069 -74.059998 -0.26358852 -90.534332
9206750000 -1.0616399 123.09158 -8.5371733 -73.463211 -8.528904 -74.124306 -0.25724769 -90.51915
9206812500 -1.0661545 123.05573 -8.5346813 -73.510223 -8.5276413 -74.063721 -0.25575659 -90.531136
9206875000 -1.0653424 123.03931 -8.5483274 -73.477821 -8.5229664 -74.081779 -0.25644296 -90.504601
9206937500 -1.0593313 123.0116 -8.537014 -73.498192 -8.5245104 -74.085297 -0.25625852 -90.50415
9207000000 -1.0628047 123.00579 -8.5412397 -73.427681 -8.524539 -74.116364 -0.26227766 -90.487099
9207062500 -1.0558193 122.98692 -8.5416775 -73.471458 -8.5207548 -74.106598 -0.2607629 -90.453194
9207125000 -1.0587336 122.95122 -8.5410414 -73.408562 -8.5231409 -74.133507 -0.25925797 -90.439201
9207187500 -1.0607959 122.90881 -8.5365057 -73.41201 -8.5229311 -74.102722 -0.2639527 -90.415688
9207250000 -1.0543118 122.91957 -8.5347414 -73.479607 -8.5319996 -74.120186 -0.27124473 -90.41655
9207312500 -1.0575534 122.8877 -8.5360756 -73.377182 -8.5272446 -74.080269 -0.27072275 -90.344536
9207375000 -1.0530957 122.85368 -8.5319443 -73.415581 -8.5257406 -74.121765 -0.2653991 -90.369522
9207437500 -1.0552371 122.85588 -8.531126 -73.485847 -8.5228567 -74.071053 -0.27032432 -90.373756
9207500000 -1.0596968 122.82172 -8.5286188 -73.499741 -8.5211344 -74.096443 -0.27333957 -90.385162
9207562500 -1.0585762 122.79102 -8.5265055 -73.461891 -8.5251207 -74.073486 -0.27281412 -90.368835
9207625000 -1.0637336 122.77903 -8.5313864 -73.48481 -8.5161924 -74.027992 -0.26825783 -90.328102
9207687500 -1.0650955 122.74403 -8.524229 -73.478226 -8.5211887 -74.065742 -0.2713418 -90.345734
9207750000 -1.0707141 122.77616 -8.5287962 -73.507866 -8.524333 -74.092957 -0.26698172 -90.31041
9207812500 -1.067588 122.81755 -8.5243301 -73.440628 -8.5241718 -74.121101 -0.26301429 -90.283188
9207875000 -1.0699077 122.7974 -8.5240669 -73.418739 -8.5251589 -74.110619 -0.25855076 -90.313194
9207937500 -1.0673438 122.77156 -8.5256348 -73.47187 -8.5233383 -74.11602 -0.25887313 -90.253113
9208000000 -1.0722809 122.75299 -8.5190716 -73.475334 -8.5177517 -74.106766 -0.25367743 -90.283066
9208062500 -1.0657396 122.74666 -8.514287 -73.441093 -8.5209351 -74.084122 -0.26277333 -90.206123
9208125000 -1.0669156 122.75012 -8.5152731 -73.428444 -8.5235386 -74.074677 -0.26264554 -90.168976
9208187500 -1.0692681 122.71616 -8.5231466 -73.424904 -8.5284948 -74.110825 -0.27093121 -90.129814
9208250000 -1.0608913 122.70171 -8.5162506 -73.399353 -8.5220823 -74.06366 -0.26725167 -90.119064
9208312500 -1.0648587 122.714 -8.5205488 -73.371368 -8.5125799 -74.110413 -0.2632896 -90.077515
9208375000 -1.0592238 122.69112 -8.5056896 -73.381012 -8.514617 -74.072792 -0.26186618 -90.081291
9208437500 -1.0633037 122.69017 -8.5127239 -73.36541 -8.5128031 -74.110596 -0.26226327 -90.054001
9208500000 -1.0605499 122.65468 -8.5044203 -73.397751 -8.5101671 -74.058243 -0.26263571 -90.070236
9208562500 -1.0600959 122.63721 -8.5090761 -73.405266 -8.513732 -74.08889 -0.27157083 -90.092636
9208625000 -1.0590696 122.63221 -8.5232992 -73.389473 -8.5156345 -74.112144 -0.26929799 -90.039124
9208687500 -1.0612792 122.61855 -8.514286 -73.392914 -8.5167389 -74.12207 -0.27329367 -90.030403
9208750000 -1.0577712 122.63086 -8.5063515 -73.337364 -8.5090313 -74.061951 -0.27227697 -90.023529
9208812500 -1.0576756 122.60564 -8.5110826 -73.373116 -8.5123549 -74.015663 -0.27586457 -89.999565
9208875000 -1.0578032 122.60135 -8.5140429 -73.334671 -8.5071383 -74.055527 -0.27258587 -89.964584
9208937500 -1.0566851 122.57933 -8.5060205 -73.377579 -8.5079756 -74.04364 -0.27403301 -89.968109
9209000000 -1.0533627 122.56528 -8.5121832 -73.368469 -8.5076046 -74.04071 -0.2758849 -89.927628
9209062500 -1.0566489 122.52865 -8.5078459 -73.378265 -8.4988556 -74.025383 -0.27053761 -89.886993
9209125000 -1.0553973 122.52248 -8.5119848 -73.389412 -8.5014496 -73.990189 -0.27637488 -89.852104
9209187500 -1.0581155 122.51006 -8.5122652 -73.39846 -8.503541 -74.003372 -0.27415827 -89.879311
9209250000 -1.0538443 122.51511 -8.5044765 -73.306915 -8.5068693 -74.032951 -0.28145808 -89.888153
9209312500 -1.0578828 122.46879 -8.5112705 -73.404716 -8.5124884 -73.985794 -0.28323594 -89.799133
9209375000 -1.0554881 122.43961 -8.5048561 -73.322006 -8.5034285 -73.995346 -0.27708766 -89.811958
9209437500 -1.0587628 122.41475 -8.5137043 -73.4478 -8.5114479 -74.065659 -0.28044376 -89.852493
9209500000 -1.0564696 122.42315 -8.5082111 -73.366554 -8.5052004 -74.067368 -0.27093539 -89.777206
9209562500 -1.0602105 122.4043 -8.5147686 -73.372307 -8.5005779 -73.986984 -0.27305514 -89.769341
9209625000 -1.0603925 122.37724 -8.5064993 -73.33876 -8.5048923 -74.006958 -0.26880291 -89.751587
9209687500 -1.059296 122.38083 -8.5076561 -73.342033 -8.4983263 -74.051651 -0.26868743 -89.781624
9209750000 -1.0642514 122.3672 -8.4998913 -73.358383 -8.4996061 -74.041939 -0.26397035 -89.758713
9209812500 -1.0603825 122.37438 -8.4981947 -73.352425 -8.4976902 -74.047005 -0.26627451 -89.69635
9209875000 -1.0696846 122.3288 -8.5028543 -73.406425 -8.4916382 -74.051544 -0.26402304 -89.733093
9209937500 -1.0714449 122.34542 -8.5003405 -73.41153 -8.4981403 -74.030861 -0.26257011 -89.685547
9210000000 -1.0741067 122.33239 -8.5086355 -73.352448 -8.4924755 -74.024117 -0.26482028 -89.655685
9210062500 -1.0721874 122.35212 -8.5055828 -73.334206 -8.4954805 -74.021706 -0.26832771 -89.643555
9210125000 -1.0673171 122.34082 -8.4965649 -73.339989 -8.4872046 -74.059937 -0.2711181 -89.652069
9210187500 -1.0674382 122.34654 -8.5004025 -73.350906 -8.4811325 -74.039497 -0.26997364 -89.632454
9210250000 -1.0622314 122.31875 -8.4977446 -73.350342 -8.4862661 -74.057159 -0.26836184 -89.632904
9210312500 -1.0657617 122.28513 -8.4915257 -73.361099 -8.4982729 -74.024681 -0.2752988 -89.605804
9210375000 -1.0673846 122.26287 -8.4987297 -73.350006 -8.4935694 -73.970886 -0.27406499 -89.535751
9210437500 -1.0619974 122.19572 -8.488287 -73.340721 -8.4889641 -74.000702 -0.27620506 -89.554245
9210500000 -1.0669817 122.19706 -8.4922104 -73.37027 -8.4883652 -74.111664 -0.27820045 -89.623528
9210562500 -1.062019 122.19931 -8.4933434 -73.299896 -8.49265 -74.039719 -0.28127256 -89.527252
9210625000 -1.0652732 122.10406 -8.4923029 -73.348763 -8.4879379 -74.012047 -0.27766106 -89.48719
9210687500 -1.068423 122.09615 -8.4789791 -73.368164 -8.49189 -74.027718 -0.27701393 -89.521172
9210750000 -1.0624905 122.10724 -8.4884872 -73.320755 -8.4857855 -74.007553 -0.27528355 -89.473137
9210812500 -1.0621164 122.09652 -8.4856949 -73.381294 -8.4807882 -74.028511 -0.27401173 -89.450615
9210875000 -1.0603774 122.06928 -8.4869719 -73.420197 -8.4784565 -73.979385 -0.27195036 -89.447594
9210937500 -1.0599468 122.05638 -8.4846611 -73.339211 -8.4795771 -73.980583 -0.27441508 -89.378456
9211000000 -1.0599951 122.0491 -8.4845085 -73.391754 -8.4851437 -74.018158 -0.27506173 -89.404366
9211062500 -1.0622779 122.02711 -8.4775171 -73.388489 -8.476182 -73.926613 -0.27081698 -89.276474
9211125000 -1.0698966 122.04741 -8.4936848 -73.356087 -8.4756041 -73.968575 -0.27549261 -89.293106
9211187500 -1.0652257 122.02637 -8.4845867 -73.377411 -8.4794035 -73.981712 -0.27601254 -89.292488
9211250000 -1.0620707 122.00179 -8.4815674 -73.349411 -8.4782534 -73.949188 -0.28650889 -89.256447
9211312500 -1.0615946 122.00208 -8.4870949 -73.332016 -8.4732962 -73.982475 -0.28130752 -89.254868
9211375000 -1.0625774 122.02894 -8.4877348 -73.318413 -8.4791298 -73.980774 -0.28656572 -89.252716
9211437500 -1.0634791 121.97483 -8.4818401 -73.352814 -8.4804668 -73.988411 -0.28553241 -89.265518
9211500000 -1.0595583 121.97061 -8.4787683 -73.301506 -8.4842119 -73.991257 -0.28728411 -89.271454
9211562500 -1.057222 122.00621 -8.4771471 -73.333519 -8.4781189 -73.980766 -0.27944824 -89.250031
9211625000 -1.0578007 121.95822 -8.4740849 -73.343452 -8.4739914 -74.026161 -0.27742976 -89.311401
9211687500 -1.0539715 121.97853 -8.4777994 -73.305725 -8.4827337 -73.914734 -0.27449304 -89.264984
9211750000 -1.050639 121.97919 -8.4715967 -73.327538 -8.4746428 -73.971184 -0.270473 -89.218277
9211812500 -1.0551826 121.96944 -8.4790354 -73.318779 -8.4766073 -73.943672 -0.27788582 -89.212357
9211875000 -1.0572517 121.93358 -8.4701748 -73.305809 -8.4778357 -73.955894 -0.27746788 -89.214973
9211937500 -1.0560646 121.87579 -8.4712124 -73.316124 -8.4752655 -73.937935 -0.28511283 -89.159431
9212000000 -1.0599174 121.83839 -8.4732628 -73.258446 -8.4699984 -73.922684 -0.27928692 -89.098389
9212062500 -1.0589159 121.85079 -8.4756203 -73.294067 -8.4703436 -73.967804 -0.28564715 -89.102104
9212125000 -1.0590591 121.82895 -8.4702759 -73.285072 -8.4694614 -74.021263 -0.28279266 -89.113564
9212187500 -1.0563692 121.78861 -8.4733715 -73.280853 -8.464776 -74.006996 -0.28193897 -89.071899
9212250000 -1.0601373 121.78536 -8.4735146 -73.26741 -8.4697218 -73.976608 -0.283952 -89.054443
9212312500 -1.0582933 121.7458 -8.4625273 -73.306908 -8.4571342 -73.9758 -0.27207956 -89.025887
