!Agilent Technologies,N5242A,MY51221714,A.09.90.19
!Agilent N5242A: A.09.90.19
!Date: Saturday, December 30, 2023 10:12:40
!Correction: S11(Full 2 Port(1,2)) 
!S21(Full 2 Port(1,2)) 
!S12(Full 2 Port(1,2)) 
!S22(Full 2 Port(1,2)) 
!S2P File: Measurements: S11, S21, S12, S22:
# Hz S  dB   R 50
9200000000 -1.1382341 125.47024 -8.5194483 -74.500961 -8.4991064 -75.200424 -0.30951518 -94.12735
9200062500 -1.1380943 125.48899 -8.5102434 -74.493393 -8.4856997 -75.148048 -0.30015773 -94.075996
9200125000 -1.1387945 125.48346 -8.5126066 -74.489899 -8.496707 -75.261246 -0.29998529 -94.074593
9200187500 -1.1416756 125.45873 -8.5177736 -74.493904 -8.4958096 -75.219452 -0.30872577 -94.079811
9200250000 -1.1433594 125.42564 -8.5108061 -74.5065 -8.4952641 -75.252007 -0.30319801 -94.089119
9200312500 -1.1404535 125.4203 -8.5214443 -74.457306 -8.4966002 -75.243523 -0.30933687 -94.084084
9200375000 -1.1389548 125.40524 -8.5249147 -74.516861 -8.5032215 -75.2845 -0.30554202 -94.086266
9200437500 -1.1433064 125.34027 -8.5193214 -74.600853 -8.5003119 -75.236267 -0.30866426 -94.030037
9200500000 -1.1403168 125.35513 -8.5185413 -74.537811 -8.4979954 -75.18602 -0.31317985 -94.032074
9200562500 -1.1398913 125.33908 -8.5089884 -74.467194 -8.4971895 -75.204002 -0.3070704 -94.023743
9200625000 -1.1435943 125.30164 -8.5143433 -74.550285 -8.4938068 -75.235573 -0.30676547 -94.009964
9200687500 -1.1441656 125.2942 -8.5108299 -74.572678 -8.4930773 -75.150787 -0.30647483 -93.992912
9200750000 -1.1419535 125.30001 -8.5117102 -74.533249 -8.4806709 -75.196854 -0.30468893 -93.957977
9200812500 -1.1373868 125.26923 -8.5123873 -74.529984 -8.4802065 -75.278687 -0.30273387 -93.922562
9200875000 -1.1416124 125.2666 -8.5034904 -74.511757 -8.4908857 -75.207428 -0.30995104 -93.913567
9200937500 -1.1396818 125.24469 -8.5093508 -74.574692 -8.4817476 -75.222839 -0.30905703 -93.904869
9201000000 -1.1374686 125.25261 -8.5134201 -74.593643 -8.4938612 -75.216675 -0.31261811 -93.887459
9201062500 -1.1365551 125.24314 -8.5125637 -74.523842 -8.4853859 -75.18811 -0.31200042 -93.882767
9201125000 -1.1359516 125.27975 -8.5116186 -74.482613 -8.4870672 -75.197639 -0.3120603 -93.85437
9201187500 -1.1370319 125.2759 -8.5094767 -74.529594 -8.4987822 -75.180183 -0.31828666 -93.839226
9201250000 -1.1390404 125.28425 -8.5159807 -74.411766 -8.4956093 -75.182922 -0.31877705 -93.835411
9201312500 -1.1418134 125.26773 -8.5061226 -74.47084 -8.4923306 -75.197784 -0.31685713 -93.822746
9201375000 -1.138087 125.25663 -8.5004416 -74.443733 -8.4910517 -75.199707 -0.316212 -93.794373
9201437500 -1.1396823 125.22849 -8.5013552 -74.465973 -8.4839144 -75.203423 -0.31196395 -93.739555
9201500000 -1.1437732 125.20077 -8.4951792 -74.449509 -8.4801874 -75.233788 -0.30779132 -93.74987
9201562500 -1.1476736 125.20636 -8.5122414 -74.398491 -8.4847593 -75.212715 -0.31542292 -93.715012
9201625000 -1.1432776 125.18077 -8.4935036 -74.44426 -8.4880362 -75.228737 -0.31160268 -93.698334
9201687500 -1.1432492 125.15073 -8.4998569 -74.514542 -8.4832096 -75.197334 -0.31554309 -93.658379
9201750000 -1.1422547 125.11308 -8.4946699 -74.480003 -8.4849749 -75.173973 -0.3165808 -93.663811
9201812500 -1.1437602 125.11968 -8.4953327 -74.473404 -8.4788694 -75.162056 -0.31130582 -93.65062
9201875000 -1.1421406 125.07653 -8.5052109 -74.538216 -8.485508 -75.128716 -0.32197914 -93.622696
9201937500 -1.1419446 125.11217 -8.4946623 -74.499107 -8.4820681 -75.166847 -0.31898606 -93.642418
9202000000 -1.1402928 125.10426 -8.4896641 -74.452347 -8.4870081 -75.155701 -0.31465331 -93.621109
9202062500 -1.1433022 125.09295 -8.4993906 -74.480659 -8.4762821 -75.166786 -0.31628862 -93.606956
9202125000 -1.1382089 125.04975 -8.4884529 -74.441856 -8.4881439 -75.183868 -0.32348225 -93.617203
9202187500 -1.1358379 125.05683 -8.4864445 -74.487991 -8.4801655 -75.151779 -0.32211703 -93.570145
9202250000 -1.1385251 124.99711 -8.4962292 -74.527473 -8.4763842 -75.230415 -0.32502791 -93.591064
9202312500 -1.1402566 124.98605 -8.4940901 -74.499886 -8.4821787 -75.228424 -0.32420707 -93.588997
9202375000 -1.141564 124.97338 -8.5018559 -74.525307 -8.4754276 -75.206528 -0.32071158 -93.510925
9202437500 -1.1380165 124.96355 -8.4946604 -74.492012 -8.4803677 -75.206528 -0.32174122 -93.507278
9202500000 -1.1431723 124.95439 -8.4882097 -74.503494 -8.4834728 -75.186737 -0.31725582 -93.467697
9202562500 -1.1391575 124.92619 -8.4919071 -74.467384 -8.4788961 -75.210381 -0.31931132 -93.499855
9202625000 -1.1378947 124.92561 -8.485795 -74.467094 -8.4836597 -75.241997 -0.3241021 -93.483292
9202687500 -1.1401354 124.91479 -8.4886417 -74.412621 -8.470808 -75.193275 -0.31866175 -93.442047
9202750000 -1.1404148 124.8941 -8.4874229 -74.498581 -8.4724197 -75.206398 -0.31999782 -93.442696
9202812500 -1.1375595 124.88819 -8.4786835 -74.434135 -8.4791193 -75.16449 -0.32350603 -93.430923
9202875000 -1.1382329 124.86353 -8.484787 -74.406288 -8.4707279 -75.160744 -0.32132599 -93.379143
9202937500 -1.1352396 124.83311 -8.4798622 -74.467735 -8.4761705 -75.193016 -0.32636151 -93.409088
9203000000 -1.1391687 124.80666 -8.4794579 -74.524635 -8.4600182 -75.170532 -0.31527609 -93.360748
9203062500 -1.1372143 124.81148 -8.4896832 -74.482155 -8.4592361 -75.179031 -0.32202202 -93.373589
9203125000 -1.1373446 124.78535 -8.4855766 -74.513924 -8.4621363 -75.197853 -0.32047838 -93.349327
9203187500 -1.1283478 124.80761 -8.4667902 -74.435631 -8.4667683 -75.140671 -0.31729767 -93.298805
9203250000 -1.1403776 124.76189 -8.4783859 -74.506943 -8.4677753 -75.204872 -0.31819436 -93.313606
9203312500 -1.1319152 124.80785 -8.4702911 -74.387688 -8.4643898 -75.134445 -0.31967476 -93.226288
9203375000 -1.1375319 124.79833 -8.4650536 -74.426903 -8.4711199 -75.183678 -0.31936854 -93.242882
9203437500 -1.1349123 124.78293 -8.4662294 -74.431442 -8.4714832 -75.147537 -0.31709346 -93.238403
9203500000 -1.1435144 124.76947 -8.4646912 -74.509026 -8.4723883 -75.159645 -0.3218323 -93.174881
9203562500 -1.1389058 124.747 -8.4671612 -74.420166 -8.4700756 -75.166237 -0.32023665 -93.172943
9203625000 -1.1416061 124.73222 -8.4673128 -74.446991 -8.457509 -75.0886 -0.32175857 -93.146538
9203687500 -1.1429774 124.68372 -8.4717503 -74.485893 -8.4610453 -75.15963 -0.32143632 -93.191078
9203750000 -1.1435816 124.68111 -8.4798136 -74.415092 -8.4625044 -75.14003 -0.3225283 -93.148048
9203812500 -1.1394066 124.6386 -8.4703188 -74.448822 -8.4603434 -75.152809 -0.31991842 -93.15403
9203875000 -1.1419647 124.64154 -8.4744539 -74.509239 -8.4527359 -75.173676 -0.32500899 -93.181557
9203937500 -1.1421467 124.59799 -8.4682407 -74.501678 -8.4463081 -75.181969 -0.31030801 -93.188797
9204000000 -1.1354284 124.60814 -8.4652243 -74.460243 -8.4602222 -75.121765 -0.31755215 -93.097069
9204062500 -1.1392763 124.58944 -8.4652224 -74.492859 -8.4518461 -75.122887 -0.31242812 -93.112289
9204125000 -1.1404389 124.63675 -8.4618444 -74.399185 -8.4597845 -75.189827 -0.31711733 -93.088768
9204187500 -1.139357 124.59212 -8.461607 -74.454323 -8.4522314 -75.119797 -0.31372872 -93.05452
9204250000 -1.1423812 124.55586 -8.4695177 -74.411369 -8.4576635 -75.116119 -0.31784803 -93.040146
9204312500 -1.1359818 124.57566 -8.4639893 -74.372047 -8.4494991 -75.05619 -0.30779338 -92.971977
9204375000 -1.135277 124.54055 -8.4667845 -74.442451 -8.4507618 -75.099335 -0.3168644 -92.98761
9204437500 -1.137773 124.5546 -8.4565306 -74.415085 -8.4425812 -75.10556 -0.31645033 -92.963196
9204500000 -1.1279628 124.5321 -8.4495497 -74.398529 -8.4419136 -75.111389 -0.31778276 -92.953438
9204562500 -1.1353072 124.48222 -8.459074 -74.352516 -8.4448996 -75.118546 -0.32467055 -92.914299
9204625000 -1.1287881 124.47936 -8.44697 -74.335289 -8.4504833 -75.100891 -0.32643923 -92.905624
9204687500 -1.134087 124.4523 -8.4540386 -74.381073 -8.4511223 -75.104408 -0.32470188 -92.89772
9204750000 -1.1344801 124.43628 -8.4637041 -74.381729 -8.4475355 -75.090408 -0.32999453 -92.845299
9204812500 -1.1420381 124.42199 -8.4624805 -74.41658 -8.4336939 -75.163979 -0.3229669 -92.893539
9204875000 -1.1440716 124.39755 -8.4542398 -74.483345 -8.4468021 -75.091118 -0.32606825 -92.850555
9204937500 -1.1425771 124.40139 -8.4559526 -74.440239 -8.4454842 -75.11792 -0.32646817 -92.843628
9205000000 -1.1443012 124.3736 -8.4594851 -74.416725 -8.4398365 -75.121841 -0.32539836 -92.827705
9205062500 -1.1434824 124.41056 -8.4591885 -74.452957 -8.4437141 -75.169243 -0.329465 -92.806625
9205125000 -1.1398791 124.33133 -8.4510956 -74.524002 -8.4461966 -75.128159 -0.32119605 -92.763466
9205187500 -1.1417853 124.3796 -8.4548674 -74.448044 -8.4509945 -75.161118 -0.31790859 -92.752823
9205250000 -1.1391608 124.35891 -8.44662 -74.457916 -8.4423351 -75.171432 -0.31413519 -92.755333
9205312500 -1.1372988 124.36328 -8.4542532 -74.416794 -8.4465628 -75.146255 -0.31944117 -92.699463
9205375000 -1.1446455 124.31141 -8.4519081 -74.397652 -8.4425268 -75.108925 -0.31742078 -92.64566
9205437500 -1.1452093 124.3535 -8.4500599 -74.351982 -8.4401474 -75.179535 -0.32156667 -92.673347
9205500000 -1.1402882 124.29943 -8.4428148 -74.372635 -8.4415598 -75.125587 -0.32544699 -92.615547
9205562500 -1.1435691 124.27059 -8.4500237 -74.374802 -8.4393768 -75.130577 -0.33269244 -92.624664
9205625000 -1.1436652 124.24757 -8.4544477 -74.396729 -8.4355478 -75.129509 -0.3292239 -92.600731
9205687500 -1.1391888 124.2423 -8.4537439 -74.366524 -8.4335842 -75.013779 -0.33008501 -92.509476
9205750000 -1.1444076 124.24406 -8.4566727 -74.320831 -8.4364033 -75.076881 -0.3316426 -92.503693
9205812500 -1.1411989 124.19347 -8.4493141 -74.379463 -8.437438 -75.092117 -0.33476892 -92.503952
9205875000 -1.1419486 124.16452 -8.4473639 -74.332489 -8.4369879 -75.057434 -0.32470536 -92.511185
9205937500 -1.1464648 124.20179 -8.4479475 -74.381508 -8.4341488 -75.108124 -0.32949814 -92.512505
9206000000 -1.1416695 124.17603 -8.4389572 -74.410545 -8.4299974 -75.153999 -0.32531568 -92.503525
9206062500 -1.144959 124.12016 -8.4459801 -74.396317 -8.4332485 -75.095413 -0.32877517 -92.469757
9206125000 -1.1445215 124.1335 -8.4422264 -74.357132 -8.4370441 -75.105263 -0.3391535 -92.45005
9206187500 -1.1476442 124.12267 -8.4479399 -74.377716 -8.4340343 -75.045349 -0.33074188 -92.396736
9206250000 -1.1448985 124.08833 -8.4441452 -74.353127 -8.4330521 -75.032303 -0.33819887 -92.382057
9206312500 -1.1429079 124.07369 -8.4372931 -74.34243 -8.4284906 -75.087158 -0.33305383 -92.372307
9206375000 -1.1448737 124.01647 -8.4397669 -74.417778 -8.4320545 -75.107941 -0.33718592 -92.39801
9206437500 -1.1441488 124.00847 -8.4349718 -74.408073 -8.4298525 -75.07679 -0.33638957 -92.350746
9206500000 -1.1420757 123.99745 -8.4293137 -74.429138 -8.4230652 -75.111671 -0.33514309 -92.354584
9206562500 -1.1418624 124.01144 -8.4328547 -74.415756 -8.4329147 -75.056618 -0.33252576 -92.294281
9206625000 -1.1438717 123.99876 -8.4348984 -74.429733 -8.4249201 -75.07634 -0.33258334 -92.343056
9206687500 -1.1452484 124.01722 -8.4340353 -74.433662 -8.4227428 -75.097557 -0.3306008 -92.343819
9206750000 -1.1376772 124.07868 -8.4214926 -74.410347 -8.4211941 -75.081116 -0.31952295 -92.31945
9206812500 -1.1469175 124.01811 -8.4372683 -74.446091 -8.4179239 -75.081032 -0.32260647 -92.317596
9206875000 -1.1440852 124.03911 -8.4302034 -74.404099 -8.4223852 -75.024345 -0.32115889 -92.219307
9206937500 -1.1398219 124.01424 -8.4293957 -74.428177 -8.4146929 -75.081635 -0.31771845 -92.257637
9207000000 -1.142315 124.00272 -8.4333467 -74.379395 -8.4114532 -75.10437 -0.32103029 -92.260666
9207062500 -1.1403457 123.94522 -8.4300394 -74.408997 -8.4116564 -75.081131 -0.32545555 -92.205162
9207125000 -1.1368452 123.91196 -8.4310017 -74.370331 -8.4060135 -75.09935 -0.32395226 -92.195656
9207187500 -1.1390438 123.87237 -8.4360933 -74.371056 -8.4143486 -75.077408 -0.32370839 -92.141747
9207250000 -1.1392514 123.85622 -8.4367208 -74.375641 -8.4064865 -75.077141 -0.32576612 -92.151299
9207312500 -1.1405978 123.8499 -8.4252357 -74.382401 -8.4104013 -75.087822 -0.33313796 -92.168587
9207375000 -1.1423242 123.81341 -8.4283171 -74.413208 -8.4141417 -75.081398 -0.33830541 -92.136459
9207437500 -1.1417915 123.81745 -8.4222145 -74.405701 -8.4103537 -75.081612 -0.33088407 -92.1036
9207500000 -1.1429924 123.80788 -8.4232016 -74.439476 -8.4067659 -75.085037 -0.32929099 -92.122971
9207562500 -1.1435179 123.81482 -8.4185648 -74.39328 -8.4124613 -75.098022 -0.33625165 -92.111961
9207625000 -1.1437789 123.72102 -8.4264669 -74.437607 -8.4131613 -75.039291 -0.33471963 -92.097565
9207687500 -1.1437843 123.73862 -8.4149694 -74.390305 -8.4117031 -75.016731 -0.32968649 -92.082367
9207750000 -1.1498343 123.73369 -8.4180174 -74.444412 -8.417099 -75.104065 -0.33403316 -92.0933
9207812500 -1.149225 123.77558 -8.4155989 -74.415192 -8.4134045 -75.10762 -0.32863832 -92.079338
9207875000 -1.1519572 123.75676 -8.4145622 -74.398865 -8.4174433 -75.071167 -0.32693109 -92.024307
9207937500 -1.1549734 123.74677 -8.4144039 -74.422554 -8.4186316 -75.046318 -0.32864287 -92.011627
9208000000 -1.1506119 123.71728 -8.4157429 -74.47023 -8.4101295 -75.099434 -0.31987613 -92.006752
9208062500 -1.1513788 123.71254 -8.4056511 -74.433578 -8.4035492 -75.090797 -0.31691715 -91.987373
9208125000 -1.1474286 123.69545 -8.4119873 -74.42424 -8.4124155 -75.144951 -0.32782212 -91.970749
9208187500 -1.1460291 123.70704 -8.4093904 -74.377411 -8.4097891 -75.088707 -0.33365345 -91.89035
9208250000 -1.1473093 123.64948 -8.4162292 -74.311035 -8.4061594 -75.098236 -0.32825202 -91.835762
9208312500 -1.1437557 123.66797 -8.4071531 -74.335007 -8.4084053 -75.0429 -0.33578008 -91.841148
9208375000 -1.1425004 123.64279 -8.4001169 -74.337456 -8.4012175 -75.065453 -0.33148301 -91.833527
9208437500 -1.1438096 123.62605 -8.403223 -74.36676 -8.4110584 -75.084908 -0.33780098 -91.844894
9208500000 -1.146666 123.64874 -8.4113579 -74.273438 -8.4063692 -75.034622 -0.33566585 -91.78894
9208562500 -1.1461468 123.6116 -8.4078102 -74.28743 -8.4030933 -75.095184 -0.33308831 -91.823204
9208625000 -1.1439503 123.61025 -8.4116011 -74.281837 -8.4095287 -75.051849 -0.33750927 -91.762627
9208687500 -1.1396435 123.61391 -8.4056673 -74.319588 -8.4061794 -75.089432 -0.33545554 -91.817223
9208750000 -1.1416223 123.55132 -8.4007368 -74.33419 -8.3937979 -75.012367 -0.33115119 -91.76973
9208812500 -1.1413695 123.53404 -8.4059229 -74.342461 -8.4029274 -75.008598 -0.34200391 -91.763947
9208875000 -1.1390616 123.53178 -8.4103842 -74.39135 -8.386137 -75.01899 -0.33006421 -91.734825
9208937500 -1.1416917 123.51723 -8.4042912 -74.293289 -8.3994188 -75.01136 -0.33780316 -91.688492
9209000000 -1.1402178 123.522 -8.399334 -74.313835 -8.3874245 -74.948845 -0.33455431 -91.662079
9209062500 -1.1369339 123.52447 -8.4043951 -74.313919 -8.3948736 -75.015869 -0.34405008 -91.658722
9209125000 -1.1417116 123.50045 -8.4098644 -74.358223 -8.3988514 -74.996048 -0.34531352 -91.620781
9209187500 -1.1444167 123.48344 -8.4081049 -74.331184 -8.3914146 -74.981171 -0.34474263 -91.627716
9209250000 -1.1454366 123.4759 -8.408123 -74.315575 -8.3946066 -74.966202 -0.34243518 -91.587883
9209312500 -1.1365705 123.43055 -8.3977051 -74.243927 -8.3888273 -74.973824 -0.33646137 -91.582779
9209375000 -1.137278 123.41567 -8.4034567 -74.302368 -8.3955431 -74.981155 -0.34266129 -91.579437
9209437500 -1.1390849 123.40241 -8.4036398 -74.336761 -8.3918934 -75.013588 -0.34098125 -91.544342
9209500000 -1.1330861 123.34588 -8.3976068 -74.350037 -8.3939152 -74.96508 -0.34434181 -91.544907
9209562500 -1.1411456 123.35532 -8.4019089 -74.352402 -8.3929043 -75.027008 -0.33619219 -91.540436
9209625000 -1.1431209 123.35291 -8.3960915 -74.326355 -8.3928661 -75.030281 -0.33633801 -91.538071
9209687500 -1.1480846 123.34024 -8.4003801 -74.353653 -8.3918657 -74.989548 -0.332874 -91.509346
9209750000 -1.1481874 123.34819 -8.3914604 -74.334099 -8.3902473 -74.995552 -0.32806498 -91.479439
9209812500 -1.1494905 123.33756 -8.3932219 -74.314758 -8.3901501 -75.009911 -0.33511928 -91.453781
9209875000 -1.1539991 123.30976 -8.393259 -74.383789 -8.3916445 -75.006897 -0.33445048 -91.476761
9209937500 -1.1479447 123.3258 -8.3994493 -74.309441 -8.3903131 -75.036316 -0.3307004 -91.467926
9210000000 -1.1477066 123.29443 -8.3899336 -74.328056 -8.3828611 -75.026543 -0.33502045 -91.455681
9210062500 -1.1542592 123.29045 -8.398078 -74.324005 -8.3725739 -74.957649 -0.3276006 -91.37484
9210125000 -1.1490294 123.30106 -8.3846655 -74.291672 -8.3788395 -74.979858 -0.33340228 -91.373848
9210187500 -1.1502153 123.27235 -8.3961697 -74.310867 -8.3811579 -74.989403 -0.34115586 -91.34935
9210250000 -1.148158 123.25213 -8.3856688 -74.339119 -8.3844681 -74.999992 -0.33843446 -91.396103
9210312500 -1.1507324 123.25002 -8.3879261 -74.353409 -8.3756828 -75.004074 -0.33516228 -91.334152
9210375000 -1.148991 123.2138 -8.3850698 -74.288925 -8.3761082 -75.0439 -0.34070873 -91.36869
9210437500 -1.1459097 123.20377 -8.3829794 -74.300842 -8.3730602 -75.006615 -0.33750409 -91.342606
9210500000 -1.1487103 123.13595 -8.3806353 -74.344521 -8.3747301 -75.010338 -0.33589026 -91.30088
9210562500 -1.1510338 123.13536 -8.3848763 -74.3442 -8.3731298 -74.967682 -0.34129134 -91.278473
9210625000 -1.1492386 123.06709 -8.3787775 -74.311012 -8.3735104 -75.047981 -0.34555855 -91.324806
9210687500 -1.1477153 123.05483 -8.3784781 -74.301437 -8.3794746 -75.000648 -0.34382123 -91.227043
9210750000 -1.1478581 123.01939 -8.3803463 -74.370407 -8.3714838 -74.990501 -0.34313214 -91.257874
9210812500 -1.140892 122.99239 -8.3795404 -74.342598 -8.3684149 -74.952171 -0.33971068 -91.167496
9210875000 -1.1470636 123.0451 -8.3673525 -74.255722 -8.3684855 -74.970558 -0.34063113 -91.138145
9210937500 -1.1439112 123.02661 -8.3679972 -74.322151 -8.3730536 -74.929741 -0.34245008 -91.113869
9211000000 -1.1463801 123.01595 -8.3737421 -74.320358 -8.3723907 -74.961868 -0.3470757 -91.148567
9211062500 -1.1501112 123.02642 -8.375596 -74.345383 -8.362174 -74.936035 -0.34604272 -91.086021
9211125000 -1.1440176 123.00339 -8.3696899 -74.352829 -8.3647165 -74.956245 -0.34465069 -91.080284
9211187500 -1.1457061 122.97501 -8.3726397 -74.338829 -8.3615227 -74.941078 -0.340653 -91.059891
9211250000 -1.1462953 122.95839 -8.3778324 -74.293869 -8.3657875 -74.924957 -0.34919414 -91.053413
9211312500 -1.1494238 122.96566 -8.3753691 -74.354805 -8.3671341 -74.939598 -0.3509458 -91.022949
9211375000 -1.1491505 122.96158 -8.3756752 -74.275955 -8.3625774 -74.932869 -0.34490138 -90.981888
9211437500 -1.1432353 122.9634 -8.3710718 -74.271156 -8.3585281 -74.962723 -0.34364727 -91.024689
9211500000 -1.1434081 122.94066 -8.3722515 -74.330353 -8.36695 -74.946846 -0.34634241 -91.043144
9211562500 -1.1471293 122.9407 -8.3644571 -74.303337 -8.3722687 -74.950249 -0.34436694 -91.044586
9211625000 -1.1412295 122.94477 -8.3691416 -74.333748 -8.370204 -74.9571 -0.34285793 -91.046959
9211687500 -1.1434028 122.94954 -8.365572 -74.277779 -8.3663464 -75.005287 -0.33947638 -91.04287
9211750000 -1.1372542 122.90524 -8.3675299 -74.350136 -8.3607731 -74.970612 -0.34192628 -91.051361
9211812500 -1.1415998 122.89574 -8.363472 -74.302643 -8.3612843 -74.973618 -0.34142953 -91.031105
9211875000 -1.1424942 122.87292 -8.3635798 -74.284973 -8.3610353 -74.986534 -0.34497562 -91.001236
9211937500 -1.1397529 122.85479 -8.3680534 -74.264572 -8.3613319 -74.936394 -0.3466309 -90.938881
9212000000 -1.1431695 122.79717 -8.3645983 -74.314484 -8.3628759 -74.959274 -0.34768641 -90.881004
9212062500 -1.1423593 122.78603 -8.360837 -74.262108 -8.3603201 -74.978516 -0.35162687 -90.858032
9212125000 -1.1455141 122.74426 -8.3576784 -74.28363 -8.357789 -74.980934 -0.34846455 -90.850227
9212187500 -1.1367493 122.74931 -8.3622417 -74.269432 -8.3556051 -74.965431 -0.34771177 -90.860153
9212250000 -1.1438699 122.72222 -8.3641233 -74.276711 -8.3460445 -74.998398 -0.34567472 -90.791428
9212312500 -1.1462001 122.68274 -8.3575964 -74.286224 -8.3522434 -75.01223 -0.34504631 -90.855804
