!Agilent Technologies,N5242A,MY51221714,A.09.90.19
!Agilent N5242A: A.09.90.19
!Date: Saturday, December 30, 2023 10:15:58
!Correction: S11(Full 2 Port(1,2)) 
!S21(Full 2 Port(1,2)) 
!S12(Full 2 Port(1,2)) 
!S22(Full 2 Port(1,2)) 
!S2P File: Measurements: S11, S21, S12, S22:
# Hz S  dB   R 50
9200000000 -1.0701913 125.17066 -8.6675558 -73.536575 -8.6425676 -74.216721 -0.22678238 -93.008751
9200062500 -1.0737261 125.16371 -8.6666079 -73.491173 -8.6368256 -74.22422 -0.22712611 -92.95607
9200125000 -1.0674409 125.14576 -8.6605206 -73.523415 -8.6402884 -74.235405 -0.22960624 -92.982742
9200187500 -1.0753126 125.11237 -8.6709604 -73.519539 -8.6409187 -74.253662 -0.23425475 -92.981232
9200250000 -1.0731723 125.10664 -8.6574736 -73.49662 -8.6435528 -74.23214 -0.23027366 -92.940605
9200312500 -1.0741669 125.06049 -8.6634598 -73.521751 -8.6421509 -74.24102 -0.23355733 -92.946869
9200375000 -1.0718616 125.0446 -8.6620579 -73.570145 -8.6462736 -74.206589 -0.23292944 -92.93203
9200437500 -1.0729748 125.01073 -8.658145 -73.558464 -8.6427994 -74.263832 -0.23649977 -92.935829
9200500000 -1.0737388 125.03765 -8.6647549 -73.571312 -8.6404114 -74.207253 -0.23409449 -92.887825
9200562500 -1.0735759 125.0353 -8.6633453 -73.527222 -8.6356316 -74.271317 -0.23134451 -92.93058
9200625000 -1.0752951 124.97839 -8.6569262 -73.587021 -8.6267519 -74.189796 -0.22592472 -92.862267
9200687500 -1.072041 124.97587 -8.6538248 -73.550377 -8.6291304 -74.21669 -0.22487734 -92.879402
9200750000 -1.0728018 124.94914 -8.6534157 -73.531639 -8.6195593 -74.227646 -0.22398068 -92.827919
9200812500 -1.0715561 124.95743 -8.6493788 -73.569855 -8.6336384 -74.210358 -0.23142184 -92.824364
9200875000 -1.0711367 124.96822 -8.6462345 -73.504829 -8.6304903 -74.194252 -0.22841841 -92.768799
9200937500 -1.067342 124.91949 -8.6469984 -73.558868 -8.6380444 -74.215691 -0.23292382 -92.777107
9201000000 -1.0683659 124.95628 -8.6525154 -73.485878 -8.6300964 -74.205246 -0.22910003 -92.777725
9201062500 -1.0671711 124.95771 -8.6576481 -73.540138 -8.636301 -74.202377 -0.23729005 -92.784576
9201125000 -1.0718621 124.94845 -8.6564522 -73.558983 -8.6358519 -74.214844 -0.24002001 -92.798416
9201187500 -1.0682114 124.95434 -8.6558323 -73.49118 -8.6445274 -74.191971 -0.23982354 -92.75425
9201250000 -1.0681764 124.94636 -8.6497135 -73.482155 -8.6402187 -74.155037 -0.24257015 -92.699409
9201312500 -1.074846 124.9236 -8.6523647 -73.465439 -8.6404247 -74.210892 -0.24476655 -92.709198
9201375000 -1.0682794 124.95871 -8.644948 -73.43351 -8.6342497 -74.22757 -0.2395 -92.702271
9201437500 -1.070213 124.87459 -8.6413994 -73.455803 -8.6355286 -74.165459 -0.23814216 -92.58078
9201500000 -1.0809205 124.87569 -8.6445665 -73.428444 -8.6228228 -74.220329 -0.22538394 -92.611954
9201562500 -1.0714626 124.85662 -8.6348839 -73.474419 -8.624136 -74.248833 -0.22523838 -92.600365
9201625000 -1.0810108 124.83149 -8.6453857 -73.476509 -8.6169519 -74.197403 -0.22569333 -92.548447
9201687500 -1.0728574 124.82022 -8.6419668 -73.504662 -8.6263905 -74.208191 -0.23470345 -92.529793
9201750000 -1.0737895 124.81915 -8.6405563 -73.466537 -8.6214886 -74.21479 -0.23558329 -92.566223
9201812500 -1.0755061 124.80484 -8.6454611 -73.478317 -8.6228876 -74.139534 -0.24018453 -92.508591
9201875000 -1.0743245 124.79836 -8.6433458 -73.482849 -8.6239882 -74.174576 -0.2392728 -92.541534
9201937500 -1.0774078 124.80427 -8.6382961 -73.435066 -8.6216908 -74.150223 -0.24206789 -92.521973
9202000000 -1.0702024 124.7673 -8.6408215 -73.478867 -8.6262121 -74.148216 -0.2403143 -92.501877
9202062500 -1.0753845 124.75592 -8.6439705 -73.513611 -8.6149502 -74.155594 -0.2380264 -92.474236
9202125000 -1.0684884 124.74767 -8.6363115 -73.417336 -8.6216278 -74.11174 -0.24486636 -92.466118
9202187500 -1.0721321 124.69613 -8.635026 -73.498703 -8.6245041 -74.186356 -0.2419111 -92.502037
9202250000 -1.0673623 124.68215 -8.6362295 -73.511154 -8.619566 -74.177437 -0.2385094 -92.436302
9202312500 -1.071293 124.69105 -8.6396008 -73.487907 -8.6214552 -74.211578 -0.23926118 -92.459442
9202375000 -1.0702629 124.65462 -8.6372232 -73.518494 -8.6197958 -74.20932 -0.23825215 -92.420395
9202437500 -1.0667675 124.65317 -8.6256838 -73.478561 -8.6221914 -74.2258 -0.24231426 -92.41938
9202500000 -1.0744334 124.60155 -8.6377783 -73.517128 -8.6213217 -74.19075 -0.24188091 -92.39373
9202562500 -1.0720766 124.62889 -8.6331396 -73.439522 -8.6214151 -74.186623 -0.2370424 -92.381828
9202625000 -1.0716124 124.62182 -8.6287346 -73.437225 -8.6254978 -74.208794 -0.24227667 -92.36499
9202687500 -1.0748297 124.59724 -8.6289616 -73.467178 -8.6113625 -74.175209 -0.23788014 -92.338348
9202750000 -1.0774212 124.61597 -8.6383371 -73.456993 -8.6085272 -74.197357 -0.23686622 -92.306137
9202812500 -1.0704863 124.59951 -8.629858 -73.378181 -8.6149502 -74.178154 -0.23884811 -92.288742
9202875000 -1.0673634 124.56817 -8.6280575 -73.476357 -8.6110544 -74.19632 -0.2413799 -92.314346
9202937500 -1.065443 124.50931 -8.6242104 -73.50473 -8.6130104 -74.207497 -0.24553466 -92.28933
9203000000 -1.0699565 124.53452 -8.6355791 -73.471497 -8.6201496 -74.172348 -0.24637453 -92.229202
9203062500 -1.0686234 124.49289 -8.6287966 -73.453323 -8.6110182 -74.136635 -0.24215487 -92.213028
9203125000 -1.065466 124.45318 -8.6281195 -73.48291 -8.611062 -74.185608 -0.24442407 -92.204109
9203187500 -1.0643504 124.47211 -8.62535 -73.49778 -8.6025724 -74.22541 -0.23642397 -92.212265
9203250000 -1.0710231 124.46766 -8.6185284 -73.460709 -8.6109943 -74.16787 -0.24334563 -92.171806
9203312500 -1.0685433 124.45516 -8.6198053 -73.479248 -8.6179638 -74.15065 -0.2410145 -92.180199
9203375000 -1.0670835 124.4649 -8.6101685 -73.431389 -8.6076355 -74.122963 -0.23457251 -92.085663
9203437500 -1.0713282 124.45409 -8.6106691 -73.43409 -8.6047754 -74.120628 -0.23549432 -92.062805
9203500000 -1.069885 124.44702 -8.6052723 -73.396729 -8.6097012 -74.187416 -0.23614648 -92.132011
9203562500 -1.0655696 124.43183 -8.6015348 -73.455681 -8.6162806 -74.129654 -0.23991774 -92.049583
9203625000 -1.0664036 124.39857 -8.609705 -73.442368 -8.6037178 -74.086517 -0.23481722 -92.023438
9203687500 -1.0730977 124.39235 -8.6186085 -73.446213 -8.6081934 -74.109932 -0.2444984 -92.046249
9203750000 -1.071735 124.37733 -8.6144638 -73.423325 -8.5922909 -74.150993 -0.23708448 -92.06308
9203812500 -1.0695736 124.34045 -8.6152992 -73.484917 -8.5977373 -74.121323 -0.24229299 -92.049744
9203875000 -1.0735825 124.3205 -8.6084061 -73.420555 -8.6007452 -74.187187 -0.24384306 -92.049385
9203937500 -1.0713561 124.3028 -8.6118231 -73.475815 -8.6003847 -74.1558 -0.24093521 -92.017296
9204000000 -1.0704393 124.3183 -8.6011505 -73.410782 -8.6027508 -74.163879 -0.23455289 -91.997604
9204062500 -1.0694488 124.27494 -8.6180363 -73.464706 -8.6065245 -74.136253 -0.23320663 -91.998886
9204125000 -1.0667641 124.2907 -8.6074352 -73.416031 -8.6067495 -74.134537 -0.23870862 -91.958397
9204187500 -1.0688963 124.26633 -8.6082773 -73.424744 -8.6048899 -74.136292 -0.23665319 -91.92878
9204250000 -1.0685836 124.2664 -8.6005182 -73.404228 -8.5931063 -74.140198 -0.23144038 -91.925705
9204312500 -1.0656199 124.27188 -8.6059961 -73.408699 -8.6015444 -74.088951 -0.23753384 -91.891266
9204375000 -1.0618372 124.24415 -8.5981474 -73.37989 -8.5986195 -74.15831 -0.24315986 -91.851074
9204437500 -1.0643731 124.1993 -8.5987015 -73.41626 -8.5951824 -74.133942 -0.24112612 -91.865616
9204500000 -1.0619729 124.20638 -8.5946274 -73.419991 -8.5962029 -74.136551 -0.24619268 -91.806786
9204562500 -1.0622112 124.20081 -8.6055069 -73.324753 -8.5907202 -74.159004 -0.24543607 -91.796944
9204625000 -1.0648823 124.13958 -8.5994434 -73.387833 -8.5852947 -74.095222 -0.24763 -91.761513
9204687500 -1.0656842 124.10585 -8.6015348 -73.418335 -8.5952024 -74.130608 -0.25365996 -91.798584
9204750000 -1.067178 124.11617 -8.5944033 -73.371269 -8.5893526 -74.162788 -0.24567775 -91.742157
9204812500 -1.0733151 124.10559 -8.6022596 -73.403145 -8.585537 -74.125984 -0.2459548 -91.747009
9204875000 -1.076224 124.03448 -8.6116152 -73.462723 -8.5851278 -74.067001 -0.25277665 -91.700623
9204937500 -1.0732003 124.06282 -8.6048059 -73.439125 -8.5890036 -74.07093 -0.24698251 -91.691422
9205000000 -1.0771233 124.02859 -8.6053076 -73.520271 -8.5904131 -74.094582 -0.24649867 -91.714592
9205062500 -1.0748699 124.04024 -8.6016798 -73.490402 -8.5963011 -74.169159 -0.25154212 -91.699951
9205125000 -1.0781155 124.0364 -8.5965252 -73.453468 -8.5880184 -74.112709 -0.23694248 -91.654861
9205187500 -1.0752599 124.03526 -8.5988274 -73.490395 -8.5897455 -74.13253 -0.23862818 -91.655258
9205250000 -1.0733967 124.03581 -8.6040688 -73.402023 -8.5860615 -74.137146 -0.23142406 -91.610573
9205312500 -1.0713468 124.05684 -8.5943251 -73.3675 -8.5954361 -74.151108 -0.24127914 -91.601768
9205375000 -1.0718579 124.0232 -8.5857162 -73.351265 -8.5910454 -74.11882 -0.23080494 -91.549522
9205437500 -1.0717396 124.02666 -8.6007748 -73.376053 -8.5818129 -74.140945 -0.23719695 -91.527046
9205500000 -1.0726355 123.99126 -8.5994329 -73.376495 -8.5841284 -74.134743 -0.24767171 -91.503052
9205562500 -1.0724488 123.98438 -8.5972977 -73.328026 -8.5828876 -74.096703 -0.24094845 -91.479126
9205625000 -1.0694922 123.93422 -8.5932102 -73.342331 -8.5828505 -74.071022 -0.24678144 -91.428711
9205687500 -1.0661951 123.92527 -8.5980234 -73.304092 -8.5846024 -74.086151 -0.25151002 -91.427231
9205750000 -1.0719507 123.8939 -8.5994072 -73.357864 -8.57055 -74.045883 -0.24410447 -91.449554
9205812500 -1.0741273 123.87332 -8.5951672 -73.33873 -8.5795097 -74.031296 -0.25199717 -91.388191
9205875000 -1.0741 123.88455 -8.5912189 -73.320061 -8.5797777 -74.094963 -0.2514073 -91.39579
9205937500 -1.0727942 123.8392 -8.5942793 -73.366608 -8.5753069 -74.072624 -0.24737993 -91.359795
9206000000 -1.0724157 123.83775 -8.583744 -73.369415 -8.5847473 -74.062874 -0.25253379 -91.332275
9206062500 -1.0786809 123.80994 -8.6030979 -73.359024 -8.5799894 -74.097389 -0.24815425 -91.370682
9206125000 -1.0732157 123.80077 -8.5942459 -73.379936 -8.5805101 -74.056709 -0.25424626 -91.327614
9206187500 -1.0708596 123.77535 -8.5839214 -73.320763 -8.5694418 -74.077438 -0.25213203 -91.293396
9206250000 -1.0740997 123.75278 -8.5939827 -73.399307 -8.5774155 -74.053177 -0.25584805 -91.28714
9206312500 -1.0731665 123.73481 -8.5824842 -73.365257 -8.5779123 -74.057678 -0.25290397 -91.276001
9206375000 -1.0713385 123.70462 -8.5824976 -73.418182 -8.5747728 -74.052307 -0.25462291 -91.267624
9206437500 -1.0688684 123.71772 -8.5790215 -73.335609 -8.5725679 -74.052376 -0.26186624 -91.219521
9206500000 -1.0687526 123.66582 -8.5798855 -73.364128 -8.5700321 -74.112587 -0.2544817 -91.245461
9206562500 -1.0714364 123.69569 -8.5835114 -73.447044 -8.5727482 -74.097862 -0.25422156 -91.22998
9206625000 -1.0736258 123.68197 -8.5730782 -73.420181 -8.5685549 -74.056549 -0.2478485 -91.19838
9206687500 -1.0743778 123.71906 -8.5782766 -73.380325 -8.5643559 -74.024063 -0.24235639 -91.163246
9206750000 -1.0788978 123.697 -8.5834188 -73.423615 -8.5646744 -74.032547 -0.24269508 -91.191269
9206812500 -1.0721442 123.73611 -8.5825462 -73.38726 -8.5647736 -74.043365 -0.2461915 -91.140739
9206875000 -1.0712869 123.68958 -8.5744724 -73.430351 -8.560564 -74.066322 -0.23958994 -91.203247
9206937500 -1.0696152 123.66483 -8.5813332 -73.402237 -8.5634222 -74.087334 -0.24144521 -91.167786
9207000000 -1.0678777 123.64549 -8.5760012 -73.382744 -8.5607576 -74.041077 -0.2469303 -91.117416
9207062500 -1.0711917 123.62766 -8.5791626 -73.372284 -8.5570841 -74.081688 -0.23968787 -91.115448
9207125000 -1.0663403 123.58375 -8.5694084 -73.392601 -8.5633593 -74.050919 -0.24398778 -91.061668
9207187500 -1.066987 123.55404 -8.5787735 -73.40493 -8.5560522 -74.026207 -0.24693848 -91.031143
9207250000 -1.0673033 123.56323 -8.5714321 -73.349594 -8.5560713 -74.061043 -0.24478741 -91.01368
9207312500 -1.0652794 123.53638 -8.5699596 -73.383301 -8.554863 -74.012131 -0.24463889 -90.998451
9207375000 -1.0649929 123.54359 -8.5650473 -73.355415 -8.5559187 -74.059753 -0.2485365 -90.991035
9207437500 -1.071889 123.50404 -8.5722961 -73.394142 -8.5491304 -74.052567 -0.24599659 -91.003059
9207500000 -1.0702094 123.49152 -8.5729904 -73.382355 -8.5613213 -74.027481 -0.2565681 -90.982338
9207562500 -1.0717824 123.45145 -8.5649643 -73.336708 -8.5602856 -74.005318 -0.25888988 -90.95108
9207625000 -1.0754297 123.44382 -8.5732899 -73.325394 -8.5569487 -74.034523 -0.25226006 -90.905014
9207687500 -1.0774658 123.41278 -8.5629416 -73.394821 -8.5599813 -74.048164 -0.24909031 -90.944565
9207750000 -1.0766042 123.45417 -8.5637522 -73.430077 -8.5595398 -74.024849 -0.24913062 -90.925034
9207812500 -1.0739532 123.43375 -8.5624065 -73.372345 -8.5667305 -74.053535 -0.24752115 -90.914703
9207875000 -1.0816478 123.41828 -8.5615425 -73.400284 -8.5614586 -74.05098 -0.24794948 -90.897598
9207937500 -1.0806282 123.43497 -8.5713282 -73.411339 -8.5556593 -74.049255 -0.24418731 -90.888802
9208000000 -1.075247 123.42602 -8.5638924 -73.357635 -8.5572414 -74.059074 -0.24125008 -90.829651
9208062500 -1.0798528 123.38023 -8.5583048 -73.390404 -8.5630665 -74.015366 -0.25061935 -90.817139
9208125000 -1.0784159 123.40353 -8.5577869 -73.38414 -8.560133 -74.128784 -0.24296714 -90.855904
9208187500 -1.0717981 123.36894 -8.5531006 -73.349968 -8.5538578 -74.107887 -0.24658389 -90.789574
9208250000 -1.0731001 123.36165 -8.5522699 -73.335419 -8.5578318 -74.114273 -0.25005907 -90.796776
9208312500 -1.0687993 123.35953 -8.5499668 -73.346886 -8.5553055 -74.039162 -0.2477369 -90.692467
9208375000 -1.0744952 123.35077 -8.5578442 -73.322395 -8.5494785 -74.088806 -0.2457604 -90.70443
9208437500 -1.0743486 123.31707 -8.5513735 -73.309845 -8.5407219 -74.044563 -0.24747565 -90.746048
9208500000 -1.0728981 123.27865 -8.5522861 -73.345055 -8.5537443 -74.022026 -0.2578283 -90.715233
9208562500 -1.073204 123.32057 -8.5549212 -73.264397 -8.5468874 -74.080925 -0.25055456 -90.732567
9208625000 -1.0737292 123.28146 -8.5541506 -73.230392 -8.5480022 -74.001709 -0.24721158 -90.670647
9208687500 -1.069683 123.28809 -8.5564661 -73.235954 -8.5534458 -74.021568 -0.25945908 -90.665504
9208750000 -1.0638146 123.26952 -8.5485048 -73.275772 -8.5560293 -74.014191 -0.25878918 -90.67057
9208812500 -1.0655605 123.24348 -8.5578709 -73.3125 -8.5515594 -74.04435 -0.25655779 -90.623146
9208875000 -1.0652373 123.24179 -8.5490198 -73.321686 -8.5414944 -73.979683 -0.25897732 -90.591431
9208937500 -1.0675843 123.24174 -8.5498772 -73.300133 -8.5370903 -73.998962 -0.25360176 -90.600807
9209000000 -1.0672224 123.20381 -8.5468311 -73.284744 -8.5445404 -74.014801 -0.25843805 -90.575905
9209062500 -1.0679846 123.18288 -8.5481853 -73.283684 -8.5359316 -74.018356 -0.26200604 -90.556305
9209125000 -1.0698594 123.20351 -8.5564365 -73.302284 -8.5415592 -73.995277 -0.26069522 -90.555496
9209187500 -1.0664787 123.16828 -8.5424728 -73.286301 -8.5440245 -73.98336 -0.26525483 -90.507645
9209250000 -1.0659841 123.13615 -8.5586386 -73.334763 -8.5399313 -73.960114 -0.2631337 -90.509689
9209312500 -1.0684271 123.12719 -8.5467043 -73.29776 -8.5327568 -73.993584 -0.26228973 -90.451591
9209375000 -1.0707519 123.06188 -8.5494041 -73.324409 -8.5365744 -73.977821 -0.2573314 -90.48671
9209437500 -1.0618494 123.08504 -8.5444183 -73.239899 -8.537569 -73.962654 -0.25680783 -90.428947
9209500000 -1.0656326 123.07774 -8.5432882 -73.295082 -8.537241 -73.944244 -0.25819382 -90.413216
9209562500 -1.0690521 123.04787 -8.5482578 -73.352051 -8.5427465 -73.991257 -0.25775531 -90.432846
9209625000 -1.0684868 123.01303 -8.54426 -73.303131 -8.5366879 -73.93853 -0.25472349 -90.375366
9209687500 -1.069351 123.0108 -8.5393219 -73.298462 -8.5404463 -73.934937 -0.25501925 -90.38765
9209750000 -1.0731161 123.01508 -8.5398178 -73.321442 -8.5339479 -73.980186 -0.24796957 -90.349922
9209812500 -1.0746421 123.01007 -8.5272427 -73.349815 -8.5385561 -74.027756 -0.25314486 -90.373909
9209875000 -1.0746678 122.97231 -8.5364342 -73.289833 -8.5331202 -73.954376 -0.25294733 -90.282127
9209937500 -1.073748 122.97762 -8.537385 -73.346016 -8.5333996 -73.961006 -0.25074804 -90.321259
9210000000 -1.0723633 123.0099 -8.5377913 -73.338509 -8.518755 -74.055 -0.24825162 -90.345032
9210062500 -1.0777789 122.97179 -8.5379753 -73.298141 -8.5283327 -74.00061 -0.25752857 -90.304436
9210125000 -1.080505 122.97755 -8.5410662 -73.242203 -8.5262318 -73.943466 -0.25050816 -90.262733
9210187500 -1.0749027 122.99469 -8.539938 -73.22348 -8.5267239 -74.020882 -0.25775662 -90.277695
9210250000 -1.0794516 122.94625 -8.5418015 -73.260193 -8.5188112 -73.97924 -0.2548458 -90.217354
9210312500 -1.0738621 122.95517 -8.5320768 -73.262749 -8.5348759 -74.023575 -0.26455069 -90.278259
9210375000 -1.0748104 122.9232 -8.5321503 -73.253555 -8.5275602 -73.994698 -0.25824469 -90.201942
9210437500 -1.0737576 122.85688 -8.5297194 -73.28051 -8.5265684 -73.998314 -0.258742 -90.217896
9210500000 -1.0766821 122.85885 -8.5334845 -73.29174 -8.5220661 -74.006477 -0.25604585 -90.223061
9210562500 -1.0784262 122.86203 -8.5355272 -73.252983 -8.5219641 -73.999756 -0.26413733 -90.199234
9210625000 -1.0717641 122.76059 -8.5248013 -73.249207 -8.5318403 -73.97113 -0.26296988 -90.146194
9210687500 -1.0709904 122.73878 -8.5203819 -73.311729 -8.5266123 -73.98336 -0.25994387 -90.172203
9210750000 -1.0739601 122.74951 -8.5250721 -73.242226 -8.5236197 -73.979591 -0.25654712 -90.110603
9210812500 -1.0725064 122.71272 -8.5221262 -73.334518 -8.5200748 -73.955048 -0.26215011 -90.096962
9210875000 -1.0740376 122.70417 -8.5215807 -73.335953 -8.5151196 -73.946007 -0.26009122 -90.041832
9210937500 -1.0695338 122.72025 -8.5184746 -73.317337 -8.5200377 -73.907654 -0.25818288 -90.004601
9211000000 -1.069456 122.70123 -8.50881 -73.295044 -8.509676 -73.943558 -0.25426373 -89.997551
9211062500 -1.0720264 122.70021 -8.5181971 -73.248573 -8.5161762 -73.927521 -0.25860485 -89.966034
9211125000 -1.0736938 122.67323 -8.5250216 -73.276337 -8.5118799 -73.90284 -0.26047099 -89.945175
9211187500 -1.0750121 122.68584 -8.5283298 -73.276756 -8.5136147 -73.9095 -0.27432624 -89.937431
9211250000 -1.077943 122.68742 -8.521966 -73.242409 -8.5118742 -73.915009 -0.26761365 -89.921761
9211312500 -1.0782392 122.66523 -8.5284882 -73.272949 -8.5144339 -73.911369 -0.26870453 -89.889755
9211375000 -1.0707664 122.65964 -8.5197096 -73.277802 -8.5197926 -73.936005 -0.27486095 -89.933235
9211437500 -1.0688064 122.64337 -8.5097761 -73.261505 -8.5138302 -73.88723 -0.26477799 -89.866707
9211500000 -1.0741717 122.63457 -8.5240021 -73.302094 -8.5161028 -73.934296 -0.26390216 -89.914589
9211562500 -1.0715216 122.61949 -8.5245428 -73.333893 -8.5191565 -73.914383 -0.26042041 -89.90316
9211625000 -1.0675141 122.63432 -8.5160265 -73.2649 -8.5157986 -73.912041 -0.2601966 -89.928116
9211687500 -1.0685651 122.65424 -8.5165434 -73.296478 -8.5154381 -73.899956 -0.26056528 -89.908585
9211750000 -1.0638918 122.62048 -8.5099897 -73.295364 -8.5094662 -73.892845 -0.25725511 -89.892441
9211812500 -1.0692037 122.58096 -8.5157051 -73.31398 -8.5107841 -73.954201 -0.26283747 -89.909889
9211875000 -1.0666245 122.60238 -8.5155268 -73.226555 -8.5131922 -73.895287 -0.26326278 -89.822456
9211937500 -1.0673414 122.5456 -8.5016861 -73.218338 -8.5120382 -73.890839 -0.26515687 -89.777916
9212000000 -1.0688028 122.50436 -8.5112572 -73.274849 -8.5079556 -73.945717 -0.26399958 -89.793655
9212062500 -1.0704255 122.48801 -8.517148 -73.214325 -8.5095978 -73.945747 -0.2664566 -89.743233
9212125000 -1.0671942 122.46487 -8.5133152 -73.201294 -8.5067158 -73.947731 -0.26637176 -89.691841
9212187500 -1.0672747 122.43853 -8.505641 -73.221474 -8.4971933 -73.897636 -0.25859007 -89.654778
9212250000 -1.0681257 122.37763 -8.4957008 -73.265518 -8.5039682 -73.911919 -0.26662236 -89.680542
9212312500 -1.0744612 122.39774 -8.5108709 -73.175545 -8.5063047 -73.993103 -0.261237 -89.715546
