!Agilent Technologies,N5242A,MY51221714,A.09.90.19
!Agilent N5242A: A.09.90.19
!Date: Saturday, December 30, 2023 10:14:55
!Correction: S11(Full 2 Port(1,2)) 
!S21(Full 2 Port(1,2)) 
!S12(Full 2 Port(1,2)) 
!S22(Full 2 Port(1,2)) 
!S2P File: Measurements: S11, S21, S12, S22:
# Hz S  dB   R 50
9200000000 -1.1673356 124.45883 -8.6580458 -75.112335 -8.651185 -75.821945 -0.31906873 -93.827896
9200062500 -1.1759878 124.44008 -8.6681461 -75.131264 -8.6430922 -75.830917 -0.3130196 -93.749969
9200125000 -1.1743616 124.44447 -8.6620445 -75.095604 -8.6493387 -75.929352 -0.31848076 -93.800377
9200187500 -1.1787473 124.4398 -8.6629696 -75.080154 -8.6450853 -75.8479 -0.31303304 -93.753647
9200250000 -1.1786118 124.39494 -8.6722431 -75.11705 -8.6457281 -75.868805 -0.31841704 -93.757774
9200312500 -1.1786367 124.32545 -8.6735039 -75.156189 -8.6517353 -75.824905 -0.32373112 -93.746635
9200375000 -1.1795081 124.33323 -8.6684351 -75.126793 -8.6523628 -75.825592 -0.3169165 -93.735672
9200437500 -1.1744592 124.3276 -8.670475 -75.153366 -8.6437159 -75.859184 -0.3210465 -93.727379
9200500000 -1.1746616 124.29917 -8.6657438 -75.169655 -8.6478109 -75.776093 -0.31519511 -93.675858
9200562500 -1.1733987 124.29292 -8.6645927 -75.09922 -8.644866 -75.804382 -0.3180598 -93.655235
9200625000 -1.1772342 124.25662 -8.6554041 -75.217766 -8.6349564 -75.834969 -0.31187177 -93.661911
9200687500 -1.1705116 124.27454 -8.6597481 -75.12944 -8.6402054 -75.805908 -0.31537947 -93.650101
9200750000 -1.1750157 124.22742 -8.6605206 -75.101357 -8.6327124 -75.821449 -0.30856526 -93.648033
9200812500 -1.1726749 124.22654 -8.6570368 -75.130447 -8.6269989 -75.85508 -0.3118712 -93.615898
9200875000 -1.1729156 124.21648 -8.6587629 -75.115341 -8.6353664 -75.828758 -0.31445217 -93.566422
9200937500 -1.1733109 124.2505 -8.659915 -75.113953 -8.6324129 -75.824478 -0.31727695 -93.600929
9201000000 -1.1724869 124.20766 -8.657733 -75.156136 -8.634841 -75.840508 -0.31943476 -93.605835
9201062500 -1.1748933 124.23611 -8.6656227 -75.180222 -8.6415758 -75.829834 -0.32717171 -93.582314
9201125000 -1.1705461 124.25115 -8.6574945 -75.102287 -8.6438265 -75.813759 -0.32541975 -93.552849
9201187500 -1.1714827 124.23315 -8.6604347 -75.115662 -8.6569977 -75.834885 -0.33607575 -93.555687
9201250000 -1.1758626 124.25656 -8.6693954 -75.090569 -8.6496868 -75.803246 -0.33162075 -93.514984
9201312500 -1.1765045 124.2206 -8.6590757 -75.075211 -8.6420774 -75.82058 -0.32200959 -93.490112
9201375000 -1.1760544 124.20986 -8.6547718 -75.069153 -8.6392832 -75.840294 -0.32299289 -93.508659
9201437500 -1.1757234 124.16753 -8.6596823 -75.104195 -8.6401091 -75.809875 -0.32233843 -93.424706
9201500000 -1.1809915 124.20418 -8.6515045 -74.999374 -8.6437311 -75.88443 -0.3242552 -93.425613
9201562500 -1.1754558 124.15598 -8.6384239 -74.988983 -8.6414709 -75.798889 -0.3288233 -93.348541
9201625000 -1.1790466 124.10284 -8.6464729 -75.137848 -8.6272173 -75.828606 -0.31731129 -93.371361
9201687500 -1.1824706 124.12821 -8.6478376 -75.101631 -8.6341515 -75.853867 -0.32683223 -93.360611
9201750000 -1.1767644 124.10989 -8.6465988 -75.110405 -8.6320314 -75.852455 -0.32272997 -93.325951
9201812500 -1.1790695 124.12164 -8.6487875 -75.013969 -8.6260738 -75.807167 -0.32418498 -93.358238
9201875000 -1.1804587 124.06056 -8.6474504 -75.099342 -8.630291 -75.859886 -0.32468563 -93.38002
9201937500 -1.1818062 124.05936 -8.6513033 -75.119446 -8.6324806 -75.809875 -0.33094603 -93.360214
9202000000 -1.1760674 124.05129 -8.6471882 -75.078117 -8.6280956 -75.763184 -0.3309463 -93.338013
9202062500 -1.1780812 123.9953 -8.6418371 -75.098396 -8.6232452 -75.80761 -0.32637042 -93.328194
9202125000 -1.176577 124.01934 -8.64252 -75.071472 -8.6282377 -75.783798 -0.32897857 -93.317177
9202187500 -1.17803 123.95534 -8.6449032 -75.142532 -8.6319523 -75.841476 -0.33251864 -93.285545
9202250000 -1.1756252 123.99009 -8.6474419 -75.086418 -8.6225052 -75.854866 -0.32432985 -93.273155
9202312500 -1.1794256 123.935 -8.6468306 -75.139824 -8.626956 -75.849274 -0.32860166 -93.233665
9202375000 -1.1732228 123.9099 -8.6377325 -75.158463 -8.628727 -75.796036 -0.33071238 -93.227066
9202437500 -1.1757601 123.94288 -8.6435595 -75.056557 -8.6231718 -75.792969 -0.32431448 -93.187759
9202500000 -1.166905 123.92532 -8.6315565 -75.110939 -8.6306677 -75.846924 -0.33281022 -93.217278
9202562500 -1.1733913 123.89827 -8.6416931 -75.12709 -8.6212158 -75.803047 -0.33374113 -93.160385
9202625000 -1.176815 123.88165 -8.6308098 -75.11216 -8.6240387 -75.822441 -0.32416928 -93.158409
9202687500 -1.1767694 123.87565 -8.6388092 -75.087273 -8.6200743 -75.845184 -0.32922363 -93.171257
9202750000 -1.1723197 123.91286 -8.6455956 -74.987228 -8.6257572 -75.823624 -0.33425668 -93.104286
9202812500 -1.1770335 123.83166 -8.6375198 -75.085655 -8.6193953 -75.792717 -0.3314999 -93.127068
9202875000 -1.1719035 123.82196 -8.6335297 -75.089218 -8.6123953 -75.832199 -0.33046988 -93.115433
9202937500 -1.1668074 123.80582 -8.6337843 -75.070229 -8.608202 -75.795837 -0.32622865 -93.075478
9203000000 -1.1713728 123.82471 -8.6356459 -75.084648 -8.6136389 -75.810234 -0.32704479 -93.098
9203062500 -1.1686474 123.79015 -8.6380253 -75.100327 -8.6190996 -75.818359 -0.33759549 -93.073692
9203125000 -1.1680235 123.79594 -8.6291513 -75.036095 -8.6050463 -75.849037 -0.32325682 -93.07254
9203187500 -1.1670041 123.74281 -8.6286325 -75.0821 -8.6146812 -75.777 -0.33030936 -92.976303
9203250000 -1.1741388 123.7288 -8.6239014 -75.086441 -8.6110287 -75.739838 -0.32797721 -92.92617
9203312500 -1.1739174 123.73437 -8.6191273 -75.106308 -8.6051607 -75.783134 -0.32629922 -92.946472
9203375000 -1.1686707 123.74316 -8.6061983 -75.068443 -8.6194115 -75.792648 -0.3241986 -92.924812
9203437500 -1.170102 123.73255 -8.6218328 -75.045509 -8.6146441 -75.742432 -0.32432184 -92.83979
9203500000 -1.1725224 123.75867 -8.6145487 -75.04953 -8.6268959 -75.80117 -0.33269724 -92.884636
9203562500 -1.1713032 123.70482 -8.6118422 -75.01326 -8.6144619 -75.759773 -0.33044761 -92.851326
9203625000 -1.1729115 123.69624 -8.6146297 -75.010895 -8.6113758 -75.769279 -0.33184931 -92.842476
9203687500 -1.1711334 123.67585 -8.6147394 -75.05265 -8.6040831 -75.778969 -0.32741246 -92.827972
9203750000 -1.1749741 123.63895 -8.6242142 -75.077484 -8.6139097 -75.804298 -0.3303543 -92.882065
9203812500 -1.1752105 123.61186 -8.6217918 -75.082466 -8.610817 -75.724945 -0.33710086 -92.833626
9203875000 -1.1786991 123.60938 -8.6262474 -75.064835 -8.6057081 -75.810249 -0.337919 -92.854294
9203937500 -1.175802 123.57994 -8.6190729 -75.079948 -8.6036215 -75.80397 -0.33100921 -92.838181
9204000000 -1.1775986 123.55672 -8.6178665 -75.130219 -8.6066151 -75.836647 -0.32875934 -92.830627
9204062500 -1.1766163 123.58983 -8.6150751 -75.039406 -8.5969515 -75.7612 -0.32084432 -92.809456
9204125000 -1.174547 123.55621 -8.6098337 -75.084648 -8.5997543 -75.785645 -0.31619483 -92.776901
9204187500 -1.178334 123.55127 -8.6157637 -75.061211 -8.6036205 -75.73764 -0.32409179 -92.730171
9204250000 -1.1765602 123.53983 -8.6069832 -75.01873 -8.606122 -75.752815 -0.32694447 -92.720528
9204312500 -1.1705203 123.52302 -8.6029272 -75.004631 -8.6011953 -75.710724 -0.32583991 -92.663574
9204375000 -1.1712221 123.52893 -8.6106081 -75.04583 -8.6078701 -75.779701 -0.32721573 -92.709892
9204437500 -1.1685187 123.52277 -8.6057272 -74.992989 -8.5986528 -75.729843 -0.3306998 -92.656601
9204500000 -1.1681477 123.47792 -8.6046638 -74.994812 -8.589716 -75.727867 -0.32424232 -92.645218
9204562500 -1.1660333 123.47697 -8.5954666 -74.955299 -8.5927525 -75.722771 -0.33432922 -92.620224
9204625000 -1.1708935 123.44839 -8.6105852 -74.94883 -8.5932064 -75.734406 -0.33323169 -92.575821
9204687500 -1.1709132 123.40876 -8.6057758 -75.006744 -8.5902958 -75.751099 -0.33393365 -92.576965
9204750000 -1.1747775 123.38342 -8.602973 -74.998589 -8.5932512 -75.748329 -0.33470118 -92.554199
9204812500 -1.1766688 123.40558 -8.606678 -75.024361 -8.5871525 -75.766937 -0.33261764 -92.548058
9204875000 -1.1753343 123.34589 -8.6028757 -75.086525 -8.588398 -75.704117 -0.33807215 -92.527802
9204937500 -1.1798731 123.3701 -8.6073227 -75.05497 -8.5927162 -75.788773 -0.33738431 -92.554207
9205000000 -1.1818596 123.34241 -8.6087275 -75.047318 -8.5858688 -75.660439 -0.33947274 -92.463104
9205062500 -1.1785152 123.35944 -8.6036301 -75.040062 -8.5916243 -75.776527 -0.33077565 -92.520477
9205125000 -1.1768872 123.33813 -8.5995264 -75.009697 -8.5870438 -75.754593 -0.32545811 -92.443253
9205187500 -1.1794325 123.31123 -8.5971823 -75.02179 -8.5973577 -75.752968 -0.329115 -92.430481
9205250000 -1.1764251 123.31605 -8.5968637 -75.041107 -8.5973587 -75.792908 -0.33241093 -92.440338
9205312500 -1.1722753 123.33524 -8.5923138 -74.99334 -8.5951033 -75.798492 -0.31928751 -92.417191
9205375000 -1.1729447 123.34021 -8.5915518 -74.984238 -8.5947676 -75.796829 -0.3287684 -92.409897
9205437500 -1.1756762 123.29097 -8.5978661 -74.99688 -8.5861044 -75.812889 -0.32367867 -92.324883
9205500000 -1.1776906 123.25452 -8.6067133 -74.979301 -8.5872488 -75.767288 -0.33366016 -92.299065
9205562500 -1.1769782 123.2327 -8.6026516 -74.995316 -8.592658 -75.755348 -0.33577895 -92.307831
9205625000 -1.1754862 123.217 -8.6018 -74.9664 -8.5840731 -75.719711 -0.33592799 -92.216118
9205687500 -1.1772395 123.17189 -8.593894 -74.965408 -8.5809803 -75.744507 -0.33654603 -92.239082
9205750000 -1.1762329 123.14854 -8.6006918 -74.989082 -8.5764341 -75.677223 -0.33685353 -92.159149
9205812500 -1.1760513 123.15744 -8.5908642 -74.983391 -8.5795784 -75.71582 -0.34183368 -92.203918
9205875000 -1.1768942 123.1228 -8.5921545 -75.012123 -8.5816736 -75.744301 -0.33174005 -92.201515
9205937500 -1.1811299 123.1168 -8.6048908 -74.978539 -8.5852108 -75.706696 -0.34277099 -92.162399
9206000000 -1.182441 123.11338 -8.5947056 -74.957108 -8.579258 -75.760841 -0.34054366 -92.192345
9206062500 -1.1770755 123.08951 -8.5975437 -74.94175 -8.5884418 -75.720573 -0.35036829 -92.169411
9206125000 -1.1802738 123.0764 -8.594676 -74.995941 -8.5839825 -75.69828 -0.34492421 -92.144264
9206187500 -1.1759887 123.05792 -8.5860338 -74.966782 -8.5805588 -75.653419 -0.34289646 -92.086807
9206250000 -1.1794466 123.04343 -8.5919743 -75.01329 -8.581275 -75.697891 -0.34675601 -92.078499
9206312500 -1.1800714 123.01799 -8.5823956 -74.978874 -8.5746775 -75.709366 -0.34121281 -92.10376
9206375000 -1.1786951 123.02571 -8.5828123 -74.996391 -8.5777035 -75.689926 -0.34610713 -92.054703
9206437500 -1.1750268 122.99119 -8.5824385 -74.990753 -8.5742512 -75.678223 -0.34438068 -92.007759
9206500000 -1.1761631 122.97829 -8.5827427 -75.003639 -8.5702133 -75.695938 -0.34783101 -91.996239
9206562500 -1.1830027 122.95839 -8.5812588 -75.025909 -8.572423 -75.667053 -0.3499653 -91.990234
9206625000 -1.1794587 122.98766 -8.586256 -75.006126 -8.57693 -75.683014 -0.34118852 -92.00843
9206687500 -1.1812865 122.98524 -8.5856876 -75.020554 -8.5688734 -75.639977 -0.34195185 -92.019783
9206750000 -1.1824703 122.98735 -8.5851688 -75.037239 -8.5734692 -75.641144 -0.33753756 -92.006256
9206812500 -1.178516 122.99049 -8.5817127 -75.022629 -8.5742435 -75.690895 -0.33967623 -91.978622
9206875000 -1.177581 122.97581 -8.5813713 -75.019455 -8.5692244 -75.705032 -0.33460376 -91.982536
9206937500 -1.1759515 122.96461 -8.5846329 -74.993217 -8.5611439 -75.68 -0.33237475 -91.931602
9207000000 -1.1795833 122.94476 -8.5831623 -74.97821 -8.5599632 -75.658203 -0.32819444 -91.917007
9207062500 -1.1724991 122.89951 -8.5803194 -75.068161 -8.5664654 -75.687897 -0.33987486 -91.897583
9207125000 -1.1775005 122.88318 -8.5785351 -74.976051 -8.5584106 -75.656052 -0.33629364 -91.839172
9207187500 -1.1737392 122.8467 -8.5760717 -75.003304 -8.5549383 -75.701965 -0.33615208 -91.852608
9207250000 -1.174045 122.83054 -8.577939 -74.984787 -8.553833 -75.707664 -0.33753225 -91.858627
9207312500 -1.1754827 122.78198 -8.5759945 -75.079781 -8.5626507 -75.748505 -0.34600499 -91.818336
9207375000 -1.1771833 122.7673 -8.5701065 -75.046272 -8.562808 -75.686226 -0.34265506 -91.803375
9207437500 -1.1720454 122.78843 -8.5745621 -74.97084 -8.5589266 -75.68882 -0.34093174 -91.800171
9207500000 -1.1771828 122.75356 -8.5708113 -75.005066 -8.5592527 -75.691154 -0.3481375 -91.79718
9207562500 -1.1811056 122.74438 -8.5734377 -74.999802 -8.5527573 -75.672836 -0.33795306 -91.777557
9207625000 -1.1796364 122.68585 -8.5660782 -75.063606 -8.55968 -75.674171 -0.34185958 -91.76532
9207687500 -1.1818208 122.72952 -8.5681419 -74.99189 -8.5649796 -75.656769 -0.34195182 -91.690842
9207750000 -1.1799802 122.70132 -8.5600367 -75.0485 -8.5692348 -75.685371 -0.34558162 -91.73259
9207812500 -1.1822004 122.713 -8.5697803 -75.014717 -8.5626583 -75.686127 -0.3382324 -91.714905
9207875000 -1.1841179 122.72018 -8.5632677 -75.072975 -8.5631504 -75.680222 -0.33470607 -91.724197
9207937500 -1.1860496 122.71525 -8.5632277 -75.041328 -8.5640574 -75.695404 -0.33357131 -91.679642
9208000000 -1.1885408 122.697 -8.5671587 -75.04808 -8.5633917 -75.665611 -0.3388114 -91.658554
9208062500 -1.1842477 122.693 -8.5610228 -74.998451 -8.5689688 -75.716576 -0.34208691 -91.667725
9208125000 -1.184135 122.67221 -8.557435 -74.984802 -8.5610952 -75.684402 -0.34205109 -91.634621
9208187500 -1.1841822 122.65877 -8.5573759 -75.011703 -8.5575113 -75.686272 -0.34002429 -91.588989
9208250000 -1.183897 122.63216 -8.5586805 -74.97522 -8.5580759 -75.709328 -0.3392587 -91.580322
9208312500 -1.1850049 122.62296 -8.5657873 -74.962418 -8.5533886 -75.712677 -0.34133747 -91.561996
9208375000 -1.1800023 122.63303 -8.555645 -74.903328 -8.5524359 -75.696838 -0.34171349 -91.492416
9208437500 -1.179778 122.59772 -8.5557394 -74.92395 -8.5603848 -75.737335 -0.34880084 -91.504974
9208500000 -1.1794423 122.57107 -8.5554571 -74.980011 -8.5639448 -75.712486 -0.34889862 -91.515976
9208562500 -1.1791667 122.58246 -8.5593681 -74.91153 -8.5628386 -75.646645 -0.35062006 -91.474464
9208625000 -1.1807842 122.53872 -8.5564661 -74.965919 -8.5517921 -75.704048 -0.34521699 -91.484268
9208687500 -1.1761254 122.56039 -8.5510368 -74.886345 -8.5461254 -75.59156 -0.33983865 -91.423149
9208750000 -1.1772715 122.51279 -8.5484886 -74.949768 -8.5497894 -75.669716 -0.34255239 -91.478676
9208812500 -1.1774924 122.51425 -8.5530396 -74.932526 -8.5420723 -75.702499 -0.34048519 -91.470627
9208875000 -1.1781589 122.52137 -8.5621204 -74.920868 -8.5409393 -75.64193 -0.34313223 -91.437027
9208937500 -1.1742743 122.48085 -8.5579138 -74.960991 -8.5484133 -75.68956 -0.35100454 -91.415657
9209000000 -1.176102 122.47048 -8.5539761 -74.978943 -8.5427046 -75.603088 -0.35431626 -91.343506
9209062500 -1.1782929 122.48612 -8.5511484 -74.942719 -8.5417747 -75.666084 -0.35287052 -91.390518
9209125000 -1.1759363 122.44969 -8.5538597 -74.953148 -8.5447731 -75.628166 -0.35578322 -91.310272
9209187500 -1.1747239 122.43256 -8.5483379 -74.954178 -8.5468731 -75.596886 -0.35364896 -91.334381
9209250000 -1.1733969 122.45873 -8.551115 -74.88945 -8.5436401 -75.638542 -0.35252404 -91.29686
9209312500 -1.1743243 122.38786 -8.5456667 -74.960121 -8.5382814 -75.65361 -0.35105121 -91.320709
9209375000 -1.1769751 122.39247 -8.5520792 -74.929726 -8.5431213 -75.630104 -0.35458609 -91.260651
9209437500 -1.1806381 122.34895 -8.5540762 -74.922783 -8.5333576 -75.640991 -0.34789515 -91.24826
9209500000 -1.1720827 122.30068 -8.5407791 -74.966835 -8.5337286 -75.553436 -0.34190401 -91.205292
9209562500 -1.1738436 122.35841 -8.5460186 -74.907318 -8.5375099 -75.612808 -0.34880507 -91.200676
9209625000 -1.1747546 122.28692 -8.536746 -74.957527 -8.5402145 -75.631691 -0.34714285 -91.221176
9209687500 -1.1791964 122.31438 -8.5426931 -74.927299 -8.5432701 -75.604912 -0.34674722 -91.181862
9209750000 -1.1849169 122.30193 -8.541852 -74.94857 -8.5426235 -75.69323 -0.34222928 -91.177475
9209812500 -1.1846436 122.29385 -8.5509195 -74.982948 -8.5403214 -75.660851 -0.34814146 -91.143517
9209875000 -1.1850246 122.23141 -8.5359154 -75.04776 -8.5362339 -75.629128 -0.33676854 -91.161858
9209937500 -1.1879334 122.2681 -8.5370607 -75.007607 -8.5301847 -75.691483 -0.34056473 -91.158401
9210000000 -1.1869805 122.29057 -8.5379696 -74.910851 -8.5226326 -75.638672 -0.34226826 -91.14888
9210062500 -1.184637 122.27747 -8.5381756 -74.95195 -8.5324497 -75.669945 -0.34689227 -91.069115
9210125000 -1.1822944 122.23663 -8.5415049 -74.916283 -8.5364418 -75.609985 -0.35251266 -91.078438
9210187500 -1.1808373 122.21214 -8.5315018 -74.937828 -8.5187397 -75.662056 -0.34094271 -91.081375
9210250000 -1.1831706 122.21208 -8.534646 -74.914505 -8.5280638 -75.661713 -0.34627596 -91.09539
9210312500 -1.1826679 122.20914 -8.5367012 -74.898476 -8.5320663 -75.647621 -0.35389861 -91.083351
9210375000 -1.1827828 122.16254 -8.5352612 -74.9674 -8.5218725 -75.725296 -0.34559771 -91.076202
9210437500 -1.1858953 122.18191 -8.5308313 -74.897614 -8.5296669 -75.69574 -0.35176027 -91.068626
9210500000 -1.1827729 122.14597 -8.5393372 -74.927322 -8.5274582 -75.715401 -0.35023907 -91.03125
9210562500 -1.187614 122.08501 -8.5304899 -74.944611 -8.5230141 -75.636452 -0.35434711 -90.981171
9210625000 -1.1849684 122.03918 -8.5360909 -74.964355 -8.5309896 -75.617371 -0.35828549 -90.970436
9210687500 -1.1810209 122.01088 -8.5337782 -74.951935 -8.5202913 -75.642914 -0.35141367 -90.974022
9210750000 -1.1774638 121.98565 -8.5214748 -74.935524 -8.5219765 -75.614822 -0.35386622 -90.896194
9210812500 -1.1830846 121.99287 -8.5284042 -74.929741 -8.519474 -75.612213 -0.35067877 -90.949028
9210875000 -1.1777457 122.01214 -8.5197229 -74.941643 -8.5168571 -75.599136 -0.34522247 -90.853195
9210937500 -1.1770974 122.00014 -8.5175476 -74.951653 -8.5214462 -75.615379 -0.35900214 -90.853951
9211000000 -1.1811825 121.99866 -8.5250082 -74.897949 -8.5135422 -75.569489 -0.3526783 -90.777023
9211062500 -1.1827998 121.99879 -8.5209141 -74.921379 -8.5126696 -75.615715 -0.35382333 -90.77536
9211125000 -1.1826928 121.96285 -8.5264616 -74.92215 -8.5220947 -75.576889 -0.36000374 -90.759918
9211187500 -1.1904709 121.93073 -8.5275393 -74.944992 -8.513279 -75.562904 -0.35362551 -90.731209
9211250000 -1.1817667 121.94025 -8.5292606 -74.937943 -8.5078402 -75.588654 -0.35739189 -90.7229
9211312500 -1.1848308 121.92792 -8.5229511 -74.900215 -8.5127783 -75.596992 -0.36104113 -90.751251
9211375000 -1.1858122 121.91261 -8.5289822 -74.934624 -8.5084562 -75.612244 -0.35981548 -90.710777
9211437500 -1.1797023 121.90816 -8.5200253 -74.878365 -8.5134649 -75.648048 -0.35582867 -90.721413
9211500000 -1.1799613 121.92164 -8.5212231 -74.905289 -8.5097866 -75.637123 -0.35232088 -90.748123
9211562500 -1.1772772 121.91236 -8.5195618 -74.897057 -8.519496 -75.638474 -0.35425591 -90.737892
9211625000 -1.181206 121.90861 -8.5163984 -74.912277 -8.5195436 -75.588799 -0.35151309 -90.702385
9211687500 -1.174342 121.92645 -8.5098248 -74.929169 -8.5093317 -75.607071 -0.34723595 -90.69458
9211750000 -1.1785496 121.86976 -8.5102453 -74.921173 -8.5125437 -75.612419 -0.35748994 -90.724091
9211812500 -1.1731972 121.8802 -8.5138111 -74.871193 -8.5093546 -75.607262 -0.3519536 -90.684158
9211875000 -1.1799873 121.81865 -8.5089378 -74.985481 -8.5111675 -75.611626 -0.35909709 -90.681557
9211937500 -1.1787211 121.83365 -8.5129471 -74.91452 -8.5179462 -75.516075 -0.36249772 -90.616234
9212000000 -1.1745185 121.79192 -8.5104628 -74.864952 -8.5166044 -75.579628 -0.36712676 -90.559303
9212062500 -1.1788442 121.75139 -8.5113411 -74.915146 -8.503912 -75.542358 -0.35903743 -90.547699
9212125000 -1.1775882 121.74001 -8.5161705 -74.876442 -8.4992247 -75.546921 -0.35567778 -90.511711
9212187500 -1.1807011 121.71612 -8.5006256 -74.876572 -8.4994841 -75.540535 -0.34942204 -90.465942
9212250000 -1.1809056 121.67145 -8.5134115 -74.920761 -8.5055866 -75.638756 -0.35525 -90.536652
9212312500 -1.1734934 121.66753 -8.4967728 -74.918655 -8.4951725 -75.581833 -0.35183218 -90.459785
9212375000 -1.1775926 121.62244 -8.5076113 -74.921593 -8.4942093 -75.670532 -0.34774122 -90.533508
