!Agilent Technologies,N5242A,MY51221714,A.09.90.19
!Agilent N5242A: A.09.90.19
!Date: Saturday, December 30, 2023 10:00:11
!Correction: S11(Full 2 Port(1,2)) 
!S21(Full 2 Port(1,2)) 
!S12(Full 2 Port(1,2)) 
!S22(Full 2 Port(1,2)) 
!S2P File: Measurements: S11, S21, S12, S22:
# Hz S  dB   R 50
9200000000 -1.0644023 124.99622 -8.6979952 -73.589287 -8.6766834 -74.235367 -0.21858399 -92.885429
9200062500 -1.0561961 124.98586 -8.6918306 -73.662109 -8.6767588 -74.221313 -0.21661882 -92.826912
9200125000 -1.0602173 124.96618 -8.6947613 -73.609062 -8.6702394 -74.256416 -0.21599318 -92.849556
9200187500 -1.0586296 124.94158 -8.6898756 -73.629311 -8.6800728 -74.200577 -0.21923159 -92.8097
9200250000 -1.0675464 124.92645 -8.6985226 -73.604027 -8.6748676 -74.220734 -0.21731436 -92.797165
9200312500 -1.0677184 124.90986 -8.700284 -73.637749 -8.6710634 -74.25631 -0.21775016 -92.800392
9200375000 -1.0674222 124.87279 -8.6995497 -73.618462 -8.6772623 -74.230896 -0.22067823 -92.771843
9200437500 -1.0657833 124.85636 -8.6977911 -73.657364 -8.6788616 -74.202469 -0.21653597 -92.774742
9200500000 -1.0617536 124.82119 -8.6965876 -73.68502 -8.6814041 -74.200897 -0.2241824 -92.763527
9200562500 -1.0600564 124.8084 -8.6915531 -73.714798 -8.6743402 -74.246353 -0.22102045 -92.744637
9200625000 -1.0631664 124.81001 -8.7014217 -73.634911 -8.6706171 -74.191803 -0.22206219 -92.694862
9200687500 -1.0635428 124.79836 -8.6912298 -73.646286 -8.6686373 -74.206642 -0.21541989 -92.728012
9200750000 -1.054873 124.7675 -8.6852798 -73.616196 -8.6673641 -74.230469 -0.21716063 -92.692627
9200812500 -1.0646573 124.73734 -8.6828203 -73.679031 -8.6661949 -74.218735 -0.22032005 -92.699974
9200875000 -1.0574162 124.738 -8.6816339 -73.680191 -8.6680346 -74.163895 -0.22191775 -92.644135
9200937500 -1.0605714 124.77261 -8.6941881 -73.620949 -8.6664734 -74.185799 -0.22068237 -92.672279
9201000000 -1.057207 124.7421 -8.680747 -73.63166 -8.6712065 -74.179787 -0.22749282 -92.624657
9201062500 -1.0620761 124.76857 -8.6910677 -73.654549 -8.6659632 -74.223358 -0.22351919 -92.644157
9201125000 -1.0606022 124.76143 -8.6924934 -73.642433 -8.6731186 -74.176437 -0.22948667 -92.609734
9201187500 -1.0670739 124.75996 -8.6990051 -73.663887 -8.6790428 -74.196457 -0.23330247 -92.622482
9201250000 -1.0598367 124.74721 -8.6886244 -73.573395 -8.6846151 -74.198921 -0.23281798 -92.579277
9201312500 -1.0621723 124.75446 -8.6822405 -73.619431 -8.6737461 -74.172661 -0.22443758 -92.577065
9201375000 -1.0575806 124.74509 -8.6771469 -73.546661 -8.6769333 -74.145416 -0.22740754 -92.515541
9201437500 -1.0657142 124.7243 -8.6864777 -73.639656 -8.6735954 -74.200172 -0.22993919 -92.502213
9201500000 -1.0660421 124.70562 -8.6695652 -73.562988 -8.6678915 -74.192444 -0.22120892 -92.469177
9201562500 -1.0659068 124.66635 -8.6759195 -73.558304 -8.665226 -74.190361 -0.22040978 -92.436638
9201625000 -1.0691372 124.6718 -8.6789074 -73.567078 -8.6621714 -74.286102 -0.22430822 -92.42672
9201687500 -1.0668316 124.6749 -8.6815119 -73.550102 -8.6663675 -74.251671 -0.23059322 -92.415314
9201750000 -1.0690377 124.6315 -8.6780329 -73.599693 -8.6601505 -74.178284 -0.21994591 -92.386421
9201812500 -1.0672476 124.61947 -8.6836147 -73.513008 -8.6613293 -74.169998 -0.23096646 -92.388245
9201875000 -1.0613251 124.63466 -8.6796751 -73.564438 -8.6539707 -74.119514 -0.22363606 -92.379601
9201937500 -1.0608435 124.61002 -8.6712103 -73.525276 -8.6593523 -74.147049 -0.22856732 -92.377724
9202000000 -1.0622108 124.59851 -8.6676188 -73.620277 -8.6613331 -74.201614 -0.23066784 -92.406876
9202062500 -1.0651982 124.5669 -8.6801529 -73.591316 -8.6601982 -74.143463 -0.23807412 -92.377739
9202125000 -1.062446 124.56317 -8.6758566 -73.588493 -8.6659613 -74.181801 -0.23062067 -92.346039
9202187500 -1.0615157 124.55037 -8.6675978 -73.592415 -8.6620712 -74.239227 -0.23392297 -92.344315
9202250000 -1.0607513 124.48132 -8.6702518 -73.611931 -8.6592531 -74.202538 -0.23094948 -92.347328
9202312500 -1.060244 124.47974 -8.6605997 -73.593788 -8.6652384 -74.186142 -0.23118198 -92.28344
9202375000 -1.0597961 124.46156 -8.6665478 -73.587898 -8.6543531 -74.190384 -0.22911383 -92.262764
9202437500 -1.0644218 124.45824 -8.6795692 -73.543381 -8.6581059 -74.20723 -0.23449628 -92.277046
9202500000 -1.0606223 124.47353 -8.6718245 -73.555046 -8.6637259 -74.137238 -0.23356833 -92.224106
9202562500 -1.0619981 124.4286 -8.6687098 -73.607056 -8.6512518 -74.228493 -0.22912994 -92.225403
9202625000 -1.0609624 124.43534 -8.6648769 -73.509415 -8.6535215 -74.167137 -0.23008341 -92.180763
9202687500 -1.0618213 124.43745 -8.6669817 -73.544388 -8.6506605 -74.194969 -0.22741963 -92.184433
9202750000 -1.0639912 124.41046 -8.6674366 -73.551117 -8.651886 -74.241058 -0.22786687 -92.205948
9202812500 -1.0587878 124.38367 -8.6643 -73.565681 -8.6586199 -74.194176 -0.23344076 -92.165359
9202875000 -1.0603443 124.34439 -8.663023 -73.594894 -8.6539373 -74.201553 -0.22930065 -92.15345
9202937500 -1.0592959 124.34344 -8.6603584 -73.546997 -8.6455555 -74.19545 -0.22585902 -92.114502
9203000000 -1.0566853 124.31562 -8.6565247 -73.573738 -8.6442709 -74.166054 -0.22910155 -92.131996
9203062500 -1.0525707 124.30152 -8.6647291 -73.554764 -8.6475334 -74.216576 -0.23216718 -92.165375
9203125000 -1.0486772 124.31407 -8.6547518 -73.539566 -8.6492109 -74.18013 -0.23471345 -92.122948
9203187500 -1.0598994 124.30373 -8.6554098 -73.564415 -8.6553326 -74.135948 -0.23321004 -92.04911
9203250000 -1.060485 124.25611 -8.6579504 -73.606361 -8.6455126 -74.170517 -0.22567196 -92.063324
9203312500 -1.0569562 124.29603 -8.6466551 -73.530113 -8.6446037 -74.175407 -0.22398217 -92.005516
9203375000 -1.0571142 124.2784 -8.6446524 -73.529488 -8.6538553 -74.13427 -0.23002328 -91.994293
9203437500 -1.0515631 124.28267 -8.6394377 -73.460411 -8.6451998 -74.159668 -0.21647958 -91.913795
9203500000 -1.0580416 124.27631 -8.6373024 -73.544403 -8.6525784 -74.153412 -0.22900155 -91.939423
9203562500 -1.0573736 124.2194 -8.6446009 -73.576118 -8.6464891 -74.107391 -0.23315032 -91.915359
9203625000 -1.0611957 124.2411 -8.6562462 -73.527817 -8.639677 -74.156044 -0.2311563 -91.90155
9203687500 -1.0593852 124.20908 -8.6453362 -73.565796 -8.6524 -74.137718 -0.23626588 -91.911453
9203750000 -1.0612212 124.17148 -8.6568775 -73.5597 -8.6552792 -74.153305 -0.24215588 -91.861252
9203812500 -1.0598133 124.17622 -8.6432924 -73.488464 -8.641675 -74.124557 -0.23921524 -91.879303
9203875000 -1.0572851 124.1349 -8.6536436 -73.582222 -8.6395712 -74.15432 -0.23337783 -91.89196
9203937500 -1.0609336 124.09585 -8.647912 -73.584702 -8.6364527 -74.15271 -0.23213319 -91.84726
9204000000 -1.0625119 124.07507 -8.6490908 -73.571808 -8.6427288 -74.112816 -0.22865227 -91.857262
9204062500 -1.0599523 124.09055 -8.6396284 -73.558014 -8.6355963 -74.109291 -0.22841461 -91.822189
9204125000 -1.0599358 124.11435 -8.6430206 -73.516624 -8.6409674 -74.127731 -0.22695327 -91.799812
9204187500 -1.0608768 124.08645 -8.6468124 -73.547935 -8.6351223 -74.101135 -0.22677784 -91.779259
9204250000 -1.0568812 124.05595 -8.6346216 -73.568695 -8.6387243 -74.145142 -0.22183944 -91.773392
9204312500 -1.0584712 124.07533 -8.6425657 -73.513199 -8.6359835 -74.100006 -0.22769025 -91.736633
9204375000 -1.0572857 124.04751 -8.6384354 -73.533356 -8.6359501 -74.088318 -0.2323883 -91.705177
9204437500 -1.0517111 124.03916 -8.6324377 -73.473389 -8.6358604 -74.09919 -0.22747214 -91.653091
9204500000 -1.0561405 123.98235 -8.639205 -73.499153 -8.6295614 -74.102333 -0.23007418 -91.663116
9204562500 -1.0527213 123.99945 -8.6227684 -73.472061 -8.6296511 -74.116272 -0.22921741 -91.669388
9204625000 -1.0556004 123.97379 -8.6396856 -73.475273 -8.6325188 -74.084076 -0.23312955 -91.661926
9204687500 -1.0555969 123.9428 -8.6294632 -73.522751 -8.6379538 -74.119926 -0.23790814 -91.628006
9204750000 -1.0631639 123.94105 -8.6422157 -73.503174 -8.6183643 -74.066437 -0.23583095 -91.596664
9204812500 -1.0588702 123.92834 -8.6387167 -73.523132 -8.6264162 -74.065178 -0.2378296 -91.613052
9204875000 -1.0594876 123.90577 -8.6347637 -73.560303 -8.6275978 -74.103539 -0.2408521 -91.567741
9204937500 -1.0629365 123.87149 -8.6428089 -73.554482 -8.6202841 -74.064026 -0.23162813 -91.547874
9205000000 -1.0623382 123.81631 -8.6365204 -73.598206 -8.6289644 -74.096451 -0.23814401 -91.54052
9205062500 -1.0596905 123.86368 -8.6338997 -73.58847 -8.6307125 -74.090607 -0.23551306 -91.551613
9205125000 -1.0603578 123.86597 -8.6300659 -73.523232 -8.6289721 -74.088783 -0.23291963 -91.480042
9205187500 -1.0597377 123.89063 -8.63414 -73.458527 -8.6255655 -74.138184 -0.22982882 -91.508446
9205250000 -1.0589865 123.83912 -8.6240091 -73.518562 -8.625721 -74.149849 -0.22891437 -91.466118
9205312500 -1.0592185 123.82458 -8.6293716 -73.488129 -8.6292124 -74.116974 -0.22275558 -91.450546
9205375000 -1.0614347 123.84446 -8.6319323 -73.50753 -8.622427 -74.115112 -0.22423014 -91.383232
9205437500 -1.0631536 123.84742 -8.6299248 -73.448769 -8.6181192 -74.132111 -0.22522309 -91.360481
9205500000 -1.0600191 123.81982 -8.6344748 -73.406204 -8.6240215 -74.103752 -0.23373696 -91.346275
9205562500 -1.0616696 123.79063 -8.6345024 -73.456886 -8.6228075 -74.075714 -0.23467784 -91.273758
9205625000 -1.0579995 123.77452 -8.6298761 -73.391945 -8.6211109 -74.079468 -0.2375198 -91.29879
9205687500 -1.0633645 123.74218 -8.63414 -73.461746 -8.6124592 -74.091461 -0.2355935 -91.304642
9205750000 -1.057766 123.72268 -8.6242762 -73.435326 -8.6215506 -74.094856 -0.24475956 -91.244576
9205812500 -1.0609671 123.67516 -8.6258593 -73.44149 -8.618062 -74.064735 -0.23714145 -91.263298
9205875000 -1.0661598 123.66799 -8.6344147 -73.45063 -8.6169071 -74.029724 -0.24307384 -91.195274
9205937500 -1.0596133 123.64288 -8.621254 -73.407173 -8.6144438 -74.044029 -0.24053393 -91.204697
9206000000 -1.0665476 123.64941 -8.6324539 -73.471657 -8.6111469 -74.057877 -0.23971398 -91.209908
9206062500 -1.0604279 123.64545 -8.6246576 -73.458046 -8.6201935 -74.079468 -0.2451726 -91.193314
9206125000 -1.0651854 123.63428 -8.6277151 -73.426895 -8.6184187 -74.077309 -0.24556337 -91.135109
9206187500 -1.0628588 123.62247 -8.6210775 -73.495773 -8.624155 -74.075653 -0.25165105 -91.182968
9206250000 -1.0615909 123.60393 -8.6113853 -73.459213 -8.6153822 -74.082932 -0.24579562 -91.166931
9206312500 -1.0621105 123.5648 -8.6109304 -73.462509 -8.6098042 -74.055145 -0.24375269 -91.132019
9206375000 -1.06628 123.51437 -8.6183739 -73.522797 -8.6101217 -74.075424 -0.24564236 -91.103035
9206437500 -1.0617115 123.51965 -8.6171246 -73.474747 -8.6132774 -74.06459 -0.24646962 -91.091858
9206500000 -1.0607426 123.51728 -8.611248 -73.503716 -8.6085272 -74.01329 -0.2408253 -91.042999
9206562500 -1.0630842 123.51299 -8.6091022 -73.495079 -8.6088409 -74.054855 -0.23848899 -91.07251
9206625000 -1.0641662 123.50844 -8.6093512 -73.548027 -8.6189699 -74.026031 -0.24851178 -91.015602
9206687500 -1.0657417 123.52991 -8.6167364 -73.493958 -8.5989151 -74.038628 -0.23450021 -91.040001
9206750000 -1.0657552 123.5286 -8.6167793 -73.486931 -8.60711 -74.029289 -0.23625064 -91.008179
9206812500 -1.0666105 123.52421 -8.6141405 -73.492737 -8.6016445 -74.004715 -0.22962084 -91.025368
9206875000 -1.0676101 123.50828 -8.6144066 -73.53598 -8.5935793 -74.013313 -0.2257511 -91.008987
9206937500 -1.066209 123.48597 -8.614481 -73.548882 -8.6008854 -74.070244 -0.23122299 -91.058517
9207000000 -1.0571955 123.46774 -8.6148319 -73.525665 -8.5991707 -74.055969 -0.23234478 -90.98365
9207062500 -1.0633844 123.42668 -8.6127052 -73.474205 -8.5900192 -74.077797 -0.22839656 -90.950081
9207125000 -1.0591398 123.40038 -8.6103048 -73.473564 -8.5950603 -74.042206 -0.23551497 -90.914635
9207187500 -1.0600365 123.36938 -8.6129026 -73.518906 -8.5941877 -74.053886 -0.23309302 -90.921638
9207250000 -1.068056 123.35658 -8.6166306 -73.456177 -8.5893497 -74.046402 -0.23110743 -90.877792
9207312500 -1.0614741 123.349 -8.6118536 -73.431602 -8.5964136 -74.060204 -0.23895802 -90.872215
9207375000 -1.0616486 123.35137 -8.6087732 -73.443146 -8.5977316 -74.06073 -0.24054337 -90.864456
9207437500 -1.0604775 123.30936 -8.6057568 -73.47979 -8.5981703 -74.062164 -0.24579626 -90.841339
9207500000 -1.0630838 123.29729 -8.607029 -73.463387 -8.5998926 -74.031929 -0.24245067 -90.801262
9207562500 -1.0630916 123.30669 -8.6047592 -73.479568 -8.6015387 -74.10688 -0.24904792 -90.866867
9207625000 -1.0679665 123.25703 -8.6114559 -73.493141 -8.5979776 -74.030754 -0.25021014 -90.805939
9207687500 -1.0663415 123.23997 -8.6099834 -73.494545 -8.6049252 -74.062752 -0.24726197 -90.82428
9207750000 -1.0712932 123.25605 -8.6066904 -73.453888 -8.6006536 -74.07843 -0.23931144 -90.766655
9207812500 -1.0711352 123.24388 -8.5986004 -73.503052 -8.5938005 -74.043243 -0.22931285 -90.792442
9207875000 -1.073689 123.21455 -8.6071243 -73.523262 -8.5944004 -74.024696 -0.23131537 -90.735527
9207937500 -1.072572 123.21017 -8.6004257 -73.527946 -8.5908661 -74.002022 -0.23239481 -90.71138
9208000000 -1.0687839 123.23158 -8.5944557 -73.523994 -8.5957031 -74.060448 -0.23403113 -90.718796
9208062500 -1.0725843 123.24858 -8.5959415 -73.41127 -8.599596 -74.045715 -0.23726681 -90.698898
9208125000 -1.0719571 123.18879 -8.5929937 -73.502769 -8.5923433 -74.043198 -0.2334969 -90.668175
9208187500 -1.067986 123.21079 -8.5902662 -73.430382 -8.5913553 -74.057289 -0.23630869 -90.624359
9208250000 -1.0642768 123.18243 -8.5874729 -73.435822 -8.5910358 -74.039406 -0.23610486 -90.58345
9208312500 -1.0673014 123.15471 -8.5917521 -73.472343 -8.5882254 -74.037689 -0.24134228 -90.533913
9208375000 -1.066115 123.1549 -8.5934668 -73.463509 -8.5902996 -74.098709 -0.24183804 -90.563873
9208437500 -1.0635339 123.14792 -8.584197 -73.357079 -8.5897837 -74.024551 -0.23838164 -90.544586
9208500000 -1.0698243 123.12437 -8.5943518 -73.40226 -8.5855303 -74.022514 -0.23740053 -90.55439
9208562500 -1.0622171 123.1329 -8.5936728 -73.434723 -8.5832176 -73.997864 -0.24015625 -90.491188
9208625000 -1.0672109 123.09133 -8.5902586 -73.433311 -8.5886822 -74.013184 -0.24386732 -90.541885
9208687500 -1.0647812 123.06831 -8.5813675 -73.399467 -8.5904226 -73.975754 -0.24574894 -90.539551
9208750000 -1.0536214 123.05977 -8.578907 -73.416824 -8.5899973 -73.990067 -0.24327332 -90.532356
9208812500 -1.0547104 123.04723 -8.5792208 -73.401299 -8.5829372 -73.985039 -0.24285983 -90.468674
9208875000 -1.0577465 123.06024 -8.5851965 -73.361534 -8.5847578 -73.980064 -0.25030369 -90.449699
9208937500 -1.0606045 123.03658 -8.5942459 -73.380051 -8.5834427 -74.021759 -0.25374475 -90.434067
9209000000 -1.0594146 123.04927 -8.5834103 -73.375328 -8.579957 -73.960625 -0.24542691 -90.422211
9209062500 -1.0599709 122.999 -8.5869427 -73.437263 -8.5738716 -73.977806 -0.24210867 -90.402588
9209125000 -1.0584328 123.00391 -8.5955086 -73.37764 -8.5786419 -74.013214 -0.24998528 -90.387939
9209187500 -1.0647842 123.00864 -8.5874548 -73.396645 -8.578826 -74.018837 -0.24754703 -90.35289
9209250000 -1.0595758 122.9635 -8.5852432 -73.401131 -8.5790634 -73.952965 -0.24845445 -90.318474
9209312500 -1.0571198 122.94876 -8.5877209 -73.391464 -8.5721378 -73.984901 -0.25037041 -90.312111
9209375000 -1.0586766 122.91383 -8.5805941 -73.391434 -8.5720739 -74.000404 -0.24359575 -90.333656
9209437500 -1.0545839 122.8876 -8.5764322 -73.369377 -8.5807772 -73.980644 -0.24787764 -90.310631
9209500000 -1.0565177 122.88218 -8.5805044 -73.375763 -8.5797367 -74.008362 -0.24453279 -90.292671
9209562500 -1.0556008 122.87841 -8.5771561 -73.3722 -8.5729485 -73.948227 -0.24348313 -90.239159
9209625000 -1.059028 122.87523 -8.574749 -73.361488 -8.5819378 -74.021141 -0.24383122 -90.23082
9209687500 -1.0567991 122.83417 -8.5751896 -73.414848 -8.575408 -73.971939 -0.24238136 -90.210922
9209750000 -1.062873 122.82758 -8.5728121 -73.413864 -8.5851088 -74.018921 -0.24547891 -90.225365
9209812500 -1.0641726 122.81447 -8.5743017 -73.380699 -8.5741692 -73.938484 -0.23874739 -90.204521
9209875000 -1.0690336 122.82183 -8.5771866 -73.390717 -8.5727243 -73.987816 -0.23880383 -90.171272
9209937500 -1.0724313 122.80643 -8.5765524 -73.36879 -8.5618391 -73.981705 -0.23454037 -90.185577
9210000000 -1.0679079 122.77261 -8.5749741 -73.410561 -8.5725937 -74.027367 -0.24016398 -90.176216
9210062500 -1.0748599 122.80018 -8.5719585 -73.386215 -8.5638876 -73.977844 -0.23810379 -90.130699
9210125000 -1.0659801 122.82423 -8.5729094 -73.344582 -8.5607805 -73.971336 -0.23848391 -90.115479
9210187500 -1.0694194 122.81223 -8.5785551 -73.379776 -8.5679836 -74.022614 -0.24585544 -90.09861
9210250000 -1.0695891 122.75264 -8.5768785 -73.325333 -8.5535746 -73.955109 -0.24398601 -90.065468
9210312500 -1.0673072 122.75364 -8.5700808 -73.348076 -8.5596323 -73.952072 -0.24418999 -90.015366
9210375000 -1.0650959 122.70939 -8.5688133 -73.37706 -8.5689573 -73.941948 -0.24897 -90.035812
9210437500 -1.064495 122.65174 -8.5686951 -73.385925 -8.5627079 -73.996109 -0.24612716 -90.06646
9210500000 -1.065416 122.66627 -8.5700855 -73.367676 -8.5727901 -74.001022 -0.25815758 -90.013878
9210562500 -1.0667574 122.66518 -8.5653467 -73.385567 -8.5626307 -73.988831 -0.25119114 -90.033157
9210625000 -1.062848 122.59155 -8.5583239 -73.372864 -8.5637035 -74.049667 -0.25268868 -90.052505
9210687500 -1.0710763 122.56433 -8.5664244 -73.415535 -8.5637865 -73.975563 -0.25594628 -89.978043
9210750000 -1.0610923 122.54487 -8.5534201 -73.414154 -8.5619564 -73.959145 -0.24958897 -89.938301
9210812500 -1.0648949 122.55302 -8.5545263 -73.411491 -8.5585175 -73.95713 -0.24648285 -89.9245
9210875000 -1.0623343 122.56585 -8.5529842 -73.377701 -8.5561857 -73.965057 -0.2491951 -89.913292
9210937500 -1.0664371 122.55318 -8.5638199 -73.39402 -8.5492649 -73.89827 -0.24327973 -89.819267
9211000000 -1.0671079 122.52328 -8.5565968 -73.416031 -8.5621948 -73.928978 -0.25526378 -89.830536
9211062500 -1.0625478 122.52407 -8.5566168 -73.36628 -8.5517206 -73.865913 -0.25496405 -89.769012
9211125000 -1.0649736 122.51253 -8.5575657 -73.372627 -8.5552826 -73.872238 -0.25351855 -89.779243
9211187500 -1.0683291 122.50333 -8.554512 -73.391525 -8.5499201 -73.939217 -0.25527033 -89.759995
9211250000 -1.0614684 122.50385 -8.5611563 -73.334656 -8.5522318 -73.955238 -0.25417781 -89.797081
9211312500 -1.064839 122.50243 -8.5520353 -73.358955 -8.5469027 -73.950974 -0.25090155 -89.743683
9211375000 -1.0724659 122.4885 -8.5680227 -73.351273 -8.5400267 -73.898277 -0.24725695 -89.732414
9211437500 -1.0671847 122.45954 -8.5543079 -73.38044 -8.5456514 -73.940361 -0.25051153 -89.738289
9211500000 -1.0580683 122.46968 -8.5443907 -73.333557 -8.5462894 -73.969208 -0.24541216 -89.761322
9211562500 -1.0590086 122.46514 -8.5605955 -73.361015 -8.5553036 -73.87265 -0.25404438 -89.695229
9211625000 -1.0593364 122.43128 -8.5477085 -73.381592 -8.5562735 -73.923393 -0.24781173 -89.786362
9211687500 -1.0593547 122.44309 -8.5563974 -73.403328 -8.5507908 -73.919464 -0.24812959 -89.766273
9211750000 -1.0575674 122.4603 -8.5495176 -73.404655 -8.5488482 -73.945442 -0.24939929 -89.792007
9211812500 -1.0608413 122.4204 -8.5504103 -73.384064 -8.5455456 -73.96801 -0.24929261 -89.748024
9211875000 -1.0566125 122.41188 -8.5422258 -73.325172 -8.5481806 -73.884148 -0.25342441 -89.657845
9211937500 -1.0605912 122.3337 -8.5453606 -73.350273 -8.5486097 -73.873734 -0.25097963 -89.627953
9212000000 -1.0599542 122.32772 -8.544632 -73.334236 -8.542037 -73.92601 -0.25604355 -89.601135
9212062500 -1.0608587 122.306 -8.5510511 -73.31723 -8.5466471 -73.920753 -0.25444189 -89.582832
9212125000 -1.0637434 122.29369 -8.5472431 -73.334679 -8.540782 -73.897232 -0.2471195 -89.529465
9212187500 -1.0633368 122.25647 -8.5430279 -73.253197 -8.5395021 -73.948898 -0.25155857 -89.542213
9212250000 -1.0657153 122.23357 -8.5432806 -73.291458 -8.5373449 -73.92086 -0.252689 -89.510712
9212312500 -1.0594068 122.17769 -8.5273657 -73.376343 -8.5347176 -73.954712 -0.24926427 -89.515503
