!Agilent Technologies,N5242A,MY51221714,A.09.90.19
!Agilent N5242A: A.09.90.19
!Date: Saturday, December 30, 2023 10:01:17
!Correction: S11(Full 2 Port(1,2)) 
!S21(Full 2 Port(1,2)) 
!S12(Full 2 Port(1,2)) 
!S22(Full 2 Port(1,2)) 
!S2P File: Measurements: S11, S21, S12, S22:
# Hz S  dB   R 50
9200000000 -1.0685574 124.80096 -8.6142368 -73.787712 -8.5998363 -74.390579 -0.23558897 -92.95208
9200062500 -1.0648214 124.81786 -8.6155558 -73.7621 -8.6062384 -74.406113 -0.24351554 -92.875015
9200125000 -1.0745476 124.79283 -8.6150942 -73.776619 -8.5964508 -74.399155 -0.2405552 -92.900444
9200187500 -1.073457 124.77137 -8.6194382 -73.762962 -8.594245 -74.323883 -0.23526767 -92.787537
9200250000 -1.0752642 124.75983 -8.6234837 -73.766441 -8.6060743 -74.375252 -0.23858254 -92.849136
9200312500 -1.0729008 124.71752 -8.6222305 -73.782707 -8.592597 -74.358803 -0.23524629 -92.832855
9200375000 -1.074877 124.71983 -8.627965 -73.766678 -8.6019354 -74.447472 -0.24352691 -92.82975
9200437500 -1.0785286 124.69856 -8.6236315 -73.812889 -8.5993214 -74.347939 -0.23703606 -92.809448
9200500000 -1.0782416 124.6843 -8.6288738 -73.770012 -8.6037254 -74.398933 -0.24282585 -92.793747
9200562500 -1.0778314 124.65096 -8.614439 -73.772728 -8.5944376 -74.328743 -0.23362492 -92.71051
9200625000 -1.0771958 124.62851 -8.6174545 -73.84597 -8.6005869 -74.329498 -0.24197903 -92.7547
9200687500 -1.070869 124.61347 -8.6032629 -73.764519 -8.5906134 -74.434486 -0.23570874 -92.768044
9200750000 -1.0756814 124.58093 -8.6134748 -73.776985 -8.5901012 -74.385155 -0.23643735 -92.726456
9200812500 -1.0722302 124.55782 -8.610939 -73.841988 -8.5889835 -74.379311 -0.23192444 -92.68428
9200875000 -1.0676588 124.56111 -8.6031647 -73.827477 -8.5838356 -74.353416 -0.2356675 -92.683296
9200937500 -1.0766442 124.54665 -8.6118336 -73.799644 -8.5845423 -74.325363 -0.23429132 -92.630646
9201000000 -1.0729712 124.55791 -8.6152182 -73.83358 -8.5964861 -74.358032 -0.24317841 -92.662071
9201062500 -1.074257 124.60338 -8.6096096 -73.764008 -8.5900688 -74.377708 -0.24311937 -92.638283
9201125000 -1.0729022 124.59281 -8.6210356 -73.781303 -8.5970821 -74.289742 -0.24388276 -92.620499
9201187500 -1.0763341 124.58617 -8.6197672 -73.847916 -8.6031351 -74.311653 -0.25266182 -92.6063
9201250000 -1.0722374 124.61922 -8.6126547 -73.744225 -8.6051588 -74.349007 -0.25598925 -92.613007
9201312500 -1.0719868 124.58456 -8.6069813 -73.660484 -8.5959349 -74.386009 -0.25006363 -92.611816
9201375000 -1.0752686 124.57265 -8.6066027 -73.729202 -8.59443 -74.352402 -0.24598536 -92.53788
9201437500 -1.0746728 124.57556 -8.59373 -73.707237 -8.5880346 -74.374718 -0.24396169 -92.530449
9201500000 -1.0736513 124.53039 -8.5998192 -73.669113 -8.5934505 -74.397316 -0.24019207 -92.533638
9201562500 -1.0772182 124.52354 -8.594738 -73.690651 -8.5875473 -74.407661 -0.24165908 -92.477783
9201625000 -1.0751853 124.49547 -8.5981865 -73.653137 -8.584466 -74.400429 -0.24740642 -92.426872
9201687500 -1.0761836 124.47519 -8.5969334 -73.681847 -8.5890007 -74.315674 -0.24375996 -92.403107
9201750000 -1.0719569 124.449 -8.5900841 -73.722176 -8.5836554 -74.37558 -0.24203849 -92.462791
9201812500 -1.077642 124.45509 -8.5941563 -73.760063 -8.5770578 -74.343872 -0.24147163 -92.412582
9201875000 -1.0762608 124.45631 -8.5934362 -73.677681 -8.5865955 -74.291519 -0.24790809 -92.392609
9201937500 -1.0753168 124.42202 -8.5973263 -73.728378 -8.5868797 -74.333214 -0.24846688 -92.400429
9202000000 -1.0738699 124.4201 -8.6036682 -73.709633 -8.5846701 -74.300339 -0.25544566 -92.393532
9202062500 -1.0741845 124.39153 -8.5914812 -73.728256 -8.583293 -74.302505 -0.24901645 -92.394409
9202125000 -1.0763352 124.37362 -8.5945616 -73.751122 -8.5803909 -74.357704 -0.24870935 -92.428398
9202187500 -1.0703152 124.34263 -8.59443 -73.780067 -8.5855865 -74.329971 -0.25407535 -92.336708
9202250000 -1.0733314 124.32858 -8.5902433 -73.705994 -8.582016 -74.28141 -0.24919492 -92.304413
9202312500 -1.0641392 124.30603 -8.5878048 -73.736832 -8.5841246 -74.343735 -0.24679898 -92.32
9202375000 -1.0697745 124.2587 -8.5832071 -73.811195 -8.5888529 -74.282959 -0.24955246 -92.252213
9202437500 -1.0741401 124.27833 -8.5940399 -73.805801 -8.5763016 -74.388916 -0.24771535 -92.318794
9202500000 -1.0741146 124.2774 -8.5963793 -73.672783 -8.5807028 -74.342461 -0.24956845 -92.248001
9202562500 -1.0711377 124.27099 -8.5881023 -73.745293 -8.5762634 -74.365707 -0.24365807 -92.234268
9202625000 -1.0714196 124.23274 -8.598814 -73.698212 -8.5754814 -74.400108 -0.24630527 -92.266815
9202687500 -1.0726907 124.22661 -8.5862532 -73.702888 -8.5784531 -74.300819 -0.24956672 -92.200577
9202750000 -1.0723813 124.21214 -8.5887117 -73.705193 -8.5841093 -74.389793 -0.25189665 -92.22876
9202812500 -1.0712385 124.23318 -8.5878077 -73.704025 -8.5701885 -74.336662 -0.25220546 -92.169304
9202875000 -1.0707787 124.18942 -8.5863352 -73.726707 -8.5699272 -74.373886 -0.24884187 -92.195763
9202937500 -1.0733435 124.17599 -8.5925465 -73.64949 -8.5637074 -74.321075 -0.24831077 -92.109039
9203000000 -1.0710604 124.13155 -8.5863647 -73.71801 -8.5658092 -74.383484 -0.25156453 -92.164162
9203062500 -1.0701741 124.13829 -8.5796375 -73.726707 -8.5736799 -74.337341 -0.25486556 -92.123322
9203125000 -1.0672628 124.13436 -8.5857573 -73.690926 -8.5673523 -74.323891 -0.25350797 -92.113319
9203187500 -1.0644935 124.12018 -8.5798569 -73.773422 -8.5765152 -74.297791 -0.25608674 -92.058746
9203250000 -1.0730842 124.10172 -8.5795612 -73.710258 -8.5721178 -74.316032 -0.25110403 -92.033783
9203312500 -1.0728004 124.08624 -8.5805998 -73.629028 -8.5777283 -74.270012 -0.25595742 -91.95121
9203375000 -1.0680348 124.11774 -8.5706873 -73.679779 -8.5768852 -74.294083 -0.2492771 -91.935593
9203437500 -1.071909 124.07693 -8.5637274 -73.680397 -8.5773325 -74.297592 -0.25238547 -92.005348
9203500000 -1.0757382 124.12009 -8.5602331 -73.684059 -8.5745907 -74.319588 -0.24680309 -91.983116
9203562500 -1.0757043 124.06099 -8.569416 -73.692451 -8.5730896 -74.305824 -0.24943189 -91.976028
9203625000 -1.0749573 124.01241 -8.5705318 -73.756012 -8.5628452 -74.33493 -0.25134841 -91.96534
9203687500 -1.0747133 123.98699 -8.5781031 -73.715302 -8.5706158 -74.280487 -0.25045958 -91.923378
9203750000 -1.0735643 123.98521 -8.5717812 -73.759117 -8.5617275 -74.307274 -0.25162706 -91.943947
9203812500 -1.0749518 123.98165 -8.5787582 -73.748756 -8.5724049 -74.308205 -0.25566632 -91.934685
9203875000 -1.0737461 123.94545 -8.5750217 -73.729805 -8.5635996 -74.318802 -0.2509813 -91.916718
9203937500 -1.0730109 123.93505 -8.5726109 -73.729507 -8.5638638 -74.304794 -0.24984771 -91.898468
9204000000 -1.0763036 123.93797 -8.5731888 -73.678085 -8.5566721 -74.314117 -0.24364032 -91.880318
9204062500 -1.0682673 123.94022 -8.5680761 -73.711403 -8.5658064 -74.313774 -0.24774989 -91.865448
9204125000 -1.0690169 123.885 -8.57407 -73.719193 -8.5655184 -74.279915 -0.24598306 -91.812172
9204187500 -1.0727421 123.92271 -8.5577106 -73.650475 -8.554554 -74.339355 -0.23933782 -91.878952
9204250000 -1.0675497 123.88332 -8.5643206 -73.712135 -8.560339 -74.322121 -0.24539481 -91.801025
9204312500 -1.0703274 123.87204 -8.5646992 -73.724289 -8.5528393 -74.272629 -0.24240024 -91.799149
9204375000 -1.0640961 123.8405 -8.5554657 -73.680199 -8.5551491 -74.286934 -0.25157115 -91.746315
9204437500 -1.0644947 123.85191 -8.5609922 -73.642593 -8.5571795 -74.272369 -0.25040254 -91.715698
9204500000 -1.067535 123.83432 -8.5525923 -73.644775 -8.5547409 -74.282707 -0.25385836 -91.727379
9204562500 -1.0647801 123.79056 -8.5551281 -73.665268 -8.5481997 -74.278755 -0.25725776 -91.710625
9204625000 -1.0655771 123.77523 -8.5537663 -73.638298 -8.549962 -74.279243 -0.2573204 -91.685532
9204687500 -1.0683026 123.77661 -8.5549784 -73.661125 -8.5497093 -74.269447 -0.25418991 -91.653389
9204750000 -1.0663974 123.79322 -8.5559587 -73.604958 -8.544939 -74.293236 -0.2565276 -91.631828
9204812500 -1.0733209 123.7219 -8.568615 -73.642693 -8.5455914 -74.249329 -0.25456175 -91.593781
9204875000 -1.0758915 123.70228 -8.5564899 -73.705002 -8.5468702 -74.229836 -0.25163206 -91.610161
9204937500 -1.073166 123.71046 -8.5564308 -73.739517 -8.5445309 -74.324722 -0.25811806 -91.612289
9205000000 -1.0729979 123.70262 -8.556078 -73.682167 -8.5468082 -74.247826 -0.25816965 -91.598137
9205062500 -1.0764283 123.69287 -8.5633526 -73.715256 -8.5508699 -74.323029 -0.25369576 -91.616493
9205125000 -1.0755951 123.69563 -8.5592833 -73.668083 -8.5441818 -74.24498 -0.24914412 -91.528038
9205187500 -1.0706642 123.69197 -8.5462132 -73.719582 -8.5467482 -74.23806 -0.24389099 -91.504173
9205250000 -1.0705765 123.69641 -8.551568 -73.641586 -8.5541582 -74.328598 -0.25062698 -91.485252
9205312500 -1.0672859 123.66884 -8.5453548 -73.672371 -8.558588 -74.364403 -0.24525258 -91.503899
9205375000 -1.071004 123.69265 -8.5522041 -73.644295 -8.5455189 -74.324142 -0.24679741 -91.440216
9205437500 -1.0716275 123.66814 -8.550786 -73.635574 -8.5403185 -74.305138 -0.24933068 -91.421379
9205500000 -1.0759343 123.62935 -8.5605583 -73.611015 -8.5443382 -74.249573 -0.25546107 -91.399887
9205562500 -1.0689102 123.5836 -8.5452185 -73.599396 -8.5369101 -74.27256 -0.2538439 -91.362465
9205625000 -1.0721993 123.59021 -8.5535564 -73.589684 -8.5461874 -74.219658 -0.261666 -91.297745
9205687500 -1.0693784 123.5549 -8.5543385 -73.593933 -8.5395336 -74.233742 -0.26220244 -91.310867
9205750000 -1.0707176 123.52969 -8.5514603 -73.585533 -8.5326338 -74.234077 -0.26307347 -91.28978
9205812500 -1.0712519 123.50127 -8.5477886 -73.611305 -8.533741 -74.193634 -0.25849333 -91.243454
9205875000 -1.0686754 123.4952 -8.5509701 -73.585846 -8.5381756 -74.209778 -0.26289037 -91.251534
9205937500 -1.0766495 123.48093 -8.5458727 -73.638596 -8.5405302 -74.209106 -0.25949234 -91.2155
9206000000 -1.0717647 123.48974 -8.5438366 -73.556763 -8.5375957 -74.182312 -0.25891298 -91.178932
9206062500 -1.0723014 123.45834 -8.5460854 -73.616501 -8.5398169 -74.213943 -0.25733525 -91.205078
9206125000 -1.0731716 123.44968 -8.5354986 -73.63871 -8.5371895 -74.262871 -0.25648645 -91.216805
9206187500 -1.0735271 123.42194 -8.5432606 -73.632767 -8.5395365 -74.227188 -0.26436591 -91.207527
9206250000 -1.0699495 123.40103 -8.5394678 -73.667038 -8.5370626 -74.199295 -0.26076102 -91.196655
9206312500 -1.0709336 123.3763 -8.5321207 -73.596779 -8.5352173 -74.24527 -0.2673088 -91.117119
9206375000 -1.0703602 123.38628 -8.5322733 -73.64872 -8.5361195 -74.225525 -0.26113984 -91.136162
9206437500 -1.0714074 123.36096 -8.5310154 -73.596214 -8.524539 -74.205673 -0.25966895 -91.102776
9206500000 -1.0714288 123.30606 -8.5393896 -73.622215 -8.5310345 -74.191734 -0.26226923 -91.096169
9206562500 -1.0732855 123.32821 -8.5256119 -73.686218 -8.5270386 -74.255157 -0.25780624 -91.115082
9206625000 -1.0761648 123.30894 -8.5342455 -73.667992 -8.5310001 -74.17041 -0.25697371 -91.065308
9206687500 -1.0779724 123.33692 -8.5387897 -73.697739 -8.5285702 -74.244011 -0.2540879 -91.126816
9206750000 -1.0757855 123.34242 -8.5316496 -73.68145 -8.517252 -74.206818 -0.24876374 -91.068016
9206812500 -1.0760703 123.36279 -8.5362072 -73.614723 -8.5207205 -74.225899 -0.25274584 -91.045433
9206875000 -1.0757378 123.35054 -8.5335684 -73.648781 -8.5226669 -74.164993 -0.25027034 -91.054123
9206937500 -1.0734417 123.31781 -8.5415936 -73.640488 -8.5149364 -74.196976 -0.25542504 -91.019272
9207000000 -1.072438 123.2949 -8.536727 -73.636803 -8.5210009 -74.222923 -0.25272939 -91.017273
9207062500 -1.0653106 123.26203 -8.5305891 -73.609734 -8.5152454 -74.235329 -0.24916942 -90.989853
9207125000 -1.072109 123.22456 -8.5333061 -73.66391 -8.5130634 -74.212181 -0.2545374 -90.945145
9207187500 -1.0697076 123.20197 -8.5320721 -73.590286 -8.5134621 -74.173431 -0.24621701 -90.914276
9207250000 -1.0718323 123.19723 -8.5284376 -73.606453 -8.5065765 -74.245827 -0.25425249 -90.937096
9207312500 -1.0674866 123.17211 -8.5261841 -73.581078 -8.5123491 -74.182533 -0.25824115 -90.850403
9207375000 -1.0739439 123.13515 -8.5316 -73.623405 -8.5116358 -74.209511 -0.25895977 -90.902122
9207437500 -1.0726755 123.14943 -8.523818 -73.606796 -8.512991 -74.199158 -0.26040581 -90.862709
9207500000 -1.0742662 123.13487 -8.5258713 -73.680656 -8.5234222 -74.172112 -0.26954615 -90.864906
9207562500 -1.0795038 123.13 -8.5249834 -73.593185 -8.5156727 -74.232628 -0.26578543 -90.881027
9207625000 -1.0752469 123.07835 -8.5210953 -73.603035 -8.5175018 -74.205414 -0.26650903 -90.840157
9207687500 -1.0765694 123.06601 -8.5123301 -73.657074 -8.523057 -74.140816 -0.26589212 -90.781815
9207750000 -1.0793264 123.06351 -8.5184603 -73.607468 -8.5185432 -74.188438 -0.26025689 -90.798409
9207812500 -1.0803672 123.09527 -8.5211964 -73.576065 -8.5135746 -74.21434 -0.25840485 -90.824677
9207875000 -1.0794923 123.07806 -8.5174999 -73.635674 -8.5169592 -74.172653 -0.2563377 -90.774216
9207937500 -1.0815518 123.07703 -8.5211782 -73.61734 -8.5216112 -74.203056 -0.25809404 -90.767105
9208000000 -1.0851221 123.05604 -8.5290442 -73.716484 -8.5190258 -74.242416 -0.24965549 -90.734253
9208062500 -1.0765786 123.04933 -8.5124931 -73.629936 -8.5197096 -74.195602 -0.25686911 -90.723763
9208125000 -1.0814563 122.99924 -8.5154247 -73.612305 -8.5159092 -74.192627 -0.25690597 -90.692993
9208187500 -1.0793269 123.0416 -8.515933 -73.596527 -8.5152607 -74.159531 -0.25696033 -90.636948
9208250000 -1.0741673 122.95604 -8.5052385 -73.600739 -8.5146303 -74.211792 -0.2552762 -90.639244
9208312500 -1.0756816 123.00534 -8.5058041 -73.553017 -8.5163765 -74.262428 -0.26292777 -90.617043
9208375000 -1.0764793 122.97083 -8.5102186 -73.518089 -8.5129185 -74.216858 -0.26249087 -90.569359
9208437500 -1.0715855 122.96158 -8.5025959 -73.575516 -8.5153103 -74.200439 -0.26264727 -90.571808
9208500000 -1.0781386 122.96658 -8.5025311 -73.578545 -8.5142632 -74.22229 -0.2602604 -90.576172
9208562500 -1.07656 122.93475 -8.5066671 -73.555901 -8.5071154 -74.169525 -0.25989011 -90.56311
9208625000 -1.0729647 122.91283 -8.5097561 -73.549332 -8.5047512 -74.193535 -0.25622568 -90.558617
9208687500 -1.0721084 122.89729 -8.5058641 -73.592255 -8.5076799 -74.166481 -0.25717708 -90.549118
9208750000 -1.0710099 122.90286 -8.5024786 -73.496063 -8.4988422 -74.161346 -0.25459108 -90.553055
9208812500 -1.069718 122.88886 -8.5065889 -73.606506 -8.5031242 -74.194412 -0.26882946 -90.554298
9208875000 -1.0741296 122.87098 -8.5093298 -73.526382 -8.4945831 -74.144249 -0.26383957 -90.477974
9208937500 -1.0680543 122.84898 -8.5013866 -73.571373 -8.5026531 -74.153572 -0.27213052 -90.471046
9209000000 -1.0683657 122.85498 -8.5058002 -73.510178 -8.4989424 -74.140533 -0.26536557 -90.472046
9209062500 -1.0751436 122.83414 -8.5079727 -73.563904 -8.5007248 -74.148178 -0.26843125 -90.426605
9209125000 -1.0689691 122.83479 -8.508954 -73.574829 -8.4962873 -74.14183 -0.26942906 -90.424957
9209187500 -1.0706986 122.80637 -8.5065708 -73.603676 -8.498744 -74.183563 -0.27050874 -90.416992
9209250000 -1.0714948 122.76858 -8.5095654 -73.543594 -8.4920769 -74.118248 -0.26528069 -90.374313
9209312500 -1.0726082 122.75362 -8.5097208 -73.581558 -8.4979143 -74.142921 -0.26719028 -90.343353
9209375000 -1.0764184 122.72409 -8.5156574 -73.566223 -8.4977665 -74.184219 -0.27786064 -90.377357
9209437500 -1.0692346 122.71497 -8.5039129 -73.535629 -8.5001421 -74.195129 -0.27035666 -90.336502
9209500000 -1.0679748 122.72919 -8.4998798 -73.491493 -8.4957314 -74.150093 -0.26574293 -90.316521
9209562500 -1.0661085 122.67892 -8.4944658 -73.548012 -8.4979362 -74.129311 -0.26775685 -90.290405
9209625000 -1.0715462 122.67221 -8.5003929 -73.603378 -8.5025415 -74.191582 -0.26682538 -90.29496
9209687500 -1.0772821 122.66653 -8.496994 -73.592545 -8.496789 -74.192863 -0.26300806 -90.306198
9209750000 -1.074747 122.65882 -8.4859877 -73.562675 -8.4985723 -74.180832 -0.26195937 -90.289474
9209812500 -1.0798126 122.62937 -8.5005646 -73.558456 -8.4949865 -74.147346 -0.25705376 -90.240326
9209875000 -1.0781482 122.61692 -8.4879789 -73.576408 -8.5028925 -74.187599 -0.26673549 -90.227249
9209937500 -1.0781298 122.58258 -8.5064783 -73.599213 -8.4951372 -74.123947 -0.26372641 -90.226685
9210000000 -1.0863893 122.60535 -8.5004387 -73.609581 -8.4841166 -74.150475 -0.25517872 -90.193367
9210062500 -1.0825962 122.61165 -8.4968939 -73.567589 -8.4859648 -74.141243 -0.25992289 -90.144684
9210125000 -1.0810766 122.58837 -8.4983978 -73.548225 -8.4847002 -74.154373 -0.26076859 -90.165138
9210187500 -1.0820706 122.58666 -8.4936762 -73.557106 -8.4809132 -74.172302 -0.26000598 -90.163292
9210250000 -1.0772285 122.55921 -8.4913025 -73.532242 -8.4818621 -74.109566 -0.26816994 -90.088287
9210312500 -1.0817734 122.58295 -8.494792 -73.521706 -8.4793568 -74.135696 -0.26310652 -90.077591
9210375000 -1.0762756 122.5107 -8.4932642 -73.505066 -8.4834442 -74.158722 -0.27122614 -90.071198
9210437500 -1.0778201 122.51164 -8.4895582 -73.533714 -8.4854031 -74.12397 -0.27224612 -90.069984
9210500000 -1.0784873 122.48051 -8.4853859 -73.525536 -8.4854755 -74.136108 -0.2690261 -90.098228
9210562500 -1.0751293 122.48547 -8.4873476 -73.507645 -8.4877996 -74.18927 -0.27532473 -90.080788
9210625000 -1.0706936 122.39137 -8.4740486 -73.522408 -8.4818716 -74.212601 -0.26815262 -90.062653
9210687500 -1.0773996 122.37792 -8.4811239 -73.575699 -8.4800005 -74.147133 -0.27077818 -90.036255
9210750000 -1.075352 122.35869 -8.4724483 -73.56498 -8.4816799 -74.074913 -0.26724547 -89.961174
9210812500 -1.0748451 122.3556 -8.4777699 -73.55912 -8.4852314 -74.180099 -0.27573004 -89.983391
9210875000 -1.0774409 122.3609 -8.4809008 -73.592522 -8.472023 -74.093651 -0.26905647 -89.943047
9210937500 -1.0784708 122.36683 -8.4785652 -73.539581 -8.4822693 -74.122948 -0.27121493 -89.91111
9211000000 -1.0720611 122.35717 -8.4757376 -73.52726 -8.479249 -74.09938 -0.27365419 -89.880287
9211062500 -1.0735266 122.30144 -8.4754229 -73.572128 -8.4732218 -74.109276 -0.2749981 -89.898758
9211125000 -1.0801425 122.33668 -8.4732237 -73.512848 -8.4737816 -74.046097 -0.27426851 -89.80439
9211187500 -1.081741 122.31682 -8.485158 -73.500877 -8.4700594 -74.079536 -0.27373996 -89.796104
9211250000 -1.079897 122.2826 -8.4788952 -73.513588 -8.4671726 -74.09671 -0.26915592 -89.813866
9211312500 -1.075554 122.29379 -8.4672575 -73.497353 -8.4716349 -74.096123 -0.2791003 -89.789612
9211375000 -1.0782154 122.26573 -8.4742603 -73.461342 -8.4698076 -74.056549 -0.27199286 -89.768074
9211437500 -1.0778215 122.27708 -8.4780045 -73.530945 -8.4712162 -74.157814 -0.27339306 -89.88073
9211500000 -1.0740775 122.27294 -8.4767046 -73.512566 -8.4656248 -74.094154 -0.26806784 -89.808891
9211562500 -1.0739849 122.27602 -8.4751053 -73.483185 -8.4671068 -74.110344 -0.27023754 -89.797592
9211625000 -1.0678983 122.26383 -8.4723349 -73.510277 -8.4741726 -74.125183 -0.27528834 -89.786118
9211687500 -1.0689222 122.25079 -8.46455 -73.517479 -8.4718876 -74.093971 -0.27532092 -89.824471
9211750000 -1.0710702 122.26409 -8.4741802 -73.559898 -8.4664993 -74.101631 -0.26624233 -89.772034
9211812500 -1.0710262 122.25896 -8.4652481 -73.513824 -8.4741926 -74.083549 -0.27567583 -89.775162
9211875000 -1.0704548 122.20845 -8.4651337 -73.521034 -8.4679213 -74.084389 -0.27157667 -89.738541
9211937500 -1.0696826 122.13851 -8.4593468 -73.543129 -8.4646654 -74.075851 -0.2702626 -89.6763
9212000000 -1.0711988 122.15961 -8.4701633 -73.476929 -8.4624825 -74.066498 -0.27606383 -89.62606
9212062500 -1.0743915 122.12431 -8.4660006 -73.503517 -8.4614792 -74.112915 -0.27694634 -89.61496
9212125000 -1.0747366 122.11456 -8.471036 -73.454529 -8.4656038 -74.051018 -0.27618709 -89.547661
9212187500 -1.0752214 122.08163 -8.4654827 -73.508194 -8.4690533 -74.08094 -0.2771329 -89.577469
9212250000 -1.0733753 122.06141 -8.4622984 -73.458252 -8.4574871 -74.061554 -0.27218142 -89.533386
9212312500 -1.0802827 122.02084 -8.4651365 -73.461418 -8.4578686 -74.104004 -0.27359936 -89.560104
