!Agilent Technologies,N5242A,MY51221714,A.09.90.19
!Agilent N5242A: A.09.90.19
!Date: Saturday, December 30, 2023 09:53:56
!Correction: S11(Full 2 Port(1,2)) 
!S21(Full 2 Port(1,2)) 
!S12(Full 2 Port(1,2)) 
!S22(Full 2 Port(1,2)) 
!S2P File: Measurements: S11, S21, S12, S22:
# Hz S  dB   R 50
9200000000 -1.0634211 125.48087 -8.6350689 -73.870598 -8.6266909 -74.475319 -0.21882136 -93.820923
9200062500 -1.0646551 125.46227 -8.6374683 -73.918045 -8.6307745 -74.456688 -0.22430353 -93.823997
9200125000 -1.0669348 125.41834 -8.6431561 -73.927917 -8.6150875 -74.437958 -0.21894926 -93.775063
9200187500 -1.0680125 125.39828 -8.6407843 -73.939651 -8.6218719 -74.451523 -0.2232125 -93.775795
9200250000 -1.064971 125.39773 -8.6404486 -73.890442 -8.624404 -74.418358 -0.22219066 -93.753143
9200312500 -1.0718538 125.40521 -8.6361113 -73.962585 -8.6180191 -74.437485 -0.22588018 -93.761742
9200375000 -1.0727453 125.33919 -8.6457186 -73.95507 -8.6260653 -74.421974 -0.22552373 -93.764069
9200437500 -1.0711478 125.31898 -8.6454115 -73.963829 -8.6296759 -74.431068 -0.23152448 -93.71711
9200500000 -1.0712042 125.29661 -8.6412058 -73.961823 -8.6321135 -74.427338 -0.23303337 -93.711823
9200562500 -1.0682863 125.28623 -8.6416988 -73.97065 -8.6176109 -74.464577 -0.22246569 -93.723122
9200625000 -1.0688076 125.28788 -8.6336517 -73.926506 -8.6203279 -74.425339 -0.22764307 -93.661987
9200687500 -1.0660771 125.26926 -8.6314926 -73.912621 -8.6183901 -74.448936 -0.23031898 -93.638802
9200750000 -1.0674759 125.23972 -8.6294899 -73.961143 -8.6145782 -74.439232 -0.22419509 -93.635483
9200812500 -1.069335 125.20728 -8.6245594 -73.982132 -8.6045485 -74.378258 -0.21956579 -93.563835
9200875000 -1.0623122 125.20998 -8.6233425 -73.924416 -8.6053429 -74.401596 -0.2198973 -93.614182
9200937500 -1.0648502 125.21298 -8.6285744 -73.921814 -8.6146984 -74.421997 -0.22775447 -93.606003
9201000000 -1.0647981 125.24018 -8.622611 -73.946022 -8.6136503 -74.412437 -0.23175213 -93.576988
9201062500 -1.0682 125.26493 -8.6356592 -73.895149 -8.6170845 -74.432625 -0.22622667 -93.587402
9201125000 -1.0672553 125.22009 -8.638751 -73.939644 -8.6248417 -74.411774 -0.24155198 -93.559601
9201187500 -1.0697155 125.25197 -8.6398859 -73.941269 -8.620162 -74.426476 -0.23420858 -93.568535
9201250000 -1.0685933 125.20481 -8.6388044 -73.891449 -8.6194668 -74.372856 -0.23511544 -93.504959
9201312500 -1.0703368 125.22663 -8.6365957 -73.933228 -8.6236763 -74.405472 -0.23923372 -93.482147
9201375000 -1.0711881 125.21725 -8.6284132 -73.854004 -8.6150341 -74.407784 -0.2315007 -93.472992
9201437500 -1.0683223 125.20786 -8.6197872 -73.859848 -8.6171808 -74.458977 -0.23337135 -93.497437
9201500000 -1.0735945 125.12897 -8.6218157 -73.870575 -8.6176758 -74.439919 -0.22886567 -93.39238
9201562500 -1.0670425 125.13274 -8.6246834 -73.886116 -8.6166925 -74.458755 -0.23015432 -93.381699
9201625000 -1.0751332 125.13344 -8.6307402 -73.910477 -8.6145315 -74.434013 -0.22635239 -93.366196
9201687500 -1.0736034 125.1055 -8.6205683 -73.918694 -8.6115017 -74.428894 -0.23377882 -93.338936
9201750000 -1.0703418 125.09179 -8.6177454 -73.859116 -8.6090736 -74.394577 -0.22980294 -93.287773
9201812500 -1.0677207 125.08698 -8.6113825 -73.868568 -8.6072664 -74.403069 -0.23379689 -93.339355
9201875000 -1.0716182 125.06506 -8.6223211 -73.878403 -8.6105499 -74.365334 -0.23409939 -93.323189
9201937500 -1.0664102 125.05517 -8.6170864 -73.949966 -8.607523 -74.394043 -0.2342687 -93.347328
9202000000 -1.0710733 125.0301 -8.6283159 -73.882042 -8.6090784 -74.395195 -0.2438654 -93.331978
9202062500 -1.0739474 125.05701 -8.6276197 -73.879944 -8.6077948 -74.374008 -0.23859373 -93.284836
9202125000 -1.0671018 124.99915 -8.6090879 -73.917694 -8.6052608 -74.378288 -0.23764418 -93.276283
9202187500 -1.0649985 124.94076 -8.6139441 -73.93116 -8.6073027 -74.423622 -0.24464469 -93.301445
9202250000 -1.070362 124.97942 -8.6197948 -73.893456 -8.6110373 -74.401962 -0.24296145 -93.241623
9202312500 -1.067522 124.93886 -8.6120768 -73.901123 -8.6020718 -74.387482 -0.2324464 -93.238235
9202375000 -1.0654145 124.9379 -8.6165009 -73.903915 -8.6091957 -74.379227 -0.24009165 -93.207199
9202437500 -1.066262 124.90393 -8.6088781 -73.934921 -8.6043997 -74.402397 -0.23335694 -93.220337
9202500000 -1.0668613 124.89202 -8.6150932 -73.892731 -8.6019707 -74.435837 -0.23172334 -93.158821
9202562500 -1.067217 124.88087 -8.6097622 -73.903214 -8.5961962 -74.464897 -0.23133373 -93.193298
9202625000 -1.0692824 124.86536 -8.6177607 -73.864098 -8.5991735 -74.390099 -0.23853108 -93.130417
9202687500 -1.0668761 124.86073 -8.6137142 -73.880959 -8.6079044 -74.424507 -0.23758155 -93.134323
9202750000 -1.0737437 124.86619 -8.6156864 -73.85157 -8.5960712 -74.44046 -0.22917868 -93.125504
9202812500 -1.0672588 124.83778 -8.6084595 -73.860794 -8.6006365 -74.423767 -0.23828372 -93.089996
9202875000 -1.0645375 124.81779 -8.6041288 -73.873398 -8.5940676 -74.441933 -0.2389123 -93.112862
9202937500 -1.0676401 124.77472 -8.604269 -73.948692 -8.5919724 -74.434891 -0.23934376 -93.084969
9203000000 -1.069738 124.7858 -8.6119051 -73.871361 -8.5923767 -74.44986 -0.238141 -93.113594
9203062500 -1.0676724 124.76769 -8.6076403 -73.844009 -8.5868254 -74.370811 -0.23842514 -93.050453
9203125000 -1.0615325 124.76536 -8.6032143 -73.853302 -8.5935192 -74.39698 -0.2445856 -93.069893
9203187500 -1.0648215 124.75779 -8.5993853 -73.842628 -8.5830803 -74.3993 -0.22909656 -93.017883
9203250000 -1.0662112 124.75746 -8.5944281 -73.85025 -8.5900164 -74.39444 -0.23214445 -93.020485
9203312500 -1.0644078 124.74036 -8.5939341 -73.835907 -8.5953932 -74.388115 -0.23592845 -92.940117
9203375000 -1.0638865 124.76385 -8.5928135 -73.815147 -8.5971107 -74.404221 -0.23374201 -92.933411
9203437500 -1.0627735 124.71533 -8.5872288 -73.839088 -8.5969563 -74.380981 -0.24109653 -92.896576
9203500000 -1.0678289 124.71912 -8.5892658 -73.850662 -8.5900249 -74.346329 -0.23636316 -92.861404
9203562500 -1.0686154 124.71006 -8.5918379 -73.830711 -8.5897951 -74.393021 -0.2336068 -92.901703
9203625000 -1.0713477 124.72637 -8.5943737 -73.771561 -8.5912819 -74.34568 -0.24011861 -92.856628
9203687500 -1.0654584 124.65053 -8.5897264 -73.905922 -8.5846443 -74.381607 -0.23996797 -92.86982
9203750000 -1.0655077 124.63618 -8.5969763 -73.848595 -8.588335 -74.357765 -0.23781125 -92.901802
9203812500 -1.0713698 124.61893 -8.5922194 -73.887138 -8.5826797 -74.395805 -0.24089427 -92.873383
9203875000 -1.0710428 124.56702 -8.5881062 -73.887703 -8.5835695 -74.39872 -0.23825336 -92.858498
9203937500 -1.069784 124.58861 -8.6018057 -73.867615 -8.5847626 -74.376274 -0.23555578 -92.807671
9204000000 -1.0652287 124.58869 -8.5861473 -73.791855 -8.5877333 -74.364983 -0.2337743 -92.768021
9204062500 -1.0641928 124.54111 -8.5879269 -73.874893 -8.5852604 -74.404335 -0.22865333 -92.795563
9204125000 -1.0723451 124.55918 -8.5930672 -73.858017 -8.5802898 -74.368851 -0.22673559 -92.774872
9204187500 -1.0658071 124.52444 -8.5911007 -73.897972 -8.5861959 -74.366173 -0.22907341 -92.765175
9204250000 -1.0657357 124.53796 -8.5863838 -73.847733 -8.5860929 -74.318771 -0.22698203 -92.733192
9204312500 -1.0595359 124.50284 -8.5752087 -73.885483 -8.5790663 -74.319473 -0.23396759 -92.71772
9204375000 -1.0647007 124.52139 -8.5789089 -73.756828 -8.5762758 -74.32061 -0.23339015 -92.663734
9204437500 -1.0654483 124.51354 -8.5836363 -73.793686 -8.5810347 -74.307938 -0.23728918 -92.633514
9204500000 -1.0587271 124.48736 -8.5832233 -73.783417 -8.5760612 -74.331116 -0.23975317 -92.636681
9204562500 -1.0631169 124.44946 -8.5705681 -73.809692 -8.5695124 -74.306793 -0.2347344 -92.586693
9204625000 -1.060216 124.42393 -8.5736408 -73.771942 -8.5716982 -74.320023 -0.24234483 -92.587929
9204687500 -1.0656779 124.41743 -8.5758228 -73.79718 -8.5754604 -74.282173 -0.24274687 -92.576286
9204750000 -1.0673174 124.43695 -8.5762033 -73.764641 -8.5706491 -74.30381 -0.24069482 -92.530006
9204812500 -1.0703001 124.34531 -8.5782375 -73.844376 -8.5614328 -74.33091 -0.23789772 -92.569603
9204875000 -1.0662334 124.33615 -8.5788002 -73.923279 -8.572175 -74.281807 -0.23704061 -92.530899
9204937500 -1.0695723 124.35003 -8.5737953 -73.847435 -8.5705414 -74.324684 -0.24248742 -92.521309
9205000000 -1.0670485 124.34564 -8.5882263 -73.882629 -8.5787401 -74.319992 -0.2401078 -92.512199
9205062500 -1.0696599 124.35091 -8.5836468 -73.817535 -8.5642128 -74.326614 -0.23385978 -92.512062
9205125000 -1.0723984 124.35874 -8.5798674 -73.827866 -8.5680819 -74.335114 -0.23726888 -92.405258
9205187500 -1.0687097 124.29838 -8.5704756 -73.83429 -8.5675631 -74.370155 -0.22596838 -92.474854
9205250000 -1.0679295 124.35075 -8.5777473 -73.82193 -8.5780182 -74.397224 -0.23418449 -92.462669
9205312500 -1.0649645 124.35653 -8.5663385 -73.741074 -8.5722122 -74.359505 -0.23496728 -92.414398
9205375000 -1.0596397 124.3148 -8.5641861 -73.803535 -8.5761108 -74.430748 -0.23693539 -92.385284
9205437500 -1.065052 124.30801 -8.5684328 -73.792061 -8.5750027 -74.367599 -0.23716769 -92.355316
9205500000 -1.0635736 124.28517 -8.5698957 -73.757721 -8.5662088 -74.385437 -0.23404182 -92.312866
9205562500 -1.0719428 124.21774 -8.576086 -73.785919 -8.5683861 -74.329819 -0.24281865 -92.300171
9205625000 -1.0680375 124.22751 -8.5733747 -73.729362 -8.5664959 -74.386154 -0.24632697 -92.287971
9205687500 -1.0694227 124.16751 -8.5716152 -73.753807 -8.5637646 -74.299011 -0.24537255 -92.234245
9205750000 -1.0675414 124.14449 -8.5741787 -73.750748 -8.5544415 -74.307991 -0.24326983 -92.237381
9205812500 -1.0644358 124.18308 -8.5637474 -73.730904 -8.5551348 -74.281258 -0.24424654 -92.175255
9205875000 -1.0714769 124.1034 -8.5715408 -73.824577 -8.5668678 -74.23941 -0.247632 -92.150955
9205937500 -1.0722214 124.133 -8.5785437 -73.709831 -8.5633001 -74.266777 -0.25009432 -92.149315
9206000000 -1.0699157 124.12142 -8.5653257 -73.75676 -8.5688295 -74.305679 -0.24815735 -92.149315
9206062500 -1.0681038 124.08932 -8.5648689 -73.817451 -8.5705261 -74.246506 -0.25031471 -92.123161
9206125000 -1.0728685 124.08995 -8.5654001 -73.744125 -8.5629101 -74.246674 -0.24664985 -92.127098
9206187500 -1.0724211 124.06049 -8.5620584 -73.775566 -8.5552368 -74.257774 -0.24696751 -92.095047
9206250000 -1.0707047 124.04539 -8.5604582 -73.783607 -8.5571699 -74.324577 -0.2489931 -92.103218
9206312500 -1.0660952 124.02126 -8.5656595 -73.802223 -8.54953 -74.276588 -0.24691658 -92.085472
9206375000 -1.0714327 123.99007 -8.5610933 -73.73291 -8.5630589 -74.297424 -0.25296286 -92.045677
9206437500 -1.0694247 123.99556 -8.5589943 -73.768799 -8.5550632 -74.304832 -0.24728613 -92.033218
9206500000 -1.0677776 123.92204 -8.5578518 -73.834915 -8.55334 -74.232918 -0.25023526 -91.993095
9206562500 -1.0717152 123.96947 -8.5648355 -73.80661 -8.5521307 -74.244621 -0.24579391 -91.944221
9206625000 -1.0755165 123.97173 -8.5609312 -73.811737 -8.5510931 -74.248833 -0.24234024 -91.992416
9206687500 -1.0685797 123.98352 -8.5510874 -73.83786 -8.5502796 -74.279167 -0.2434226 -91.978859
9206750000 -1.0697005 123.98852 -8.5509472 -73.825157 -8.5553255 -74.304756 -0.24203044 -92.005463
9206812500 -1.0747424 123.98615 -8.5618219 -73.809349 -8.5527363 -74.228554 -0.24558304 -91.944809
9206875000 -1.0724187 123.97711 -8.5534182 -73.804741 -8.5435705 -74.205017 -0.23631682 -91.944244
9206937500 -1.0709983 123.96053 -8.5579433 -73.748322 -8.5427284 -74.257927 -0.23496681 -91.936508
9207000000 -1.0655311 123.90933 -8.5541601 -73.805107 -8.5352211 -74.236374 -0.2341318 -91.918045
9207062500 -1.0675942 123.94253 -8.5535364 -73.771103 -8.550848 -74.274254 -0.2354327 -91.867004
9207125000 -1.0665143 123.91016 -8.5525589 -73.756943 -8.5361376 -74.289284 -0.23121446 -91.901306
9207187500 -1.0677745 123.86585 -8.5544949 -73.755577 -8.5384865 -74.299896 -0.24175575 -91.864731
9207250000 -1.0638845 123.83714 -8.5490255 -73.770142 -8.546092 -74.287506 -0.24308133 -91.831558
9207312500 -1.0699664 123.83578 -8.5587997 -73.747787 -8.5438366 -74.311691 -0.24302901 -91.843628
9207375000 -1.0659584 123.79733 -8.5468168 -73.798958 -8.5377731 -74.26841 -0.24789675 -91.819824
9207437500 -1.0721654 123.76434 -8.5563259 -73.791527 -8.5408354 -74.236458 -0.25225288 -91.765411
9207500000 -1.0645503 123.7607 -8.5450439 -73.799301 -8.5389328 -74.258965 -0.25409761 -91.785706
9207562500 -1.065726 123.74993 -8.5463791 -73.825058 -8.5460386 -74.226044 -0.25321874 -91.731499
9207625000 -1.0688918 123.70995 -8.5396376 -73.78138 -8.5438557 -74.242874 -0.25542369 -91.777199
9207687500 -1.0748746 123.72679 -8.5518808 -73.769257 -8.5473452 -74.282341 -0.25214583 -91.776985
9207750000 -1.0729561 123.71973 -8.5370283 -73.786911 -8.5435801 -74.268623 -0.2434853 -91.76001
9207812500 -1.0762289 123.72028 -8.5386829 -73.790337 -8.5376425 -74.257751 -0.23642713 -91.732658
9207875000 -1.0790769 123.72332 -8.5436029 -73.748795 -8.5409279 -74.278625 -0.23971055 -91.673981
9207937500 -1.0771278 123.70355 -8.5356903 -73.76799 -8.5420742 -74.285553 -0.23733468 -91.703865
9208000000 -1.0752823 123.68152 -8.5361433 -73.827393 -8.5461617 -74.259956 -0.24017633 -91.656853
9208062500 -1.0804807 123.66615 -8.5410109 -73.770569 -8.5370445 -74.302017 -0.23924085 -91.651016
9208125000 -1.0719124 123.65318 -8.5360394 -73.748291 -8.540741 -74.260071 -0.24214183 -91.626221
9208187500 -1.0724852 123.65048 -8.530757 -73.773155 -8.5395546 -74.257774 -0.24795353 -91.586617
9208250000 -1.0703238 123.64373 -8.5266418 -73.770241 -8.5405378 -74.2939 -0.24670573 -91.593155
9208312500 -1.0702723 123.62705 -8.5329695 -73.689339 -8.5356894 -74.238136 -0.24347763 -91.517105
9208375000 -1.0695901 123.62048 -8.5270214 -73.711082 -8.5345545 -74.219345 -0.24568191 -91.478668
9208437500 -1.0707799 123.63215 -8.5346174 -73.684242 -8.5344057 -74.275925 -0.24802186 -91.491333
9208500000 -1.0679184 123.59763 -8.5215044 -73.683311 -8.5253286 -74.259674 -0.24236082 -91.482895
9208562500 -1.0758318 123.56138 -8.5344067 -73.720116 -8.5335388 -74.26181 -0.25176409 -91.487694
9208625000 -1.0694089 123.53885 -8.5273781 -73.72863 -8.5381908 -74.240547 -0.25353226 -91.480598
9208687500 -1.0678725 123.54903 -8.52915 -73.695488 -8.5279417 -74.271454 -0.24836081 -91.507843
9208750000 -1.0653752 123.54459 -8.5266409 -73.69194 -8.5342894 -74.241516 -0.25165227 -91.456871
9208812500 -1.0657034 123.52122 -8.5310488 -73.698524 -8.5281382 -74.237419 -0.25009349 -91.408829
9208875000 -1.0694461 123.52416 -8.5324955 -73.702301 -8.5240221 -74.247719 -0.25446635 -91.421196
9208937500 -1.067674 123.51817 -8.5319538 -73.647339 -8.5238314 -74.258125 -0.25117454 -91.423889
9209000000 -1.0657768 123.49644 -8.5253839 -73.692459 -8.5191431 -74.253067 -0.24956422 -91.407265
9209062500 -1.0679651 123.47657 -8.5283766 -73.699173 -8.5220814 -74.17691 -0.25078174 -91.343513
9209125000 -1.066036 123.50709 -8.5256538 -73.684044 -8.5228777 -74.18644 -0.25537804 -91.30584
9209187500 -1.0673385 123.48944 -8.5294228 -73.698486 -8.5198011 -74.226845 -0.25851426 -91.318642
9209250000 -1.0661987 123.42368 -8.531311 -73.710228 -8.518117 -74.211205 -0.25782564 -91.298119
9209312500 -1.0631535 123.38109 -8.5258913 -73.688995 -8.5228863 -74.158836 -0.25229961 -91.27578
9209375000 -1.0641387 123.42236 -8.5247593 -73.695602 -8.527298 -74.212769 -0.26091909 -91.250671
9209437500 -1.0652971 123.37299 -8.5266151 -73.655693 -8.520669 -74.231445 -0.25705528 -91.273376
9209500000 -1.0645443 123.33803 -8.5231447 -73.694984 -8.5244846 -74.241089 -0.25210786 -91.231537
9209562500 -1.065375 123.35341 -8.5189972 -73.667946 -8.5243511 -74.212166 -0.25397593 -91.208107
9209625000 -1.0681802 123.30486 -8.5298252 -73.730164 -8.5211697 -74.228439 -0.25502226 -91.205055
9209687500 -1.0723498 123.31651 -8.528882 -73.720726 -8.5187531 -74.244751 -0.25334686 -91.206413
9209750000 -1.0726018 123.29868 -8.5204458 -73.769096 -8.5220518 -74.201271 -0.2472683 -91.177177
9209812500 -1.0752501 123.27784 -8.5170574 -73.729347 -8.5191708 -74.230019 -0.2459887 -91.155067
9209875000 -1.0780632 123.26118 -8.5173111 -73.755264 -8.5185528 -74.213493 -0.24816523 -91.167496
9209937500 -1.0797325 123.23165 -8.5242949 -73.76609 -8.517087 -74.210892 -0.24991055 -91.157753
9210000000 -1.0771013 123.25999 -8.5222139 -73.670074 -8.5115595 -74.211243 -0.24172109 -91.120094
9210062500 -1.0781646 123.27036 -8.52178 -73.669701 -8.4987936 -74.278854 -0.23930074 -91.139229
9210125000 -1.0775139 123.27501 -8.5205517 -73.659752 -8.5112314 -74.207298 -0.24724165 -91.058685
9210187500 -1.0756344 123.24297 -8.5168285 -73.685478 -8.5051384 -74.228592 -0.253126 -91.092903
9210250000 -1.0775514 123.23251 -8.517704 -73.661758 -8.504879 -74.243721 -0.25146133 -91.032776
9210312500 -1.0752902 123.23321 -8.5157356 -73.615982 -8.5101023 -74.16806 -0.25246203 -90.983963
9210375000 -1.0725465 123.19406 -8.512579 -73.652267 -8.509737 -74.234383 -0.25425375 -91.009865
9210437500 -1.0745786 123.16418 -8.5082836 -73.6446 -8.4962673 -74.190956 -0.24539836 -90.978912
9210500000 -1.0792611 123.13725 -8.5147181 -73.748825 -8.50243 -74.255348 -0.25443447 -91.037247
9210562500 -1.0748254 123.15093 -8.5139723 -73.686012 -8.5069818 -74.221115 -0.25183585 -90.95607
9210625000 -1.0779936 123.03172 -8.5207863 -73.684944 -8.5089464 -74.272217 -0.26069808 -91.002846
9210687500 -1.0734731 123.02388 -8.5065994 -73.746956 -8.5102329 -74.194572 -0.258549 -90.920929
9210750000 -1.0712458 122.99915 -8.4994717 -73.665413 -8.5012817 -74.191017 -0.25189307 -90.910675
9210812500 -1.0712428 123.00826 -8.5016699 -73.675224 -8.4987421 -74.196213 -0.24657741 -90.903969
9210875000 -1.069796 123.02663 -8.4961987 -73.69178 -8.4999361 -74.203987 -0.2571162 -90.866631
9210937500 -1.0718906 123.00247 -8.4990797 -73.683685 -8.4996424 -74.182831 -0.25025976 -90.828835
9211000000 -1.0683297 123.00753 -8.4952154 -73.706062 -8.5016556 -74.179863 -0.2544747 -90.796257
9211062500 -1.0739398 122.99371 -8.5049438 -73.731056 -8.4968567 -74.07547 -0.26187536 -90.771362
9211125000 -1.0714835 122.96548 -8.4929638 -73.677994 -8.4952383 -74.104095 -0.25832903 -90.743195
9211187500 -1.0695195 122.9401 -8.4990139 -73.701897 -8.5046511 -74.141609 -0.26319918 -90.747002
9211250000 -1.0724547 122.96275 -8.5003567 -73.71106 -8.4947309 -74.200661 -0.25921774 -90.764847
9211312500 -1.0746385 122.94386 -8.5010109 -73.616974 -8.4952707 -74.12075 -0.26088911 -90.664131
9211375000 -1.0694166 122.90839 -8.4915552 -73.681244 -8.4989214 -74.16568 -0.26769677 -90.734711
9211437500 -1.0760719 122.93177 -8.501091 -73.688606 -8.4946251 -74.158829 -0.26366979 -90.691536
9211500000 -1.0709308 122.93882 -8.4921417 -73.684631 -8.4940052 -74.165649 -0.25885719 -90.723633
9211562500 -1.0721105 122.93891 -8.4926586 -73.610252 -8.5041332 -74.210587 -0.2573171 -90.732353
9211625000 -1.0667055 122.89168 -8.4935379 -73.669701 -8.4987459 -74.152199 -0.25772274 -90.729149
9211687500 -1.0663075 122.92602 -8.4945898 -73.648262 -8.5008564 -74.151611 -0.25602016 -90.710831
9211750000 -1.0641187 122.89047 -8.4953718 -73.722496 -8.5035992 -74.166481 -0.25990874 -90.760536
9211812500 -1.0662718 122.90051 -8.492341 -73.635979 -8.4923801 -74.186462 -0.25844452 -90.689583
9211875000 -1.0613136 122.86486 -8.4912024 -73.630737 -8.4922619 -74.117691 -0.26198873 -90.650063
9211937500 -1.0720206 122.82555 -8.4910326 -73.713425 -8.4962311 -74.150185 -0.26163489 -90.6101
9212000000 -1.0688944 122.83418 -8.4858332 -73.623367 -8.4977341 -74.118317 -0.25628409 -90.567719
9212062500 -1.0720483 122.78027 -8.4933329 -73.590454 -8.4813957 -74.145203 -0.26358083 -90.520714
9212125000 -1.0694516 122.73894 -8.4877901 -73.661224 -8.4866514 -74.1772 -0.26134169 -90.534889
9212187500 -1.066746 122.72433 -8.4889774 -73.640434 -8.4873829 -74.163315 -0.2573522 -90.517227
9212250000 -1.0709968 122.71319 -8.4839344 -73.6371 -8.4784679 -74.177223 -0.25153312 -90.478752
9212312500 -1.071946 122.68167 -8.4823322 -73.674721 -8.478426 -74.173454 -0.255997 -90.478065
