!Agilent Technologies,N5242A,MY51221714,A.09.90.19
!Agilent N5242A: A.09.90.19
!Date: Saturday, December 30, 2023 09:55:47
!Correction: S11(Full 2 Port(1,2)) 
!S21(Full 2 Port(1,2)) 
!S12(Full 2 Port(1,2)) 
!S22(Full 2 Port(1,2)) 
!S2P File: Measurements: S11, S21, S12, S22:
# Hz S  dB   R 50
9200000000 -1.0697494 125.65099 -8.5950413 -73.988968 -8.5903788 -74.609329 -0.2433912 -94.106659
9200062500 -1.0717604 125.63756 -8.5977983 -73.932381 -8.5891838 -74.587921 -0.24350101 -94.06591
9200125000 -1.0691905 125.61438 -8.5894527 -73.983192 -8.5822468 -74.53373 -0.23878314 -94.012794
9200187500 -1.0765783 125.58746 -8.6028976 -74.016731 -8.5822735 -74.586929 -0.23859556 -94.020538
9200250000 -1.0808585 125.57263 -8.6027069 -74.034966 -8.5815287 -74.515022 -0.23868419 -93.998238
9200312500 -1.0749036 125.53482 -8.5924797 -74.008148 -8.5905151 -74.500259 -0.23983616 -93.990562
9200375000 -1.0796021 125.51862 -8.6046124 -73.998451 -8.5955896 -74.554604 -0.24464533 -93.999596
9200437500 -1.0774882 125.49559 -8.6081581 -74.049576 -8.586688 -74.549438 -0.24072631 -93.995789
9200500000 -1.0779407 125.50664 -8.6015043 -74.049034 -8.5890245 -74.531487 -0.24438235 -93.995605
9200562500 -1.0807768 125.48106 -8.5988579 -73.992752 -8.5729036 -74.548309 -0.23451935 -93.945328
9200625000 -1.0755054 125.47727 -8.5928974 -74.024529 -8.5744772 -74.556953 -0.23318306 -93.963417
9200687500 -1.0696596 125.4139 -8.5801802 -74.041031 -8.5725937 -74.538048 -0.23784162 -93.909187
9200750000 -1.0760814 125.40502 -8.5938435 -74.081276 -8.5613012 -74.519547 -0.23683922 -93.904533
9200812500 -1.0733066 125.41024 -8.5856886 -74.002594 -8.570488 -74.520065 -0.23747659 -93.871658
9200875000 -1.0676426 125.38904 -8.5847139 -74.042618 -8.5642567 -74.513084 -0.23260023 -93.829475
9200937500 -1.0677763 125.39046 -8.5816917 -74.079628 -8.5725374 -74.532036 -0.23720045 -93.856964
9201000000 -1.0750675 125.37459 -8.5922394 -74.055893 -8.5731411 -74.473633 -0.24225941 -93.823982
9201062500 -1.0690136 125.41633 -8.587388 -74.014122 -8.5760918 -74.511047 -0.24825202 -93.814873
9201125000 -1.0660187 125.44306 -8.5814686 -73.988747 -8.5778036 -74.529213 -0.24440736 -93.843353
9201187500 -1.0768415 125.45479 -8.5875816 -73.960152 -8.5800858 -74.510437 -0.2472063 -93.822128
9201250000 -1.0759661 125.38334 -8.594327 -73.981918 -8.5793018 -74.546631 -0.25608915 -93.861107
9201312500 -1.0749034 125.40874 -8.5955629 -73.961159 -8.579258 -74.535004 -0.24546203 -93.772095
9201375000 -1.0756166 125.39469 -8.5880222 -74.026291 -8.5727129 -74.570755 -0.24310465 -93.76918
9201437500 -1.0764008 125.36878 -8.585597 -73.973709 -8.5806446 -74.556122 -0.24758536 -93.722092
9201500000 -1.0797627 125.34116 -8.5833693 -73.942604 -8.5742397 -74.56945 -0.24669486 -93.677185
9201562500 -1.0765034 125.31622 -8.580265 -73.978722 -8.5704794 -74.545944 -0.24154173 -93.63942
9201625000 -1.0782473 125.29619 -8.5739698 -73.943153 -8.5669575 -74.564354 -0.23957728 -93.619858
9201687500 -1.0785367 125.2822 -8.5846901 -73.952713 -8.5681715 -74.5597 -0.24116491 -93.653526
9201750000 -1.0788977 125.2806 -8.5760698 -73.95121 -8.5715151 -74.54306 -0.24919418 -93.59993
9201812500 -1.0759683 125.2777 -8.5780296 -73.987267 -8.5672808 -74.474243 -0.25184166 -93.575798
9201875000 -1.078426 125.27053 -8.5718031 -73.974525 -8.5591784 -74.523735 -0.24650994 -93.62001
9201937500 -1.0799007 125.21182 -8.5817757 -73.989197 -8.5661945 -74.495392 -0.24915634 -93.5672
9202000000 -1.0734051 125.24165 -8.5821018 -73.957649 -8.5616999 -74.442039 -0.24355277 -93.565536
9202062500 -1.0724027 125.23946 -8.5714436 -73.949402 -8.5667973 -74.498161 -0.25317764 -93.602768
9202125000 -1.0788152 125.19109 -8.582571 -74.029243 -8.5589819 -74.501221 -0.24894929 -93.567421
9202187500 -1.0698307 125.15211 -8.5714245 -74.038399 -8.5613222 -74.534096 -0.24956016 -93.571518
9202250000 -1.0738863 125.16135 -8.5811758 -73.940331 -8.5645971 -74.544624 -0.25309354 -93.546234
9202312500 -1.0735447 125.11652 -8.5726347 -73.9897 -8.5562258 -74.521492 -0.24369626 -93.509407
9202375000 -1.0716203 125.11602 -8.5748606 -73.990753 -8.5638504 -74.48671 -0.25195599 -93.461517
9202437500 -1.0726894 125.10401 -8.5683317 -73.999756 -8.5690603 -74.512535 -0.25539908 -93.465515
9202500000 -1.070394 125.07037 -8.5674372 -73.971748 -8.5686159 -74.536217 -0.25122541 -93.45285
9202562500 -1.0730263 125.0877 -8.5731592 -73.916977 -8.5575075 -74.535835 -0.2467714 -93.424782
9202625000 -1.071916 125.06175 -8.5637264 -73.935623 -8.5609455 -74.560623 -0.2531096 -93.44175
9202687500 -1.0689069 125.06841 -8.5712976 -73.97213 -8.5587664 -74.504433 -0.24591558 -93.390442
9202750000 -1.0734916 125.05549 -8.5751619 -73.961899 -8.5637293 -74.533989 -0.25508541 -93.387985
9202812500 -1.0723109 125.03194 -8.5721331 -73.906166 -8.5623388 -74.553642 -0.2554712 -93.367424
9202875000 -1.0735638 125.00077 -8.5688915 -73.924515 -8.5529413 -74.487633 -0.25279593 -93.367714
9202937500 -1.0699561 124.9668 -8.5626221 -73.976151 -8.5501785 -74.497528 -0.24747971 -93.347061
9203000000 -1.0711449 124.96819 -8.559103 -74.003769 -8.5513325 -74.57093 -0.25404724 -93.399857
9203062500 -1.0705643 124.94739 -8.5668745 -73.959076 -8.5526075 -74.516464 -0.25979146 -93.339577
9203125000 -1.0709759 124.96379 -8.5644655 -73.895477 -8.5405855 -74.522026 -0.25042543 -93.34359
9203187500 -1.0701003 124.9386 -8.5557156 -73.905067 -8.5492811 -74.530083 -0.24603526 -93.302673
9203250000 -1.0703907 124.92546 -8.5565109 -73.943176 -8.5481138 -74.532776 -0.25044763 -93.218513
9203312500 -1.0712494 124.93748 -8.5609655 -73.949921 -8.5574617 -74.449165 -0.25025952 -93.183548
9203375000 -1.0688734 124.95005 -8.5465841 -73.928879 -8.5497046 -74.489487 -0.24197249 -93.189835
9203437500 -1.0724542 124.90411 -8.5476875 -73.930893 -8.5579128 -74.43145 -0.25052407 -93.1474
9203500000 -1.0735954 124.91441 -8.5401897 -73.915977 -8.549983 -74.467163 -0.24210842 -93.137283
9203562500 -1.071516 124.87886 -8.5459995 -73.961029 -8.5449953 -74.439568 -0.24237406 -93.122086
9203625000 -1.0710999 124.86318 -8.5460844 -73.959473 -8.547595 -74.458611 -0.2498458 -93.135086
9203687500 -1.0754324 124.82791 -8.5574121 -73.978081 -8.549634 -74.464455 -0.24787398 -93.14193
9203750000 -1.0766584 124.82426 -8.5561485 -73.948708 -8.5465298 -74.504105 -0.25292653 -93.130188
9203812500 -1.071889 124.80785 -8.5496025 -73.971359 -8.545867 -74.520828 -0.25213957 -93.117821
9203875000 -1.0740207 124.77667 -8.555088 -73.970688 -8.5460081 -74.487373 -0.25479835 -93.098267
9203937500 -1.0791192 124.7515 -8.554554 -73.963409 -8.5370216 -74.49437 -0.2496938 -93.172325
9204000000 -1.0782708 124.73409 -8.5471783 -73.989716 -8.545145 -74.471542 -0.24940808 -93.102814
9204062500 -1.0755234 124.76943 -8.5539551 -73.918564 -8.5424166 -74.493088 -0.24650615 -93.050339
9204125000 -1.0774797 124.75125 -8.5472317 -73.899773 -8.5381765 -74.478561 -0.24059036 -93.031937
9204187500 -1.0780382 124.73311 -8.5514212 -73.913483 -8.5375929 -74.442307 -0.24414544 -92.983444
9204250000 -1.0738603 124.71222 -8.5477648 -73.889931 -8.5378628 -74.470123 -0.24273013 -92.997688
9204312500 -1.073025 124.70665 -8.5429115 -73.893654 -8.5433531 -74.474205 -0.24811517 -92.966148
9204375000 -1.0682875 124.69651 -8.5351038 -73.919205 -8.5436602 -74.443085 -0.2478943 -92.953766
9204437500 -1.0682371 124.694 -8.5347385 -73.878815 -8.5443487 -74.423851 -0.258313 -92.898613
9204500000 -1.067608 124.65092 -8.5384626 -73.891304 -8.5353155 -74.44986 -0.25273395 -92.921707
9204562500 -1.0689628 124.63858 -8.5309439 -73.915947 -8.5371265 -74.420433 -0.2604531 -92.830811
9204625000 -1.0651566 124.62663 -8.5342112 -73.82962 -8.5297117 -74.510468 -0.25592145 -92.916634
9204687500 -1.0643449 124.59541 -8.5350285 -73.887154 -8.5246897 -74.426437 -0.24993791 -92.860229
9204750000 -1.0719577 124.57298 -8.5387287 -73.875381 -8.5271978 -74.414063 -0.24964948 -92.798752
9204812500 -1.0672863 124.58057 -8.5385065 -73.893379 -8.5334578 -74.428009 -0.25462943 -92.795891
9204875000 -1.0716583 124.54079 -8.5399656 -73.856575 -8.5284634 -74.401535 -0.25705725 -92.793381
9204937500 -1.0697272 124.54339 -8.5387697 -73.964935 -8.5369558 -74.412781 -0.26341891 -92.803619
9205000000 -1.0728201 124.50259 -8.5366068 -73.917702 -8.5305614 -74.455849 -0.25460985 -92.795586
9205062500 -1.077204 124.51902 -8.5420704 -73.918503 -8.5330772 -74.417564 -0.25605944 -92.764862
9205125000 -1.0725636 124.50108 -8.5331068 -73.939316 -8.530365 -74.502563 -0.25012642 -92.737465
9205187500 -1.071121 124.50779 -8.530345 -73.92041 -8.5300407 -74.450546 -0.25109851 -92.712395
9205250000 -1.0774858 124.49083 -8.5307522 -73.916962 -8.5303354 -74.486137 -0.24867994 -92.728531
9205312500 -1.0754926 124.45741 -8.5272818 -73.957954 -8.5331993 -74.477074 -0.24376535 -92.687347
9205375000 -1.0787724 124.49838 -8.5274506 -73.864174 -8.5293379 -74.475388 -0.24670899 -92.682442
9205437500 -1.0758647 124.48257 -8.5236177 -73.889954 -8.5261354 -74.476082 -0.24731024 -92.630699
9205500000 -1.0776262 124.44986 -8.5370388 -73.81321 -8.5264397 -74.468834 -0.24820431 -92.608505
9205562500 -1.0756557 124.43298 -8.5373182 -73.828209 -8.5201683 -74.402229 -0.25422978 -92.508705
9205625000 -1.073216 124.38279 -8.5362263 -73.886475 -8.5187988 -74.412964 -0.25540906 -92.513046
9205687500 -1.0726177 124.38343 -8.5338802 -73.86203 -8.5167542 -74.414612 -0.25289935 -92.509781
9205750000 -1.0778722 124.35274 -8.5337839 -73.856277 -8.5200768 -74.417641 -0.26374465 -92.486366
9205812500 -1.0717292 124.3404 -8.5354576 -73.842262 -8.5296879 -74.444717 -0.2674309 -92.456123
9205875000 -1.0783447 124.35219 -8.5408802 -73.772636 -8.5228195 -74.379951 -0.26248878 -92.439697
9205937500 -1.0773081 124.30294 -8.5302181 -73.871338 -8.5132637 -74.394165 -0.25763294 -92.438408
9206000000 -1.0777867 124.2765 -8.5361528 -73.869484 -8.5152454 -74.389511 -0.25595713 -92.438385
9206062500 -1.0813917 124.28453 -8.5321293 -73.887619 -8.5224152 -74.402451 -0.261121 -92.433502
9206125000 -1.0795166 124.2717 -8.5241613 -73.871765 -8.5211973 -74.377617 -0.26025915 -92.386215
9206187500 -1.0786844 124.25195 -8.5249844 -73.850014 -8.5116053 -74.425194 -0.25688112 -92.404068
9206250000 -1.0770243 124.22747 -8.5234909 -73.8545 -8.5149145 -74.426041 -0.26781878 -92.359573
9206312500 -1.07538 124.18899 -8.5188494 -73.836296 -8.5123606 -74.427841 -0.26592991 -92.348175
9206375000 -1.0749744 124.20744 -8.5262966 -73.823891 -8.5171585 -74.396873 -0.26836112 -92.318764
9206437500 -1.0711067 124.15493 -8.5165434 -73.841377 -8.5126095 -74.393974 -0.26578286 -92.294998
9206500000 -1.0722694 124.12672 -8.5135117 -73.897003 -8.5122728 -74.368347 -0.2617116 -92.287109
9206562500 -1.0772303 124.1385 -8.5137177 -73.903793 -8.5076294 -74.379028 -0.26035181 -92.29493
9206625000 -1.078197 124.19089 -8.5139923 -73.851563 -8.5105143 -74.377907 -0.26037523 -92.278267
9206687500 -1.0805413 124.17881 -8.5149031 -73.902733 -8.5079002 -74.379326 -0.25084972 -92.266953
9206750000 -1.0793358 124.1748 -8.5289326 -73.879639 -8.5051012 -74.393005 -0.2549977 -92.258301
9206812500 -1.0789953 124.17653 -8.5063219 -73.946487 -8.5053205 -74.398155 -0.25102952 -92.256332
9206875000 -1.0756586 124.17307 -8.5132866 -73.874847 -8.5055609 -74.375648 -0.24918902 -92.244469
9206937500 -1.0709046 124.14276 -8.5173235 -73.908234 -8.504837 -74.365463 -0.25025997 -92.209702
9207000000 -1.0757177 124.12014 -8.5155115 -73.865028 -8.5016479 -74.360817 -0.25058377 -92.195412
9207062500 -1.07453 124.09261 -8.5149164 -73.878571 -8.4990606 -74.385269 -0.25223121 -92.182892
9207125000 -1.0738672 124.08047 -8.5125008 -73.832443 -8.4987192 -74.377243 -0.25518289 -92.140732
9207187500 -1.0710611 124.05088 -8.5093403 -73.911613 -8.4949265 -74.366325 -0.25469327 -92.110741
9207250000 -1.0743949 124.01601 -8.5114622 -73.8964 -8.5014105 -74.354843 -0.25768995 -92.075768
9207312500 -1.0732611 124.01727 -8.5139208 -73.830925 -8.4930019 -74.413651 -0.25587887 -92.087677
9207375000 -1.0766317 123.97424 -8.5081062 -73.866173 -8.4910049 -74.39122 -0.2610383 -92.079834
9207437500 -1.0752029 124.00172 -8.499876 -73.828499 -8.4967318 -74.309113 -0.25904229 -92.040512
9207500000 -1.0728816 123.95554 -8.4989958 -73.827003 -8.5022221 -74.389915 -0.26619497 -92.031403
9207562500 -1.0763386 123.95537 -8.5022697 -73.83638 -8.4993963 -74.356758 -0.26680291 -92.018944
9207625000 -1.0799707 123.8938 -8.5060034 -73.882149 -8.4956465 -74.355827 -0.26486868 -92.034393
9207687500 -1.0766495 123.89589 -8.5048485 -73.870567 -8.50385 -74.40255 -0.26981735 -92.052277
9207750000 -1.0843476 123.88861 -8.5093832 -73.917473 -8.4985189 -74.397499 -0.26292509 -91.988518
9207812500 -1.0871201 123.86903 -8.5112028 -73.9478 -8.4995537 -74.312157 -0.2585924 -91.97625
9207875000 -1.0852432 123.89526 -8.5077391 -73.875923 -8.5014076 -74.421875 -0.25737026 -91.993431
9207937500 -1.0864581 123.86584 -8.5014648 -73.843582 -8.4956007 -74.366325 -0.24627979 -91.964546
9208000000 -1.081645 123.8625 -8.4967308 -73.874802 -8.5061398 -74.35643 -0.2578088 -91.925438
9208062500 -1.0849452 123.85319 -8.5018911 -73.869728 -8.504406 -74.405609 -0.25740188 -91.913528
9208125000 -1.0792015 123.83878 -8.4900589 -73.841026 -8.5001774 -74.39827 -0.25542971 -91.870331
9208187500 -1.0823679 123.85379 -8.4988613 -73.818596 -8.4969063 -74.368225 -0.25229222 -91.82988
9208250000 -1.0812856 123.83592 -8.4943371 -73.837036 -8.4962578 -74.410103 -0.26576844 -91.850571
9208312500 -1.0792271 123.83099 -8.4975863 -73.826042 -8.4885321 -74.415581 -0.26008245 -91.833794
9208375000 -1.0788916 123.81088 -8.4862967 -73.801399 -8.4959536 -74.427612 -0.26562285 -91.767769
9208437500 -1.0778527 123.80856 -8.4893312 -73.780045 -8.4918003 -74.385757 -0.26011041 -91.746216
9208500000 -1.0788307 123.783 -8.4842224 -73.784225 -8.4926958 -74.403244 -0.26033735 -91.776642
9208562500 -1.0763075 123.76927 -8.4963264 -73.786125 -8.4980049 -74.367775 -0.26707757 -91.754967
9208625000 -1.0724069 123.77821 -8.4861603 -73.785599 -8.496294 -74.348602 -0.2621628 -91.751862
9208687500 -1.0699449 123.74883 -8.4933281 -73.793716 -8.4893255 -74.377991 -0.26174217 -91.753113
9208750000 -1.0702046 123.71375 -8.4893045 -73.792763 -8.5003319 -74.379951 -0.27079135 -91.750313
9208812500 -1.0688539 123.69372 -8.4805117 -73.801208 -8.4874687 -74.356682 -0.26733071 -91.72142
9208875000 -1.0783514 123.72978 -8.4902325 -73.776505 -8.4833708 -74.349808 -0.26906633 -91.680954
9208937500 -1.0754701 123.6809 -8.4878483 -73.808319 -8.48386 -74.333786 -0.26793361 -91.692253
9209000000 -1.0719736 123.68356 -8.4889126 -73.754089 -8.4836473 -74.342583 -0.26485562 -91.646355
9209062500 -1.0761516 123.66692 -8.4882822 -73.796562 -8.4715137 -74.34243 -0.26776251 -91.644875
9209125000 -1.0783345 123.64081 -8.4877558 -73.767952 -8.4743595 -74.34185 -0.26947513 -91.610779
9209187500 -1.0754312 123.60991 -8.4899569 -73.778496 -8.4792576 -74.294815 -0.26742917 -91.554817
9209250000 -1.0752054 123.64288 -8.4835958 -73.749176 -8.472496 -74.360588 -0.26250276 -91.577774
9209312500 -1.0730411 123.59463 -8.4804668 -73.795464 -8.4776402 -74.309143 -0.26821086 -91.522484
9209375000 -1.0676209 123.55775 -8.4872046 -73.811996 -8.4766378 -74.2948 -0.2686221 -91.535172
9209437500 -1.0759096 123.52632 -8.4858723 -73.784264 -8.4799147 -74.341125 -0.26445106 -91.504951
9209500000 -1.0701132 123.53922 -8.4826403 -73.765251 -8.4774532 -74.363617 -0.26647979 -91.527664
9209562500 -1.0765885 123.50855 -8.4864645 -73.795303 -8.481576 -74.325569 -0.27151316 -91.501617
9209625000 -1.0740142 123.49516 -8.4875984 -73.838142 -8.4889002 -74.32196 -0.26558736 -91.461403
9209687500 -1.0780082 123.45813 -8.4815426 -73.809258 -8.4833984 -74.339798 -0.26289976 -91.499283
9209750000 -1.0808176 123.46271 -8.477128 -73.843338 -8.472024 -74.339317 -0.25866982 -91.476112
9209812500 -1.0806618 123.48474 -8.4775791 -73.815926 -8.4858561 -74.357368 -0.26448801 -91.455315
9209875000 -1.0821233 123.46428 -8.4765329 -73.813431 -8.4747047 -74.350822 -0.26177263 -91.450966
9209937500 -1.0873649 123.44121 -8.4792948 -73.812767 -8.4726601 -74.33699 -0.25802305 -91.419189
9210000000 -1.0791912 123.45058 -8.4723501 -73.803894 -8.4733677 -74.337364 -0.26049986 -91.402611
9210062500 -1.0878069 123.44733 -8.4816294 -73.784431 -8.4689341 -74.276749 -0.26427215 -91.353058
9210125000 -1.0841432 123.45531 -8.4799938 -73.778984 -8.460556 -74.342995 -0.2625083 -91.378212
9210187500 -1.0833406 123.40665 -8.4752893 -73.771957 -8.4628401 -74.339249 -0.26784155 -91.327217
9210250000 -1.0825757 123.39803 -8.4764776 -73.790764 -8.4641972 -74.335022 -0.26657209 -91.301285
9210312500 -1.0849549 123.3733 -8.4725313 -73.808495 -8.4671545 -74.356697 -0.26189277 -91.339363
9210375000 -1.0820941 123.30258 -8.473279 -73.802002 -8.4677429 -74.308945 -0.26876998 -91.267593
9210437500 -1.0814774 123.32215 -8.4718189 -73.801735 -8.4652557 -74.313622 -0.25934184 -91.27224
9210500000 -1.0840341 123.32487 -8.472538 -73.782135 -8.4625511 -74.372932 -0.26632392 -91.28376
9210562500 -1.0737488 123.31341 -8.4583864 -73.722137 -8.4711695 -74.359764 -0.27281851 -91.274254
9210625000 -1.0797753 123.22147 -8.4663239 -73.725449 -8.4642401 -74.33284 -0.26696637 -91.235039
9210687500 -1.0806713 123.21954 -8.4652262 -73.80587 -8.4666872 -74.308311 -0.26985428 -91.24218
9210750000 -1.0781478 123.18703 -8.4622459 -73.789146 -8.4593487 -74.344101 -0.27037469 -91.232521
9210812500 -1.0746365 123.21753 -8.4552155 -73.828453 -8.4532852 -74.313889 -0.25812352 -91.197906
9210875000 -1.0789183 123.16891 -8.4579077 -73.82299 -8.458477 -74.250725 -0.27136618 -91.096992
9210937500 -1.0807 123.17747 -8.4594173 -73.825905 -8.4571514 -74.252327 -0.26846626 -91.072052
9211000000 -1.0774661 123.20158 -8.4480143 -73.791824 -8.447628 -74.281113 -0.26410019 -91.084991
9211062500 -1.0770985 123.16529 -8.4547443 -73.782776 -8.4546928 -74.231583 -0.26837391 -91.009804
9211125000 -1.0766964 123.15506 -8.463007 -73.76561 -8.4513073 -74.237061 -0.27119705 -91.027351
9211187500 -1.0807124 123.13412 -8.4612904 -73.839447 -8.4543066 -74.334099 -0.27226302 -91.057716
9211250000 -1.0756077 123.10598 -8.4564667 -73.757141 -8.4550314 -74.304428 -0.27838415 -90.987495
9211312500 -1.0812341 123.09708 -8.4575272 -73.792068 -8.4502735 -74.258827 -0.27848908 -90.98539
9211375000 -1.0838438 123.08801 -8.4578638 -73.754715 -8.4528646 -74.2854 -0.28086463 -90.969582
9211437500 -1.0770791 123.10714 -8.4544115 -73.781151 -8.4487791 -74.34137 -0.27397308 -91.009995
9211500000 -1.0754818 123.09154 -8.4593344 -73.751724 -8.4506798 -74.281914 -0.27177665 -91.014122
9211562500 -1.0778719 123.11063 -8.4504957 -73.784233 -8.4494448 -74.301064 -0.27114198 -90.992996
9211625000 -1.075366 123.0783 -8.4597187 -73.758942 -8.4580469 -74.236931 -0.27385125 -90.977486
9211687500 -1.0756308 123.10693 -8.4637785 -73.751228 -8.4539995 -74.245628 -0.26500395 -90.952301
9211750000 -1.0731026 123.09961 -8.451911 -73.759521 -8.4520464 -74.271393 -0.26565585 -90.997597
9211812500 -1.0698398 123.03291 -8.4445744 -73.734436 -8.4552813 -74.286179 -0.27210975 -90.983292
9211875000 -1.0763686 123.04007 -8.4586439 -73.753769 -8.4510641 -74.291573 -0.271162 -90.941986
9211937500 -1.0705972 122.98862 -8.4474392 -73.696304 -8.4467554 -74.24511 -0.26809534 -90.886475
9212000000 -1.0738003 122.97119 -8.4442387 -73.6978 -8.4501953 -74.281235 -0.27549618 -90.819702
9212062500 -1.0757258 122.96406 -8.4479837 -73.686005 -8.448555 -74.295265 -0.27978298 -90.820969
9212125000 -1.0780247 122.93424 -8.4564838 -73.699272 -8.446104 -74.28019 -0.27419129 -90.770615
9212187500 -1.074244 122.91743 -8.4451561 -73.688705 -8.4480677 -74.299614 -0.27143067 -90.773987
9212250000 -1.0757887 122.86366 -8.4376249 -73.820976 -8.4392681 -74.276901 -0.2720544 -90.815262
9212312500 -1.0803816 122.85911 -8.4448862 -73.747658 -8.4322872 -74.283745 -0.27075747 -90.772224
