!Agilent Technologies,N5242A,MY51221714,A.09.90.19
!Agilent N5242A: A.09.90.19
!Date: Saturday, December 30, 2023 09:57:36
!Correction: S11(Full 2 Port(1,2)) 
!S21(Full 2 Port(1,2)) 
!S12(Full 2 Port(1,2)) 
!S22(Full 2 Port(1,2)) 
!S2P File: Measurements: S11, S21, S12, S22:
# Hz S  dB   R 50
9200000000 -1.0716176 124.86837 -8.5830307 -73.941818 -8.566246 -74.499023 -0.23605235 -93.242462
9200062500 -1.0746572 124.87041 -8.5876036 -73.907494 -8.5697193 -74.518883 -0.237966 -93.265709
9200125000 -1.0735704 124.85278 -8.5798502 -73.945732 -8.5720587 -74.506538 -0.23814575 -93.228889
9200187500 -1.0741392 124.82944 -8.5838623 -74 -8.5694046 -74.54187 -0.242869 -93.19088
9200250000 -1.0761564 124.78822 -8.5875616 -73.921593 -8.5730925 -74.556389 -0.24193747 -93.205742
9200312500 -1.0768892 124.81242 -8.5920181 -73.987564 -8.5666246 -74.540024 -0.23665006 -93.203789
9200375000 -1.0796461 124.76978 -8.5897236 -73.968971 -8.5752506 -74.499779 -0.24458008 -93.176804
9200437500 -1.0763952 124.74954 -8.5893517 -73.9487 -8.5716972 -74.521576 -0.24438174 -93.157341
9200500000 -1.0739834 124.76506 -8.5852394 -73.949814 -8.5659151 -74.550888 -0.23677482 -93.161293
9200562500 -1.0731564 124.73302 -8.5875092 -74.014053 -8.5648603 -74.534187 -0.23553675 -93.189087
9200625000 -1.0766069 124.7276 -8.5820637 -73.961426 -8.560668 -74.584267 -0.23303039 -93.144516
9200687500 -1.0722606 124.67027 -8.58214 -74.007736 -8.5575123 -74.521904 -0.23479918 -93.15258
9200750000 -1.0744181 124.66449 -8.5773392 -74.004066 -8.556077 -74.521065 -0.23322445 -93.095436
9200812500 -1.0719033 124.63228 -8.5728064 -74.021797 -8.5554457 -74.486374 -0.2326571 -93.072243
9200875000 -1.0736704 124.63255 -8.5736666 -73.954735 -8.558588 -74.530449 -0.23871398 -93.038422
9200937500 -1.0762423 124.61785 -8.5753469 -73.911491 -8.5520773 -74.49659 -0.23635085 -93.029282
9201000000 -1.0740047 124.62881 -8.5753126 -73.998581 -8.5565195 -74.483307 -0.23900408 -93.030304
9201062500 -1.0802615 124.65082 -8.5835991 -74.02533 -8.5622807 -74.465401 -0.2454526 -93.029503
9201125000 -1.0766407 124.69304 -8.5812912 -73.997253 -8.5659571 -74.547974 -0.25172755 -93.029968
9201187500 -1.072287 124.68194 -8.5806684 -73.923897 -8.5651236 -74.45182 -0.24493435 -92.982193
9201250000 -1.0730802 124.61332 -8.5682583 -74.014587 -8.5684776 -74.475266 -0.25501791 -92.98748
9201312500 -1.0749927 124.65623 -8.5834312 -73.894356 -8.5625801 -74.460083 -0.24700961 -92.942329
9201375000 -1.0751203 124.59887 -8.5638142 -73.901756 -8.5496788 -74.470215 -0.23312818 -92.882286
9201437500 -1.0741862 124.58989 -8.5671244 -73.86161 -8.561348 -74.469925 -0.24435295 -92.89875
9201500000 -1.0777684 124.56203 -8.5707817 -73.935463 -8.5599642 -74.51088 -0.23445038 -92.884521
9201562500 -1.0767418 124.54991 -8.57304 -73.909447 -8.5555859 -74.516548 -0.23938304 -92.846214
9201625000 -1.0826565 124.54195 -8.5667419 -73.864845 -8.5538092 -74.510094 -0.23876533 -92.815819
9201687500 -1.0782636 124.51432 -8.5559006 -73.8992 -8.5444956 -74.514229 -0.23241329 -92.809845
9201750000 -1.07679 124.51634 -8.560339 -73.965683 -8.5500345 -74.465736 -0.24080701 -92.784508
9201812500 -1.0772383 124.5013 -8.5684814 -73.885651 -8.5517187 -74.522652 -0.2481011 -92.8256
9201875000 -1.0784343 124.48588 -8.5715647 -73.939758 -8.5537271 -74.42598 -0.24491827 -92.787758
9201937500 -1.0780543 124.51096 -8.5655594 -73.91906 -8.5436726 -74.415726 -0.24599294 -92.747849
9202000000 -1.0780349 124.45845 -8.5685015 -73.963364 -8.554841 -74.446129 -0.25466105 -92.778229
9202062500 -1.0735888 124.46543 -8.5664892 -73.915482 -8.5471849 -74.413605 -0.24412055 -92.744247
9202125000 -1.0715184 124.4231 -8.5552301 -73.984169 -8.5586252 -74.458809 -0.25505757 -92.75631
9202187500 -1.0759362 124.43239 -8.5550556 -73.919243 -8.5546274 -74.501099 -0.25374678 -92.706131
9202250000 -1.0718864 124.382 -8.5597525 -73.93145 -8.5563478 -74.452263 -0.2536059 -92.667114
9202312500 -1.070966 124.34168 -8.5607538 -73.978493 -8.54918 -74.514954 -0.24797142 -92.722435
9202375000 -1.0714099 124.35091 -8.5561724 -73.964432 -8.5564508 -74.479454 -0.25474101 -92.667801
9202437500 -1.0771865 124.34267 -8.5594234 -73.989067 -8.5493374 -74.528214 -0.25007749 -92.642937
9202500000 -1.0741763 124.31824 -8.554719 -73.953468 -8.5526695 -74.481667 -0.24705462 -92.619301
9202562500 -1.072901 124.28336 -8.5573292 -73.973412 -8.5480585 -74.48304 -0.2524223 -92.617249
9202625000 -1.0744917 124.33099 -8.5624838 -73.869896 -8.5499992 -74.478874 -0.24991702 -92.565102
9202687500 -1.0791664 124.26976 -8.5568962 -73.916107 -8.5459127 -74.484985 -0.25001636 -92.555016
9202750000 -1.0723008 124.26685 -8.5546312 -73.890015 -8.5489731 -74.518715 -0.25415009 -92.602814
9202812500 -1.0731727 124.26752 -8.5512753 -73.878151 -8.5574322 -74.532646 -0.25520694 -92.555351
9202875000 -1.0675058 124.23043 -8.5473375 -73.889229 -8.5451784 -74.494072 -0.24992271 -92.552139
9202937500 -1.0711397 124.18211 -8.5502796 -73.956932 -8.5350161 -74.495079 -0.25215685 -92.542068
9203000000 -1.0676455 124.22655 -8.5538445 -73.898094 -8.5359383 -74.511566 -0.24937691 -92.511429
9203062500 -1.0666041 124.19202 -8.544734 -73.880127 -8.5282307 -74.494469 -0.24969031 -92.472092
9203125000 -1.0704954 124.1602 -8.545455 -73.910858 -8.5326443 -74.462433 -0.24785315 -92.475281
9203187500 -1.0717405 124.15073 -8.5405235 -73.949112 -8.5292883 -74.469528 -0.24390273 -92.475731
9203250000 -1.0713695 124.17333 -8.5476465 -73.934013 -8.5306282 -74.482773 -0.24323221 -92.434586
9203312500 -1.0712947 124.16194 -8.5371132 -73.918785 -8.53932 -74.497475 -0.24295579 -92.432739
9203375000 -1.0736024 124.13972 -8.5310068 -73.967934 -8.5360546 -74.449043 -0.24365574 -92.388107
9203437500 -1.0681609 124.12981 -8.5272493 -73.914703 -8.5352468 -74.495689 -0.24529174 -92.362541
9203500000 -1.0770389 124.13837 -8.5299129 -73.853561 -8.5372038 -74.453072 -0.24655958 -92.302849
9203562500 -1.0740637 124.12524 -8.5365705 -73.879517 -8.5319719 -74.425529 -0.24362385 -92.30471
9203625000 -1.0745116 124.0969 -8.541337 -73.922249 -8.538413 -74.443703 -0.24997267 -92.33036
9203687500 -1.0741552 124.05235 -8.5438709 -73.964012 -8.533556 -74.48481 -0.25313485 -92.321121
9203750000 -1.0774381 124.01739 -8.5389681 -73.893082 -8.5277548 -74.419731 -0.24591923 -92.299988
9203812500 -1.0735223 124.01569 -8.5446968 -73.909752 -8.5305367 -74.43911 -0.25548434 -92.283333
9203875000 -1.0744939 124.01031 -8.5377264 -73.93924 -8.5255461 -74.538971 -0.24765217 -92.365868
9203937500 -1.0745662 124.01758 -8.5404072 -73.936852 -8.5304451 -74.503799 -0.25247931 -92.305344
9204000000 -1.0753545 123.9835 -8.5379581 -73.902451 -8.5298719 -74.463379 -0.25009403 -92.275116
9204062500 -1.0815401 123.97828 -8.5425205 -73.902847 -8.5245094 -74.438377 -0.24509095 -92.249901
9204125000 -1.0725602 123.95174 -8.5383425 -73.946617 -8.5259447 -74.466209 -0.2414048 -92.243454
9204187500 -1.0742258 123.95898 -8.534091 -73.901711 -8.5268335 -74.442856 -0.2455925 -92.194176
9204250000 -1.0716822 123.94265 -8.5312014 -73.930641 -8.5240202 -74.459236 -0.24138585 -92.147354
9204312500 -1.0721536 123.92955 -8.5246658 -73.871147 -8.5190983 -74.40329 -0.24691673 -92.120483
9204375000 -1.0687649 123.91671 -8.5238762 -73.85408 -8.5306787 -74.449432 -0.25151587 -92.099068
9204437500 -1.0721855 123.9341 -8.5215616 -73.817039 -8.5268288 -74.408386 -0.24769039 -92.084137
9204500000 -1.0669676 123.89214 -8.5188189 -73.810303 -8.5243092 -74.429222 -0.25184545 -92.052773
9204562500 -1.0622511 123.84227 -8.515645 -73.834145 -8.5122194 -74.433083 -0.24573311 -92.064659
9204625000 -1.0657223 123.88811 -8.520319 -73.751717 -8.5155153 -74.474152 -0.25568783 -92.032898
9204687500 -1.0663763 123.84486 -8.5228157 -73.80233 -8.5181322 -74.405045 -0.25768587 -92.021606
9204750000 -1.0694189 123.80212 -8.5187626 -73.854515 -8.5206451 -74.422722 -0.25522864 -92.025421
9204812500 -1.0733969 123.76933 -8.5215025 -73.874451 -8.5202465 -74.447975 -0.25776315 -92.039497
9204875000 -1.076164 123.76324 -8.5233364 -73.933746 -8.5233793 -74.407578 -0.2576158 -92.022041
9204937500 -1.0717914 123.78027 -8.5236816 -73.885704 -8.526125 -74.419716 -0.25632331 -91.963074
9205000000 -1.0759416 123.75567 -8.532629 -73.899437 -8.5137262 -74.398277 -0.25196096 -91.957153
9205062500 -1.0723016 123.74635 -8.5173559 -73.888626 -8.5241098 -74.379265 -0.25916022 -91.917854
9205125000 -1.0748322 123.70116 -8.51894 -73.854073 -8.5190525 -74.46048 -0.25227892 -91.931839
9205187500 -1.0768569 123.72235 -8.5231476 -73.93821 -8.5202217 -74.411835 -0.24912035 -91.875671
9205250000 -1.0803182 123.75894 -8.5253983 -73.854744 -8.5145445 -74.463242 -0.24110654 -91.899895
9205312500 -1.0725666 123.74582 -8.513608 -73.809959 -8.5237169 -74.472748 -0.24360892 -91.835464
9205375000 -1.0704027 123.73203 -8.5196609 -73.861404 -8.5231552 -74.466499 -0.24911076 -91.837151
9205437500 -1.0734857 123.71008 -8.5202007 -73.847183 -8.5158939 -74.449486 -0.24928431 -91.78595
9205500000 -1.0780599 123.68307 -8.5186434 -73.793198 -8.5088034 -74.443169 -0.24666682 -91.773064
9205562500 -1.0723292 123.66447 -8.5207748 -73.794754 -8.5124893 -74.410439 -0.25436285 -91.757454
9205625000 -1.0790502 123.64471 -8.5272112 -73.776878 -8.5014639 -74.435181 -0.25639474 -91.734581
9205687500 -1.0748996 123.6017 -8.5200176 -73.803284 -8.5063105 -74.394646 -0.25701529 -91.717628
9205750000 -1.0791886 123.61476 -8.5250025 -73.761185 -8.5021601 -74.34597 -0.26163453 -91.653252
9205812500 -1.0790417 123.58405 -8.5251961 -73.737183 -8.5078859 -74.39547 -0.2628963 -91.652191
9205875000 -1.0746121 123.56318 -8.5146914 -73.769119 -8.5022755 -74.302063 -0.26095903 -91.602913
9205937500 -1.0741816 123.53209 -8.5209608 -73.779129 -8.5093431 -74.360329 -0.26294774 -91.622955
9206000000 -1.0746934 123.48689 -8.5209303 -73.811409 -8.5024738 -74.354874 -0.26380315 -91.62664
9206062500 -1.0797967 123.50912 -8.517849 -73.76796 -8.5058861 -74.373863 -0.25994042 -91.598701
9206125000 -1.0837177 123.49696 -8.5137625 -73.830315 -8.4969597 -74.425797 -0.26452535 -91.608734
9206187500 -1.0799825 123.47726 -8.5092878 -73.818756 -8.5072613 -74.395256 -0.2592935 -91.565086
9206250000 -1.0746396 123.44994 -8.5067673 -73.836731 -8.5082655 -74.382828 -0.26606983 -91.540253
9206312500 -1.0738543 123.42386 -8.5055037 -73.847931 -8.5079002 -74.370163 -0.26569003 -91.513588
9206375000 -1.073032 123.381 -8.4973793 -73.869362 -8.5045691 -74.364685 -0.26828834 -91.499367
9206437500 -1.0782179 123.36858 -8.4984083 -73.853966 -8.4973011 -74.401817 -0.25830215 -91.497002
9206500000 -1.0755781 123.37511 -8.5085583 -73.824593 -8.495491 -74.366653 -0.26842815 -91.447762
9206562500 -1.0808339 123.3845 -8.5062151 -73.816689 -8.4981813 -74.307137 -0.26584631 -91.41967
9206625000 -1.0753372 123.41503 -8.4992256 -73.819664 -8.4983282 -74.400635 -0.26173735 -91.488441
9206687500 -1.0800209 123.42253 -8.5018044 -73.882896 -8.4981432 -74.413559 -0.26137584 -91.487274
9206750000 -1.0843145 123.3988 -8.506916 -73.904564 -8.490715 -74.393318 -0.25393885 -91.458725
9206812500 -1.0816683 123.40834 -8.5017118 -73.79567 -8.4888678 -74.407326 -0.25093496 -91.4655
9206875000 -1.0815436 123.41977 -8.5122728 -73.80603 -8.4993496 -74.341805 -0.25531423 -91.433922
9206937500 -1.0771195 123.36602 -8.4987965 -73.872299 -8.4839811 -74.318001 -0.25160977 -91.385544
9207000000 -1.0731089 123.34947 -8.4957323 -73.850761 -8.4960365 -74.393753 -0.2543872 -91.400406
9207062500 -1.0754814 123.30894 -8.5022144 -73.805099 -8.488081 -74.431793 -0.25128606 -91.394844
9207125000 -1.0766952 123.2804 -8.5056591 -73.814522 -8.4882355 -74.374207 -0.25420764 -91.357841
9207187500 -1.0747457 123.28472 -8.4974184 -73.796265 -8.4828186 -74.357574 -0.25244132 -91.261833
9207250000 -1.0757207 123.22918 -8.5067711 -73.811226 -8.4844236 -74.322365 -0.25386891 -91.271759
9207312500 -1.0735356 123.20343 -8.4955578 -73.799942 -8.4791174 -74.341393 -0.25600585 -91.255287
9207375000 -1.0763662 123.21573 -8.5025854 -73.803123 -8.4768305 -74.332779 -0.25349307 -91.215523
9207437500 -1.0737799 123.17006 -8.4958782 -73.846298 -8.4871979 -74.36039 -0.26623964 -91.273628
9207500000 -1.073894 123.18129 -8.4893188 -73.839874 -8.4879942 -74.314865 -0.26184905 -91.233368
9207562500 -1.0823077 123.17787 -8.500309 -73.793259 -8.4859066 -74.347862 -0.26741338 -91.206924
9207625000 -1.0721034 123.09955 -8.4830265 -73.889557 -8.488759 -74.309158 -0.26208657 -91.211739
9207687500 -1.0837597 123.13503 -8.4950438 -73.866516 -8.4835968 -74.337959 -0.2615343 -91.202362
9207750000 -1.0781857 123.12801 -8.4804859 -73.865982 -8.4856577 -74.31337 -0.25883326 -91.171806
9207812500 -1.0833831 123.11013 -8.4881668 -73.84021 -8.4921989 -74.32682 -0.26071283 -91.176483
9207875000 -1.0870409 123.13499 -8.4900408 -73.830101 -8.4870081 -74.325684 -0.25459406 -91.148903
9207937500 -1.0876586 123.12283 -8.4919271 -73.823006 -8.4820175 -74.378357 -0.24553256 -91.170013
9208000000 -1.0867428 123.09258 -8.4847298 -73.865631 -8.4865561 -74.377464 -0.25148264 -91.145416
9208062500 -1.0852456 123.11053 -8.4848099 -73.869003 -8.4823093 -74.411316 -0.25450113 -91.109879
9208125000 -1.0856112 123.09349 -8.4815121 -73.828201 -8.4914598 -74.338158 -0.26262847 -91.075157
9208187500 -1.0790753 123.07986 -8.4819765 -73.816154 -8.4892693 -74.32106 -0.25927904 -91.030739
9208250000 -1.0761633 123.06414 -8.4845562 -73.774872 -8.4767675 -74.383163 -0.25348336 -90.999031
9208312500 -1.0790828 123.02212 -8.4712543 -73.762344 -8.4774475 -74.382057 -0.26214945 -91.01387
9208375000 -1.0775321 123.04755 -8.4814119 -73.769592 -8.4788723 -74.355553 -0.25786623 -90.960159
9208437500 -1.0759379 123.00335 -8.4812965 -73.691139 -8.484313 -74.371735 -0.268774 -90.949608
9208500000 -1.0813479 122.98267 -8.4794359 -73.779839 -8.4777308 -74.391289 -0.26118091 -90.94574
9208562500 -1.0812173 123.01466 -8.4783592 -73.717125 -8.4790087 -74.303543 -0.25953498 -90.896912
9208625000 -1.0756929 123.00423 -8.4695377 -73.703697 -8.4778318 -74.380692 -0.26366207 -90.950371
9208687500 -1.0760473 122.97736 -8.4784918 -73.718468 -8.4743357 -74.375099 -0.26344264 -90.944862
9208750000 -1.0722723 122.95512 -8.471981 -73.721672 -8.4718037 -74.323875 -0.26239252 -90.915955
9208812500 -1.0725626 122.93468 -8.4768143 -73.768867 -8.4659424 -74.282471 -0.26307774 -90.893219
9208875000 -1.070574 122.92946 -8.4720888 -73.786049 -8.4723339 -74.268753 -0.26860455 -90.877434
9208937500 -1.0723884 122.94273 -8.4724274 -73.716057 -8.4689989 -74.263733 -0.26502922 -90.77285
9209000000 -1.0780586 122.88491 -8.4786081 -73.783447 -8.4657774 -74.334183 -0.26972413 -90.835419
9209062500 -1.0723815 122.88254 -8.467844 -73.782272 -8.45994 -74.263504 -0.26669648 -90.807556
9209125000 -1.0754848 122.90224 -8.4835596 -73.74044 -8.4560175 -74.311493 -0.2647548 -90.801819
9209187500 -1.0737798 122.84853 -8.4722757 -73.764053 -8.4617519 -74.33609 -0.26891041 -90.795456
9209250000 -1.0754676 122.827 -8.4719887 -73.753418 -8.4725018 -74.290726 -0.27785504 -90.742363
9209312500 -1.0722934 122.82683 -8.4712629 -73.731705 -8.4648895 -74.292206 -0.27273548 -90.715881
9209375000 -1.07144 122.7997 -8.4710283 -73.756386 -8.4681568 -74.265953 -0.26895282 -90.689034
9209437500 -1.0736794 122.7876 -8.4704237 -73.724747 -8.4685183 -74.281174 -0.26773396 -90.697029
9209500000 -1.077217 122.79283 -8.4689465 -73.731331 -8.4605608 -74.30851 -0.26394787 -90.674393
9209562500 -1.0763348 122.74261 -8.4719305 -73.740379 -8.4699078 -74.249352 -0.26603696 -90.65847
9209625000 -1.0721229 122.74371 -8.4649057 -73.734772 -8.4661512 -74.333122 -0.26206127 -90.68158
9209687500 -1.0795239 122.71211 -8.4664497 -73.734642 -8.4627609 -74.327789 -0.26134887 -90.659653
9209750000 -1.0817641 122.72215 -8.4671965 -73.74353 -8.4516678 -74.321129 -0.25484186 -90.647575
9209812500 -1.0829966 122.71811 -8.4725685 -73.761101 -8.467124 -74.308136 -0.26366827 -90.607002
9209875000 -1.0810413 122.70589 -8.4594116 -73.752419 -8.4621954 -74.260544 -0.25637671 -90.591812
9209937500 -1.0854735 122.66494 -8.4633923 -73.772804 -8.4524164 -74.271629 -0.25422782 -90.590195
9210000000 -1.0835128 122.69831 -8.4673786 -73.730766 -8.4622774 -74.290726 -0.26356199 -90.59053
9210062500 -1.0869195 122.67223 -8.4661636 -73.805321 -8.456008 -74.355759 -0.27024108 -90.586433
9210125000 -1.0815077 122.65381 -8.4614611 -73.740295 -8.4598246 -74.302666 -0.26313776 -90.522728
9210187500 -1.0833271 122.65341 -8.4661703 -73.673546 -8.4453363 -74.307961 -0.26003993 -90.533371
9210250000 -1.0810981 122.66523 -8.4617624 -73.722176 -8.4520292 -74.307587 -0.26501232 -90.522255
9210312500 -1.081373 122.62559 -8.4524717 -73.703697 -8.4421625 -74.323631 -0.25535536 -90.530174
9210375000 -1.0811867 122.59258 -8.453186 -73.699562 -8.4555817 -74.274239 -0.27047923 -90.449722
9210437500 -1.0796684 122.57523 -8.4476023 -73.792191 -8.4542713 -74.372711 -0.26430273 -90.476372
9210500000 -1.082265 122.53542 -8.4532919 -73.709274 -8.4483433 -74.292168 -0.26718059 -90.459091
9210562500 -1.0790228 122.54086 -8.4525833 -73.674522 -8.4560061 -74.333313 -0.27305013 -90.423515
9210625000 -1.0808071 122.42603 -8.4476147 -73.766388 -8.4433842 -74.325935 -0.26450825 -90.403954
9210687500 -1.0774291 122.43793 -8.4525309 -73.700676 -8.448081 -74.287758 -0.26383153 -90.36676
9210750000 -1.0791668 122.43423 -8.4547873 -73.721275 -8.446805 -74.315514 -0.27098536 -90.356247
9210812500 -1.0804768 122.43874 -8.4439135 -73.701027 -8.4427013 -74.259201 -0.26600417 -90.345535
9210875000 -1.0787928 122.43773 -8.4391222 -73.712326 -8.4424391 -74.311424 -0.2668986 -90.327316
9210937500 -1.0786712 122.40123 -8.4411221 -73.748703 -8.44203 -74.255432 -0.26503602 -90.299049
9211000000 -1.0746791 122.43752 -8.4391356 -73.752419 -8.438056 -74.259575 -0.26581362 -90.235863
9211062500 -1.0814377 122.38837 -8.4438553 -73.689568 -8.439436 -74.217072 -0.26815662 -90.206116
9211125000 -1.0795778 122.39845 -8.4486446 -73.684525 -8.4386768 -74.231102 -0.26551279 -90.215805
9211187500 -1.0808607 122.38344 -8.4434738 -73.716789 -8.4324846 -74.195259 -0.2648403 -90.16481
9211250000 -1.0786803 122.36612 -8.4432259 -73.699455 -8.4368534 -74.202278 -0.26991448 -90.116074
9211312500 -1.0797136 122.36736 -8.4481249 -73.711098 -8.436162 -74.246391 -0.27621654 -90.192177
9211375000 -1.083241 122.35123 -8.4528084 -73.756081 -8.4435539 -74.308571 -0.28109944 -90.18277
9211437500 -1.0826856 122.32605 -8.4391861 -73.71582 -8.4332399 -74.23674 -0.27168429 -90.172714
9211500000 -1.0768816 122.32401 -8.4511814 -73.69989 -8.4446964 -74.254639 -0.27086896 -90.162331
9211562500 -1.0760318 122.28965 -8.4379034 -73.77774 -8.4360504 -74.273483 -0.26915863 -90.176048
9211625000 -1.0740551 122.31903 -8.4435472 -73.707497 -8.4272528 -74.250801 -0.26127473 -90.197746
9211687500 -1.0763025 122.30018 -8.4372187 -73.73597 -8.4393263 -74.220619 -0.26448861 -90.15847
9211750000 -1.0777748 122.31288 -8.4355488 -73.756439 -8.4359341 -74.239662 -0.2660448 -90.132957
9211812500 -1.0733966 122.27865 -8.4368038 -73.747337 -8.4420967 -74.222618 -0.27224621 -90.117073
9211875000 -1.0763721 122.24341 -8.4440823 -73.767952 -8.4319172 -74.226135 -0.27602214 -90.083275
9211937500 -1.071655 122.22675 -8.4352331 -73.687218 -8.4318104 -74.256149 -0.27644503 -90.059906
9212000000 -1.0747849 122.21259 -8.4344454 -73.642159 -8.4371824 -74.282669 -0.27713966 -90.022408
9212062500 -1.0779043 122.17706 -8.4335384 -73.697746 -8.4335127 -74.236374 -0.27190337 -89.94416
9212125000 -1.0794749 122.13513 -8.4378719 -73.694023 -8.4318371 -74.175102 -0.27797401 -89.90284
9212187500 -1.0712839 122.11956 -8.4332581 -73.6866 -8.4259281 -74.248505 -0.26823959 -89.96048
9212250000 -1.0750901 122.10186 -8.4267178 -73.632721 -8.4295807 -74.274017 -0.27645072 -89.921509
9212312500 -1.0805757 122.06525 -8.4342594 -73.719177 -8.4291067 -74.291931 -0.27467138 -89.955994
