!Agilent Technologies,N5242A,MY51221714,A.09.90.19
!Agilent N5242A: A.09.90.19
!Date: Saturday, December 30, 2023 09:58:54
!Correction: S11(Full 2 Port(1,2)) 
!S21(Full 2 Port(1,2)) 
!S12(Full 2 Port(1,2)) 
!S22(Full 2 Port(1,2)) 
!S2P File: Measurements: S11, S21, S12, S22:
# Hz S  dB   R 50
9200000000 -1.1298541 124.32107 -8.4219894 -74.767601 -8.4081383 -75.38842 -0.32773012 -93.547256
9200062500 -1.129339 124.28664 -8.4254808 -74.865898 -8.4114504 -75.353493 -0.33260441 -93.536201
9200125000 -1.1305823 124.26701 -8.41362 -74.821121 -8.4039984 -75.360474 -0.32591397 -93.524658
9200187500 -1.1339592 124.24845 -8.4311914 -74.803146 -8.402669 -75.363235 -0.32731628 -93.515144
9200250000 -1.1384883 124.22925 -8.4209843 -74.86734 -8.4057026 -75.321564 -0.33276844 -93.516228
9200312500 -1.1332293 124.22706 -8.4189701 -74.821915 -8.4080467 -75.374107 -0.32957715 -93.503265
9200375000 -1.1343414 124.19858 -8.4244213 -74.812302 -8.4109182 -75.360062 -0.33133093 -93.484055
9200437500 -1.1305956 124.18683 -8.4193592 -74.811287 -8.4088488 -75.385841 -0.33328775 -93.467484
9200500000 -1.1356494 124.16753 -8.4160681 -74.822838 -8.4061661 -75.360977 -0.33206072 -93.470634
9200562500 -1.1387463 124.15331 -8.4224358 -74.813469 -8.400301 -75.350266 -0.32818866 -93.470993
9200625000 -1.1317251 124.12394 -8.4159212 -74.817284 -8.3986082 -75.366203 -0.32474688 -93.466003
9200687500 -1.134964 124.10138 -8.4186583 -74.777878 -8.4022541 -75.315544 -0.32708779 -93.390625
9200750000 -1.1361256 124.11791 -8.4170408 -74.821106 -8.3929358 -75.396889 -0.33441663 -93.452873
9200812500 -1.1292171 124.09564 -8.4097462 -74.81189 -8.3937788 -75.322144 -0.32866916 -93.35717
9200875000 -1.1358579 124.11783 -8.4186134 -74.785797 -8.3917236 -75.353333 -0.3290568 -93.351608
9200937500 -1.1343213 124.07314 -8.4129715 -74.833069 -8.3876457 -75.377747 -0.32821345 -93.380112
9201000000 -1.1327885 124.0436 -8.4195089 -74.851501 -8.4024954 -75.321213 -0.33609763 -93.338814
9201062500 -1.1339926 124.10074 -8.416007 -74.840179 -8.3980064 -75.362442 -0.33999929 -93.347748
9201125000 -1.1336378 124.08211 -8.4201488 -74.858307 -8.4057541 -75.366791 -0.34426543 -93.332047
9201187500 -1.13499 124.07931 -8.4159765 -74.81926 -8.4041805 -75.356453 -0.34082344 -93.323074
9201250000 -1.1319616 124.09909 -8.4110956 -74.791626 -8.4094467 -75.358749 -0.34068754 -93.316574
9201312500 -1.1355933 124.0686 -8.4129419 -74.793861 -8.4059811 -75.357819 -0.33826408 -93.263123
9201375000 -1.1358421 124.05554 -8.4074173 -74.743927 -8.399087 -75.337448 -0.33846176 -93.231987
9201437500 -1.1366471 124.04478 -8.4007454 -74.811447 -8.4006853 -75.360466 -0.33664274 -93.240242
9201500000 -1.1362584 124.01904 -8.4058943 -74.731651 -8.399663 -75.335106 -0.3281832 -93.132751
9201562500 -1.1380144 124.01717 -8.4058599 -74.724052 -8.3910875 -75.300797 -0.33140796 -93.117538
9201625000 -1.1386938 123.99117 -8.4067888 -74.727219 -8.3948164 -75.399323 -0.33590758 -93.13633
9201687500 -1.1394413 123.95587 -8.4051113 -74.768417 -8.3881674 -75.31192 -0.33221993 -93.099991
9201750000 -1.1370733 123.92435 -8.3969727 -74.809593 -8.3966684 -75.347702 -0.33631364 -93.094765
9201812500 -1.1366023 123.93888 -8.4055262 -74.746513 -8.3824081 -75.251839 -0.33303219 -93.012009
9201875000 -1.1373612 123.96 -8.4042435 -74.766937 -8.3926706 -75.33815 -0.3402448 -93.109627
9201937500 -1.1377167 123.90926 -8.4037199 -74.819092 -8.3884649 -75.307106 -0.33863139 -93.07338
9202000000 -1.1315272 123.90717 -8.3988066 -74.76947 -8.3841171 -75.321335 -0.33905154 -93.068848
9202062500 -1.1339946 123.89032 -8.3964834 -74.73243 -8.3936567 -75.245323 -0.34853685 -93.044502
9202125000 -1.1345565 123.85573 -8.4054461 -74.846016 -8.3872938 -75.273422 -0.33984146 -93.047264
9202187500 -1.1332959 123.83401 -8.3927584 -74.780655 -8.3809776 -75.360275 -0.34179536 -93.076279
9202250000 -1.1347256 123.80909 -8.3983994 -74.767403 -8.3842745 -75.35804 -0.3417646 -93.047157
9202312500 -1.130759 123.80424 -8.3978825 -74.811119 -8.3904686 -75.312233 -0.34429443 -92.977737
9202375000 -1.136703 123.78695 -8.3961678 -74.795433 -8.3855038 -75.34375 -0.34171358 -92.97319
9202437500 -1.1312231 123.77618 -8.3994961 -74.818047 -8.3864336 -75.308632 -0.33774349 -92.935333
9202500000 -1.1345804 123.76284 -8.3962364 -74.739761 -8.3875513 -75.390282 -0.33876437 -92.966713
9202562500 -1.1343985 123.73749 -8.3979101 -74.796577 -8.3913002 -75.428551 -0.35069278 -92.956169
9202625000 -1.1308348 123.73743 -8.3923979 -74.775139 -8.3758135 -75.349457 -0.3405937 -92.915947
9202687500 -1.1355413 123.70567 -8.3841553 -74.721359 -8.3837986 -75.363609 -0.34210676 -92.903893
9202750000 -1.1346548 123.73129 -8.3969164 -74.697823 -8.3757696 -75.338882 -0.33858773 -92.867821
9202812500 -1.1363356 123.70242 -8.3962355 -74.720116 -8.3736362 -75.332855 -0.34362996 -92.838379
9202875000 -1.1340752 123.66508 -8.3901176 -74.809967 -8.3790894 -75.347687 -0.3419039 -92.883995
9202937500 -1.1321508 123.65028 -8.3949852 -74.768761 -8.3739777 -75.349136 -0.3482739 -92.886627
9203000000 -1.1284269 123.65377 -8.3852415 -74.764122 -8.3718834 -75.294548 -0.33966458 -92.837074
9203062500 -1.1312672 123.62546 -8.3853216 -74.774696 -8.3753796 -75.342087 -0.34866124 -92.827446
9203125000 -1.1242867 123.607 -8.3795443 -74.758942 -8.3744001 -75.334648 -0.33834141 -92.815178
9203187500 -1.129261 123.6363 -8.3780527 -74.681641 -8.3733597 -75.311806 -0.34253213 -92.738243
9203250000 -1.1291471 123.60641 -8.3786755 -74.726425 -8.3770056 -75.316177 -0.34497005 -92.746124
9203312500 -1.1256895 123.61599 -8.3705292 -74.718117 -8.3761101 -75.325432 -0.33756366 -92.70105
9203375000 -1.1273624 123.59225 -8.371192 -74.736679 -8.3741207 -75.263901 -0.33685216 -92.640831
9203437500 -1.132951 123.57574 -8.3773727 -74.752884 -8.3764906 -75.279701 -0.34041193 -92.650223
9203500000 -1.1325125 123.60262 -8.3653307 -74.677734 -8.374094 -75.30497 -0.33313122 -92.637512
9203562500 -1.1367877 123.56218 -8.3646927 -74.701294 -8.378232 -75.301704 -0.34388766 -92.6185
9203625000 -1.1358355 123.52551 -8.3759937 -74.75415 -8.3742123 -75.319588 -0.35074529 -92.64827
9203687500 -1.1353625 123.52642 -8.3759403 -74.768295 -8.3704453 -75.303345 -0.34914809 -92.622917
9203750000 -1.1337358 123.49418 -8.3812523 -74.721741 -8.3637695 -75.266052 -0.33802995 -92.607018
9203812500 -1.1320482 123.47114 -8.3773727 -74.738213 -8.358551 -75.268524 -0.34399483 -92.611275
9203875000 -1.1311806 123.41783 -8.3765221 -74.756744 -8.3642139 -75.332298 -0.34159407 -92.635574
9203937500 -1.1358578 123.41662 -8.3756933 -74.757248 -8.3707552 -75.308304 -0.34129572 -92.579002
9204000000 -1.1331497 123.43195 -8.3798132 -74.730743 -8.3734074 -75.339096 -0.34895018 -92.589592
9204062500 -1.1360408 123.40789 -8.3755589 -74.759651 -8.3629408 -75.297577 -0.33269474 -92.54821
9204125000 -1.1344973 123.41773 -8.3699579 -74.734459 -8.3693476 -75.258926 -0.33822978 -92.526794
9204187500 -1.1362909 123.39786 -8.3681164 -74.751328 -8.3626986 -75.27861 -0.33543682 -92.508331
9204250000 -1.1327468 123.37276 -8.3645735 -74.781258 -8.3599262 -75.286453 -0.34116456 -92.500969
9204312500 -1.1302916 123.37946 -8.3649111 -74.695755 -8.3607035 -75.283104 -0.33665445 -92.43911
9204375000 -1.1288931 123.36189 -8.367321 -74.760597 -8.3588495 -75.283379 -0.34429517 -92.448097
9204437500 -1.1210437 123.35246 -8.3569336 -74.654709 -8.3615847 -75.248665 -0.34363967 -92.408165
9204500000 -1.1292771 123.33237 -8.3626051 -74.693367 -8.3539419 -75.238541 -0.34181237 -92.387703
9204562500 -1.1308832 123.33759 -8.3578463 -74.663925 -8.3522215 -75.295753 -0.34221852 -92.421181
9204625000 -1.1259274 123.27245 -8.3496952 -74.629875 -8.357296 -75.275375 -0.34291676 -92.342079
9204687500 -1.1286045 123.287 -8.3687077 -74.632248 -8.3531199 -75.297119 -0.3506439 -92.371712
9204750000 -1.1351148 123.23608 -8.3578167 -74.669777 -8.3555937 -75.304916 -0.34386024 -92.346741
9204812500 -1.1349903 123.22482 -8.3649588 -74.729362 -8.3518791 -75.220634 -0.35032853 -92.316032
9204875000 -1.1370615 123.1595 -8.3613997 -74.727615 -8.3537798 -75.275177 -0.35145938 -92.304726
9204937500 -1.1352025 123.19 -8.3622036 -74.773987 -8.3572149 -75.301018 -0.34641457 -92.287621
9205000000 -1.1374443 123.19812 -8.3628416 -74.692703 -8.3526068 -75.254692 -0.35280243 -92.245865
9205062500 -1.1339551 123.17473 -8.3617926 -74.698547 -8.3575907 -75.25798 -0.34767568 -92.249573
9205125000 -1.138923 123.17503 -8.3603086 -74.764366 -8.3562031 -75.266289 -0.34244093 -92.196167
9205187500 -1.1380723 123.17576 -8.355876 -74.737541 -8.3494568 -75.317444 -0.33883634 -92.223129
9205250000 -1.1380599 123.15584 -8.3546019 -74.702591 -8.3541727 -75.26944 -0.34091365 -92.175606
9205312500 -1.140873 123.17896 -8.359272 -74.714798 -8.358202 -75.351967 -0.34386498 -92.181358
9205375000 -1.1322229 123.17348 -8.3472204 -74.699074 -8.3566093 -75.32692 -0.34153897 -92.14901
9205437500 -1.1355402 123.1312 -8.3547869 -74.656296 -8.3523083 -75.335724 -0.34517005 -92.111053
9205500000 -1.1387092 123.11053 -8.3598204 -74.659996 -8.3440514 -75.306351 -0.3426761 -92.111534
9205562500 -1.134238 123.05459 -8.3544512 -74.708794 -8.3478374 -75.27932 -0.34777781 -92.075851
9205625000 -1.1342124 123.07194 -8.3536186 -74.626984 -8.3480263 -75.272247 -0.3519097 -92.029297
9205687500 -1.1355268 123.03835 -8.348671 -74.653099 -8.3389244 -75.26123 -0.35596597 -92.026344
9205750000 -1.1415646 123.02169 -8.3672667 -74.648376 -8.3474207 -75.233635 -0.36444336 -91.995537
9205812500 -1.1340468 122.99687 -8.3560152 -74.625069 -8.3368883 -75.235603 -0.34809917 -91.94252
9205875000 -1.1358483 122.97768 -8.3492403 -74.655365 -8.3455238 -75.207169 -0.35629871 -91.911331
9205937500 -1.1369524 122.95988 -8.3531618 -74.676704 -8.3428621 -75.272385 -0.35292408 -91.946526
9206000000 -1.1380379 122.97019 -8.3572483 -74.619194 -8.3479996 -75.19857 -0.3576628 -91.873154
9206062500 -1.1332846 122.98367 -8.34939 -74.622894 -8.3431921 -75.274124 -0.35609737 -91.912193
9206125000 -1.1393586 122.92944 -8.3451099 -74.695992 -8.3452892 -75.272285 -0.36240193 -91.905396
9206187500 -1.1376863 122.91933 -8.3401117 -74.690964 -8.3392296 -75.266571 -0.35271797 -91.910378
9206250000 -1.1387545 122.88774 -8.3477449 -74.64904 -8.3460941 -75.267868 -0.36352447 -91.864532
9206312500 -1.1352856 122.8672 -8.3514662 -74.68692 -8.3384695 -75.235603 -0.3599028 -91.802742
9206375000 -1.1385956 122.84174 -8.3382835 -74.647232 -8.330265 -75.226883 -0.35615429 -91.821823
9206437500 -1.1339571 122.81268 -8.3378153 -74.727737 -8.3415375 -75.247566 -0.36482662 -91.777489
9206500000 -1.1380635 122.81461 -8.3395309 -74.707832 -8.3382292 -75.2388 -0.36402094 -91.786942
9206562500 -1.1374756 122.82648 -8.3330641 -74.675125 -8.3398857 -75.200668 -0.36325413 -91.767632
9206625000 -1.1400412 122.80918 -8.3404026 -74.776588 -8.3352098 -75.195236 -0.35736513 -91.793678
9206687500 -1.1381849 122.82515 -8.3387966 -74.699806 -8.3408651 -75.213676 -0.35117066 -91.754402
9206750000 -1.1399746 122.85083 -8.3414993 -74.699036 -8.3236008 -75.212456 -0.34066808 -91.741951
9206812500 -1.1430374 122.81874 -8.3366394 -74.675156 -8.3243008 -75.149323 -0.34304726 -91.699829
9206875000 -1.1409211 122.80915 -8.3428135 -74.758301 -8.3175936 -75.168976 -0.34167311 -91.720718
9206937500 -1.1386029 122.79126 -8.3442545 -74.690254 -8.3259325 -75.199936 -0.34605408 -91.71907
9207000000 -1.1372133 122.78455 -8.3400984 -74.710594 -8.3288689 -75.22963 -0.34633693 -91.65831
9207062500 -1.1364049 122.76062 -8.3416452 -74.673782 -8.3260288 -75.196533 -0.34830362 -91.639992
9207125000 -1.1388439 122.74073 -8.3373671 -74.664169 -8.3244905 -75.244965 -0.35086364 -91.612587
9207187500 -1.1313338 122.66827 -8.334878 -74.695892 -8.3151827 -75.243813 -0.34985709 -91.667931
9207250000 -1.1356218 122.68091 -8.3284531 -74.684891 -8.3220034 -75.231812 -0.35496116 -91.613792
9207312500 -1.1324368 122.65329 -8.3331575 -74.708038 -8.316618 -75.278206 -0.35114336 -91.602737
9207375000 -1.1327945 122.64838 -8.3312654 -74.680145 -8.3131275 -75.221275 -0.35027567 -91.600067
9207437500 -1.1366521 122.61465 -8.3360271 -74.70433 -8.318614 -75.210091 -0.36517403 -91.567719
9207500000 -1.1375606 122.61185 -8.3278122 -74.726814 -8.3353806 -75.223961 -0.36800811 -91.535751
9207562500 -1.1327113 122.57493 -8.3286381 -74.698814 -8.3197165 -75.223312 -0.36064759 -91.541229
9207625000 -1.1352562 122.56867 -8.3213902 -74.677773 -8.323246 -75.272446 -0.36536461 -91.569557
9207687500 -1.1415101 122.56022 -8.3289576 -74.675957 -8.3159628 -75.205353 -0.35311452 -91.564674
9207750000 -1.1425917 122.53862 -8.319582 -74.743988 -8.3207855 -75.206306 -0.35698465 -91.511482
9207812500 -1.1461669 122.54283 -8.3204489 -74.722855 -8.3178043 -75.21447 -0.34777936 -91.463364
9207875000 -1.1425079 122.54678 -8.3118324 -74.711884 -8.3183126 -75.247688 -0.34927851 -91.468384
9207937500 -1.1434722 122.52827 -8.3181801 -74.754852 -8.3223448 -75.207161 -0.35148826 -91.447685
9208000000 -1.1490149 122.53041 -8.3318701 -74.735825 -8.3180971 -75.27179 -0.3538003 -91.473671
9208062500 -1.1421648 122.53931 -8.3236694 -74.668213 -8.3227015 -75.229294 -0.35235053 -91.399162
9208125000 -1.1411966 122.5026 -8.3097219 -74.659828 -8.3231564 -75.237152 -0.35133263 -91.378113
9208187500 -1.1447443 122.48923 -8.3163567 -74.706017 -8.3261461 -75.252083 -0.35813212 -91.357033
9208250000 -1.1429381 122.47558 -8.314971 -74.665787 -8.3088942 -75.187401 -0.34710434 -91.28923
9208312500 -1.1423427 122.4603 -8.3168631 -74.648361 -8.3111057 -75.268623 -0.35115933 -91.341293
9208375000 -1.1386955 122.46415 -8.3099432 -74.626495 -8.3157463 -75.201241 -0.35534281 -91.234222
9208437500 -1.1360512 122.45957 -8.3086033 -74.645958 -8.3190517 -75.257416 -0.35864374 -91.268646
9208500000 -1.1407152 122.41513 -8.3124399 -74.585197 -8.3138285 -75.200706 -0.35455805 -91.267265
9208562500 -1.1425583 122.40536 -8.3173342 -74.651215 -8.3058338 -75.193497 -0.35408416 -91.241188
9208625000 -1.1412561 122.43374 -8.3163652 -74.613205 -8.3094435 -75.226326 -0.356076 -91.251266
9208687500 -1.1373771 122.40561 -8.3101912 -74.613441 -8.3102369 -75.154686 -0.36001796 -91.191338
9208750000 -1.1267397 122.36665 -8.3028364 -74.598778 -8.3124914 -75.146805 -0.35921544 -91.208664
9208812500 -1.1333241 122.39285 -8.309227 -74.586555 -8.3124447 -75.172119 -0.361702 -91.221489
9208875000 -1.1351687 122.33496 -8.3111115 -74.596962 -8.30795 -75.159576 -0.36207703 -91.168266
9208937500 -1.1300743 122.34538 -8.3100204 -74.580353 -8.3070679 -75.169525 -0.36770901 -91.131378
9209000000 -1.1352276 122.33228 -8.3025761 -74.619919 -8.3032875 -75.116753 -0.36165825 -91.131134
9209062500 -1.1344548 122.30154 -8.305027 -74.618095 -8.3021908 -75.192406 -0.3652795 -91.152107
9209125000 -1.1328961 122.30215 -8.3003817 -74.696449 -8.2964535 -75.196075 -0.36337775 -91.135292
9209187500 -1.1339893 122.30918 -8.309166 -74.61956 -8.3049669 -75.145897 -0.36457112 -91.09166
9209250000 -1.1332804 122.25449 -8.307004 -74.649498 -8.301569 -75.161858 -0.36460194 -91.057457
9209312500 -1.1298175 122.24137 -8.2982435 -74.662598 -8.3062115 -75.174202 -0.36614728 -91.040443
9209375000 -1.1359869 122.19311 -8.2990675 -74.5933 -8.2984381 -75.192673 -0.36403748 -91.057144
9209437500 -1.1378064 122.2151 -8.3153019 -74.636665 -8.3020802 -75.149384 -0.36804441 -91.018204
9209500000 -1.131641 122.19134 -8.3093281 -74.562172 -8.3042555 -75.159317 -0.36737242 -90.990761
9209562500 -1.1393163 122.1834 -8.3018141 -74.628593 -8.3047857 -75.140305 -0.36573264 -90.974342
9209625000 -1.1331171 122.14153 -8.2879162 -74.627388 -8.3068924 -75.171852 -0.36223936 -90.969223
9209687500 -1.1380519 122.12305 -8.2904692 -74.661293 -8.3000822 -75.178108 -0.35620517 -91.048546
9209750000 -1.1365973 122.14886 -8.2926626 -74.647209 -8.2965574 -75.181 -0.35853931 -90.959152
9209812500 -1.1475527 122.11234 -8.3009996 -74.699944 -8.2928696 -75.130623 -0.35359466 -90.92099
9209875000 -1.1475458 122.09798 -8.2990627 -74.679817 -8.2936411 -75.174683 -0.35560867 -90.914299
9209937500 -1.1437869 122.12431 -8.3045216 -74.638771 -8.2910147 -75.175621 -0.35513011 -90.858002
9210000000 -1.1478724 122.09125 -8.3016539 -74.680252 -8.2867632 -75.193245 -0.35332519 -90.887321
9210062500 -1.1451495 122.08517 -8.2922077 -74.669189 -8.2770052 -75.194061 -0.35012606 -90.907158
9210125000 -1.1485883 122.0827 -8.3056679 -74.633972 -8.2823486 -75.188927 -0.36236274 -90.837196
9210187500 -1.1450326 122.0838 -8.2989044 -74.634766 -8.2883949 -75.200531 -0.36083457 -90.870415
9210250000 -1.1427684 122.05154 -8.2968473 -74.612007 -8.2764111 -75.136581 -0.35439444 -90.783997
9210312500 -1.1390463 122.04685 -8.2882681 -74.574806 -8.2883415 -75.156761 -0.35967234 -90.798927
9210375000 -1.1383512 122.02547 -8.2924137 -74.577431 -8.2899513 -75.189568 -0.36522603 -90.792305
9210437500 -1.1384923 122.03078 -8.2856922 -74.55954 -8.2919502 -75.186684 -0.36349779 -90.762589
9210500000 -1.1397666 121.97815 -8.2809801 -74.590218 -8.2869501 -75.214859 -0.37076589 -90.793945
9210562500 -1.142764 121.93787 -8.2847738 -74.642578 -8.2898455 -75.204277 -0.36494258 -90.806328
9210625000 -1.1426543 121.84954 -8.2825336 -74.657158 -8.2798443 -75.132637 -0.36041686 -90.744057
9210687500 -1.1403524 121.84917 -8.2813501 -74.624527 -8.282258 -75.17305 -0.36807898 -90.713028
9210750000 -1.1368167 121.82236 -8.2775269 -74.64991 -8.2766352 -75.091927 -0.3664687 -90.661751
9210812500 -1.1398387 121.85488 -8.2779713 -74.600166 -8.2796011 -75.118874 -0.36558291 -90.644646
9210875000 -1.1392922 121.84576 -8.2751551 -74.638214 -8.2742243 -75.154198 -0.36777025 -90.639534
9210937500 -1.139012 121.84291 -8.2784929 -74.613251 -8.2735052 -75.131119 -0.3564429 -90.610054
9211000000 -1.1395209 121.82596 -8.2771139 -74.60762 -8.2724609 -75.05912 -0.36206469 -90.51416
9211062500 -1.1386434 121.81559 -8.2773552 -74.604507 -8.274931 -75.08625 -0.36500075 -90.505569
9211125000 -1.1412321 121.79103 -8.2827892 -74.610992 -8.2706547 -75.103767 -0.36781988 -90.534935
9211187500 -1.1416663 121.76449 -8.2829952 -74.629204 -8.2746553 -75.063568 -0.3738482 -90.47686
9211250000 -1.1455444 121.77731 -8.2806759 -74.632988 -8.2759514 -75.15136 -0.37885079 -90.522797
9211312500 -1.1467 121.76203 -8.2885027 -74.618835 -8.2663412 -75.119232 -0.36725464 -90.45649
9211375000 -1.1396577 121.76682 -8.2706308 -74.60894 -8.2734165 -75.143532 -0.37093019 -90.521667
9211437500 -1.1412916 121.73527 -8.2786856 -74.582924 -8.2766018 -75.117416 -0.3681879 -90.471085
9211500000 -1.1401402 121.75353 -8.2729807 -74.632332 -8.2736502 -75.135704 -0.36842564 -90.502075
9211562500 -1.139657 121.75037 -8.2802277 -74.552818 -8.2795258 -75.190094 -0.37476006 -90.523445
9211625000 -1.1360985 121.75668 -8.2691259 -74.619896 -8.2894182 -75.078125 -0.37497753 -90.458839
9211687500 -1.1318527 121.71703 -8.2690668 -74.598053 -8.2711964 -75.09433 -0.36376911 -90.48378
9211750000 -1.130828 121.78278 -8.263916 -74.610481 -8.2703867 -75.10585 -0.35938233 -90.51857
9211812500 -1.1344848 121.71332 -8.2673883 -74.63398 -8.2785769 -75.075958 -0.37202442 -90.442451
9211875000 -1.1347039 121.67452 -8.2755318 -74.588531 -8.2678909 -75.1409 -0.367506 -90.407166
9211937500 -1.137114 121.65678 -8.2737513 -74.587105 -8.278306 -75.097366 -0.37174776 -90.33831
9212000000 -1.1383967 121.63998 -8.269269 -74.587387 -8.2639561 -75.119362 -0.36936212 -90.344002
9212062500 -1.1349893 121.60117 -8.2643585 -74.474174 -8.2730303 -75.106567 -0.3746039 -90.31279
9212125000 -1.1341145 121.5589 -8.2666082 -74.556351 -8.2641001 -75.130516 -0.36988512 -90.270844
9212187500 -1.1391516 121.54172 -8.2643194 -74.573936 -8.2634954 -75.075371 -0.36651614 -90.251457
9212250000 -1.1388016 121.51971 -8.2638884 -74.544418 -8.259717 -75.125412 -0.36996531 -90.262085
9212312500 -1.1366236 121.49306 -8.2668896 -74.624504 -8.25916 -75.191383 -0.36917636 -90.327492
