!Agilent Technologies,N5242A,MY51221714,A.09.90.19
!Agilent N5242A: A.09.90.19
!Date: Tuesday, March 26, 2024 15:50:10
!Correction: S11(Full 2 Port(1,2)) 
!S21(Full 2 Port(1,2)) 
!S12(Full 2 Port(1,2)) 
!S22(Full 2 Port(1,2)) 
!S2P File: Measurements: S11, S21, S12, S22:
# Hz S  dB   R 50
9200000000 -1.0985686 132.99455 -9.0770798 -75.16053 -9.049264 -75.799278 -0.10193451 -101.81514
9200062500 -1.097605 132.99486 -9.0656967 -75.165642 -9.0562048 -75.837097 -0.092925109 -101.83308
9200125000 -1.0940133 132.96564 -9.0537748 -75.191643 -9.0578194 -75.805603 -0.10463694 -101.78771
9200187500 -1.1002733 133.00606 -9.0580111 -75.040459 -9.0476618 -75.915863 -0.089732125 -101.77329
9200250000 -1.096278 132.97794 -9.058238 -75.107635 -9.0542784 -75.773056 -0.093467921 -101.75764
9200312500 -1.1032013 132.95988 -9.0543747 -75.144424 -9.053072 -75.846031 -0.094772488 -101.76273
9200375000 -1.099023 132.94002 -9.0641937 -75.098045 -9.055934 -75.891716 -0.092578985 -101.72166
9200437500 -1.0956558 132.93765 -9.0599213 -75.119942 -9.0488844 -75.793137 -0.094034202 -101.69437
9200500000 -1.0944406 132.88315 -9.058012 -75.135658 -9.0463963 -75.796387 -0.096926749 -101.6936
9200562500 -1.1002216 132.8708 -9.0515003 -75.15847 -9.0611162 -75.814423 -0.097198039 -101.71123
9200625000 -1.1005431 132.8857 -9.0650845 -75.120697 -9.0429688 -75.802521 -0.097358927 -101.67471
9200687500 -1.0967057 132.84605 -9.0494366 -75.104858 -9.0570097 -75.794579 -0.097794637 -101.6334
9200750000 -1.1018022 132.79033 -9.0508213 -75.184807 -9.0574522 -75.811989 -0.10210346 -101.63262
9200812500 -1.1136642 132.84325 -9.0646353 -75.10183 -9.0454969 -75.772095 -0.11499278 -101.6011
9200875000 -1.0962551 132.91757 -9.0548964 -75.105492 -9.0525961 -75.764206 -0.10983645 -101.64152
9200937500 -1.0996792 132.81227 -9.0606623 -75.136826 -9.0485573 -75.81472 -0.099945135 -101.55782
9201000000 -1.098562 132.77975 -9.0537539 -75.227005 -9.0408802 -75.785645 -0.096277684 -101.59509
9201062500 -1.0916826 132.77632 -9.0374756 -75.078072 -9.0502825 -75.738441 -0.10093877 -101.4861
9201125000 -1.1036603 132.80475 -9.0570669 -75.06675 -9.0431585 -75.843468 -0.10731488 -101.50492
9201187500 -1.1038749 132.71234 -9.0502062 -75.043961 -9.0428648 -75.776855 -0.1083371 -101.42146
9201250000 -1.0994081 132.77235 -9.0479374 -75.101532 -9.0506248 -75.736221 -0.10942402 -101.44634
9201312500 -1.115751 132.73648 -9.0579205 -75.138092 -9.0446186 -75.85257 -0.098844565 -101.51833
9201375000 -1.1111035 132.72842 -9.0560484 -75.090836 -9.0367384 -75.723007 -0.11153057 -101.41346
9201437500 -1.0996073 132.69617 -9.0536146 -75.126427 -9.0494156 -75.826103 -0.10714191 -101.51251
9201500000 -1.1068356 132.70338 -9.0516939 -75.089996 -9.0411825 -75.792763 -0.098904327 -101.43716
9201562500 -1.1050358 132.65576 -9.053339 -75.095299 -9.0487289 -75.736412 -0.11279569 -101.39719
9201625000 -1.0994227 132.62843 -9.0465269 -75.127525 -9.0355539 -75.74868 -0.10826407 -101.33142
9201687500 -1.1051066 132.64432 -9.0478086 -75.012695 -9.0440321 -75.776543 -0.10900155 -101.33025
9201750000 -1.1069138 132.63359 -9.0605869 -75.110565 -9.0281944 -75.7379 -0.098157659 -101.33109
9201812500 -1.100811 132.58876 -9.0500498 -75.146202 -9.0323734 -75.766106 -0.11293908 -101.40525
9201875000 -1.1018819 132.56702 -9.042284 -75.217155 -9.0293827 -75.817604 -0.098124959 -101.28887
9201937500 -1.1127857 132.54164 -9.0470438 -75.069695 -9.0304527 -75.832596 -0.096552528 -101.32809
9202000000 -1.1041675 132.56972 -9.0299721 -75.001068 -9.04387 -75.827538 -0.1043954 -101.27137
9202062500 -1.1152327 132.55301 -9.040247 -75.139519 -9.0264053 -75.753075 -0.10387259 -101.28247
9202125000 -1.113952 132.61797 -9.0553885 -75.131721 -9.0390139 -75.779854 -0.11441871 -101.29677
9202187500 -1.1011122 132.51746 -9.0355072 -75.145889 -9.0373144 -75.762085 -0.10287431 -101.19607
9202250000 -1.1054521 132.53073 -9.0397625 -75.074348 -9.0323648 -75.74057 -0.11478309 -101.20805
9202312500 -1.0997639 132.50874 -9.0454826 -75.045509 -9.0355873 -75.76384 -0.10840244 -101.21008
9202375000 -1.0969076 132.47562 -9.0418406 -75.098282 -9.0334473 -75.800873 -0.11338782 -101.14627
9202437500 -1.1079813 132.52086 -9.0407658 -75.057343 -9.0344601 -75.807007 -0.10676527 -101.2181
9202500000 -1.1141486 132.44539 -9.0521069 -75.171677 -9.0443907 -75.784851 -0.11108232 -101.24587
9202562500 -1.0997518 132.42894 -9.0388241 -75.12973 -9.0372868 -75.689728 -0.11807301 -101.14712
9202625000 -1.1052576 132.49838 -9.0397654 -75.07827 -9.0239229 -75.777 -0.10906317 -101.14554
9202687500 -1.1041305 132.47066 -9.0278778 -75.077087 -9.0321665 -75.728142 -0.10738721 -101.07871
9202750000 -1.0976413 132.36409 -9.0333071 -75.119934 -9.0281391 -75.79924 -0.1078589 -101.09886
9202812500 -1.1058227 132.38391 -9.0446234 -75.072533 -9.030755 -75.775467 -0.11033761 -101.04753
9202875000 -1.0958982 132.4032 -9.0255404 -75.049057 -9.0294619 -75.74308 -0.11110166 -100.99812
9202937500 -1.1040534 132.39328 -9.0386133 -75.153 -9.0279093 -75.685677 -0.11176252 -101.03123
9203000000 -1.1052552 132.38226 -9.0348015 -75.087936 -9.0199375 -75.760048 -0.10751894 -100.97498
9203062500 -1.1005759 132.35208 -9.0319023 -75.082603 -9.0265026 -75.729294 -0.11545494 -100.99776
9203125000 -1.0982016 132.31664 -9.0187912 -75.098572 -9.0166998 -75.767838 -0.10486948 -100.97157
9203187500 -1.1016891 132.3105 -9.0367231 -75.125572 -9.0186129 -75.826408 -0.11153687 -100.98933
9203250000 -1.1044704 132.30145 -9.0322723 -75.0979 -9.0255966 -75.748566 -0.11591808 -100.93382
9203312500 -1.1139189 132.27478 -9.0383873 -75.161682 -9.0180111 -75.833374 -0.10299714 -100.94597
9203375000 -1.1024419 132.2942 -9.0270205 -75.040283 -9.018384 -75.724411 -0.10635146 -100.88879
9203437500 -1.1094943 132.30682 -9.0364723 -75.139008 -9.0207644 -75.658936 -0.10939047 -100.89966
9203500000 -1.0971484 132.25754 -9.0245447 -75.07048 -9.0213995 -75.724846 -0.10850093 -100.88224
9203562500 -1.1109805 132.23759 -9.0327587 -75.063881 -9.0300512 -75.745361 -0.12380201 -100.93126
9203625000 -1.1118332 132.26657 -9.0378828 -75.125526 -9.0214405 -75.712181 -0.1164064 -100.90954
9203687500 -1.1177707 132.20209 -9.043684 -75.090729 -9.0275068 -75.730034 -0.1207156 -100.8373
9203750000 -1.1026129 132.21555 -9.0293045 -75.038712 -9.0261059 -75.743286 -0.10735541 -100.78288
9203812500 -1.0991414 132.20625 -9.0171566 -75.06163 -9.0223389 -75.764023 -0.1197405 -100.83712
9203875000 -1.1053907 132.18776 -9.034091 -75.027145 -9.0289831 -75.734512 -0.12248272 -100.79865
9203937500 -1.1136134 132.17754 -9.0216522 -75.062767 -9.0138845 -75.634712 -0.11159246 -100.77739
9204000000 -1.0980999 132.16191 -9.008647 -75.014816 -9.0291719 -75.734062 -0.11745488 -100.71609
9204062500 -1.1036569 132.13744 -9.0216055 -75.021149 -9.00984 -75.735626 -0.11542314 -100.67368
9204125000 -1.1046551 132.10182 -9.023797 -75.028374 -9.0147734 -75.695869 -0.11386069 -100.68439
9204187500 -1.1131319 132.04263 -9.0283661 -75.13131 -9.0254927 -75.734291 -0.12752438 -100.71616
9204250000 -1.104803 132.10274 -9.0192213 -74.998184 -9.010457 -75.698219 -0.11128774 -100.6859
9204312500 -1.1004132 132.09639 -9.018014 -75.023735 -9.014657 -75.764549 -0.12113506 -100.59822
9204375000 -1.096487 132.07202 -9.0128231 -75.094704 -9.0118084 -75.711884 -0.11808258 -100.65958
9204437500 -1.1143397 132.07854 -9.0231152 -75.0504 -9.0132446 -75.695824 -0.1111498 -100.61411
9204500000 -1.113253 132.03412 -9.0173426 -75.100906 -9.0187111 -75.667313 -0.11582971 -100.58506
9204562500 -1.1055385 132.03648 -9.0232897 -75.127693 -9.014348 -75.768028 -0.10731728 -100.66516
9204625000 -1.0997055 131.98517 -9.0174427 -75.05571 -9.0144987 -75.716858 -0.11607809 -100.49899
9204687500 -1.1081028 131.965 -9.0300455 -75.106606 -9.006403 -75.668724 -0.11461296 -100.51141
9204750000 -1.1044219 131.98172 -9.0140839 -74.980209 -9.0082998 -75.72699 -0.12838836 -100.56902
9204812500 -1.1042136 131.95958 -9.0101414 -74.985481 -9.0084171 -75.69413 -0.11124603 -100.50852
9204875000 -1.1044376 131.98633 -9.0145035 -75.082069 -9.0224056 -75.687553 -0.1234538 -100.52035
9204937500 -1.1048716 131.96646 -9.0113077 -75.049561 -9.0119362 -75.770096 -0.1166363 -100.52297
9205000000 -1.0943136 131.90088 -9.006649 -74.991486 -9.0021763 -75.693954 -0.12908486 -100.44868
9205062500 -1.1065886 131.89725 -9.0120268 -75.060371 -8.9931831 -75.696136 -0.12122256 -100.40993
9205125000 -1.1090783 131.90628 -9.0160427 -75.050987 -8.9965668 -75.709457 -0.11774292 -100.41669
9205187500 -1.1117297 131.9346 -9.0168257 -74.97773 -9.0014715 -75.686546 -0.1210281 -100.3979
9205250000 -1.1073345 131.87393 -9.0046701 -75.064705 -9.0178394 -75.726189 -0.12381209 -100.47263
9205312500 -1.1000415 131.91876 -8.9952688 -74.995201 -9.0088387 -75.682808 -0.12388194 -100.36597
9205375000 -1.1062943 131.83331 -9.0066795 -75.068954 -9.0124273 -75.708382 -0.12412441 -100.37392
9205437500 -1.0971318 131.82408 -8.9962044 -75.008446 -9.0125904 -75.675117 -0.11616411 -100.32906
9205500000 -1.1122937 131.74889 -9.006609 -75.019005 -8.9969292 -75.687439 -0.11223143 -100.22206
9205562500 -1.1139659 131.82039 -9.0052347 -75.058708 -9.0029478 -75.71846 -0.11551383 -100.33336
9205625000 -1.1160696 131.81184 -9.0096397 -75.044258 -8.9936352 -75.750084 -0.1228004 -100.30223
9205687500 -1.1056414 131.79218 -8.9982891 -75.010315 -8.9883327 -75.692596 -0.12026173 -100.26417
9205750000 -1.1094809 131.76891 -8.9997473 -75.035492 -9.0008821 -75.714867 -0.1173334 -100.24776
9205812500 -1.115225 131.73363 -8.9993238 -75.036377 -8.9998693 -75.678696 -0.12168402 -100.20409
9205875000 -1.106082 131.75301 -9.0059462 -75.028992 -9.0096579 -75.627876 -0.12619217 -100.29871
9205937500 -1.1112844 131.72084 -9.0066376 -74.949203 -8.9969788 -75.647758 -0.13179901 -100.19553
9206000000 -1.110258 131.68715 -8.9993134 -75.007309 -8.9892321 -75.71624 -0.11448485 -100.19727
9206062500 -1.1106832 131.71651 -9.000061 -75.072296 -9.0010834 -75.687393 -0.12296258 -100.21397
9206125000 -1.107049 131.69615 -8.9942808 -75.003654 -8.9852381 -75.618317 -0.12274221 -100.07943
9206187500 -1.1112937 131.65363 -8.9922476 -75.083282 -8.9823971 -75.661232 -0.11199357 -100.10635
9206250000 -1.1125755 131.64369 -9.0007334 -75.015022 -8.9878626 -75.617126 -0.12226523 -100.11606
9206312500 -1.1044077 131.57256 -8.9966259 -75.044022 -8.9934683 -75.732162 -0.11231337 -100.13267
9206375000 -1.1068842 131.62247 -8.9938278 -74.993568 -8.9894276 -75.587891 -0.12362015 -100.08279
9206437500 -1.0983857 131.57866 -8.9902563 -75.026733 -9.0024967 -75.62767 -0.12191475 -100.10117
9206500000 -1.1092359 131.59402 -9.0022306 -75.005188 -8.9924183 -75.644905 -0.13038073 -100.04426
9206562500 -1.1131577 131.59116 -9.0084124 -75.11499 -8.9862528 -75.647789 -0.11800709 -100.077
9206625000 -1.1129351 131.52498 -8.9953928 -74.976265 -8.98736 -75.742355 -0.12221936 -100.07784
9206687500 -1.1120446 131.57008 -8.9939518 -75.079323 -8.9864874 -75.694412 -0.11757145 -100.03466
9206750000 -1.1120812 131.54933 -8.99366 -75.050484 -8.9888725 -75.668648 -0.12297404 -100.01849
9206812500 -1.1054127 131.55263 -8.994544 -75.057693 -8.9908352 -75.674355 -0.12385394 -100.03176
9206875000 -1.1084199 131.54257 -8.9974108 -74.947899 -8.9758358 -75.662079 -0.11961032 -99.889122
9206937500 -1.1144941 131.55168 -8.9963713 -74.951431 -8.9888477 -75.664047 -0.12766775 -99.948845
9207000000 -1.1076063 131.49506 -8.9852514 -74.97863 -8.9892397 -75.683617 -0.12275135 -99.909004
9207062500 -1.1020991 131.51501 -8.982851 -74.954597 -8.9817228 -75.648331 -0.12067761 -99.814133
9207125000 -1.1184914 131.44916 -8.9857149 -74.998718 -8.9738979 -75.719513 -0.12342311 -99.831955
9207187500 -1.1034343 131.42747 -8.9738531 -75.037628 -8.9858952 -75.627052 -0.12357995 -99.889854
9207250000 -1.1056918 131.4462 -8.9808016 -74.94429 -8.9900913 -75.704536 -0.11898968 -99.944824
9207312500 -1.1046766 131.42503 -8.9885254 -75.042999 -8.9798975 -75.678658 -0.12251934 -99.840218
9207375000 -1.1171613 131.3965 -8.9897289 -74.999245 -8.9840145 -75.653633 -0.12844238 -99.812363
9207437500 -1.1070254 131.44321 -8.9852791 -74.980049 -8.9904594 -75.595001 -0.12815663 -99.809334
9207500000 -1.1130368 131.41029 -8.9901609 -75.028976 -8.9675493 -75.622398 -0.1305438 -99.744034
9207562500 -1.1035501 131.41083 -8.9787188 -75.056458 -8.975563 -75.636078 -0.13359624 -99.78727
9207625000 -1.1084619 131.30513 -8.9826221 -75.022217 -8.9777346 -75.685738 -0.12969084 -99.700729
9207687500 -1.1114062 131.34039 -8.989625 -74.991776 -8.9744539 -75.628578 -0.12582995 -99.753464
9207750000 -1.107654 131.32886 -8.9805908 -74.926811 -8.9751339 -75.620682 -0.12406359 -99.730164
9207812500 -1.1110275 131.314 -8.9852333 -74.973099 -8.9750471 -75.6297 -0.1288382 -99.717186
9207875000 -1.1089467 131.32158 -8.9806023 -74.982994 -8.9728775 -75.684242 -0.12528192 -99.682968
9207937500 -1.1113021 131.26306 -8.9879065 -74.944901 -8.9777489 -75.647202 -0.13439037 -99.731651
9208000000 -1.1175587 131.30063 -8.9757185 -74.972046 -8.9713354 -75.569267 -0.12334 -99.646278
9208062500 -1.114614 131.28029 -8.9883356 -74.91494 -8.974287 -75.691307 -0.13112287 -99.641876
9208125000 -1.1171713 131.24672 -8.9868364 -75.024582 -8.9783792 -75.648239 -0.1284676 -99.620583
9208187500 -1.1094202 131.27263 -8.9768438 -74.925804 -8.9747601 -75.637077 -0.12815522 -99.614616
9208250000 -1.116654 131.21973 -8.9873047 -74.898491 -8.9680424 -75.639664 -0.13577949 -99.552963
9208312500 -1.1040634 131.27162 -8.9750414 -74.923401 -8.9569168 -75.611214 -0.1221894 -99.600502
9208375000 -1.1122369 131.20332 -8.9703445 -74.966492 -8.9760485 -75.567963 -0.13305365 -99.495514
9208437500 -1.1152908 131.1431 -8.9744005 -74.96701 -8.9662752 -75.602745 -0.13830955 -99.501442
9208500000 -1.1115392 131.1226 -8.9725056 -74.942108 -8.966712 -75.591286 -0.13190892 -99.497749
9208562500 -1.1127905 131.21899 -8.9784765 -74.930344 -8.958662 -75.596306 -0.1284184 -99.492996
9208625000 -1.1090035 131.08348 -8.9619484 -75.01046 -8.9653511 -75.580696 -0.13532653 -99.531929
9208687500 -1.100863 131.10677 -8.9516068 -74.990738 -8.9704056 -75.601486 -0.1303419 -99.445503
9208750000 -1.1123677 131.1174 -8.9761066 -74.918739 -8.9664192 -75.614433 -0.13383789 -99.495377
9208812500 -1.1175696 131.17691 -8.9778957 -74.960449 -8.971611 -75.639175 -0.12971303 -99.408234
9208875000 -1.1100765 131.07922 -8.9683647 -74.979095 -8.9810839 -75.611313 -0.13093454 -99.358246
9208937500 -1.1176124 131.09824 -8.96735 -74.929634 -8.9678164 -75.551392 -0.13601483 -99.384666
9209000000 -1.1061381 131.03322 -8.9736605 -75.026863 -8.9625769 -75.562195 -0.13557379 -99.449341
9209062500 -1.1133614 131.06886 -8.9793234 -74.984406 -8.9685965 -75.589249 -0.13770247 -99.355263
9209125000 -1.1246135 131.02452 -8.9671192 -74.956963 -8.9541149 -75.596733 -0.12489828 -99.316216
9209187500 -1.1088172 131.07016 -8.9615536 -74.944351 -8.9647074 -75.558723 -0.13029422 -99.31868
9209250000 -1.1070714 131.01112 -8.9618988 -74.941673 -8.9559155 -75.62059 -0.13524348 -99.235077
9209312500 -1.1134859 130.93735 -8.9788351 -74.882256 -8.9624577 -75.631905 -0.1400775 -99.26236
9209375000 -1.1035103 130.99847 -8.9597969 -74.943756 -8.9668865 -75.542526 -0.14070445 -99.284615
9209437500 -1.1190263 130.91495 -8.9699183 -74.897491 -8.9551306 -75.603027 -0.13495989 -99.201584
9209500000 -1.1185728 130.94226 -8.9695444 -74.985306 -8.9497242 -75.559334 -0.13353647 -99.198967
9209562500 -1.1201798 130.96234 -8.9649734 -74.901199 -8.959487 -75.565971 -0.13844018 -99.164597
9209625000 -1.1109169 130.8844 -8.9593325 -74.95723 -8.9547005 -75.604454 -0.13237856 -99.169907
9209687500 -1.1160696 130.81146 -8.9619761 -74.975571 -8.9561949 -75.540131 -0.13737109 -99.177231
9209750000 -1.1104201 130.88173 -8.952117 -74.990677 -8.9510441 -75.58419 -0.12130205 -99.172386
9209812500 -1.1125345 130.86176 -8.9618101 -74.89006 -8.9601936 -75.619888 -0.13977264 -99.109901
9209875000 -1.1102159 130.84117 -8.9521933 -74.892311 -8.9521513 -75.580788 -0.14004019 -99.112335
9209937500 -1.1084486 130.96053 -8.9657249 -74.8843 -8.962718 -75.51825 -0.13875575 -99.151436
9210000000 -1.1092762 130.86389 -8.9547319 -74.911201 -8.9545469 -75.536278 -0.14772107 -99.071999
9210062500 -1.118907 130.8454 -8.9643164 -74.925468 -8.9492607 -75.607132 -0.14124759 -99.088814
9210125000 -1.1036971 130.7916 -8.9568605 -74.8283 -8.9477825 -75.541359 -0.13407835 -99.028259
9210187500 -1.1174793 130.81613 -8.9583387 -74.870438 -8.9382715 -75.523499 -0.13643357 -99.034767
9210250000 -1.1137825 130.81578 -8.9514961 -74.926628 -8.9482708 -75.53212 -0.13874467 -99.046509
9210312500 -1.1258309 130.77576 -8.9645185 -74.892639 -8.9474297 -75.549583 -0.13792583 -99.009758
9210375000 -1.113185 130.8136 -8.9562464 -74.837799 -8.9457073 -75.568535 -0.13763416 -98.90522
9210437500 -1.1049093 130.75462 -8.9551182 -74.904739 -8.9572067 -75.633804 -0.13103183 -99.050842
9210500000 -1.107553 130.71634 -8.9428434 -74.933723 -8.9437838 -75.573761 -0.12980144 -98.960152
9210562500 -1.1131468 130.71263 -8.9477558 -74.880608 -8.9478121 -75.592621 -0.1308239 -98.94519
9210625000 -1.1146436 130.71196 -8.9574871 -74.873878 -8.956275 -75.508736 -0.14194937 -98.915482
9210687500 -1.1168553 130.73262 -8.9639874 -74.883385 -8.9478054 -75.556656 -0.14968993 -98.865669
9210750000 -1.1203965 130.69409 -8.9562511 -74.950905 -8.9354801 -75.533638 -0.13637225 -98.890312
9210812500 -1.1151654 130.67722 -8.9517803 -74.906013 -8.940588 -75.492737 -0.1462958 -98.803444
9210875000 -1.1113319 130.66896 -8.9557686 -74.909027 -8.9428406 -75.58741 -0.14801329 -98.932266
9210937500 -1.1136495 130.6825 -8.9552555 -74.908394 -8.9368525 -75.515953 -0.14022909 -98.813408
9211000000 -1.1115665 130.66397 -8.9529238 -74.864929 -8.9454479 -75.57769 -0.1354564 -98.859573
9211062500 -1.1164627 130.64925 -8.9462833 -74.81472 -8.9424467 -75.456772 -0.14660613 -98.758675
9211125000 -1.1110804 130.55492 -8.9487085 -74.93338 -8.9408216 -75.484833 -0.14196408 -98.777527
9211187500 -1.1193906 130.563 -8.9519577 -74.8685 -8.9442692 -75.531433 -0.1489609 -98.722038
9211250000 -1.1191002 130.58228 -8.9418116 -74.975449 -8.9513025 -75.528107 -0.13704 -98.780502
9211312500 -1.1134369 130.56972 -8.9470825 -74.903481 -8.941061 -75.542976 -0.15005998 -98.736404
9211375000 -1.1161934 130.47855 -8.9545431 -74.848114 -8.943161 -75.565285 -0.15225303 -98.680565
9211437500 -1.1130437 130.5033 -8.9432735 -74.881813 -8.9376564 -75.567154 -0.13830312 -98.711426
9211500000 -1.1210669 130.49432 -8.9496574 -74.87822 -8.9376965 -75.522102 -0.14124243 -98.73732
9211562500 -1.1215999 130.56175 -8.945117 -74.861191 -8.9367371 -75.535393 -0.14950624 -98.693733
9211625000 -1.1156813 130.42662 -8.9347363 -74.963737 -8.9267511 -75.597496 -0.13800059 -98.677025
9211687500 -1.1250161 130.48201 -8.9440842 -74.932541 -8.9324512 -75.533791 -0.14599837 -98.586555
9211750000 -1.1180738 130.46886 -8.9313402 -74.8461 -8.9334211 -75.494942 -0.1322118 -98.558327
9211812500 -1.123805 130.43669 -8.9522943 -74.943298 -8.9280481 -75.526863 -0.15054972 -98.638657
9211875000 -1.1264677 130.41818 -8.9493332 -74.914925 -8.9198456 -75.480286 -0.14021632 -98.52552
9211937500 -1.1125256 130.46747 -8.936039 -74.888725 -8.9317188 -75.526924 -0.14884682 -98.565643
9212000000 -1.1197244 130.35384 -8.9377832 -74.908356 -8.9221811 -75.622375 -0.14246908 -98.598602
9212062500 -1.1206638 130.32494 -8.9438906 -74.90596 -8.9231491 -75.492737 -0.14451621 -98.518135
9212125000 -1.1234947 130.29662 -8.9293098 -74.925491 -8.9441843 -75.553665 -0.14839837 -98.49369
9212187500 -1.1127406 130.3665 -8.9301901 -74.835838 -8.9240685 -75.48571 -0.15216838 -98.478798
9212250000 -1.1141375 130.34396 -8.9404392 -74.879128 -8.9229679 -75.526039 -0.13577823 -98.509262
9212312500 -1.119359 130.33696 -8.9353685 -74.846924 -8.9307966 -75.473396 -0.14761473 -98.483284
