!Agilent Technologies,N5242A,MY51221714,A.09.90.19
!Agilent N5242A: A.09.90.19
!Date: Tuesday, March 26, 2024 15:51:12
!Correction: S11(Full 2 Port(1,2)) 
!S21(Full 2 Port(1,2)) 
!S12(Full 2 Port(1,2)) 
!S22(Full 2 Port(1,2)) 
!S2P File: Measurements: S11, S21, S12, S22:
# Hz S  dB   R 50
9200000000 -2.6326473 130.12535 -8.7463531 -96.503899 -8.7396297 -97.185165 -1.3525709 -103.41727
9200062500 -2.6344032 130.06732 -8.7386494 -96.521248 -8.7417583 -97.154114 -1.3438436 -103.35652
9200125000 -2.6358304 130.04854 -8.7537537 -96.5196 -8.7391138 -97.119926 -1.3610438 -103.30836
9200187500 -2.6416678 130.12062 -8.7445021 -96.412354 -8.7317848 -97.186752 -1.338589 -103.27666
9200250000 -2.625036 130.06946 -8.738946 -96.458054 -8.7428532 -97.124275 -1.3422492 -103.33656
9200312500 -2.6367357 130.05011 -8.747612 -96.484131 -8.7441902 -97.142105 -1.3527566 -103.32484
9200375000 -2.6379163 130.02295 -8.739397 -96.448021 -8.7294064 -97.237923 -1.3392361 -103.30454
9200437500 -2.6348758 130.05298 -8.7355032 -96.492775 -8.7347603 -97.175102 -1.3403198 -103.25094
9200500000 -2.6388664 129.95816 -8.7475672 -96.505127 -8.7311554 -97.061142 -1.3556614 -103.24021
9200562500 -2.632597 129.99446 -8.7361565 -96.465736 -8.7346001 -97.130806 -1.3448936 -103.26947
9200625000 -2.64259 129.97701 -8.752615 -96.511894 -8.721384 -97.148994 -1.3453239 -103.21649
9200687500 -2.6361187 129.9706 -8.7439613 -96.491684 -8.7391815 -97.11895 -1.3512136 -103.15139
9200750000 -2.6435058 129.94664 -8.7456112 -96.504929 -8.7428274 -97.176414 -1.3564103 -103.18805
9200812500 -2.6516085 129.95879 -8.7407522 -96.488304 -8.7392883 -97.19323 -1.3663226 -103.14854
9200875000 -2.6344459 130.02045 -8.73388 -96.408401 -8.736763 -97.14315 -1.3592424 -103.20029
9200937500 -2.6439636 129.88277 -8.7399759 -96.592438 -8.7279863 -97.154854 -1.3438387 -103.14927
9201000000 -2.6363666 129.96887 -8.7372513 -96.519417 -8.7305956 -97.173973 -1.353688 -103.11318
9201062500 -2.6375713 129.87746 -8.7260599 -96.491859 -8.7294817 -97.175713 -1.3556478 -103.10816
9201125000 -2.6459422 129.86859 -8.7307396 -96.520149 -8.7361889 -97.173943 -1.354249 -103.05645
9201187500 -2.6511514 129.80005 -8.7388973 -96.491905 -8.7269459 -97.200874 -1.3574071 -102.98762
9201250000 -2.6476209 129.89188 -8.7374039 -96.524063 -8.7368727 -97.22464 -1.3632425 -103.05948
9201312500 -2.6531909 129.86578 -8.7284431 -96.530663 -8.731513 -97.175125 -1.3513113 -103.04527
9201375000 -2.6528144 129.83395 -8.7375193 -96.442101 -8.7334843 -97.13163 -1.3614231 -102.97647
9201437500 -2.6392093 129.80598 -8.7365522 -96.512077 -8.7289448 -97.133217 -1.361274 -103.0374
9201500000 -2.6486967 129.83696 -8.7288666 -96.550934 -8.7232914 -97.163193 -1.3539035 -103.00718
9201562500 -2.6523139 129.78955 -8.7397785 -96.47123 -8.7352743 -97.154221 -1.3691176 -102.93592
9201625000 -2.6450653 129.79237 -8.7224836 -96.486809 -8.723299 -97.141418 -1.3721374 -102.83968
9201687500 -2.6540916 129.73929 -8.7304287 -96.53286 -8.7293882 -97.174759 -1.3687661 -102.83069
9201750000 -2.6436374 129.74916 -8.7258558 -96.522629 -8.7225437 -97.219223 -1.3558382 -102.85497
9201812500 -2.649071 129.76202 -8.7327929 -96.47718 -8.7255564 -97.194595 -1.3695711 -102.89244
9201875000 -2.6525736 129.72411 -8.7169275 -96.527817 -8.7238979 -97.277412 -1.3617831 -102.8547
9201937500 -2.6590099 129.64444 -8.7305288 -96.563675 -8.7261295 -97.226067 -1.3644397 -102.8807
9202000000 -2.6572287 129.70996 -8.7200031 -96.475861 -8.7184381 -97.250885 -1.356544 -102.81252
9202062500 -2.6569364 129.694 -8.7130127 -96.567711 -8.7229319 -97.234138 -1.3625659 -102.74252
9202125000 -2.6550853 129.69586 -8.7325449 -96.520363 -8.7156839 -97.154259 -1.3723139 -102.83099
9202187500 -2.6497083 129.68707 -8.7238636 -96.537598 -8.7221422 -97.182167 -1.361684 -102.71674
9202250000 -2.6534028 129.65179 -8.7297058 -96.522049 -8.7187223 -97.194016 -1.3737867 -102.75406
9202312500 -2.6553054 129.64317 -8.7281752 -96.493591 -8.7157145 -97.238174 -1.3718171 -102.71706
9202375000 -2.6513934 129.60196 -8.7315502 -96.615936 -8.7199106 -97.240479 -1.3728683 -102.6776
9202437500 -2.6528509 129.65819 -8.7183313 -96.533028 -8.7167454 -97.227364 -1.3679893 -102.70726
9202500000 -2.6599965 129.59042 -8.7305984 -96.587868 -8.7347021 -97.191559 -1.3683922 -102.71562
9202562500 -2.656054 129.58159 -8.7258844 -96.494087 -8.7167311 -97.212219 -1.3805975 -102.66827
9202625000 -2.6561263 129.62367 -8.7126703 -96.550621 -8.7110605 -97.225098 -1.3651223 -102.59205
9202687500 -2.6593835 129.59097 -8.7143469 -96.579872 -8.7114906 -97.230865 -1.3694556 -102.59003
9202750000 -2.6523662 129.49202 -8.7100582 -96.584564 -8.708333 -97.269691 -1.3645111 -102.65829
9202812500 -2.6609905 129.48473 -8.7217178 -96.617867 -8.7058372 -97.219635 -1.3712351 -102.54594
9202875000 -2.6589212 129.52098 -8.7076845 -96.510727 -8.7180223 -97.232826 -1.3691704 -102.5282
9202937500 -2.6508734 129.49164 -8.711092 -96.622749 -8.6984224 -97.205292 -1.3620888 -102.54929
9203000000 -2.6595817 129.55815 -8.7098293 -96.533081 -8.7129374 -97.270317 -1.3719529 -102.48892
9203062500 -2.6600909 129.46162 -8.7149639 -96.617813 -8.7093868 -97.221161 -1.3781612 -102.51674
9203125000 -2.6595416 129.46587 -8.7228804 -96.559792 -8.6992054 -97.294342 -1.3732452 -102.48941
9203187500 -2.6618061 129.48672 -8.7254877 -96.506393 -8.7059336 -97.32534 -1.3752146 -102.48183
9203250000 -2.6622949 129.42853 -8.7141504 -96.549904 -8.711772 -97.249268 -1.3741392 -102.42401
9203312500 -2.6699138 129.46413 -8.7186956 -96.595093 -8.7045527 -97.270866 -1.3688716 -102.4651
9203375000 -2.6594639 129.45291 -8.7079525 -96.581047 -8.7006826 -97.220009 -1.3676431 -102.39423
9203437500 -2.6681871 129.44376 -8.7224207 -96.555801 -8.7080507 -97.25248 -1.3700818 -102.41805
9203500000 -2.6606913 129.39165 -8.6967802 -96.534164 -8.6946468 -97.223473 -1.371866 -102.40057
9203562500 -2.6734705 129.37584 -8.7252312 -96.579796 -8.7133055 -97.272522 -1.3875145 -102.41326
9203625000 -2.65833 129.36874 -8.7101326 -96.622322 -8.7041788 -97.243584 -1.3769194 -102.41263
9203687500 -2.6659408 129.35983 -8.7167511 -96.643204 -8.7151442 -97.261993 -1.3914065 -102.37302
9203750000 -2.6682515 129.32961 -8.712204 -96.60199 -8.697196 -97.215401 -1.3688529 -102.26976
9203812500 -2.6644499 129.34753 -8.6958733 -96.645271 -8.7007551 -97.321831 -1.3827641 -102.28635
9203875000 -2.6611347 129.35045 -8.7103338 -96.549644 -8.7076979 -97.295631 -1.3930007 -102.30747
9203937500 -2.6685166 129.2845 -8.6973295 -96.636993 -8.701993 -97.242973 -1.3773115 -102.29793
9204000000 -2.668143 129.29755 -8.6990671 -96.632423 -8.70502 -97.271538 -1.3795667 -102.24122
9204062500 -2.6624172 129.2946 -8.708168 -96.565086 -8.6887665 -97.263466 -1.3815087 -102.20576
9204125000 -2.6663914 129.26617 -8.6976871 -96.538506 -8.7000589 -97.259209 -1.371092 -102.17009
9204187500 -2.6735549 129.23111 -8.7132893 -96.584778 -8.7094173 -97.310738 -1.3956685 -102.20178
9204250000 -2.6676235 129.27802 -8.6921453 -96.65036 -8.6906319 -97.301186 -1.3781296 -102.22033
9204312500 -2.672441 129.26985 -8.7052937 -96.556335 -8.6971064 -97.293076 -1.3888249 -102.09042
9204375000 -2.6611998 129.22911 -8.7013569 -96.58754 -8.6974888 -97.310242 -1.3848519 -102.16004
9204437500 -2.680548 129.23872 -8.7004852 -96.60627 -8.6911898 -97.243805 -1.3832865 -102.04213
9204500000 -2.6761055 129.18172 -8.6980906 -96.65033 -8.7028027 -97.309273 -1.3914946 -102.13875
9204562500 -2.6727793 129.18506 -8.7057285 -96.711708 -8.698473 -97.307701 -1.3799684 -102.15123
9204625000 -2.670501 129.15164 -8.7045021 -96.59626 -8.6938486 -97.338364 -1.3895446 -102.0517
9204687500 -2.6721776 129.13361 -8.7048006 -96.624382 -8.6979752 -97.309761 -1.3902868 -102.02086
9204750000 -2.6771445 129.12038 -8.694169 -96.572296 -8.7033558 -97.283287 -1.4010741 -102.05209
9204812500 -2.6698966 129.10562 -8.692276 -96.615685 -8.6926346 -97.273384 -1.382409 -102.04076
9204875000 -2.6717939 129.17683 -8.693593 -96.582291 -8.6965208 -97.305916 -1.3882458 -102.01887
9204937500 -2.6745124 129.09717 -8.6855621 -96.675667 -8.69069 -97.296692 -1.3889091 -102.00037
9205000000 -2.6660569 129.05481 -8.6892138 -96.633949 -8.6815386 -97.275551 -1.4006504 -101.94628
9205062500 -2.6747224 129.08754 -8.6912374 -96.691101 -8.6806116 -97.331787 -1.3903818 -101.91923
9205125000 -2.6768723 129.09958 -8.6934958 -96.591988 -8.6906462 -97.254959 -1.3969094 -101.83888
9205187500 -2.6792357 129.0881 -8.7011003 -96.604301 -8.6948347 -97.298004 -1.397102 -101.88409
9205250000 -2.6706755 129.00334 -8.6973257 -96.681305 -8.6966267 -97.298523 -1.3996098 -101.96587
9205312500 -2.6762042 129.10251 -8.6864586 -96.615532 -8.6831484 -97.307762 -1.3961452 -101.89366
9205375000 -2.6808627 129.02818 -8.6825819 -96.662186 -8.682579 -97.316826 -1.3858752 -101.85127
9205437500 -2.6649821 128.9848 -8.6778212 -96.62915 -8.6942081 -97.319679 -1.3969731 -101.80966
9205500000 -2.6836207 128.93196 -8.6946888 -96.582657 -8.6833115 -97.389305 -1.3918228 -101.74515
9205562500 -2.6800201 128.99437 -8.6748981 -96.68399 -8.6863985 -97.36158 -1.3933232 -101.79931
9205625000 -2.6870301 128.98578 -8.6930971 -96.640663 -8.684556 -97.316269 -1.3997711 -101.73054
9205687500 -2.6813734 129.00418 -8.6866913 -96.61586 -8.6752996 -97.338821 -1.3900377 -101.7102
9205750000 -2.6810908 128.89008 -8.686799 -96.683601 -8.6922331 -97.321701 -1.3983793 -101.7045
9205812500 -2.6842985 128.87592 -8.6838255 -96.69928 -8.6860819 -97.336937 -1.3935835 -101.7251
9205875000 -2.6807382 128.91895 -8.6977043 -96.649422 -8.6909952 -97.346336 -1.4022417 -101.78713
9205937500 -2.6791496 128.90901 -8.6825237 -96.68676 -8.6733303 -97.274902 -1.4055727 -101.65218
9206000000 -2.688921 128.87025 -8.6769018 -96.656624 -8.6791916 -97.295074 -1.3969576 -101.59631
9206062500 -2.6792195 128.91728 -8.6793556 -96.700813 -8.6783638 -97.316864 -1.3994645 -101.66017
9206125000 -2.6895094 128.86128 -8.6769609 -96.641525 -8.6726265 -97.337685 -1.3995537 -101.59993
9206187500 -2.6837456 128.81447 -8.6720781 -96.666412 -8.6731615 -97.36676 -1.3876957 -101.64172
9206250000 -2.6922648 128.81673 -8.6875753 -96.72049 -8.6867514 -97.347664 -1.4026694 -101.6411
9206312500 -2.6819177 128.77609 -8.6807528 -96.62886 -8.6780329 -97.421707 -1.3975583 -101.61259
9206375000 -2.6838446 128.79088 -8.6880655 -96.683456 -8.6760321 -97.323372 -1.4014084 -101.56466
9206437500 -2.6818829 128.74869 -8.6788244 -96.70266 -8.6857166 -97.324417 -1.4086947 -101.572
9206500000 -2.6872983 128.7795 -8.6811867 -96.750076 -8.6732864 -97.328835 -1.4075297 -101.57626
9206562500 -2.6889591 128.78386 -8.6766176 -96.733452 -8.679554 -97.365456 -1.4058149 -101.59
9206625000 -2.694576 128.6958 -8.679594 -96.705032 -8.6775398 -97.434349 -1.4061432 -101.52976
9206687500 -2.6909888 128.73207 -8.6756926 -96.716454 -8.6675959 -97.401115 -1.3956373 -101.53778
9206750000 -2.6890686 128.76773 -8.6697893 -96.698372 -8.6676741 -97.361076 -1.4062014 -101.53068
9206812500 -2.6850879 128.77287 -8.675601 -96.724655 -8.6677132 -97.389923 -1.4009597 -101.53351
9206875000 -2.685823 128.68439 -8.6733875 -96.734825 -8.6603937 -97.296753 -1.4031968 -101.31766
9206937500 -2.6901307 128.71005 -8.6777554 -96.720291 -8.6786213 -97.404976 -1.4164243 -101.41428
9207000000 -2.689172 128.68011 -8.673317 -96.707687 -8.6737461 -97.365334 -1.4113803 -101.38268
9207062500 -2.6861548 128.64944 -8.66609 -96.685265 -8.6707115 -97.346336 -1.414589 -101.27459
9207125000 -2.7010117 128.59377 -8.6597385 -96.810814 -8.6690168 -97.396263 -1.408757 -101.28944
9207187500 -2.694164 128.59103 -8.6706448 -96.781517 -8.6751957 -97.380135 -1.4102889 -101.33981
9207250000 -2.6925933 128.59761 -8.6769781 -96.753189 -8.6747875 -97.342857 -1.412975 -101.35239
9207312500 -2.6829193 128.59447 -8.6632366 -96.771896 -8.6578455 -97.370346 -1.4014429 -101.25414
9207375000 -2.700105 128.59041 -8.6748009 -96.714294 -8.6586361 -97.421288 -1.4054509 -101.25128
9207437500 -2.6908233 128.61932 -8.6715965 -96.7033 -8.6792994 -97.323059 -1.4137911 -101.23232
9207500000 -2.6973948 128.60115 -8.6784067 -96.739952 -8.6566324 -97.348892 -1.4264454 -101.18501
9207562500 -2.6882432 128.57014 -8.6610136 -96.711273 -8.6627893 -97.29496 -1.4174173 -101.2266
9207625000 -2.7020195 128.49823 -8.6710176 -96.717918 -8.661521 -97.41301 -1.4179164 -101.17896
9207687500 -2.7016695 128.57022 -8.6607141 -96.794891 -8.655611 -97.373878 -1.406549 -101.22028
9207750000 -2.6973202 128.52921 -8.6632318 -96.75351 -8.6606951 -97.403885 -1.4130291 -101.16003
9207812500 -2.7005444 128.51669 -8.6584129 -96.723686 -8.6633186 -97.347557 -1.4222533 -101.16055
9207875000 -2.6896629 128.52222 -8.6655607 -96.719666 -8.6534586 -97.445503 -1.4097714 -101.14274
9207937500 -2.6991017 128.42445 -8.6679382 -96.737923 -8.662734 -97.389732 -1.4208152 -101.18087
9208000000 -2.7074049 128.45349 -8.6631851 -96.754478 -8.6593657 -97.349564 -1.4164468 -101.05439
9208062500 -2.7003884 128.43375 -8.6697474 -96.773155 -8.6575661 -97.383133 -1.4184288 -101.03705
9208125000 -2.7018168 128.44138 -8.6667948 -96.802101 -8.6616297 -97.444405 -1.4169793 -101.03392
9208187500 -2.6966364 128.42361 -8.6632309 -96.789673 -8.6641684 -97.403687 -1.4255027 -101.02628
9208250000 -2.7075529 128.42015 -8.6703777 -96.746056 -8.6545525 -97.437195 -1.4202322 -101.03577
9208312500 -2.6972091 128.42026 -8.6660061 -96.7742 -8.647603 -97.429802 -1.4198637 -101.00837
9208375000 -2.7052474 128.4088 -8.6608458 -96.725357 -8.6610355 -97.346924 -1.4248179 -100.91683
9208437500 -2.7019963 128.3331 -8.6624889 -96.830338 -8.6574879 -97.343994 -1.4328389 -100.95387
9208500000 -2.7102742 128.30606 -8.6588278 -96.774445 -8.6510363 -97.448135 -1.4210745 -100.91181
9208562500 -2.7059784 128.36082 -8.6530933 -96.780716 -8.6602316 -97.434814 -1.4294808 -100.9539
9208625000 -2.7022488 128.28349 -8.6513205 -96.727829 -8.6469507 -97.409203 -1.4301319 -100.91124
9208687500 -2.6956277 128.27829 -8.6394529 -96.864906 -8.6519642 -97.440613 -1.4227988 -100.93365
9208750000 -2.6989284 128.30301 -8.6499672 -96.762329 -8.6503782 -97.391823 -1.4208971 -100.84371
9208812500 -2.7094738 128.35214 -8.6556787 -96.780647 -8.6470289 -97.406166 -1.4183984 -100.82355
9208875000 -2.7057343 128.24232 -8.6511583 -96.856026 -8.6519794 -97.414375 -1.4216805 -100.82283
9208937500 -2.709172 128.29066 -8.6466246 -96.819145 -8.6388855 -97.428619 -1.416942 -100.83916
9209000000 -2.7041163 128.31735 -8.6604481 -96.79081 -8.6465797 -97.483643 -1.4325689 -100.84628
9209062500 -2.7046015 128.21698 -8.654808 -96.75042 -8.6554079 -97.449249 -1.4323189 -100.77811
9209125000 -2.7142749 128.27393 -8.6605721 -96.739815 -8.644146 -97.427414 -1.420705 -100.7483
9209187500 -2.7053533 128.21196 -8.6454678 -96.846321 -8.6489305 -97.445137 -1.4259859 -100.7545
9209250000 -2.7052991 128.17737 -8.6565828 -96.786148 -8.6465883 -97.448578 -1.4382298 -100.65531
9209312500 -2.7086046 128.11369 -8.659133 -96.856606 -8.6435242 -97.467339 -1.4304039 -100.75198
9209375000 -2.7030084 128.18813 -8.6444454 -96.745773 -8.6535769 -97.418419 -1.4340595 -100.71059
9209437500 -2.7219608 128.1042 -8.6569338 -96.8041 -8.6411591 -97.528351 -1.4250199 -100.68498
9209500000 -2.708822 128.13362 -8.6466389 -96.862831 -8.6426096 -97.447578 -1.4317166 -100.62586
9209562500 -2.714401 128.1479 -8.6595325 -96.807671 -8.6540222 -97.454414 -1.4521376 -100.57463
9209625000 -2.7143466 128.10033 -8.6459589 -96.835335 -8.6390953 -97.476219 -1.4304614 -100.61125
9209687500 -2.711519 128.02501 -8.6411514 -96.839752 -8.642272 -97.438957 -1.4322557 -100.57885
9209750000 -2.7136288 128.09825 -8.641078 -96.873322 -8.6423426 -97.430382 -1.4225628 -100.61084
9209812500 -2.712266 128.05191 -8.6419325 -96.812286 -8.6363859 -97.442276 -1.4318163 -100.55499
9209875000 -2.7111464 128.08263 -8.6338329 -96.747475 -8.6352816 -97.449806 -1.4402515 -100.54931
9209937500 -2.7094316 128.14612 -8.6512842 -96.835373 -8.641427 -97.508575 -1.4369668 -100.60796
9210000000 -2.7066808 128.0789 -8.6473341 -96.780426 -8.625514 -97.474777 -1.4468968 -100.48463
9210062500 -2.7157166 128.04272 -8.641572 -96.892319 -8.638031 -97.50206 -1.4392823 -100.52676
9210125000 -2.7143619 128.02335 -8.6431351 -96.871147 -8.6260586 -97.477325 -1.4355016 -100.52673
9210187500 -2.714951 128.06291 -8.6410961 -96.768997 -8.6315126 -97.491501 -1.4384929 -100.423
9210250000 -2.7176609 128.04825 -8.6378918 -96.838287 -8.6295338 -97.470444 -1.4465832 -100.47637
9210312500 -2.7179642 128.00764 -8.6363659 -96.779663 -8.6381826 -97.49128 -1.4418123 -100.45495
9210375000 -2.7128773 128.04245 -8.6479645 -96.74955 -8.643609 -97.48571 -1.4459198 -100.33916
9210437500 -2.7096641 127.95834 -8.6442251 -96.807228 -8.6324348 -97.545044 -1.440179 -100.46246
9210500000 -2.7144103 127.91515 -8.6343346 -96.886383 -8.6236229 -97.475731 -1.433197 -100.37231
9210562500 -2.7214768 127.91566 -8.642086 -96.850723 -8.6348696 -97.504707 -1.4455683 -100.3343
9210625000 -2.719017 127.91924 -8.6388083 -96.829506 -8.6233606 -97.401672 -1.4386849 -100.31482
9210687500 -2.7176032 127.96869 -8.6297083 -96.852135 -8.6275463 -97.545319 -1.4392235 -100.32137
9210750000 -2.7175767 127.90132 -8.6330805 -96.884735 -8.6284409 -97.489189 -1.4460793 -100.34122
9210812500 -2.7243285 127.87665 -8.6333456 -96.885925 -8.6308784 -97.465797 -1.4586432 -100.26301
9210875000 -2.7215183 127.85983 -8.632822 -96.844055 -8.6339102 -97.511314 -1.4536312 -100.2999
9210937500 -2.7160382 127.90667 -8.6309605 -96.85276 -8.6390839 -97.455086 -1.4551026 -100.27183
9211000000 -2.7233677 127.87278 -8.6334782 -96.848106 -8.6299753 -97.421387 -1.4486824 -100.23585
9211062500 -2.7193272 127.88615 -8.6280899 -96.756989 -8.6297054 -97.480431 -1.4579793 -100.20811
9211125000 -2.719331 127.79624 -8.6376848 -96.87883 -8.6257334 -97.506897 -1.4480693 -100.17545
9211187500 -2.7328887 127.82548 -8.6295357 -96.894905 -8.6208782 -97.516914 -1.4499508 -100.19082
9211250000 -2.7352157 127.83198 -8.6326094 -96.888931 -8.6247959 -97.464493 -1.442705 -100.14156
9211312500 -2.7241144 127.8223 -8.634305 -96.864822 -8.6308508 -97.523148 -1.4566151 -100.16965
9211375000 -2.7228837 127.73933 -8.6254091 -96.852936 -8.609417 -97.566757 -1.4477144 -100.11672
9211437500 -2.717006 127.76336 -8.6220255 -96.829582 -8.6228456 -97.542877 -1.4519392 -100.11623
9211500000 -2.734066 127.73878 -8.6326818 -96.908699 -8.6216736 -97.481895 -1.4459122 -100.12502
9211562500 -2.7343256 127.78198 -8.632143 -96.894585 -8.6181269 -97.497971 -1.4502394 -100.0547
9211625000 -2.7317533 127.69033 -8.6237688 -96.902275 -8.6161356 -97.537071 -1.4516146 -100.05382
9211687500 -2.7347095 127.73719 -8.6264839 -96.880821 -8.6220369 -97.525391 -1.4569694 -100.00549
9211750000 -2.733341 127.6929 -8.622016 -96.829224 -8.6221609 -97.542587 -1.4564946 -99.961967
9211812500 -2.7312222 127.71133 -8.6385345 -96.889381 -8.6217337 -97.534088 -1.4638429 -100.02531
9211875000 -2.7376025 127.63811 -8.6239109 -96.962524 -8.6097345 -97.453842 -1.4468735 -99.876114
9211937500 -2.7308378 127.70349 -8.6235657 -96.850281 -8.6116123 -97.517494 -1.4597098 -99.923462
9212000000 -2.7294958 127.62402 -8.6081419 -96.866142 -8.6151056 -97.560722 -1.458672 -99.88353
9212062500 -2.7286491 127.58405 -8.6214294 -96.878716 -8.6163177 -97.526192 -1.4659115 -99.946518
9212125000 -2.7337029 127.54189 -8.6232576 -96.978317 -8.6272478 -97.551468 -1.4650453 -99.89267
9212187500 -2.7221944 127.58202 -8.5996351 -96.868896 -8.612566 -97.519661 -1.4653823 -99.880501
9212250000 -2.7285075 127.55154 -8.6080408 -96.920761 -8.6147223 -97.538338 -1.4538006 -99.89193
9212312500 -2.7342393 127.57074 -8.6114912 -96.876671 -8.6022978 -97.503395 -1.459855 -99.871742
9212375000 -2.7268553 127.54964 -8.6131048 -96.93174 -8.5997105 -97.567734 -1.4486932 -99.827705
9212437500 -2.7348719 127.49084 -8.6202965 -96.940453 -8.6071215 -97.560982 -1.4563688 -99.834473
