!Agilent Technologies,N5242A,MY51221714,A.09.90.19
!Agilent N5242A: A.09.90.19
!Date: Tuesday, March 26, 2024 15:52:11
!Correction: S11(Full 2 Port(1,2)) 
!S21(Full 2 Port(1,2)) 
!S12(Full 2 Port(1,2)) 
!S22(Full 2 Port(1,2)) 
!S2P File: Measurements: S11, S21, S12, S22:
# Hz S  dB   R 50
9200000000 -1.0429522 133.49464 -9.1193113 -74.211182 -9.1059332 -74.865463 -0.044104543 -101.28252
9200062500 -1.0469233 133.49731 -9.1178083 -74.190971 -9.1190405 -74.874023 -0.041013859 -101.22589
9200125000 -1.0497212 133.43819 -9.1341705 -74.218079 -9.1168404 -74.781853 -0.046546441 -101.18335
9200187500 -1.0459937 133.47821 -9.1110039 -74.196487 -9.1093016 -74.911324 -0.025384903 -101.20265
9200250000 -1.041477 133.45015 -9.1177626 -74.148705 -9.1093645 -74.786819 -0.034256935 -101.20781
9200312500 -1.049332 133.44269 -9.1244144 -74.145287 -9.1169596 -74.842827 -0.040870741 -101.18512
9200375000 -1.0434958 133.41188 -9.1130934 -74.169212 -9.1144381 -74.89888 -0.039861541 -101.16431
9200437500 -1.0378094 133.4409 -9.1090565 -74.130302 -9.1011877 -74.878906 -0.030694753 -101.15771
9200500000 -1.0392406 133.38931 -9.1045828 -74.134575 -9.1139612 -74.762955 -0.053063702 -101.11855
9200562500 -1.0411044 133.36624 -9.1069698 -74.190002 -9.1094418 -74.810043 -0.030258309 -101.13777
9200625000 -1.0466959 133.3728 -9.1088705 -74.126167 -9.1069241 -74.751823 -0.034841668 -101.07306
9200687500 -1.0391433 133.39847 -9.1169538 -74.090111 -9.1123867 -74.842224 -0.043620899 -101.05124
9200750000 -1.0457788 133.27347 -9.1113701 -74.216446 -9.1043959 -74.778198 -0.042388719 -101.07664
9200812500 -1.0556635 133.32027 -9.1178541 -74.141937 -9.1065292 -74.801064 -0.04381451 -101.06506
9200875000 -1.0440094 133.42052 -9.1141014 -74.06739 -9.1039448 -74.859077 -0.042057391 -101.07542
9200937500 -1.0404131 133.29956 -9.1145773 -74.171341 -9.1061649 -74.758278 -0.03679068 -100.98729
9201000000 -1.0399957 133.2755 -9.1165133 -74.232162 -9.0954485 -74.749542 -0.03491557 -100.96866
9201062500 -1.0422016 133.26108 -9.0982418 -74.149803 -9.0987988 -74.894424 -0.046154734 -101.03233
9201125000 -1.0437113 133.30519 -9.1078129 -74.100014 -9.1087675 -74.799385 -0.042223785 -100.96191
9201187500 -1.0424436 133.19478 -9.1037531 -74.136833 -9.1024103 -74.812607 -0.053066954 -100.8821
9201250000 -1.0501477 133.265 -9.1032515 -74.061935 -9.1079693 -74.757622 -0.045337725 -100.86717
9201312500 -1.0562391 133.22968 -9.1178036 -74.121475 -9.0948477 -74.8069 -0.033149958 -100.91192
9201375000 -1.0499815 133.23024 -9.1079226 -74.044258 -9.095726 -74.735321 -0.047977086 -100.81944
9201437500 -1.0418956 133.20152 -9.1164379 -74.132332 -9.1051435 -74.758408 -0.052869242 -100.92439
9201500000 -1.0467619 133.21188 -9.1128159 -74.122292 -9.1044321 -74.851868 -0.04278405 -100.92462
9201562500 -1.045637 133.13803 -9.1090899 -74.098694 -9.1134109 -74.766113 -0.056939822 -100.86553
9201625000 -1.0471743 133.16238 -9.106286 -74.125076 -9.0973854 -74.808075 -0.055231415 -100.78909
9201687500 -1.0530901 133.12012 -9.0976591 -74.084015 -9.1015453 -74.791367 -0.045980692 -100.74289
9201750000 -1.0548557 133.15057 -9.1093369 -74.104973 -9.0899925 -74.835503 -0.031909797 -100.79095
9201812500 -1.0452871 133.14264 -9.0993004 -74.084785 -9.0964165 -74.785713 -0.052730706 -100.83514
9201875000 -1.0515412 133.08994 -9.1002388 -74.113251 -9.0914307 -74.824135 -0.03774133 -100.70033
9201937500 -1.0573587 133.02104 -9.1081152 -74.083 -9.1003304 -74.869629 -0.043816142 -100.76266
9202000000 -1.0515933 133.09058 -9.0941029 -74.091354 -9.0925636 -74.845306 -0.044210106 -100.74113
9202062500 -1.0490096 133.06277 -9.087348 -74.143829 -9.0948915 -74.853455 -0.038954388 -100.72493
9202125000 -1.0598199 133.07608 -9.1128826 -74.112518 -9.0855579 -74.727737 -0.05057843 -100.67105
9202187500 -1.0467666 133.08569 -9.1007109 -74.079475 -9.093689 -74.77343 -0.046012163 -100.61305
9202250000 -1.0474663 133.01012 -9.0908041 -74.112526 -9.0890188 -74.728836 -0.049168047 -100.58551
9202312500 -1.0438732 133.01685 -9.1027107 -74.090569 -9.0911007 -74.747276 -0.046052229 -100.62436
9202375000 -1.0479835 132.97202 -9.1045427 -74.047279 -9.0852118 -74.833847 -0.051801518 -100.59373
9202437500 -1.0502907 133.00139 -9.0964766 -74.088875 -9.0946074 -74.752037 -0.046950147 -100.65276
9202500000 -1.0607662 132.94907 -9.1010675 -74.120651 -9.0946302 -74.766495 -0.045178149 -100.59525
9202562500 -1.0413828 132.92905 -9.1000948 -74.108765 -9.1004744 -74.753174 -0.059005264 -100.59942
9202625000 -1.0504484 133.01163 -9.091568 -74.04657 -9.0877943 -74.749115 -0.049476255 -100.53238
9202687500 -1.0439702 132.93224 -9.0900984 -74.08889 -9.0830154 -74.784966 -0.035801627 -100.48659
9202750000 -1.0467639 132.89977 -9.0933084 -74.059082 -9.0758152 -74.781898 -0.041396752 -100.5131
9202812500 -1.0496601 132.8994 -9.0969343 -74.0159 -9.0747757 -74.794449 -0.036577389 -100.47498
9202875000 -1.0466881 132.86574 -9.0910397 -74.038345 -9.0820274 -74.754951 -0.04525115 -100.43
9202937500 -1.0480888 132.87645 -9.0952206 -74.167015 -9.0894299 -74.724678 -0.052389674 -100.43703
9203000000 -1.05202 132.88725 -9.0863676 -74.098061 -9.0847998 -74.777962 -0.044887353 -100.36323
9203062500 -1.0425034 132.82986 -9.0820999 -74.095734 -9.0741014 -74.735107 -0.053500552 -100.42123
9203125000 -1.0491141 132.83197 -9.0827971 -74.06588 -9.0787992 -74.782684 -0.046179865 -100.41415
9203187500 -1.0478222 132.81464 -9.0953255 -74.082108 -9.0697889 -74.796196 -0.04744013 -100.37019
9203250000 -1.0460958 132.78928 -9.0757256 -74.150436 -9.0835257 -74.774727 -0.048031673 -100.38123
9203312500 -1.056576 132.82292 -9.0936298 -74.092331 -9.0735435 -74.800133 -0.042035464 -100.32541
9203375000 -1.0497049 132.79208 -9.086565 -74.02774 -9.0775099 -74.727158 -0.04314832 -100.27207
9203437500 -1.0578833 132.78529 -9.0961742 -74.112534 -9.080492 -74.7201 -0.04148344 -100.35175
9203500000 -1.0525815 132.75761 -9.0836496 -74.089005 -9.0835638 -74.745964 -0.045917355 -100.31329
9203562500 -1.0503491 132.77995 -9.0840693 -74.051659 -9.0850153 -74.740189 -0.060190756 -100.33633
9203625000 -1.0517466 132.71318 -9.0808821 -74.148018 -9.0852098 -74.731506 -0.046716109 -100.34652
9203687500 -1.05004 132.6893 -9.0822229 -74.173195 -9.0839195 -74.718155 -0.057764828 -100.26025
9203750000 -1.0563492 132.67857 -9.089838 -74.095695 -9.0764418 -74.701065 -0.043800618 -100.25074
9203812500 -1.0509677 132.71877 -9.0669174 -74.09626 -9.0835896 -74.745499 -0.056491993 -100.18443
9203875000 -1.048491 132.68063 -9.0798073 -74.005882 -9.0809059 -74.800835 -0.066086769 -100.23563
9203937500 -1.0544972 132.68248 -9.0731926 -74.030113 -9.0747051 -74.722641 -0.053280037 -100.20824
9204000000 -1.0581243 132.68668 -9.0857868 -73.964447 -9.0726585 -74.683319 -0.050943118 -100.1283
9204062500 -1.0473131 132.64221 -9.0721531 -74.125954 -9.071414 -74.767471 -0.056033053 -100.14542
9204125000 -1.0545938 132.60844 -9.0751696 -74.023804 -9.0765896 -74.696709 -0.053538937 -100.09434
9204187500 -1.0555989 132.55705 -9.083127 -74.102737 -9.0721865 -74.739845 -0.055988554 -100.13014
9204250000 -1.0546856 132.58786 -9.0727081 -74.039909 -9.0763063 -74.7257 -0.05400889 -100.11345
9204312500 -1.0498558 132.5921 -9.0660887 -74.013115 -9.0740318 -74.721809 -0.057179239 -100.01596
9204375000 -1.0442499 132.56406 -9.0720978 -74.074944 -9.0714102 -74.724335 -0.052590854 -100.0546
9204437500 -1.0622063 132.60071 -9.0843563 -74.028671 -9.0652361 -74.728935 -0.050703552 -100.02276
9204500000 -1.056471 132.54663 -9.0631666 -74.056183 -9.0780735 -74.690849 -0.054570857 -100.01368
9204562500 -1.0523461 132.50774 -9.0766478 -74.074905 -9.070178 -74.725075 -0.050669808 -100.07999
9204625000 -1.04505 132.52379 -9.0623074 -74.024727 -9.0620737 -74.756569 -0.053017706 -99.971825
9204687500 -1.053925 132.4803 -9.0716391 -74.051674 -9.0716076 -74.706848 -0.054455206 -99.988525
9204750000 -1.059245 132.49275 -9.0776262 -73.98661 -9.0733986 -74.7062 -0.062991716 -99.97258
9204812500 -1.0508403 132.46234 -9.0730486 -74.002098 -9.0672207 -74.677956 -0.052920956 -99.931847
9204875000 -1.055666 132.55322 -9.0688715 -74.035133 -9.0783434 -74.694946 -0.054922573 -99.981125
9204937500 -1.0502791 132.44247 -9.0632515 -74.121185 -9.0482969 -74.698257 -0.039953742 -99.90303
9205000000 -1.0431341 132.36551 -9.0618095 -73.988541 -9.0631323 -74.644638 -0.067677081 -99.85347
9205062500 -1.0489929 132.3746 -9.0713701 -74.01474 -9.0514507 -74.694565 -0.05712536 -99.828873
9205125000 -1.0512249 132.38805 -9.0656271 -74.056564 -9.0614443 -74.711166 -0.057210591 -99.826027
9205187500 -1.0531433 132.45648 -9.0712214 -73.985748 -9.0536184 -74.70034 -0.054246504 -99.839539
9205250000 -1.0534849 132.36482 -9.068367 -74.115318 -9.0680046 -74.710228 -0.061865591 -99.933617
9205312500 -1.0505649 132.44603 -9.0557947 -73.889801 -9.0687742 -74.686226 -0.062876709 -99.81794
9205375000 -1.0519763 132.30511 -9.0560446 -74.047394 -9.0603046 -74.677834 -0.047633059 -99.780724
9205437500 -1.0416782 132.32918 -9.0598068 -74.001648 -9.0578804 -74.645592 -0.055436846 -99.799553
9205500000 -1.055274 132.27815 -9.0483856 -74.003876 -9.0552645 -74.722984 -0.050836403 -99.704697
9205562500 -1.0568323 132.34039 -9.053627 -73.995987 -9.0571756 -74.645851 -0.053600144 -99.704506
9205625000 -1.0596669 132.31421 -9.0698776 -73.951645 -9.0629406 -74.671249 -0.061803658 -99.676346
9205687500 -1.0489379 132.3439 -9.0638342 -73.934746 -9.050621 -74.775345 -0.058074076 -99.713333
9205750000 -1.0489589 132.2428 -9.0534496 -74.108177 -9.0597105 -74.668182 -0.057528973 -99.633186
9205812500 -1.0562242 132.21555 -9.0492926 -73.985229 -9.0599089 -74.715736 -0.054281782 -99.61467
9205875000 -1.0465276 132.25417 -9.0548124 -74.004105 -9.059227 -74.707863 -0.057348371 -99.694122
9205937500 -1.0534309 132.21983 -9.0542784 -74.05085 -9.043623 -74.700989 -0.050391451 -99.690735
9206000000 -1.0568649 132.23842 -9.0533533 -73.93335 -9.0604944 -74.677696 -0.05804833 -99.611847
9206062500 -1.0537935 132.23239 -9.0563993 -74.042389 -9.0580301 -74.69313 -0.060618397 -99.619118
9206125000 -1.0502071 132.187 -9.0544949 -74.011177 -9.0541601 -74.614021 -0.057747524 -99.502922
9206187500 -1.0536833 132.19397 -9.054307 -74.002182 -9.0534573 -74.67057 -0.057119273 -99.570427
9206250000 -1.0555511 132.11229 -9.0534735 -74.090393 -9.0509405 -74.633202 -0.066182353 -99.551018
9206312500 -1.0522918 132.10506 -9.0595064 -74.014633 -9.0520267 -74.833481 -0.055771891 -99.577972
9206375000 -1.052838 132.09283 -9.0530691 -74.025063 -9.0483646 -74.64003 -0.054846793 -99.529846
9206437500 -1.0505123 132.06737 -9.0549269 -74.023506 -9.0558882 -74.669998 -0.067934088 -99.546959
9206500000 -1.0597283 132.10324 -9.0594406 -74.016212 -9.0517654 -74.669815 -0.06691999 -99.51207
9206562500 -1.0496969 132.07045 -9.0492611 -74.103172 -9.0460997 -74.69838 -0.059422377 -99.545143
9206625000 -1.0534915 131.99016 -9.0416107 -74.011215 -9.0487089 -74.689171 -0.058857191 -99.443359
9206687500 -1.0572861 132.08585 -9.047142 -74.009842 -9.0460653 -74.703522 -0.05104655 -99.497337
9206750000 -1.048296 132.03119 -9.0476732 -74.028511 -9.0489254 -74.653763 -0.061710216 -99.485771
9206812500 -1.0466737 132.07718 -9.0499525 -73.936272 -9.0578947 -74.659538 -0.060919739 -99.440117
9206875000 -1.0528563 132.04208 -9.0550852 -73.947624 -9.0377998 -74.632027 -0.049568709 -99.305313
9206937500 -1.0556636 132.00145 -9.0497093 -73.928932 -9.0457563 -74.63353 -0.06233881 -99.323753
9207000000 -1.0573604 131.96619 -9.052557 -74.084465 -9.0460129 -74.693024 -0.063531891 -99.387627
9207062500 -1.0558885 132.01758 -9.0552988 -73.968414 -9.0448475 -74.604973 -0.068446986 -99.243454
9207125000 -1.0619103 131.9798 -9.0365362 -73.967506 -9.040143 -74.710747 -0.061489407 -99.266975
9207187500 -1.0520666 131.91539 -9.032321 -74.082031 -9.0479517 -74.64534 -0.064347699 -99.328354
9207250000 -1.0566539 131.92738 -9.0477152 -73.970207 -9.0478306 -74.663742 -0.059714358 -99.356064
9207312500 -1.0504797 131.88054 -9.0460348 -74.069473 -9.034009 -74.607246 -0.057601217 -99.257454
9207375000 -1.0631067 131.85599 -9.0446939 -73.996819 -9.0339603 -74.586769 -0.060193785 -99.174164
9207437500 -1.0484066 131.94177 -9.0406513 -73.983452 -9.0576506 -74.605759 -0.064394198 -99.233398
9207500000 -1.0550473 131.93158 -9.0500488 -73.959496 -9.0309744 -74.572617 -0.070239417 -99.189056
9207562500 -1.0523164 131.90364 -9.0444641 -73.97081 -9.0389652 -74.600288 -0.073584072 -99.218361
9207625000 -1.0558584 131.79962 -9.0330696 -73.989609 -9.0397758 -74.660652 -0.060328268 -99.115494
9207687500 -1.0611994 131.8815 -9.0333624 -73.952095 -9.0311184 -74.628441 -0.061045956 -99.184158
9207750000 -1.059227 131.82797 -9.0352926 -73.975113 -9.0355434 -74.645889 -0.054020382 -99.168747
9207812500 -1.0539774 131.82668 -9.0365419 -73.969154 -9.0321913 -74.595779 -0.064383253 -99.099861
9207875000 -1.0591922 131.80359 -9.0502605 -73.950363 -9.0202684 -74.66391 -0.058313705 -99.10807
9207937500 -1.0603803 131.74023 -9.0403566 -73.968063 -9.0404034 -74.676178 -0.069323011 -99.130455
9208000000 -1.0606416 131.79355 -9.0303364 -73.987465 -9.0382004 -74.604675 -0.065708451 -99.078239
9208062500 -1.059671 131.76474 -9.0337219 -73.900337 -9.0276537 -74.657234 -0.064672507 -99.085869
9208125000 -1.0572299 131.73369 -9.031539 -73.959938 -9.0322599 -74.631447 -0.068619899 -99.040367
9208187500 -1.052056 131.77737 -9.030489 -73.937965 -9.0275898 -74.604507 -0.066135749 -99.041763
9208250000 -1.0609075 131.70346 -9.0446558 -73.92437 -9.0242119 -74.655472 -0.067017555 -98.991562
9208312500 -1.0537875 131.72356 -9.0472593 -73.989037 -9.022872 -74.589912 -0.06645114 -99.004532
9208375000 -1.0614995 131.71867 -9.0348635 -73.937355 -9.029089 -74.531998 -0.063798428 -98.912865
9208437500 -1.063349 131.66853 -9.0321369 -73.992455 -9.0335083 -74.59317 -0.071826585 -98.931908
9208500000 -1.0588781 131.62129 -9.0413017 -73.949379 -9.0300007 -74.680313 -0.067863338 -98.96759
9208562500 -1.0609779 131.72079 -9.0329189 -73.922539 -9.0377064 -74.646301 -0.075785503 -98.934166
9208625000 -1.0532182 131.59818 -9.0209656 -73.91613 -9.0315599 -74.504097 -0.074081443 -98.884003
9208687500 -1.0499834 131.57983 -9.0236673 -73.984779 -9.0235214 -74.619743 -0.062107224 -98.907333
9208750000 -1.0562093 131.60812 -9.0382471 -73.930771 -9.0244799 -74.606224 -0.07055115 -98.874619
9208812500 -1.0589294 131.68538 -9.0380383 -73.938744 -9.022871 -74.618584 -0.063959457 -98.859573
9208875000 -1.05204 131.55713 -9.0182686 -73.976089 -9.0370979 -74.523186 -0.071592242 -98.777969
9208937500 -1.0607364 131.59674 -9.0296412 -73.999352 -9.0260162 -74.592743 -0.067907147 -98.797783
9209000000 -1.0504698 131.56177 -9.0286293 -73.965515 -9.0166483 -74.584366 -0.072298191 -98.843857
9209062500 -1.055994 131.57626 -9.0285397 -73.864677 -9.0298615 -74.56015 -0.069542363 -98.801758
9209125000 -1.0638988 131.53731 -9.0282278 -73.951347 -9.0191574 -74.552681 -0.065216072 -98.726379
9209187500 -1.0600964 131.56432 -9.0216722 -73.847252 -9.0255413 -74.569748 -0.072050564 -98.770485
9209250000 -1.0512125 131.50436 -9.0215569 -73.884659 -9.0159464 -74.60141 -0.067871101 -98.68412
9209312500 -1.0596479 131.45731 -9.0232506 -73.942551 -9.0184059 -74.636124 -0.077336431 -98.741631
9209375000 -1.0453012 131.51462 -9.0167189 -73.84314 -9.0275192 -74.573105 -0.077603117 -98.704437
9209437500 -1.0641887 131.41629 -9.030262 -73.936363 -9.0205603 -74.654961 -0.077040516 -98.613762
9209500000 -1.0563594 131.41495 -9.017396 -73.999451 -9.0217447 -74.564125 -0.06851133 -98.624603
9209562500 -1.0585519 131.47478 -9.0170994 -73.920876 -9.0237112 -74.562759 -0.075269982 -98.59462
9209625000 -1.061582 131.37782 -9.0176573 -74.003853 -9.0041771 -74.642746 -0.065870591 -98.652802
9209687500 -1.0593587 131.37404 -9.0162363 -73.918022 -9.0118284 -74.486107 -0.069807895 -98.553429
9209750000 -1.0592623 131.39279 -9.0096617 -73.974792 -9.0154095 -74.558411 -0.061502989 -98.569427
9209812500 -1.0555006 131.35966 -9.0101433 -73.922096 -9.0187931 -74.561798 -0.074527919 -98.53553
9209875000 -1.0574894 131.40303 -9.0121593 -73.897064 -9.0135508 -74.613037 -0.071771145 -98.590469
9209937500 -1.0587399 131.43469 -9.0220776 -73.906181 -9.0174818 -74.499252 -0.074680105 -98.553398
9210000000 -1.0485767 131.34013 -9.0077295 -73.910828 -9.0119829 -74.536423 -0.084526785 -98.46579
9210062500 -1.0589602 131.33578 -9.0099497 -73.951881 -9.0103283 -74.574959 -0.077480026 -98.514847
9210125000 -1.0518332 131.29378 -9.0187502 -73.898735 -9.00844 -74.524338 -0.077059731 -98.460304
9210187500 -1.0600762 131.30695 -9.0200958 -73.868645 -9.0000086 -74.542282 -0.072182961 -98.469299
9210250000 -1.0570477 131.32204 -9.0085955 -73.963844 -9.0005531 -74.518845 -0.074297093 -98.460434
9210312500 -1.0644236 131.29681 -9.0174465 -73.814583 -9.0180092 -74.591705 -0.0734483 -98.453575
9210375000 -1.0517572 131.27538 -9.0113792 -73.828445 -9.011797 -74.542122 -0.072412372 -98.354507
9210437500 -1.0513304 131.23445 -9.0078907 -73.914314 -9.0161152 -74.579453 -0.074442312 -98.42971
9210500000 -1.0491812 131.2092 -8.9921379 -73.94738 -8.9988222 -74.559311 -0.061004713 -98.394882
9210562500 -1.0625464 131.22702 -9.0141172 -73.860176 -9.0021801 -74.54348 -0.076112166 -98.300835
9210625000 -1.0554264 131.20906 -9.0098267 -73.864784 -9.0119762 -74.543282 -0.080250762 -98.393547
9210687500 -1.0550116 131.22041 -9.0163736 -73.896461 -9.0067606 -74.554306 -0.080678277 -98.31601
9210750000 -1.0604495 131.18172 -9.0156269 -73.879776 -8.9956751 -74.574921 -0.074274063 -98.327278
9210812500 -1.0600379 131.1254 -9.0142365 -73.917313 -8.9972496 -74.509186 -0.078329504 -98.291725
9210875000 -1.0528907 131.17366 -9.0104227 -73.908699 -9.0034027 -74.526764 -0.082134239 -98.372459
9210937500 -1.0557008 131.18227 -9.0111341 -73.895317 -9.0061512 -74.533722 -0.081310362 -98.280067
9211000000 -1.0602875 131.12556 -9.007514 -73.83461 -9.0094414 -74.560173 -0.066861771 -98.315636
9211062500 -1.0582973 131.14067 -9.0088158 -73.864853 -8.9953861 -74.472733 -0.076385938 -98.183762
9211125000 -1.0541307 131.10765 -9.005312 -73.948311 -8.9970436 -74.506401 -0.067580007 -98.22921
9211187500 -1.062896 131.09872 -9.0021505 -73.839882 -8.9959888 -74.540382 -0.080824271 -98.189178
9211250000 -1.0614835 131.08727 -9.0032225 -73.91156 -9.0083618 -74.465965 -0.068634935 -98.179085
9211312500 -1.0626987 131.1145 -9.0111694 -73.840485 -9.0022888 -74.544395 -0.081902303 -98.162804
9211375000 -1.0547518 130.99852 -9.0012608 -73.911461 -9.0000248 -74.571968 -0.078959428 -98.117752
9211437500 -1.0541722 131.0416 -8.9871264 -73.859962 -8.9943676 -74.524673 -0.078171268 -98.080345
9211500000 -1.0573107 131.00975 -8.9996309 -73.834381 -9.0109243 -74.602982 -0.083049864 -98.181305
9211562500 -1.0692773 131.07632 -9.014719 -73.834145 -8.987463 -74.558388 -0.083092265 -98.151077
9211625000 -1.0624136 130.95251 -8.9899731 -73.982307 -8.9835997 -74.583534 -0.070880949 -98.125351
9211687500 -1.0626172 131.00121 -8.9906712 -73.890518 -8.9977674 -74.556328 -0.081256106 -98.051758
9211750000 -1.059406 130.9621 -9.0006971 -73.823509 -9.0004568 -74.519783 -0.084353551 -97.993309
9211812500 -1.0602529 130.94917 -9.0018654 -73.845757 -8.9924812 -74.499397 -0.090661518 -98.036919
9211875000 -1.0615021 130.94067 -8.9993191 -73.8899 -8.9788046 -74.506073 -0.067231327 -97.908806
9211937500 -1.0589266 130.93024 -8.998848 -73.879219 -8.9878473 -74.470985 -0.082375132 -97.949684
9212000000 -1.0619725 130.86536 -8.9949713 -73.849312 -8.9812937 -74.512169 -0.080574229 -97.963028
9212062500 -1.0540589 130.86131 -8.9900827 -73.842598 -8.9900465 -74.507919 -0.081511453 -97.954681
9212125000 -1.0632042 130.82948 -8.9957943 -73.926979 -8.9946566 -74.52327 -0.077935435 -97.919426
9212187500 -1.0555714 130.86156 -8.9816694 -73.779564 -8.9819136 -74.495384 -0.085548043 -97.90152
