!Agilent Technologies,N5242A,MY51221714,A.09.90.19
!Agilent N5242A: A.09.90.19
!Date: Tuesday, March 26, 2024 15:53:08
!Correction: S11(Full 2 Port(1,2)) 
!S21(Full 2 Port(1,2)) 
!S12(Full 2 Port(1,2)) 
!S22(Full 2 Port(1,2)) 
!S2P File: Measurements: S11, S21, S12, S22:
# Hz S  dB   R 50
9200000000 -1.8529135 129.81909 -8.6630688 -85.281128 -8.6489763 -85.993523 -0.69389796 -104.03995
9200062500 -1.856753 129.79903 -8.6505938 -85.315002 -8.6572905 -85.977333 -0.68157005 -103.99568
9200125000 -1.8679427 129.74814 -8.6585541 -85.365036 -8.6455564 -85.993851 -0.68984234 -104.00219
9200187500 -1.868646 129.81732 -8.6629372 -85.242035 -8.6455879 -86.01313 -0.67820781 -103.93752
9200250000 -1.8534201 129.75215 -8.6391077 -85.309334 -8.6437149 -85.951828 -0.68379354 -103.99781
9200312500 -1.8627225 129.76485 -8.6545563 -85.341988 -8.6651335 -85.979485 -0.69437873 -103.95165
9200375000 -1.8579304 129.69034 -8.6529303 -85.330833 -8.6512499 -86.113808 -0.68673658 -103.93731
9200437500 -1.8581266 129.74263 -8.6553202 -85.330521 -8.6459303 -86.061188 -0.6893118 -103.95003
9200500000 -1.8550924 129.70862 -8.650176 -85.333481 -8.6518269 -85.985275 -0.69967681 -103.92567
9200562500 -1.855491 129.67607 -8.6514225 -85.343208 -8.6506968 -85.994812 -0.68753535 -103.97966
9200625000 -1.8658253 129.65855 -8.6472797 -85.327179 -8.6452475 -85.993759 -0.69722641 -103.86247
9200687500 -1.8546288 129.65958 -8.6518364 -85.262634 -8.6526728 -85.978386 -0.70155668 -103.80231
9200750000 -1.8603497 129.61249 -8.6496162 -85.344429 -8.6330395 -85.932831 -0.69459099 -103.82841
9200812500 -1.8761041 129.62524 -8.6558361 -85.308769 -8.6469316 -85.971008 -0.70444745 -103.8146
9200875000 -1.8549827 129.70193 -8.6523228 -85.229584 -8.6505899 -85.948402 -0.69837004 -103.83849
9200937500 -1.8626002 129.6172 -8.6488352 -85.283211 -8.6359644 -86.03141 -0.68654877 -103.79324
9201000000 -1.8551029 129.58801 -8.6445913 -85.386368 -8.6396484 -85.992416 -0.69761324 -103.79707
9201062500 -1.8605082 129.55841 -8.6388931 -85.273651 -8.63556 -85.985901 -0.6943379 -103.69857
9201125000 -1.8604219 129.58688 -8.629509 -85.305557 -8.6469269 -86.030304 -0.70286721 -103.72833
9201187500 -1.864472 129.50841 -8.6320581 -85.276886 -8.6362762 -85.980324 -0.70319468 -103.63499
9201250000 -1.8667296 129.57001 -8.635417 -85.294075 -8.6351833 -85.936066 -0.69952565 -103.65498
9201312500 -1.8745224 129.50433 -8.6442385 -85.268005 -8.6283083 -86.048599 -0.69006544 -103.69893
9201375000 -1.8733959 129.4818 -8.6418877 -85.314232 -8.6298122 -85.911278 -0.70409167 -103.63846
9201437500 -1.8650843 129.47899 -8.645031 -85.347626 -8.6407423 -85.995087 -0.70285368 -103.70787
9201500000 -1.8647014 129.51178 -8.6390991 -85.296906 -8.637722 -85.940712 -0.70143563 -103.63537
9201562500 -1.8590661 129.45432 -8.6312723 -85.326508 -8.6468935 -85.959518 -0.71721363 -103.62057
9201625000 -1.8598351 129.45576 -8.636385 -85.281654 -8.6321344 -85.984978 -0.70820916 -103.53632
9201687500 -1.8743486 129.44066 -8.6391859 -85.222961 -8.6320601 -85.916969 -0.6996091 -103.46996
9201750000 -1.8639528 129.45319 -8.6365061 -85.284882 -8.6201115 -85.971008 -0.69079834 -103.54192
9201812500 -1.8658216 129.43196 -8.6378155 -85.329704 -8.6311855 -85.97036 -0.70664173 -103.57311
9201875000 -1.8610301 129.37575 -8.620841 -85.345016 -8.6295958 -86.013344 -0.69634861 -103.53323
9201937500 -1.8814657 129.3139 -8.6379166 -85.350449 -8.6329985 -86.084343 -0.70311278 -103.57712
9202000000 -1.8738824 129.38655 -8.6303425 -85.291634 -8.6302118 -86.024223 -0.70220083 -103.4818
9202062500 -1.8728839 129.37286 -8.6261673 -85.294205 -8.6249952 -86.038788 -0.69475979 -103.45517
9202125000 -1.8693042 129.38528 -8.6422005 -85.306252 -8.6289396 -85.975296 -0.70854408 -103.46431
9202187500 -1.8687502 129.3306 -8.6263285 -85.371651 -8.6273403 -85.981064 -0.70287591 -103.39153
9202250000 -1.8664446 129.31778 -8.6325788 -85.286049 -8.6240387 -85.974228 -0.71711808 -103.37103
9202312500 -1.8664532 129.31026 -8.6229677 -85.311569 -8.6207361 -85.978607 -0.70615864 -103.41168
9202375000 -1.8705808 129.27357 -8.6394262 -85.335152 -8.6136866 -85.951157 -0.70732749 -103.34978
9202437500 -1.8713375 129.31552 -8.628377 -85.280838 -8.627346 -86.016685 -0.70485806 -103.39017
9202500000 -1.879154 129.24683 -8.6318817 -85.344696 -8.6311951 -85.967819 -0.7095474 -103.39691
9202562500 -1.8612331 129.22823 -8.6198645 -85.300377 -8.6257868 -85.893738 -0.71398437 -103.29497
9202625000 -1.8724104 129.28819 -8.6262331 -85.256264 -8.6120129 -85.937897 -0.7029078 -103.28332
9202687500 -1.8670372 129.27054 -8.6184349 -85.304482 -8.6188974 -85.971962 -0.70536369 -103.25089
9202750000 -1.8668982 129.12213 -8.6224537 -85.393623 -8.6192665 -85.985359 -0.70140994 -103.28716
9202812500 -1.8713818 129.20203 -8.6296301 -85.303589 -8.6208649 -86.057343 -0.70557243 -103.24855
9202875000 -1.8686723 129.1628 -8.6179485 -85.318596 -8.6173334 -86.001846 -0.71098566 -103.22935
9202937500 -1.8666383 129.17555 -8.6212006 -85.333252 -8.6136599 -85.913414 -0.70549691 -103.20558
9203000000 -1.8735092 129.17276 -8.6202679 -85.36676 -8.6100731 -86.000145 -0.70497912 -103.18356
9203062500 -1.8724319 129.11769 -8.6164532 -85.325935 -8.6190929 -85.989487 -0.7122221 -103.2583
9203125000 -1.8705126 129.0741 -8.6241875 -85.37355 -8.6137524 -86.049866 -0.7148571 -103.1878
9203187500 -1.8742881 129.12498 -8.626996 -85.321068 -8.6110878 -86.041267 -0.71341628 -103.1875
9203250000 -1.8780339 129.05995 -8.6177654 -85.356071 -8.6135254 -85.98777 -0.7084288 -103.16373
9203312500 -1.8778121 129.12115 -8.6164732 -85.352859 -8.6136255 -86.042725 -0.7089684 -103.12525
9203375000 -1.8735707 129.10506 -8.6228456 -85.299545 -8.6094675 -85.971016 -0.70406324 -103.07522
9203437500 -1.881716 129.08125 -8.6232214 -85.373444 -8.6164103 -86.001762 -0.71056128 -103.17387
9203500000 -1.8715813 129.02196 -8.6135044 -85.374123 -8.6121292 -86.041748 -0.70792925 -103.09557
9203562500 -1.8828956 129.06325 -8.6295795 -85.287193 -8.6275845 -86.028809 -0.72346056 -103.08439
9203625000 -1.8758121 129.01881 -8.6188784 -85.397812 -8.6064339 -86.007248 -0.71204323 -103.14529
9203687500 -1.8821563 129.01599 -8.6166239 -85.335922 -8.6125965 -85.956398 -0.71427858 -103.0154
9203750000 -1.878646 128.9687 -8.6154442 -85.371407 -8.6120739 -85.981033 -0.70334631 -102.96841
9203812500 -1.8832898 128.98169 -8.6115322 -85.339653 -8.6129074 -86.036301 -0.71648037 -102.96958
9203875000 -1.876503 128.95715 -8.6201868 -85.295906 -8.6155415 -85.993233 -0.73137712 -102.95608
9203937500 -1.8787026 128.91402 -8.5995722 -85.383095 -8.6068459 -86.013748 -0.71316183 -102.98229
9204000000 -1.8766761 128.94276 -8.6003761 -85.285965 -8.612092 -85.993309 -0.71029496 -102.91791
9204062500 -1.8707535 128.96503 -8.6081915 -85.286568 -8.6005802 -86.018951 -0.71759522 -102.91064
9204125000 -1.8827242 128.89778 -8.6122084 -85.285065 -8.6025 -85.970062 -0.71200913 -102.86778
9204187500 -1.8864651 128.85602 -8.6133776 -85.336304 -8.6063366 -86.049835 -0.72274965 -102.879
9204250000 -1.8800206 128.86928 -8.6011915 -85.302635 -8.6048594 -85.957642 -0.71606362 -102.86954
9204312500 -1.8771571 128.87305 -8.6055689 -85.298462 -8.6067562 -86.035614 -0.72056681 -102.79415
9204375000 -1.8676424 128.86414 -8.5981255 -85.322632 -8.5951757 -86.023064 -0.71517342 -102.87518
9204437500 -1.8885326 128.87621 -8.6078825 -85.330109 -8.5968676 -85.95063 -0.71011621 -102.77715
9204500000 -1.8906962 128.83896 -8.6079235 -85.347229 -8.604682 -85.998245 -0.71898288 -102.79368
9204562500 -1.8767844 128.79257 -8.6106491 -85.448349 -8.6027985 -86.07814 -0.70884019 -102.86172
9204625000 -1.8770927 128.78902 -8.6131124 -85.334137 -8.5900822 -86.077972 -0.71742672 -102.76532
9204687500 -1.8783813 128.80042 -8.6029558 -85.328575 -8.596899 -86.01162 -0.71975237 -102.70867
9204750000 -1.8868475 128.76393 -8.6004801 -85.284096 -8.6012878 -86.036377 -0.73341209 -102.72296
9204812500 -1.8772765 128.73466 -8.5983677 -85.305016 -8.5953274 -86.056953 -0.71814328 -102.69485
9204875000 -1.8805504 128.79451 -8.5935431 -85.318039 -8.6086721 -86.029236 -0.72985411 -102.73666
9204937500 -1.8808453 128.73595 -8.5946112 -85.329361 -8.5868826 -86.039574 -0.71443057 -102.68108
9205000000 -1.8752584 128.68854 -8.6007977 -85.319984 -8.5958357 -86.015083 -0.73394269 -102.68604
9205062500 -1.8862263 128.69217 -8.6052361 -85.377716 -8.5911818 -86.020325 -0.7300424 -102.64738
9205125000 -1.8787899 128.70186 -8.5893269 -85.299973 -8.5912209 -86.032349 -0.72300869 -102.60364
9205187500 -1.8854742 128.70598 -8.6010885 -85.317734 -8.5870218 -86.045357 -0.72476375 -102.62728
9205250000 -1.8793577 128.63509 -8.6016502 -85.374809 -8.5937586 -86.050728 -0.73678184 -102.69926
9205312500 -1.884302 128.70242 -8.5852613 -85.324799 -8.5918169 -85.94561 -0.72359866 -102.56003
9205375000 -1.8843396 128.6156 -8.5850801 -85.312241 -8.5864744 -86.010506 -0.71350771 -102.56776
9205437500 -1.8779246 128.64951 -8.5840912 -85.278145 -8.5873108 -86.039413 -0.72594231 -102.59806
9205500000 -1.8872035 128.55768 -8.5820436 -85.291344 -8.5854568 -86.074005 -0.71692646 -102.48068
9205562500 -1.8875118 128.56332 -8.584548 -85.376572 -8.5858421 -86.059929 -0.72867644 -102.49401
9205625000 -1.8934845 128.58539 -8.6014919 -85.378265 -8.5790758 -85.981705 -0.72335666 -102.44955
9205687500 -1.885781 128.62721 -8.5873098 -85.253609 -8.578186 -86.099167 -0.72520447 -102.44569
9205750000 -1.8846986 128.48833 -8.5876942 -85.383408 -8.5913782 -85.965904 -0.72379416 -102.42216
9205812500 -1.891961 128.51869 -8.5827913 -85.357208 -8.5916624 -86.018982 -0.73212546 -102.37366
9205875000 -1.8772191 128.51962 -8.5881767 -85.353371 -8.5894165 -86.014595 -0.73155349 -102.47214
9205937500 -1.8854996 128.50456 -8.5851412 -85.350807 -8.5704594 -85.951195 -0.72902763 -102.35779
9206000000 -1.8874378 128.50604 -8.5763531 -85.32209 -8.5866423 -86.014664 -0.72213489 -102.39254
9206062500 -1.8871334 128.53812 -8.5855026 -85.380196 -8.5806398 -86.006088 -0.73473364 -102.40195
9206125000 -1.8850722 128.46895 -8.5797329 -85.347565 -8.5754395 -85.964577 -0.73861915 -102.27567
9206187500 -1.8903483 128.49214 -8.5865059 -85.329712 -8.5745993 -85.993828 -0.72579038 -102.30984
9206250000 -1.8895411 128.39838 -8.5821905 -85.384659 -8.5877762 -85.949196 -0.73557442 -102.32796
9206312500 -1.8826945 128.3792 -8.5780602 -85.369278 -8.5834446 -86.069511 -0.72966057 -102.34396
9206375000 -1.8884251 128.43425 -8.5771704 -85.359428 -8.5716143 -85.999954 -0.73158377 -102.311
9206437500 -1.8889207 128.38799 -8.5863247 -85.354355 -8.5811634 -86.062347 -0.73708355 -102.3366
9206500000 -1.8916342 128.34636 -8.5796213 -85.426437 -8.5727968 -86.009674 -0.74025774 -102.29676
9206562500 -1.8975646 128.36589 -8.5941811 -85.387405 -8.5717754 -85.969002 -0.72828501 -102.26241
9206625000 -1.8906659 128.29134 -8.5729036 -85.371208 -8.5813427 -85.993011 -0.73599625 -102.23251
9206687500 -1.8969984 128.35269 -8.5812044 -85.358246 -8.5632343 -86.052856 -0.72343928 -102.27068
9206750000 -1.8871548 128.27855 -8.5816641 -85.38166 -8.5827417 -85.998642 -0.73491108 -102.22748
9206812500 -1.8801925 128.34166 -8.5696306 -85.299614 -8.5746479 -86.018501 -0.73236161 -102.19296
9206875000 -1.8905499 128.32628 -8.5791464 -85.332016 -8.5629396 -86.004097 -0.72829896 -102.11357
9206937500 -1.8896037 128.27182 -8.5689802 -85.331749 -8.5833416 -86.030785 -0.74797088 -102.14836
9207000000 -1.8962281 128.30516 -8.5789299 -85.38324 -8.5697432 -86.08918 -0.73400521 -102.17348
9207062500 -1.8935232 128.24326 -8.5640974 -85.374619 -8.5670271 -85.979546 -0.7322951 -102.01829
9207125000 -1.8960075 128.21507 -8.5597162 -85.375145 -8.5668802 -86.112785 -0.73168814 -102.0696
9207187500 -1.8954591 128.22429 -8.5691233 -85.468071 -8.5719328 -86.01606 -0.73310447 -102.14882
9207250000 -1.8954909 128.17383 -8.5696383 -85.411682 -8.5720215 -86.040878 -0.73767495 -102.11388
9207312500 -1.8832706 128.1711 -8.5696344 -85.382095 -8.5527782 -86.061584 -0.72917998 -102.06691
9207375000 -1.8983153 128.1602 -8.5724649 -85.363708 -8.5613794 -86.04805 -0.73783475 -101.99445
9207437500 -1.8891981 128.21315 -8.5713272 -85.339226 -8.576684 -85.988525 -0.73585343 -102.03977
9207500000 -1.8963907 128.21498 -8.5791559 -85.331505 -8.5577402 -86.01432 -0.7480365 -101.98061
9207562500 -1.8876182 128.19846 -8.5639477 -85.39286 -8.5576649 -85.995247 -0.73983562 -101.98782
9207625000 -1.8971471 128.08066 -8.570056 -85.359268 -8.5614738 -86.042084 -0.7419765 -101.95061
9207687500 -1.8997946 128.16821 -8.5664434 -85.346634 -8.5607338 -86.019798 -0.74039584 -101.95737
9207750000 -1.9018122 128.09552 -8.5620337 -85.304459 -8.5592451 -86.046967 -0.73196828 -101.97873
9207812500 -1.8940012 128.06642 -8.5681248 -85.35067 -8.5588551 -86.031372 -0.74084717 -101.91676
9207875000 -1.8888419 128.08646 -8.564045 -85.351715 -8.563386 -86.088326 -0.74503356 -101.90508
9207937500 -1.8958371 127.99776 -8.5652952 -85.366173 -8.5510511 -86.033379 -0.74517703 -101.90823
9208000000 -1.907004 128.0385 -8.5604353 -85.409996 -8.5536432 -86.017006 -0.73530155 -101.80929
9208062500 -1.9009486 128.02077 -8.5593214 -85.346413 -8.5527821 -86.069756 -0.73862863 -101.8347
9208125000 -1.9008099 127.99488 -8.5591888 -85.417694 -8.5543184 -86.027603 -0.73758292 -101.80087
9208187500 -1.8926319 128.01712 -8.5600777 -85.377831 -8.5570889 -86.041565 -0.7395004 -101.82937
9208250000 -1.9045233 127.99153 -8.5710859 -85.34935 -8.5496836 -86.027405 -0.73985469 -101.75874
9208312500 -1.8978943 127.97492 -8.5629139 -85.396339 -8.5466766 -86.087013 -0.7465415 -101.79584
9208375000 -1.9003317 127.97327 -8.5451927 -85.370819 -8.5527849 -86.077484 -0.74219251 -101.75433
9208437500 -1.8999932 127.8982 -8.5513515 -85.413261 -8.5542593 -86.047874 -0.74864203 -101.76465
9208500000 -1.9030694 127.92004 -8.5562353 -85.380775 -8.5486231 -86.110336 -0.74334747 -101.72867
9208562500 -1.9055182 127.93558 -8.5545292 -85.39505 -8.54877 -85.942917 -0.7448647 -101.67863
9208625000 -1.894803 127.8708 -8.5420647 -85.389267 -8.5464964 -86.014374 -0.75384468 -101.67572
9208687500 -1.8890438 127.85835 -8.5436182 -85.382423 -8.5608482 -86.087471 -0.74609709 -101.68266
9208750000 -1.8986324 127.90324 -8.5603619 -85.386284 -8.5561781 -86.101151 -0.75063956 -101.67746
9208812500 -1.9005862 127.91166 -8.5526943 -85.407944 -8.5567379 -86.024345 -0.74865365 -101.61552
9208875000 -1.8977103 127.84831 -8.5498962 -85.431984 -8.5456562 -86.038017 -0.74206883 -101.60613
9208937500 -1.9049218 127.85136 -8.5415678 -85.409302 -8.5435162 -86.050621 -0.7454657 -101.59803
9209000000 -1.890986 127.81722 -8.5465508 -85.413849 -8.541544 -86.001556 -0.74696577 -101.5946
9209062500 -1.9004614 127.80215 -8.5500097 -85.426491 -8.5499706 -86.061661 -0.74997586 -101.56447
9209125000 -1.9078412 127.77813 -8.5536852 -85.360321 -8.5413055 -86.005157 -0.74145645 -101.4834
9209187500 -1.9054936 127.82199 -8.5404444 -85.348572 -8.5480747 -86.017197 -0.75006682 -101.57651
9209250000 -1.8988342 127.73116 -8.556428 -85.389565 -8.5453558 -86.114311 -0.75912982 -101.46268
9209312500 -1.8968803 127.66155 -8.5568199 -85.426483 -8.543663 -86.084343 -0.76201659 -101.5608
9209375000 -1.8966968 127.75529 -8.5458403 -85.319557 -8.541708 -86.021423 -0.75883836 -101.51808
9209437500 -1.9106811 127.68483 -8.5508156 -85.388908 -8.5475435 -86.07576 -0.75262862 -101.37012
9209500000 -1.9024869 127.68909 -8.5301733 -85.412361 -8.5320606 -86.021454 -0.74736089 -101.3841
9209562500 -1.9121358 127.72209 -8.5524673 -85.318687 -8.5469856 -86.045319 -0.76124501 -101.37667
9209625000 -1.9050559 127.64674 -8.543911 -85.435677 -8.5352592 -86.055305 -0.75223988 -101.3756
9209687500 -1.9062384 127.61452 -8.5374527 -85.395355 -8.5359869 -85.993851 -0.75293159 -101.35222
9209750000 -1.9087591 127.60478 -8.5383444 -85.508308 -8.5457487 -86.027077 -0.7468524 -101.39558
9209812500 -1.9009914 127.59499 -8.5369368 -85.389267 -8.5364189 -86.039558 -0.74581045 -101.31757
9209875000 -1.9078106 127.62183 -8.5386219 -85.403503 -8.53337 -86.058701 -0.75913125 -101.36514
9209937500 -1.906495 127.70427 -8.5542927 -85.376846 -8.5355139 -86.095398 -0.75090563 -101.36888
9210000000 -1.8986721 127.61317 -8.5339289 -85.375237 -8.5265617 -86.021843 -0.76248503 -101.28271
9210062500 -1.9118123 127.61925 -8.5364761 -85.389854 -8.5270166 -86.029228 -0.75023413 -101.25571
9210125000 -1.9045962 127.5357 -8.5376806 -85.416069 -8.5291843 -86.024269 -0.75424594 -101.27558
9210187500 -1.9095573 127.58524 -8.5332222 -85.360291 -8.5285635 -86.01358 -0.75555789 -101.23211
9210250000 -1.9105045 127.59165 -8.5287495 -85.391853 -8.5241222 -86.057434 -0.75936329 -101.26341
9210312500 -1.9138978 127.55327 -8.5336323 -85.319656 -8.5407286 -86.091759 -0.76343197 -101.26215
9210375000 -1.9020935 127.57217 -8.529006 -85.402725 -8.5293455 -86.033669 -0.76722181 -101.14745
9210437500 -1.8967433 127.48914 -8.5301285 -85.391365 -8.5262604 -86.090569 -0.75468928 -101.2564
9210500000 -1.9035937 127.50503 -8.5204506 -85.444153 -8.5280275 -86.129326 -0.75489503 -101.1953
9210562500 -1.9160383 127.47327 -8.5333071 -85.381187 -8.5344009 -86.108765 -0.7537452 -101.13374
9210625000 -1.9028484 127.471 -8.5312901 -85.356743 -8.528367 -85.986076 -0.75746459 -101.12103
9210687500 -1.9029012 127.46953 -8.5255928 -85.397636 -8.5282917 -86.057205 -0.76236695 -101.10529
9210750000 -1.914499 127.44308 -8.5301542 -85.387444 -8.5182171 -86.062706 -0.7591626 -101.12492
9210812500 -1.909642 127.39871 -8.5192108 -85.455467 -8.5232515 -86.083473 -0.76805043 -101.10868
9210875000 -1.9122118 127.43744 -8.535059 -85.404236 -8.5171499 -86.101273 -0.75852388 -101.15622
9210937500 -1.9069036 127.41956 -8.5182352 -85.386642 -8.5267239 -86.003448 -0.77137858 -101.07259
9211000000 -1.9094985 127.41222 -8.525075 -85.35791 -8.5289469 -85.99865 -0.75313044 -101.02199
9211062500 -1.9039522 127.40717 -8.5186224 -85.387543 -8.5225725 -86.076691 -0.76778382 -101.03715
9211125000 -1.9128747 127.33331 -8.5285387 -85.41803 -8.5089207 -86.015228 -0.75649059 -100.95211
9211187500 -1.9156331 127.3503 -8.5197897 -85.402466 -8.5160599 -86.048805 -0.76730216 -100.95881
9211250000 -1.9149474 127.38947 -8.5238237 -85.417557 -8.5199089 -86.014366 -0.75789994 -100.9957
9211312500 -1.910455 127.33772 -8.5193233 -85.377533 -8.5132713 -85.959465 -0.7660777 -100.88729
9211375000 -1.9089366 127.25259 -8.5213041 -85.397652 -8.5174332 -86.068108 -0.76776779 -100.8946
9211437500 -1.9103862 127.26582 -8.5060091 -85.347229 -8.5116453 -86.088295 -0.76620543 -100.90062
9211500000 -1.9132974 127.29044 -8.5301905 -85.449379 -8.5188742 -86.047447 -0.77249736 -100.959
9211562500 -1.9190282 127.24486 -8.52456 -85.439423 -8.5142241 -86.05349 -0.77380919 -100.87199
9211625000 -1.9118429 127.21799 -8.5200319 -85.419998 -8.5054827 -86.087456 -0.76163745 -100.88876
9211687500 -1.9145199 127.26898 -8.5194407 -85.378746 -8.5129023 -86.043221 -0.76933372 -100.81722
9211750000 -1.9127825 127.19769 -8.5107613 -85.363922 -8.5144033 -86.047226 -0.7637369 -100.76589
9211812500 -1.9125916 127.20818 -8.5227633 -85.412849 -8.5116882 -86.018379 -0.7726981 -100.79855
9211875000 -1.9235224 127.14072 -8.5075665 -85.495094 -8.5072956 -86.024063 -0.76296848 -100.7787
9211937500 -1.9205878 127.18291 -8.5153065 -85.434967 -8.5069132 -86.036026 -0.77665526 -100.77756
9212000000 -1.9168324 127.13832 -8.5130653 -85.405266 -8.5015001 -86.086823 -0.76717007 -100.74746
9212062500 -1.9151034 127.11844 -8.5044947 -85.407623 -8.5122499 -86.052727 -0.77829725 -100.75327
9212125000 -1.9173771 127.0523 -8.5154829 -85.471054 -8.5149746 -86.075768 -0.77027744 -100.72223
9212187500 -1.9122156 127.10474 -8.510026 -85.398521 -8.4940195 -86.088112 -0.77855462 -100.73402
9212250000 -1.9141563 127.07197 -8.5024424 -85.424805 -8.502984 -86.028366 -0.76346809 -100.67031
9212312500 -1.9165123 127.09112 -8.5130453 -85.392662 -8.4967661 -86.036072 -0.76852155 -100.69705
