!Agilent Technologies,N5242A,MY51221714,A.09.90.19
!Agilent N5242A: A.09.90.19
!Date: Tuesday, March 26, 2024 15:54:16
!Correction: S11(Full 2 Port(1,2)) 
!S21(Full 2 Port(1,2)) 
!S12(Full 2 Port(1,2)) 
!S22(Full 2 Port(1,2)) 
!S2P File: Measurements: S11, S21, S12, S22:
# Hz S  dB   R 50
9200000000 -1.0291176 134.12442 -9.1905518 -73.856522 -9.1681137 -74.549644 -0.035162169 -101.38042
9200062500 -1.0265127 134.05194 -9.1758089 -73.897797 -9.1704035 -74.494881 -0.023930551 -101.332
9200125000 -1.0313758 134.07542 -9.176795 -73.834076 -9.1779451 -74.5196 -0.036992799 -101.32825
9200187500 -1.0285332 134.07649 -9.1829758 -73.772461 -9.1643448 -74.564278 -0.013798147 -101.33459
9200250000 -1.0247067 134.05798 -9.1782846 -73.882401 -9.1718245 -74.532089 -0.026329454 -101.30827
9200312500 -1.0302212 134.05815 -9.1848383 -73.844055 -9.1715565 -74.475143 -0.030977296 -101.26882
9200375000 -1.0279106 134.04602 -9.1787214 -73.797783 -9.1725492 -74.672997 -0.021726724 -101.27339
9200437500 -1.0224365 134.02081 -9.1836176 -73.887848 -9.1702423 -74.535858 -0.029103301 -101.26677
9200500000 -1.0273892 134.01122 -9.1756878 -73.877892 -9.1751575 -74.49762 -0.040255018 -101.22101
9200562500 -1.0214039 133.98889 -9.1664209 -73.820107 -9.1762924 -74.533897 -0.028103631 -101.27111
9200625000 -1.0270435 133.98418 -9.1762486 -73.8293 -9.1732597 -74.495689 -0.034235869 -101.19233
9200687500 -1.0218859 133.96701 -9.1791 -73.724838 -9.173317 -74.517181 -0.027995979 -101.16962
9200750000 -1.0249991 133.90807 -9.1650982 -73.895203 -9.17169 -74.442612 -0.029371647 -101.16143
9200812500 -1.0392321 133.89412 -9.1781235 -73.839752 -9.169735 -74.516853 -0.047182366 -101.1777
9200875000 -1.0213923 134.01382 -9.1734428 -73.783142 -9.174037 -74.458328 -0.041815147 -101.16531
9200937500 -1.0262438 133.91589 -9.1736498 -73.798866 -9.1713743 -74.504509 -0.024054503 -101.08009
9201000000 -1.020824 133.92255 -9.1695614 -73.847015 -9.1667871 -74.481712 -0.026572147 -101.09904
9201062500 -1.0244355 133.88086 -9.1631603 -73.737556 -9.1584816 -74.50071 -0.024748782 -101.09804
9201125000 -1.0257157 133.84152 -9.1684875 -73.833138 -9.1724062 -74.516029 -0.038284086 -101.05563
9201187500 -1.0271695 133.79753 -9.1659193 -73.81691 -9.1657753 -74.471718 -0.042687748 -100.92515
9201250000 -1.0240399 133.8297 -9.1617298 -73.823853 -9.1682358 -74.506706 -0.036267959 -101.03312
9201312500 -1.0323164 133.83095 -9.1714716 -73.795776 -9.1627102 -74.539177 -0.029569132 -101.04613
9201375000 -1.034011 133.82611 -9.1753073 -73.750366 -9.1646996 -74.448128 -0.035331354 -100.96436
9201437500 -1.0224326 133.80586 -9.1671228 -73.766235 -9.1642962 -74.441757 -0.036237203 -101.02875
9201500000 -1.0315255 133.81978 -9.1692753 -73.789268 -9.1692467 -74.459633 -0.036634307 -100.97292
9201562500 -1.0302289 133.77879 -9.1728058 -73.80143 -9.1680269 -74.511589 -0.045034628 -100.98566
9201625000 -1.0274717 133.78741 -9.1643639 -73.765953 -9.1626396 -74.427872 -0.049564555 -100.85101
9201687500 -1.0353264 133.72514 -9.161335 -73.732124 -9.1602516 -74.470924 -0.036762275 -100.8512
9201750000 -1.0273354 133.72693 -9.1741314 -73.823433 -9.1432896 -74.459221 -0.022748033 -100.85503
9201812500 -1.0283786 133.76529 -9.1691799 -73.745766 -9.1614504 -74.40741 -0.042549137 -100.90696
9201875000 -1.0270663 133.70869 -9.1517181 -73.812981 -9.1580505 -74.473534 -0.026760908 -100.83434
9201937500 -1.0365931 133.63326 -9.1654568 -73.780907 -9.1604128 -74.524971 -0.035026774 -100.83084
9202000000 -1.0325612 133.69208 -9.1641388 -73.70974 -9.1557922 -74.4897 -0.034181282 -100.8048
9202062500 -1.0334706 133.68735 -9.1548023 -73.755089 -9.1479073 -74.479233 -0.030021181 -100.77282
9202125000 -1.0339088 133.71729 -9.1769085 -73.768303 -9.164114 -74.423241 -0.048664138 -100.85387
9202187500 -1.0268177 133.64478 -9.1594639 -73.812599 -9.1611242 -74.411858 -0.035930999 -100.69257
9202250000 -1.0341153 133.6264 -9.1682272 -73.749687 -9.1515646 -74.369827 -0.047956649 -100.71259
9202312500 -1.0268918 133.6349 -9.1657047 -73.696976 -9.1461897 -74.452522 -0.033432364 -100.75111
9202375000 -1.0329322 133.58797 -9.1684093 -73.750755 -9.1459742 -74.469643 -0.038062375 -100.64005
9202437500 -1.0260097 133.6667 -9.1497965 -73.754868 -9.1547174 -74.442673 -0.032460269 -100.7411
9202500000 -1.0376531 133.58835 -9.1597395 -73.767014 -9.1653681 -74.42556 -0.040702093 -100.71421
9202562500 -1.0222788 133.53322 -9.1529665 -73.748077 -9.1537638 -74.392258 -0.049780928 -100.65527
9202625000 -1.0301428 133.61841 -9.1550932 -73.746025 -9.1454983 -74.397881 -0.037830699 -100.63988
9202687500 -1.0299712 133.58066 -9.1516209 -73.736732 -9.1416349 -74.384369 -0.033768751 -100.57235
9202750000 -1.0183706 133.47404 -9.1443577 -73.725014 -9.144989 -74.446854 -0.034459993 -100.6285
9202812500 -1.0260025 133.49576 -9.1526766 -73.757462 -9.1372919 -74.488823 -0.035948079 -100.60384
9202875000 -1.02491 133.48813 -9.1459417 -73.721024 -9.1507702 -74.431648 -0.04211235 -100.54939
9202937500 -1.0225084 133.48155 -9.1436129 -73.818436 -9.1419201 -74.473763 -0.037560504 -100.5939
9203000000 -1.0326813 133.51094 -9.1607542 -73.774384 -9.1432657 -74.48291 -0.037466202 -100.51666
9203062500 -1.0283899 133.43349 -9.1486702 -73.733322 -9.1474075 -74.396973 -0.046094246 -100.55102
9203125000 -1.029394 133.42915 -9.1548882 -73.768166 -9.1404381 -74.444305 -0.037159435 -100.51511
9203187500 -1.0255432 133.44392 -9.1605597 -73.735634 -9.139452 -74.542419 -0.044086322 -100.55372
9203250000 -1.0278221 133.39076 -9.1459398 -73.772835 -9.1481056 -74.443993 -0.039377756 -100.50199
9203312500 -1.0390573 133.43568 -9.1553078 -73.782249 -9.1329708 -74.501701 -0.027564162 -100.47817
9203375000 -1.0277444 133.40854 -9.1491756 -73.764282 -9.1352835 -74.39016 -0.036505044 -100.42966
9203437500 -1.0351983 133.35579 -9.1605282 -73.800957 -9.1406841 -74.404205 -0.041125808 -100.45084
9203500000 -1.0310503 133.3317 -9.1417027 -73.776344 -9.1407795 -74.418419 -0.03393184 -100.40512
9203562500 -1.0364081 133.36565 -9.156455 -73.724525 -9.1520872 -74.457527 -0.051480144 -100.4654
9203625000 -1.0279422 133.33618 -9.142107 -73.750336 -9.1377277 -74.410606 -0.044014264 -100.4468
9203687500 -1.0322887 133.30092 -9.1522169 -73.796143 -9.1470928 -74.404312 -0.049107179 -100.36746
9203750000 -1.0351363 133.28439 -9.1516876 -73.744011 -9.132822 -74.402336 -0.025495848 -100.3084
9203812500 -1.0330707 133.32455 -9.1355534 -73.744751 -9.1438761 -74.441681 -0.046702169 -100.28725
9203875000 -1.026543 133.31604 -9.1469336 -73.665482 -9.1436892 -74.406586 -0.052516885 -100.31599
9203937500 -1.0382406 133.30994 -9.1509504 -73.689865 -9.1256695 -74.380272 -0.03960599 -100.32099
9204000000 -1.0285606 133.25574 -9.1373768 -73.706932 -9.1384134 -74.371063 -0.042958483 -100.21761
9204062500 -1.0255579 133.24016 -9.135355 -73.718437 -9.1335545 -74.401314 -0.047673032 -100.24619
9204125000 -1.0325102 133.271 -9.1387815 -73.662987 -9.1340485 -74.41011 -0.043103758 -100.24081
9204187500 -1.0349468 133.16689 -9.1474524 -73.686462 -9.1458263 -74.381531 -0.055480935 -100.16847
9204250000 -1.0344278 133.2523 -9.1365891 -73.690582 -9.1392403 -74.420654 -0.041526232 -100.23226
9204312500 -1.0302587 133.21365 -9.1391239 -73.74926 -9.1291571 -74.401947 -0.04483157 -100.11258
9204375000 -1.0244534 133.162 -9.142395 -73.714577 -9.1336555 -74.420509 -0.047133669 -100.2202
9204437500 -1.0384953 133.21623 -9.1383123 -73.733658 -9.1284323 -74.331039 -0.040288698 -100.16824
9204500000 -1.0378308 133.19402 -9.1386738 -73.665581 -9.148509 -74.397865 -0.048188075 -100.18883
9204562500 -1.0319302 133.10904 -9.1380672 -73.794037 -9.1351271 -74.429672 -0.041508812 -100.20872
9204625000 -1.0242651 133.12102 -9.1329212 -73.719398 -9.1281176 -74.422035 -0.044437289 -100.06437
9204687500 -1.0305594 133.099 -9.1357107 -73.755997 -9.1375237 -74.412567 -0.050189126 -100.05838
9204750000 -1.0389544 133.07089 -9.1376438 -73.724594 -9.1300287 -74.387428 -0.056020986 -100.09698
9204812500 -1.0228128 133.06454 -9.1340141 -73.63562 -9.1238117 -74.400032 -0.034757771 -100.0677
9204875000 -1.0307637 133.12251 -9.1304731 -73.728676 -9.1487465 -74.395065 -0.057324473 -100.11358
9204937500 -1.0301732 133.07014 -9.1298761 -73.7416 -9.1207018 -74.420006 -0.036517058 -100.0741
9205000000 -1.0224628 133.01181 -9.1288519 -73.664848 -9.1235638 -74.320465 -0.058438491 -100.00615
9205062500 -1.0301236 133.01245 -9.1386232 -73.776421 -9.1159153 -74.389603 -0.051452033 -99.97805
9205125000 -1.038251 133.01443 -9.1440182 -73.670654 -9.1284218 -74.343643 -0.053609885 -99.894524
9205187500 -1.0318774 133.01105 -9.1373358 -73.644302 -9.1298656 -74.429611 -0.054388516 -99.989716
9205250000 -1.028165 132.99812 -9.1325808 -73.657349 -9.1296358 -74.358177 -0.060486671 -99.964989
9205312500 -1.0355375 133.02463 -9.1375189 -73.684357 -9.1262636 -74.332909 -0.051947322 -99.942719
9205375000 -1.0332042 132.92004 -9.1273317 -73.787155 -9.1383982 -74.351227 -0.049429953 -99.926384
9205437500 -1.0241092 132.96066 -9.1168604 -73.645966 -9.1207266 -74.375771 -0.043458719 -99.928108
9205500000 -1.0358503 132.8784 -9.1235876 -73.654213 -9.1227112 -74.431946 -0.045908384 -99.764359
9205562500 -1.0380121 132.92647 -9.1263075 -73.677994 -9.1201096 -74.390221 -0.040577676 -99.824448
9205625000 -1.0434009 132.89639 -9.1361971 -73.637032 -9.1126089 -74.372566 -0.044087663 -99.780281
9205687500 -1.0285717 132.96167 -9.1213942 -73.636543 -9.1169615 -74.390198 -0.052040651 -99.784874
9205750000 -1.036587 132.88527 -9.1314058 -73.689758 -9.1242104 -74.387711 -0.044428177 -99.756226
9205812500 -1.034562 132.85353 -9.114131 -73.670944 -9.1276627 -74.362007 -0.050290991 -99.725151
9205875000 -1.0258631 132.8849 -9.1354046 -73.654388 -9.1303988 -74.350212 -0.050300531 -99.804512
9205937500 -1.0304008 132.83807 -9.1225376 -73.7005 -9.1107616 -74.294243 -0.053194009 -99.705803
9206000000 -1.0357778 132.83055 -9.1098719 -73.64003 -9.1224604 -74.324165 -0.046389304 -99.719414
9206062500 -1.0296165 132.82359 -9.116188 -73.683899 -9.1099024 -74.366066 -0.053179406 -99.707527
9206125000 -1.0315953 132.79665 -9.1199341 -73.686699 -9.1099234 -74.32959 -0.048907597 -99.660355
9206187500 -1.0349121 132.80678 -9.1184654 -73.70182 -9.1028366 -74.343147 -0.037340235 -99.661949
9206250000 -1.0344871 132.69737 -9.1238871 -73.732162 -9.1195421 -74.326828 -0.05240988 -99.678436
9206312500 -1.0298971 132.72629 -9.1165066 -73.655884 -9.1204977 -74.453087 -0.046550728 -99.692146
9206375000 -1.0361749 132.74574 -9.1144295 -73.708275 -9.1053057 -74.318794 -0.043326378 -99.679642
9206437500 -1.0349813 132.71471 -9.1250477 -73.675789 -9.1178207 -74.413269 -0.055396155 -99.661865
9206500000 -1.0396863 132.72536 -9.1269884 -73.624519 -9.1087494 -74.276466 -0.058194652 -99.571495
9206562500 -1.0348681 132.66824 -9.1251106 -73.783394 -9.1134663 -74.271698 -0.049236953 -99.610046
9206625000 -1.0380461 132.653 -9.1130648 -73.677078 -9.1120272 -74.376625 -0.053114124 -99.616226
9206687500 -1.0385315 132.67862 -9.1246624 -73.696724 -9.102973 -74.320343 -0.044351559 -99.572906
9206750000 -1.0327569 132.673 -9.111125 -73.66375 -9.1156569 -74.339882 -0.057209563 -99.55732
9206812500 -1.0300897 132.6537 -9.1162338 -73.609917 -9.1124258 -74.355003 -0.047975 -99.568695
9206875000 -1.0313671 132.62854 -9.1157036 -73.676003 -9.1002703 -74.292488 -0.050945789 -99.420807
9206937500 -1.03385 132.61 -9.1082973 -73.639938 -9.1134272 -74.323601 -0.049615577 -99.438484
9207000000 -1.0300996 132.61392 -9.1133251 -73.734978 -9.1107092 -74.339134 -0.051089127 -99.473351
9207062500 -1.0332867 132.60538 -9.1034307 -73.587524 -9.1008749 -74.259979 -0.053123951 -99.341324
9207125000 -1.0378687 132.55849 -9.1008081 -73.722496 -9.1074829 -74.325226 -0.052815963 -99.392166
9207187500 -1.0363122 132.51965 -9.1118116 -73.722198 -9.104845 -74.354141 -0.057501473 -99.456718
9207250000 -1.0302513 132.50883 -9.1078186 -73.672081 -9.105484 -74.32531 -0.048683856 -99.485344
9207312500 -1.0272747 132.53134 -9.1089201 -73.700859 -9.0979691 -74.279495 -0.046071913 -99.375114
9207375000 -1.0414066 132.51837 -9.1114206 -73.642082 -9.1117296 -74.329163 -0.057744384 -99.342995
9207437500 -1.0281646 132.56358 -9.1014585 -73.627296 -9.111721 -74.242241 -0.051979285 -99.341675
9207500000 -1.0365109 132.52332 -9.1184902 -73.639648 -9.0862484 -74.279579 -0.058152433 -99.283585
9207562500 -1.0282236 132.51297 -9.1084585 -73.683632 -9.0942211 -74.293633 -0.055589195 -99.312904
9207625000 -1.033011 132.4334 -9.101963 -73.610115 -9.0989389 -74.28521 -0.046709836 -99.179115
9207687500 -1.0374211 132.45454 -9.0981092 -73.667923 -9.0951452 -74.35125 -0.046678811 -99.255272
9207750000 -1.0362889 132.45729 -9.1049118 -73.604118 -9.0991812 -74.294769 -0.053857721 -99.234978
9207812500 -1.0356991 132.47147 -9.1008434 -73.670288 -9.1086636 -74.239822 -0.066718273 -99.199432
9207875000 -1.0318033 132.39211 -9.1132774 -73.601067 -9.0992393 -74.285988 -0.057048004 -99.174599
9207937500 -1.035964 132.36424 -9.1085014 -73.60582 -9.1037827 -74.316093 -0.061384909 -99.228813
9208000000 -1.0396043 132.38957 -9.100852 -73.644913 -9.1063442 -74.291702 -0.056279168 -99.185745
9208062500 -1.0390949 132.40213 -9.1063509 -73.547318 -9.1008444 -74.347931 -0.060651027 -99.207222
9208125000 -1.0402435 132.34456 -9.1110821 -73.638863 -9.0925207 -74.321838 -0.050709032 -99.125381
9208187500 -1.0353287 132.36629 -9.1014395 -73.621513 -9.0990486 -74.262527 -0.061645266 -99.13269
9208250000 -1.040434 132.31488 -9.1034174 -73.539848 -9.0957251 -74.330849 -0.057840995 -99.112617
9208312500 -1.0330576 132.34425 -9.1062469 -73.557945 -9.0886555 -74.285347 -0.063243791 -99.088921
9208375000 -1.0352303 132.32156 -9.0939131 -73.599968 -9.0875263 -74.224968 -0.055484165 -99.012032
9208437500 -1.0400118 132.22328 -9.0963173 -73.722839 -9.0947924 -74.242073 -0.070330918 -99.071083
9208500000 -1.0399886 132.26712 -9.1030521 -73.615555 -9.0976524 -74.288101 -0.054165706 -99.025681
9208562500 -1.037143 132.2719 -9.0951891 -73.608711 -9.0990667 -74.24955 -0.057908293 -99.029938
9208625000 -1.0350875 132.23857 -9.0855312 -73.572533 -9.0865898 -74.213356 -0.061289538 -99.004288
9208687500 -1.0223961 132.21347 -9.0794973 -73.621414 -9.0926018 -74.283951 -0.057205305 -98.958855
9208750000 -1.0318816 132.24129 -9.0944719 -73.590599 -9.0902691 -74.220924 -0.062465161 -98.940155
9208812500 -1.0388566 132.26639 -9.0920639 -73.58033 -9.0880728 -74.234344 -0.054754194 -98.918526
9208875000 -1.0384982 132.17323 -9.096734 -73.643616 -9.0970135 -74.277832 -0.060523383 -98.947144
9208937500 -1.0411208 132.21126 -9.09268 -73.638603 -9.0843105 -74.212982 -0.057765249 -98.881226
9209000000 -1.0325608 132.18681 -9.0942373 -73.570183 -9.0840721 -74.206085 -0.063257232 -98.904434
9209062500 -1.0415907 132.14561 -9.0989761 -73.539131 -9.0821648 -74.262733 -0.056383438 -98.841858
9209125000 -1.0409576 132.14462 -9.0899982 -73.670486 -9.0800877 -74.292625 -0.051728122 -98.85244
9209187500 -1.0390514 132.16753 -9.0907154 -73.590874 -9.0934763 -74.196587 -0.067688257 -98.837624
9209250000 -1.0342358 132.09824 -9.0874929 -73.560158 -9.0819206 -74.270042 -0.059957717 -98.752563
9209312500 -1.0345054 132.03995 -9.0854435 -73.606277 -9.081542 -74.250801 -0.063782141 -98.829094
9209375000 -1.0307026 132.10136 -9.0871639 -73.577278 -9.0917826 -74.225906 -0.065671757 -98.790474
9209437500 -1.039024 132.05995 -9.0843649 -73.601059 -9.085927 -74.301987 -0.056590118 -98.758461
9209500000 -1.0349712 132.07861 -9.0882168 -73.572525 -9.0771408 -74.248672 -0.054533686 -98.697777
9209562500 -1.0458094 132.0538 -9.0962534 -73.567886 -9.0873938 -74.182533 -0.067137994 -98.677734
9209625000 -1.0412003 132.01552 -9.0841494 -73.634544 -9.0859127 -74.210884 -0.06077769 -98.716568
9209687500 -1.040624 131.97159 -9.0825224 -73.601501 -9.0805063 -74.225616 -0.067625932 -98.717621
9209750000 -1.0340939 131.98668 -9.0759563 -73.687042 -9.0816231 -74.276299 -0.051068213 -98.707535
9209812500 -1.0372322 131.98712 -9.0946922 -73.457451 -9.0746803 -74.218384 -0.064261079 -98.611168
9209875000 -1.0353587 131.9976 -9.0796814 -73.572937 -9.0728588 -74.235382 -0.064327449 -98.657921
9209937500 -1.0435243 132.04726 -9.0891914 -73.550751 -9.0786839 -74.226135 -0.062709622 -98.689888
9210000000 -1.0289201 131.9763 -9.0830889 -73.484978 -9.0765305 -74.22731 -0.074028812 -98.622398
9210062500 -1.0440577 131.96284 -9.0894442 -73.53669 -9.0794048 -74.231812 -0.075709827 -98.613441
9210125000 -1.0372699 131.92827 -9.0889044 -73.621078 -9.069171 -74.172371 -0.068368748 -98.552162
9210187500 -1.0340886 131.91692 -9.0756998 -73.555031 -9.0707111 -74.20076 -0.060581058 -98.538338
9210250000 -1.0385567 131.92136 -9.0721035 -73.575523 -9.068284 -74.150024 -0.061377104 -98.56395
9210312500 -1.0466998 131.8895 -9.0862675 -73.489342 -9.0792484 -74.258896 -0.064919151 -98.57119
9210375000 -1.0346467 131.92435 -9.0736656 -73.528381 -9.0674582 -74.238457 -0.063338682 -98.502396
9210437500 -1.0324478 131.85188 -9.0806255 -73.560066 -9.0799599 -74.26741 -0.062424414 -98.54924
9210500000 -1.0295137 131.85913 -9.0688934 -73.548935 -9.0659018 -74.220451 -0.058704633 -98.439598
9210562500 -1.043134 131.83252 -9.0850677 -73.524704 -9.0748749 -74.196114 -0.068468481 -98.405907
9210625000 -1.0347999 131.80214 -9.0865288 -73.570015 -9.0719681 -74.138466 -0.069715917 -98.475006
9210687500 -1.034604 131.85997 -9.0787535 -73.583244 -9.081356 -74.252777 -0.072089255 -98.434647
9210750000 -1.0420059 131.77287 -9.0744972 -73.582069 -9.0679941 -74.210045 -0.065541007 -98.42778
9210812500 -1.0372514 131.76891 -9.0789862 -73.571068 -9.0636778 -74.157005 -0.07195323 -98.369995
9210875000 -1.0365396 131.77631 -9.0815077 -73.54686 -9.0683823 -74.116188 -0.075059116 -98.379662
9210937500 -1.041288 131.80005 -9.0668535 -73.575806 -9.0725756 -74.176033 -0.074288704 -98.373337
9211000000 -1.0373796 131.7861 -9.0717793 -73.490044 -9.0674019 -74.206902 -0.059386827 -98.372719
9211062500 -1.0371863 131.74646 -9.0812883 -73.497322 -9.0614815 -74.143517 -0.072140634 -98.33564
9211125000 -1.0342175 131.70163 -9.072917 -73.543465 -9.0621252 -74.212364 -0.061196603 -98.297234
9211187500 -1.0414296 131.70378 -9.0752516 -73.491463 -9.0663176 -74.197166 -0.072040774 -98.292
9211250000 -1.0388999 131.75 -9.0715771 -73.543373 -9.0626364 -74.156212 -0.057976708 -98.261139
9211312500 -1.0363402 131.70721 -9.0701704 -73.520493 -9.0646315 -74.169151 -0.070773706 -98.280334
9211375000 -1.0349556 131.58246 -9.0693951 -73.560745 -9.0627937 -74.242302 -0.069762781 -98.247925
9211437500 -1.033664 131.66838 -9.0542889 -73.490768 -9.0511427 -74.229881 -0.065346345 -98.246124
9211500000 -1.0441153 131.64081 -9.0814095 -73.488358 -9.0656385 -74.239594 -0.072101623 -98.268433
9211562500 -1.0470629 131.68268 -9.0712624 -73.54184 -9.0577679 -74.191666 -0.076226227 -98.211395
9211625000 -1.0377703 131.62665 -9.0601177 -73.550903 -9.0510521 -74.245583 -0.061981406 -98.232117
9211687500 -1.0468371 131.64915 -9.0707483 -73.48819 -9.0649128 -74.203163 -0.072559394 -98.126183
9211750000 -1.0390568 131.57187 -9.0591869 -73.460075 -9.0624008 -74.150764 -0.070990011 -98.09742
9211812500 -1.0392438 131.5793 -9.0822906 -73.566086 -9.0633392 -74.190529 -0.080314457 -98.128616
9211875000 -1.042859 131.5235 -9.0683794 -73.544838 -9.0577087 -74.12146 -0.067485362 -98.036911
9211937500 -1.0413936 131.57408 -9.0662241 -73.501328 -9.0553522 -74.188194 -0.083168991 -98.093773
9212000000 -1.0388589 131.48489 -9.0601215 -73.542229 -9.0533199 -74.145424 -0.073857836 -98.016113
9212062500 -1.0389041 131.49608 -9.061882 -73.478775 -9.0583096 -74.140236 -0.078899629 -98.039459
9212125000 -1.0360293 131.45607 -9.0586967 -73.554443 -9.0646744 -74.201843 -0.067317143 -98.032852
9212187500 -1.03125 131.46426 -9.0484238 -73.464859 -9.0459099 -74.139427 -0.079331815 -97.95269
