!Agilent Technologies,N5242A,MY51221714,A.09.90.19
!Agilent N5242A: A.09.90.19
!Date: Tuesday, March 26, 2024 15:55:15
!Correction: S11(Full 2 Port(1,2)) 
!S21(Full 2 Port(1,2)) 
!S12(Full 2 Port(1,2)) 
!S22(Full 2 Port(1,2)) 
!S2P File: Measurements: S11, S21, S12, S22:
# Hz S  dB   R 50
9200000000 -1.2639403 132.54091 -8.9719725 -77.701729 -8.9611177 -78.321754 -0.26042601 -102.8303
9200062500 -1.2628073 132.54768 -8.9702835 -77.727547 -8.9720726 -78.359268 -0.25782371 -102.7671
9200125000 -1.2664596 132.52223 -8.9592571 -77.704353 -8.9597578 -78.405746 -0.26200077 -102.77311
9200187500 -1.2729825 132.54103 -8.9729471 -77.632652 -8.963974 -78.417244 -0.24674726 -102.75532
9200250000 -1.2574198 132.51521 -8.9643564 -77.686279 -8.9568396 -78.38755 -0.25417793 -102.81047
9200312500 -1.273597 132.42798 -8.9663372 -77.740524 -8.9643431 -78.398376 -0.25580594 -102.7291
9200375000 -1.2676768 132.47049 -8.9696016 -77.694 -8.9554338 -78.501343 -0.24928096 -102.73695
9200437500 -1.2674356 132.48441 -8.9647703 -77.686371 -8.9594603 -78.348373 -0.25329167 -102.69991
9200500000 -1.2657322 132.46652 -8.9705639 -77.715233 -8.9491596 -78.342178 -0.25771612 -102.67941
9200562500 -1.2607096 132.44563 -8.9586802 -77.65377 -8.9560461 -78.389694 -0.25512576 -102.73986
9200625000 -1.2711847 132.39381 -8.9649696 -77.772835 -8.9554043 -78.354874 -0.26157799 -102.61127
9200687500 -1.2576251 132.43541 -8.9602375 -77.714523 -8.9598818 -78.362244 -0.25658709 -102.61942
9200750000 -1.2706758 132.345 -8.963563 -77.734413 -8.9628267 -78.383568 -0.26600006 -102.62312
9200812500 -1.2773418 132.40424 -8.9715309 -77.630043 -8.960577 -78.364647 -0.27286685 -102.59791
9200875000 -1.2623432 132.45424 -8.972517 -77.644569 -8.9626274 -78.33046 -0.26899493 -102.63204
9200937500 -1.2638738 132.35878 -8.9633932 -77.725723 -8.9559374 -78.385368 -0.25505635 -102.54276
9201000000 -1.2632238 132.34299 -8.9601164 -77.738846 -8.953619 -78.335358 -0.25628519 -102.53289
9201062500 -1.2684847 132.30074 -8.958807 -77.700752 -8.9524651 -78.37619 -0.26851749 -102.56285
9201125000 -1.2732362 132.34569 -8.9529791 -77.630173 -8.9565344 -78.418716 -0.25985813 -102.49879
9201187500 -1.2728524 132.21371 -8.9620934 -77.691475 -8.9583158 -78.318382 -0.27002025 -102.42861
9201250000 -1.2703317 132.35625 -8.9591904 -77.591026 -8.960146 -78.349091 -0.26577428 -102.4698
9201312500 -1.2775546 132.29779 -8.9622202 -77.610909 -8.9466896 -78.398903 -0.25580931 -102.49319
9201375000 -1.2753049 132.25847 -8.9564819 -77.646622 -8.9567556 -78.327042 -0.26955187 -102.43288
9201437500 -1.2644476 132.29626 -8.9666462 -77.588356 -8.9536734 -78.407333 -0.26721725 -102.5053
9201500000 -1.2682652 132.27196 -8.9524403 -77.64077 -8.9499846 -78.309113 -0.26041508 -102.41333
9201562500 -1.2682828 132.18188 -8.9571066 -77.68206 -8.9565754 -78.296165 -0.27608612 -102.40454
9201625000 -1.2602383 132.20961 -8.9453468 -77.630646 -8.9472723 -78.343163 -0.27142608 -102.34847
9201687500 -1.2737551 132.21971 -8.954318 -77.603249 -8.9467459 -78.394417 -0.26371142 -102.31175
9201750000 -1.266848 132.15337 -8.951931 -77.622467 -8.9425344 -78.286499 -0.25859019 -102.30357
9201812500 -1.2653644 132.16467 -8.9419069 -77.63765 -8.9497728 -78.357796 -0.27389088 -102.39383
9201875000 -1.2659136 132.20107 -8.9406719 -77.633728 -8.9356794 -78.402855 -0.25981164 -102.29785
9201937500 -1.2806964 132.12648 -8.9642906 -77.68367 -8.9484625 -78.378899 -0.26896551 -102.34889
9202000000 -1.2755845 132.12698 -8.9471045 -77.673019 -8.9397421 -78.379372 -0.25798407 -102.29066
9202062500 -1.2746348 132.12492 -8.9437637 -77.613113 -8.9431343 -78.36541 -0.26073909 -102.22212
9202125000 -1.2809809 132.15192 -8.9731197 -77.646484 -8.9503155 -78.328499 -0.2766712 -102.29243
9202187500 -1.2759341 132.11499 -8.9479342 -77.707825 -8.9448204 -78.327362 -0.26592001 -102.16383
9202250000 -1.2735096 132.09195 -8.9529667 -77.671333 -8.9364281 -78.282326 -0.27222615 -102.18218
9202312500 -1.2692218 132.09438 -8.9542532 -77.566818 -8.9268398 -78.323715 -0.26885018 -102.21378
9202375000 -1.2670391 132.06842 -8.9491282 -77.692574 -8.9268541 -78.331917 -0.2687234 -102.1118
9202437500 -1.2710333 132.07664 -8.9403324 -77.613609 -8.9373293 -78.353981 -0.25335163 -102.23527
9202500000 -1.2817413 132.03279 -8.9572611 -77.689003 -8.9479799 -78.287476 -0.27217594 -102.17648
9202562500 -1.2655668 132.01819 -8.9420643 -77.601967 -8.9420347 -78.319633 -0.27401373 -102.15207
9202625000 -1.2758598 132.02887 -8.9440918 -77.688538 -8.9492245 -78.333534 -0.2714569 -102.13012
9202687500 -1.2744168 131.9924 -8.949872 -77.629242 -8.9345274 -78.29879 -0.26594856 -102.04173
9202750000 -1.2607689 131.92763 -8.9371872 -77.655685 -8.9289169 -78.365868 -0.26318479 -102.09479
9202812500 -1.2711257 131.93408 -8.9376163 -77.628967 -8.9253674 -78.37291 -0.26371476 -102.02882
9202875000 -1.2724451 131.92593 -8.9381189 -77.668312 -8.9305649 -78.364182 -0.26856679 -102.05114
9202937500 -1.2680846 131.96829 -8.9368181 -77.641365 -8.9205265 -78.323792 -0.26690197 -102.00679
9203000000 -1.2738789 131.94328 -8.9335804 -77.662506 -8.9287176 -78.357048 -0.26693666 -101.97028
9203062500 -1.2701378 131.88315 -8.9397316 -77.642448 -8.9449806 -78.354454 -0.28305125 -102.0089
9203125000 -1.274102 131.86633 -8.9398384 -77.631935 -8.9215622 -78.324585 -0.26973391 -101.94631
9203187500 -1.2740824 131.86185 -8.9434395 -77.647377 -8.9283352 -78.379189 -0.27084664 -101.97064
9203250000 -1.2737088 131.86398 -8.9461422 -77.630409 -8.9263372 -78.290443 -0.27521315 -101.87859
9203312500 -1.283525 131.84848 -8.9448051 -77.642685 -8.9294882 -78.339325 -0.26259065 -101.95438
9203375000 -1.2680899 131.83078 -8.9310255 -77.627693 -8.933466 -78.334648 -0.26886547 -101.86463
9203437500 -1.276672 131.83958 -8.9457951 -77.68087 -8.9269228 -78.275414 -0.26823911 -101.88874
9203500000 -1.2620348 131.78386 -8.92342 -77.652367 -8.92451 -78.308884 -0.26670927 -101.893
9203562500 -1.2726653 131.79134 -8.9346066 -77.668823 -8.9391842 -78.352135 -0.29016429 -101.87685
9203625000 -1.2752984 131.79352 -8.9406099 -77.715973 -8.9348087 -78.348717 -0.2801196 -101.94146
9203687500 -1.2811385 131.75633 -8.9381981 -77.653397 -8.9274464 -78.292091 -0.27831882 -101.79777
9203750000 -1.271733 131.75206 -8.9371872 -77.644577 -8.9275732 -78.295235 -0.26676875 -101.79946
9203812500 -1.279116 131.74207 -8.9252186 -77.636673 -8.9294872 -78.36544 -0.27586913 -101.77632
9203875000 -1.274254 131.75946 -8.938158 -77.612587 -8.9262228 -78.378944 -0.28301117 -101.81039
9203937500 -1.2795041 131.73431 -8.9387856 -77.639816 -8.9188261 -78.310692 -0.27167597 -101.75361
9204000000 -1.2732595 131.71983 -8.9201365 -77.584961 -8.9290533 -78.255974 -0.27407974 -101.67941
9204062500 -1.2683846 131.71335 -8.9222698 -77.596031 -8.9117451 -78.302048 -0.27358755 -101.71304
9204125000 -1.2800872 131.67746 -8.9354439 -77.590721 -8.9165754 -78.280952 -0.27127391 -101.68631
9204187500 -1.2770259 131.61745 -8.9241438 -77.659355 -8.930027 -78.307594 -0.27866903 -101.68768
9204250000 -1.2765971 131.62703 -8.9194393 -77.625015 -8.9203386 -78.313179 -0.26953894 -101.6626
9204312500 -1.273773 131.66396 -8.9158869 -77.561203 -8.9211702 -78.310204 -0.27789044 -101.58199
9204375000 -1.2650723 131.62505 -8.9226618 -77.575134 -8.924758 -78.361267 -0.2785629 -101.69855
9204437500 -1.2801509 131.6627 -8.9236202 -77.596077 -8.918911 -78.292679 -0.27318609 -101.63088
9204500000 -1.2777038 131.60199 -8.9229641 -77.641418 -8.9233656 -78.337296 -0.27022842 -101.63822
9204562500 -1.2731247 131.57434 -8.9269171 -77.676201 -8.914381 -78.358017 -0.27185726 -101.66706
9204625000 -1.2651652 131.56271 -8.9179535 -77.594696 -8.9052839 -78.340904 -0.26968119 -101.53735
9204687500 -1.2761866 131.55066 -8.9222336 -77.574173 -8.9081163 -78.288689 -0.2715188 -101.51929
9204750000 -1.2800453 131.54431 -8.9238911 -77.532753 -8.9203386 -78.302231 -0.28960472 -101.53897
9204812500 -1.2696471 131.52948 -8.9216022 -77.579521 -8.9133701 -78.341202 -0.27352434 -101.51536
9204875000 -1.2724288 131.54906 -8.9056225 -77.597229 -8.9276104 -78.276978 -0.27849498 -101.52
9204937500 -1.2738038 131.51372 -8.9172592 -77.628922 -8.9076996 -78.322556 -0.27375814 -101.47681
9205000000 -1.2656982 131.44431 -8.9113674 -77.538376 -8.9087944 -78.283585 -0.29500863 -101.49426
9205062500 -1.2757928 131.4472 -8.9083338 -77.613541 -8.9050293 -78.304428 -0.28307903 -101.43404
9205125000 -1.279577 131.48097 -8.9327307 -77.555962 -8.907464 -78.301224 -0.28180471 -101.40477
9205187500 -1.2777598 131.46828 -8.9219828 -77.638611 -8.9154758 -78.29248 -0.28836784 -101.38878
9205250000 -1.2732807 131.40976 -8.9129105 -77.604271 -8.9140196 -78.23175 -0.2845172 -101.42218
9205312500 -1.2800692 131.47766 -8.9151974 -77.560265 -8.9102516 -78.222008 -0.28411782 -101.36539
9205375000 -1.2745367 131.34398 -8.900075 -77.647957 -8.9112377 -78.278793 -0.27357891 -101.3462
9205437500 -1.2717355 131.41747 -8.9062338 -77.599205 -8.9096527 -78.287941 -0.28188771 -101.3446
9205500000 -1.2840599 131.31258 -8.9117336 -77.570068 -8.905098 -78.278229 -0.28288513 -101.26513
9205562500 -1.2811434 131.37994 -8.903698 -77.646072 -8.9071608 -78.328506 -0.27538553 -101.29102
9205625000 -1.2869834 131.37355 -8.9230194 -77.601486 -8.9027719 -78.388199 -0.27992967 -101.29294
9205687500 -1.2715964 131.35344 -8.8978167 -77.588013 -8.903409 -78.343422 -0.28187957 -101.2227
9205750000 -1.2775875 131.27473 -8.9096184 -77.64975 -8.9088488 -78.277954 -0.28352088 -101.21947
9205812500 -1.2841053 131.30035 -8.8993111 -77.632904 -8.900528 -78.304558 -0.28422809 -101.2224
9205875000 -1.2728173 131.32785 -8.9137564 -77.591019 -8.9051981 -78.328056 -0.2807596 -101.27911
9205937500 -1.2748414 131.26572 -8.9000616 -77.5756 -8.8971691 -78.270096 -0.28623846 -101.17396
9206000000 -1.2795433 131.26804 -8.9004545 -77.55912 -8.9050684 -78.280952 -0.28024742 -101.1629
9206062500 -1.2740397 131.29214 -8.8980513 -77.648117 -8.9082565 -78.27581 -0.29129931 -101.1997
9206125000 -1.2747078 131.2113 -8.9059534 -77.58358 -8.8947535 -78.215569 -0.29357621 -101.0696
9206187500 -1.281484 131.22852 -8.9058208 -77.653542 -8.8882647 -78.299446 -0.26537588 -101.13964
9206250000 -1.2814929 131.19312 -8.913373 -77.635086 -8.9009371 -78.268776 -0.28613573 -101.13333
9206312500 -1.2799469 131.15974 -8.9027367 -77.601479 -8.9007988 -78.378822 -0.28480318 -101.14705
9206375000 -1.2811353 131.18839 -8.9067535 -77.617432 -8.8999929 -78.234467 -0.28312558 -101.13642
9206437500 -1.2734112 131.17296 -8.9013262 -77.544884 -8.9008799 -78.254517 -0.29010421 -101.09177
9206500000 -1.2802317 131.132 -8.9087086 -77.60862 -8.8896999 -78.246269 -0.2952736 -101.07362
9206562500 -1.282504 131.13202 -8.8994989 -77.671577 -8.9065723 -78.272385 -0.28470224 -101.15072
9206625000 -1.2797858 131.07776 -8.9012814 -77.615562 -8.90341 -78.292725 -0.29328829 -101.05984
9206687500 -1.2821959 131.09747 -8.8993101 -77.664131 -8.8925543 -78.236755 -0.27793548 -101.01151
9206750000 -1.2794076 131.11037 -8.8932495 -77.592995 -8.8977118 -78.250862 -0.28785551 -100.98985
9206812500 -1.2745433 131.10989 -8.8952503 -77.538826 -8.8967161 -78.290176 -0.28320214 -101.01022
9206875000 -1.2826459 131.07239 -8.8977566 -77.59481 -8.8811884 -78.216125 -0.27908075 -100.90392
9206937500 -1.2797436 131.07268 -8.8917933 -77.63623 -8.8949041 -78.278862 -0.28690186 -100.91373
9207000000 -1.2766235 131.03589 -8.9014254 -77.640572 -8.9007664 -78.244568 -0.29249838 -100.91608
9207062500 -1.2796596 131.01682 -8.8893404 -77.554153 -8.8851347 -78.259552 -0.28375417 -100.85961
9207125000 -1.2867467 131.02565 -8.8838863 -77.621017 -8.8898649 -78.324379 -0.28699085 -100.84088
9207187500 -1.2758545 130.98561 -8.8784657 -77.656052 -8.8971157 -78.269569 -0.28593534 -100.89775
9207250000 -1.2829218 130.94914 -8.8874731 -77.585548 -8.8848286 -78.267052 -0.28350624 -100.91283
9207312500 -1.2760162 130.95563 -8.889575 -77.653404 -8.8932858 -78.245407 -0.28724137 -100.84344
9207375000 -1.2863141 130.94269 -8.8968601 -77.609566 -8.8839121 -78.258606 -0.28491381 -100.78964
9207437500 -1.2760618 131.00351 -8.889575 -77.604286 -8.8953581 -78.221397 -0.29178381 -100.80017
9207500000 -1.2811342 130.96184 -8.8928823 -77.559708 -8.8783369 -78.159233 -0.30013227 -100.75718
9207562500 -1.2750645 130.93225 -8.8806648 -77.589821 -8.8691006 -78.28167 -0.28135213 -100.81994
9207625000 -1.2815106 130.86357 -8.885541 -77.548958 -8.8804874 -78.220184 -0.28730687 -100.64056
9207687500 -1.2860154 130.8938 -8.8877764 -77.61145 -8.8866844 -78.305916 -0.28465146 -100.77283
9207750000 -1.2850198 130.86813 -8.8909883 -77.57917 -8.8884096 -78.272156 -0.29206654 -100.72232
9207812500 -1.2855453 130.87494 -8.8864737 -77.598869 -8.8784151 -78.219772 -0.29466698 -100.73077
9207875000 -1.282059 130.85864 -8.8957672 -77.54438 -8.8733196 -78.234337 -0.2827723 -100.66465
9207937500 -1.286041 130.80647 -8.8904886 -77.553619 -8.8975782 -78.290398 -0.3025524 -100.68644
9208000000 -1.2900512 130.83455 -8.8779888 -77.643387 -8.8777685 -78.226265 -0.28632548 -100.63753
9208062500 -1.2888886 130.79449 -8.8889341 -77.55584 -8.8724575 -78.297737 -0.29344803 -100.67667
9208125000 -1.2840067 130.76611 -8.8901033 -77.647415 -8.8831358 -78.283508 -0.28991604 -100.63895
9208187500 -1.2798818 130.81708 -8.8794003 -77.616165 -8.8767195 -78.277512 -0.28621286 -100.68414
9208250000 -1.2950952 130.77945 -8.8877707 -77.516388 -8.872695 -78.293732 -0.29276153 -100.60006
9208312500 -1.2784935 130.76776 -8.8859768 -77.562614 -8.8685007 -78.210541 -0.28775671 -100.56783
9208375000 -1.2830558 130.75648 -8.8739815 -77.571236 -8.8725328 -78.175079 -0.29446095 -100.4741
9208437500 -1.2851624 130.69099 -8.8791676 -77.632164 -8.8756371 -78.182846 -0.29844153 -100.52554
9208500000 -1.2897564 130.6355 -8.884716 -77.64843 -8.8727074 -78.239098 -0.29080352 -100.47874
9208562500 -1.2911419 130.73506 -8.8784466 -77.543579 -8.8698912 -78.261337 -0.29597685 -100.47872
9208625000 -1.2823734 130.65125 -8.872118 -77.5812 -8.8655396 -78.218628 -0.29452488 -100.50652
9208687500 -1.2764693 130.67897 -8.8653641 -77.556671 -8.8724947 -78.194801 -0.2885251 -100.40918
9208750000 -1.2796017 130.71237 -8.8719234 -77.500443 -8.8749084 -78.214821 -0.29761976 -100.45412
9208812500 -1.2862642 130.71275 -8.8820772 -77.550484 -8.8760977 -78.248207 -0.29292631 -100.42104
9208875000 -1.2855494 130.61147 -8.8684425 -77.627777 -8.8751764 -78.234901 -0.29956603 -100.4072
9208937500 -1.2844543 130.63225 -8.8682308 -77.615746 -8.8653574 -78.263557 -0.2936593 -100.39669
9209000000 -1.2815002 130.62581 -8.8789129 -77.53479 -8.8680611 -78.167267 -0.30709797 -100.38226
9209062500 -1.2910932 130.58231 -8.8763199 -77.564812 -8.8753691 -78.187195 -0.30423144 -100.32314
9209125000 -1.290014 130.57765 -8.8738642 -77.502304 -8.8649302 -78.257607 -0.28976405 -100.33643
9209187500 -1.2851132 130.57195 -8.8647614 -77.551727 -8.8647947 -78.094238 -0.29711795 -100.30367
9209250000 -1.2840151 130.55782 -8.869772 -77.514366 -8.8622637 -78.257164 -0.29205236 -100.25047
9209312500 -1.2860554 130.49263 -8.8721514 -77.524849 -8.8622465 -78.318565 -0.3023479 -100.32976
9209375000 -1.2762982 130.51955 -8.8680792 -77.553856 -8.8741417 -78.212555 -0.30694509 -100.32416
9209437500 -1.2860148 130.50241 -8.8691826 -77.525772 -8.861783 -78.18499 -0.29441339 -100.19611
9209500000 -1.2863603 130.49911 -8.8739138 -77.536804 -8.8559027 -78.25988 -0.29717061 -100.23917
9209562500 -1.2961291 130.46094 -8.8761063 -77.573669 -8.8691349 -78.206406 -0.31130287 -100.17782
9209625000 -1.2892337 130.4445 -8.8738117 -77.61235 -8.8577156 -78.184784 -0.29538161 -100.14948
9209687500 -1.2893958 130.38664 -8.8642635 -77.56279 -8.8549004 -78.131699 -0.2924087 -100.1223
9209750000 -1.2825485 130.41284 -8.8478556 -77.640793 -8.8663502 -78.27063 -0.28774881 -100.22692
9209812500 -1.2842184 130.40874 -8.8591356 -77.509682 -8.8566885 -78.257317 -0.29457349 -100.11327
9209875000 -1.2837404 130.39632 -8.8609886 -77.549576 -8.8656197 -78.232933 -0.30692607 -100.12852
9209937500 -1.2837313 130.46664 -8.8654604 -77.474571 -8.863658 -78.201561 -0.30725002 -100.16659
9210000000 -1.2825842 130.43396 -8.8604765 -77.504951 -8.8536749 -78.224251 -0.30937627 -100.06053
9210062500 -1.2946759 130.40277 -8.8656816 -77.484245 -8.8506432 -78.26133 -0.30476961 -100.09977
9210125000 -1.2820958 130.33693 -8.862401 -77.561462 -8.8507986 -78.16053 -0.3009727 -100.06007
9210187500 -1.2873399 130.38132 -8.8580418 -77.504051 -8.8473616 -78.210022 -0.30232018 -100.01826
9210250000 -1.2899413 130.35468 -8.8571615 -77.588943 -8.8453569 -78.153252 -0.30380279 -100.01585
9210312500 -1.2935907 130.28711 -8.8614721 -77.481583 -8.8558588 -78.292603 -0.30615452 -100.0766
9210375000 -1.2883677 130.35707 -8.860774 -77.486038 -8.8554344 -78.251198 -0.305085 -99.972733
9210437500 -1.284885 130.25099 -8.8593302 -77.577217 -8.8433361 -78.257378 -0.28931871 -100.05708
9210500000 -1.2821773 130.25079 -8.8422194 -77.567505 -8.8465195 -78.21064 -0.29198945 -99.951553
9210562500 -1.284938 130.25993 -8.8494644 -77.492065 -8.8404236 -78.253494 -0.29874322 -99.960732
9210625000 -1.2834276 130.26395 -8.8630619 -77.494736 -8.857748 -78.103127 -0.30793032 -99.931351
9210687500 -1.2901692 130.25659 -8.8555584 -77.552971 -8.8569708 -78.211594 -0.31113529 -99.89975
9210750000 -1.289103 130.25417 -8.8577604 -77.555611 -8.8512802 -78.189957 -0.30199796 -99.888008
9210812500 -1.2884761 130.18192 -8.8522682 -77.57122 -8.8503666 -78.161873 -0.30825618 -99.87532
9210875000 -1.2913678 130.22804 -8.8606129 -77.521088 -8.8375502 -78.161438 -0.30961391 -99.87851
9210937500 -1.2848736 130.20624 -8.8403215 -77.50074 -8.8477335 -78.110832 -0.31187043 -99.845322
9211000000 -1.2861348 130.17935 -8.8509789 -77.590485 -8.8473816 -78.208 -0.3003622 -99.901413
9211062500 -1.2893938 130.16806 -8.8502846 -77.476158 -8.8412838 -78.142128 -0.31053975 -99.805351
9211125000 -1.2831722 130.15015 -8.8538437 -77.527824 -8.8366203 -78.154938 -0.30192244 -99.79583
9211187500 -1.2926389 130.147 -8.85361 -77.50563 -8.8375883 -78.191017 -0.30994576 -99.776543
9211250000 -1.291656 130.09523 -8.846405 -77.57399 -8.8434124 -78.110565 -0.29725134 -99.748199
9211312500 -1.2888781 130.12857 -8.8488941 -77.524559 -8.8427553 -78.208969 -0.30833063 -99.779068
9211375000 -1.2862176 130.02708 -8.8443909 -77.552757 -8.8375664 -78.242546 -0.31206211 -99.723328
9211437500 -1.2861042 130.06541 -8.8371048 -77.520828 -8.8386068 -78.199104 -0.31110799 -99.647285
9211500000 -1.2956448 130.03285 -8.8519468 -77.495651 -8.8350487 -78.231987 -0.305843 -99.749649
9211562500 -1.2955555 130.12685 -8.8483953 -77.457245 -8.8387041 -78.179794 -0.3135522 -99.700867
9211625000 -1.2888387 130.02867 -8.8383608 -77.477318 -8.8232021 -78.220581 -0.3056705 -99.679359
9211687500 -1.2919638 130.06467 -8.8484907 -77.516838 -8.8346272 -78.172813 -0.3107017 -99.613739
9211750000 -1.2951623 129.99603 -8.8472958 -77.504974 -8.8283052 -78.143593 -0.29864392 -99.580826
9211812500 -1.2924093 130.01231 -8.8451414 -77.47998 -8.8375807 -78.15686 -0.31095275 -99.623917
9211875000 -1.2936593 129.95093 -8.8427105 -77.513329 -8.8256483 -78.097672 -0.30081427 -99.465187
9211937500 -1.289634 129.99089 -8.8341827 -77.54071 -8.8390369 -78.179657 -0.31413928 -99.574493
9212000000 -1.2853682 129.91458 -8.8332739 -77.477547 -8.8358345 -78.230354 -0.31181774 -99.553345
9212062500 -1.2945466 129.92805 -8.8470583 -77.449791 -8.8205118 -78.132454 -0.30890137 -99.542244
9212125000 -1.2886534 129.83778 -8.8373003 -77.576248 -8.8422441 -78.173111 -0.31343967 -99.501076
9212187500 -1.2805613 129.8792 -8.826932 -77.476608 -8.8259411 -78.131317 -0.31273383 -99.490967
9212250000 -1.2948329 129.87708 -8.8345098 -77.547295 -8.8146629 -78.1707 -0.30007279 -99.540596
9212312500 -1.2923294 129.92349 -8.8332767 -77.461899 -8.8260164 -78.081757 -0.31088057 -99.455444
