!Agilent Technologies,N5242A,MY51221714,A.09.90.19
!Agilent N5242A: A.09.90.19
!Date: Tuesday, March 26, 2024 15:56:14
!Correction: S11(Full 2 Port(1,2)) 
!S21(Full 2 Port(1,2)) 
!S12(Full 2 Port(1,2)) 
!S22(Full 2 Port(1,2)) 
!S2P File: Measurements: S11, S21, S12, S22:
# Hz S  dB   R 50
9200000000 -0.99863011 134.41092 -9.2397299 -73.315582 -9.2274761 -74.066879 -0.0037174842 -101.0882
9200062500 -0.99658853 134.34019 -9.2244396 -73.441635 -9.2338276 -74.071899 0.0042940001 -101.06258
9200125000 -1.0019397 134.35205 -9.2392092 -73.357574 -9.2263288 -73.982697 -0.0090870634 -101.02294
9200187500 -1.0055512 134.3701 -9.2338839 -73.342773 -9.2205029 -74.116081 0.010128455 -101.04283
9200250000 -0.99397451 134.33928 -9.2329645 -73.33255 -9.2340841 -74.0289 -0.0013031686 -101.02213
9200312500 -1.0068812 134.35223 -9.2372046 -73.317184 -9.230855 -74.100777 -0.011682688 -101.0527
9200375000 -1.0029207 134.29129 -9.2302389 -73.368553 -9.2242947 -74.135605 0.001710823 -101.00368
9200437500 -1.0016766 134.30612 -9.2384109 -73.421318 -9.2145786 -74.036179 0.0060145436 -100.93892
9200500000 -0.99744481 134.27481 -9.2397966 -73.37394 -9.2268715 -73.982086 -0.0064746784 -100.90903
9200562500 -0.9964751 134.2728 -9.2282877 -73.331116 -9.2319908 -74.030891 -0.00083298137 -100.9465
9200625000 -1.0005894 134.27823 -9.2282515 -73.307198 -9.2181778 -74.013542 -0.0031003705 -100.91071
9200687500 -0.99140632 134.28424 -9.2264729 -73.280609 -9.2339659 -74.031799 -0.002112024 -100.87041
9200750000 -0.999277 134.19337 -9.2231083 -73.362991 -9.224844 -73.964668 -0.0025153831 -100.82938
9200812500 -1.010474 134.20317 -9.2361393 -73.261276 -9.224268 -73.954811 -0.016681422 -100.83585
9200875000 -0.99369097 134.31194 -9.2185669 -73.289909 -9.2217283 -73.960739 -0.0083399275 -100.87743
9200937500 -1.0000558 134.19603 -9.228631 -73.389175 -9.2295542 -74.043961 -0.0026278892 -100.82369
9201000000 -0.99667281 134.17155 -9.2279758 -73.366989 -9.2135639 -73.97348 0.0013807114 -100.79726
9201062500 -0.99794394 134.15326 -9.22122 -73.322296 -9.2218246 -74.025383 -0.0093436977 -100.79643
9201125000 -1.0004463 134.16693 -9.2209578 -73.262566 -9.2218714 -74.060013 -0.0031029575 -100.79148
9201187500 -1.0043023 134.08504 -9.224246 -73.26873 -9.217802 -74.021141 -0.009091815 -100.6601
9201250000 -1.0022928 134.13799 -9.214139 -73.284271 -9.2234268 -73.985214 -0.0072390563 -100.71415
9201312500 -1.0047334 134.12564 -9.2221699 -73.241119 -9.2209558 -74.039597 -0.001111206 -100.73766
9201375000 -1.0076749 134.09549 -9.22542 -73.256645 -9.222106 -73.93808 -0.015135833 -100.65341
9201437500 -0.99923676 134.11449 -9.2197495 -73.318779 -9.2161751 -74.030144 -0.0078234868 -100.76194
9201500000 -1.0059043 134.0713 -9.2307444 -73.315292 -9.2188158 -73.919395 -0.0066955956 -100.64854
9201562500 -1.0016545 134.02374 -9.2261534 -73.310585 -9.2266674 -74.013809 -0.020324741 -100.67594
9201625000 -1.0000113 134.06561 -9.2254725 -73.293198 -9.2086821 -73.990631 -0.0058799013 -100.6013
9201687500 -1.0121553 134.02853 -9.2320185 -73.266296 -9.2077579 -73.967873 -0.010771806 -100.53933
9201750000 -1.0076269 134.04471 -9.2336426 -73.233505 -9.2022209 -73.987366 0.0033513643 -100.60285
9201812500 -1.0000033 134.04305 -9.2236538 -73.282005 -9.2092619 -73.956787 -0.008119382 -100.64146
9201875000 -0.99713022 133.96844 -9.2043829 -73.32901 -9.2155695 -74.026688 -0.0032329701 -100.55906
9201937500 -1.0122154 133.97523 -9.2244129 -73.264229 -9.203208 -74.051849 -0.0053948672 -100.59642
9202000000 -1.0031821 133.92781 -9.2046471 -73.320343 -9.2121124 -74.001549 -0.0045712614 -100.48611
9202062500 -1.0116045 133.97784 -9.2136669 -73.278946 -9.2068739 -73.971123 -0.00088483788 -100.51572
9202125000 -1.0065529 133.9892 -9.2308397 -73.308372 -9.2155771 -73.970108 -0.020522233 -100.48267
9202187500 -1.0050309 133.92844 -9.2155514 -73.302452 -9.2139339 -73.905304 -0.0084641706 -100.39518
9202250000 -1.0088427 133.91689 -9.219059 -73.243073 -9.2113571 -73.885849 -0.017636403 -100.40378
9202312500 -0.99720711 133.94453 -9.2231035 -73.222275 -9.2104931 -73.972534 -0.013252446 -100.4483
9202375000 -1.0050577 133.90126 -9.2195129 -73.255829 -9.2027817 -74.007286 -0.011200182 -100.38194
9202437500 -1.0052352 133.92279 -9.2153749 -73.281128 -9.207572 -73.94574 -0.0053861695 -100.4196
9202500000 -1.0115839 133.88277 -9.2203569 -73.305138 -9.2218504 -73.970329 -0.013994542 -100.47831
9202562500 -0.99827021 133.83536 -9.216464 -73.246895 -9.2175789 -73.8974 -0.024086853 -100.37965
9202625000 -1.006635 133.88365 -9.2145882 -73.306625 -9.2038021 -73.913063 -0.015469079 -100.33391
9202687500 -1.0093402 133.85219 -9.2161188 -73.285034 -9.2128448 -73.920715 -0.013822148 -100.29592
9202750000 -0.99647385 133.78761 -9.2047482 -73.264244 -9.1937895 -73.989059 -0.0049728402 -100.33364
9202812500 -1.0050654 133.78636 -9.2212868 -73.284348 -9.1914043 -73.989517 -0.0070992499 -100.31068
9202875000 -0.99922681 133.77301 -9.2065067 -73.203415 -9.1998634 -73.956299 -0.0096749617 -100.27823
9202937500 -0.99936903 133.73849 -9.1985569 -73.3666 -9.2044697 -73.92588 -0.012250778 -100.27729
9203000000 -1.0120953 133.78816 -9.2159958 -73.203201 -9.2050638 -73.96862 -0.014095468 -100.24905
9203062500 -1.005407 133.72333 -9.2043428 -73.251495 -9.196207 -73.96273 -0.0088848351 -100.29292
9203125000 -1.0024327 133.70857 -9.2054157 -73.279678 -9.1919584 -73.89827 -0.013839021 -100.2056
9203187500 -1.0001853 133.72632 -9.2155294 -73.313087 -9.1915522 -73.967522 -0.0087952921 -100.23624
9203250000 -1.0006146 133.66747 -9.2089815 -73.223915 -9.1976671 -73.945473 -0.0087916171 -100.1732
9203312500 -1.0106552 133.72137 -9.2051687 -73.226311 -9.1896877 -73.951317 -4.2732139e-005 -100.14299
9203375000 -1.0034775 133.68604 -9.1999874 -73.293846 -9.1913786 -73.910622 -0.0084325345 -100.11383
9203437500 -1.0107423 133.73175 -9.20753 -73.276405 -9.1939611 -73.893921 -0.012307629 -100.11372
9203500000 -1.0002236 133.6631 -9.2024984 -73.267952 -9.2022943 -73.907959 -0.008597021 -100.16251
9203562500 -1.0129671 133.61395 -9.2124157 -73.254845 -9.2068214 -73.958466 -0.024421049 -100.14163
9203625000 -1.0049202 133.63843 -9.2054796 -73.31115 -9.204257 -73.912132 -0.016778389 -100.09694
9203687500 -1.0102901 133.60037 -9.2066793 -73.257751 -9.2041683 -73.858826 -0.019054124 -100.06672
9203750000 -1.006362 133.60179 -9.2143288 -73.210846 -9.1998644 -73.983559 -0.0076703811 -100.02788
9203812500 -1.008312 133.57416 -9.1986856 -73.282326 -9.200942 -73.911446 -0.017675459 -100.01843
9203875000 -0.9989295 133.57541 -9.2030268 -73.231987 -9.1919527 -73.960785 -0.025226844 -100.04702
9203937500 -1.0099784 133.60242 -9.2032127 -73.240494 -9.1835499 -73.883842 -0.017246842 -100.01512
9204000000 -1.0104295 133.54034 -9.197793 -73.211723 -9.2051764 -73.971512 -0.017941374 -99.967163
9204062500 -1.0015836 133.54449 -9.2006626 -73.196762 -9.1911058 -73.891273 -0.018650198 -99.929329
9204125000 -1.0051041 133.54575 -9.1909924 -73.236626 -9.1902866 -73.94487 -0.013389131 -99.941528
9204187500 -1.0137838 133.45547 -9.2070799 -73.239441 -9.19314 -73.897339 -0.023570241 -99.914146
9204250000 -1.0077914 133.50067 -9.1887808 -73.276093 -9.1852369 -73.8386 -0.011110294 -99.943443
9204312500 -1.0076581 133.51021 -9.1952524 -73.199196 -9.1851254 -73.839409 -0.020814236 -99.79985
9204375000 -1.0029172 133.4631 -9.1905489 -73.16777 -9.1873875 -73.890594 -0.019843273 -99.928734
9204437500 -1.0141673 133.46486 -9.2093801 -73.278328 -9.1904659 -73.822411 -0.017867532 -99.815865
9204500000 -1.0134171 133.49525 -9.1927528 -73.206116 -9.1951075 -73.909897 -0.018910352 -99.860664
9204562500 -1.0058016 133.42467 -9.1884117 -73.309494 -9.1910572 -73.9459 -0.013094863 -99.924561
9204625000 -0.99844295 133.42744 -9.1797915 -73.136597 -9.1889582 -73.995995 -0.02274045 -99.804352
9204687500 -1.00489 133.37927 -9.2000351 -73.238312 -9.1923695 -73.895172 -0.022830144 -99.778862
9204750000 -1.0129266 133.35458 -9.1933918 -73.259155 -9.189909 -73.886864 -0.027182233 -99.783836
9204812500 -1.0029136 133.36044 -9.1894369 -73.163368 -9.1830111 -73.874847 -0.014304326 -99.738457
9204875000 -1.0032158 133.43036 -9.191267 -73.201775 -9.1913538 -73.90596 -0.02042746 -99.793259
9204937500 -1.0051986 133.3213 -9.1747561 -73.285835 -9.1811228 -73.947853 -0.012446757 -99.745003
9205000000 -0.99231106 133.28226 -9.1806526 -73.181854 -9.177804 -73.873428 -0.029180145 -99.682091
9205062500 -1.0082628 133.32808 -9.1880302 -73.2341 -9.1733675 -73.889626 -0.020970196 -99.692223
9205125000 -1.0067226 133.31512 -9.1791601 -73.198517 -9.1782808 -73.869194 -0.013732129 -99.587837
9205187500 -1.0103124 133.31239 -9.1903677 -73.150497 -9.1849785 -73.90612 -0.022151634 -99.668938
9205250000 -1.0052243 133.26691 -9.187109 -73.226486 -9.1850872 -73.858238 -0.029934473 -99.671669
9205312500 -1.0070319 133.34305 -9.1824589 -73.158775 -9.1821594 -73.872612 -0.028079037 -99.631126
9205375000 -1.0066255 133.18625 -9.1788378 -73.26651 -9.1850901 -73.916687 -0.016989697 -99.606384
9205437500 -0.99376315 133.26378 -9.1736078 -73.100655 -9.1734304 -73.870842 -0.019169712 -99.583672
9205500000 -1.0090734 133.15625 -9.1771755 -73.187363 -9.179143 -73.969017 -0.015758388 -99.500443
9205562500 -1.0122085 133.21017 -9.1809664 -73.190353 -9.1731453 -73.874062 -0.016948875 -99.514595
9205625000 -1.0126626 133.21007 -9.1777763 -73.129135 -9.1711988 -73.908699 -0.014147808 -99.501183
9205687500 -1.0076824 133.188 -9.1777773 -73.192528 -9.1736088 -73.921593 -0.014812742 -99.544205
9205750000 -1.0129553 133.1469 -9.1813545 -73.195831 -9.1796932 -73.906631 -0.01682768 -99.460587
9205812500 -1.0091258 133.11925 -9.1780491 -73.215469 -9.1821527 -73.905998 -0.023195997 -99.453621
9205875000 -1.0042584 133.14932 -9.1910114 -73.13723 -9.1751976 -73.852577 -0.018953452 -99.515244
9205937500 -1.0046819 133.10699 -9.1783428 -73.156883 -9.163496 -73.788086 -0.022083933 -99.410439
9206000000 -1.0103799 133.12312 -9.1631374 -73.095375 -9.1709461 -73.856819 -0.014520714 -99.409325
9206062500 -1.0087284 133.11362 -9.1796293 -73.216347 -9.1661644 -73.880119 -0.019175334 -99.441109
9206125000 -1.0045273 133.09384 -9.1695156 -73.233932 -9.1685972 -73.837318 -0.024404783 -99.37719
9206187500 -1.0062053 133.10022 -9.1732111 -73.150818 -9.1643438 -73.869942 -0.011589173 -99.354424
9206250000 -1.0147386 133.02235 -9.1891689 -73.185387 -9.1802149 -73.759064 -0.027802551 -99.334663
9206312500 -1.005623 132.99202 -9.1689692 -73.19294 -9.1698799 -73.962914 -0.01619333 -99.39109
9206375000 -1.0121949 133.04161 -9.1789169 -73.115051 -9.1664515 -73.8106 -0.017759131 -99.309601
9206437500 -1.0023558 133.00391 -9.1704473 -73.135582 -9.1656818 -73.855591 -0.023411462 -99.343079
9206500000 -1.0093868 133.02498 -9.1911335 -73.199066 -9.1606646 -73.804787 -0.027544759 -99.285912
9206562500 -1.0102938 133.00195 -9.1763124 -73.289017 -9.1625261 -73.819389 -0.017205276 -99.308449
9206625000 -1.0054715 132.89297 -9.1647682 -73.179558 -9.1732187 -73.896408 -0.019430693 -99.306435
9206687500 -1.0088885 132.9751 -9.1725731 -73.203407 -9.1643839 -73.8563 -0.01413877 -99.276825
9206750000 -1.0075054 132.96162 -9.1608744 -73.153481 -9.1734276 -73.862732 -0.026214831 -99.28199
9206812500 -1.0055156 132.97643 -9.1751509 -73.123146 -9.1793289 -73.866653 -0.027216466 -99.306145
9206875000 -1.0068737 132.91829 -9.1706028 -73.194061 -9.1661892 -73.816017 -0.020505589 -99.147774
9206937500 -1.0110581 132.93997 -9.1757317 -73.110962 -9.1755962 -73.807587 -0.028673498 -99.154381
9207000000 -1.0061289 132.90395 -9.1682682 -73.157875 -9.1637812 -73.843521 -0.026646767 -99.149208
9207062500 -1.0040956 132.89626 -9.1653128 -73.091927 -9.1570969 -73.808479 -0.023686938 -99.045677
9207125000 -1.0174752 132.87604 -9.1563034 -73.149529 -9.1543388 -73.869354 -0.02068668 -99.082047
9207187500 -1.0081164 132.80524 -9.152688 -73.245262 -9.1603565 -73.870514 -0.028432107 -99.106056
9207250000 -1.0008091 132.85049 -9.1613951 -73.120697 -9.1660204 -73.806297 -0.024964688 -99.153458
9207312500 -1.0040809 132.80647 -9.1691513 -73.211105 -9.1539516 -73.82608 -0.015273219 -99.077904
9207375000 -1.0152031 132.78375 -9.1670847 -73.235687 -9.152091 -73.875908 -0.026215963 -99.020668
9207437500 -1.0060524 132.85045 -9.1494751 -73.140495 -9.1692638 -73.784363 -0.026586827 -99.060226
9207500000 -1.0101842 132.82095 -9.1605101 -73.165146 -9.1541414 -73.811577 -0.033085771 -99.044876
9207562500 -0.99516296 132.82314 -9.151535 -73.095345 -9.1500959 -73.779106 -0.020832947 -99.002647
9207625000 -1.0141631 132.69426 -9.1629543 -73.186081 -9.1621838 -73.828018 -0.025747811 -98.885605
9207687500 -1.0123355 132.74638 -9.1569986 -73.163773 -9.1585445 -73.818123 -0.021024447 -98.974762
9207750000 -1.0106815 132.75195 -9.1598816 -73.119759 -9.1492596 -73.76757 -0.018745946 -98.90937
9207812500 -1.010046 132.72856 -9.1781044 -73.133133 -9.1510296 -73.837914 -0.029016264 -98.982254
9207875000 -1.0110984 132.74173 -9.1713667 -73.078583 -9.1522818 -73.831886 -0.023323566 -98.898285
9207937500 -1.0072814 132.65746 -9.1549463 -73.11599 -9.1511316 -73.854393 -0.030022403 -98.975517
9208000000 -1.0202156 132.69887 -9.1637869 -73.158325 -9.1574135 -73.756859 -0.024066359 -98.890167
9208062500 -1.0120866 132.6906 -9.1599216 -73.066254 -9.1446991 -73.809105 -0.021484241 -98.847878
9208125000 -1.0139558 132.66202 -9.1697273 -73.133987 -9.1493587 -73.820648 -0.028180009 -98.8498
9208187500 -1.0084665 132.65764 -9.1651754 -73.16777 -9.1581821 -73.737289 -0.035121251 -98.817566
9208250000 -1.0165589 132.6095 -9.1614752 -73.092018 -9.1466703 -73.826057 -0.030099647 -98.792915
9208312500 -1.0046568 132.67155 -9.1641064 -73.114876 -9.1373348 -73.79763 -0.029241038 -98.772499
9208375000 -1.0159209 132.59303 -9.1507673 -73.084915 -9.1529207 -73.705254 -0.0335785 -98.721779
9208437500 -1.0098253 132.57367 -9.1609058 -73.152443 -9.153368 -73.748665 -0.038617205 -98.725548
9208500000 -1.0147249 132.55284 -9.153697 -73.144501 -9.1466074 -73.798973 -0.023970194 -98.769608
9208562500 -1.0119113 132.57683 -9.1523008 -73.126694 -9.1503887 -73.794273 -0.028102865 -98.779793
9208625000 -1.0062796 132.5056 -9.1352577 -73.101364 -9.1450081 -73.725266 -0.036016475 -98.695778
9208687500 -1.0113279 132.49043 -9.1491909 -73.114883 -9.1368523 -73.822578 -0.023369007 -98.688522
9208750000 -1.0049762 132.54951 -9.1521053 -73.069099 -9.1436062 -73.719788 -0.025477855 -98.620781
9208812500 -1.0127052 132.58472 -9.1557026 -73.058807 -9.1519938 -73.766121 -0.029420825 -98.623238
9208875000 -1.0114349 132.45685 -9.1525621 -73.07579 -9.1503725 -73.786026 -0.024624785 -98.64315
9208937500 -1.0112207 132.50804 -9.1477957 -73.106483 -9.1368904 -73.764847 -0.029249413 -98.625374
9209000000 -1.0028653 132.47102 -9.1543531 -73.026344 -9.1414251 -73.765488 -0.037558548 -98.665848
9209062500 -1.0105716 132.46475 -9.1470251 -73.070137 -9.1521025 -73.782394 -0.035730127 -98.601715
9209125000 -1.0172628 132.49266 -9.1453457 -73.033081 -9.1352034 -73.722267 -0.018953653 -98.532372
9209187500 -1.012355 132.43623 -9.1484957 -73.135216 -9.1480999 -73.799652 -0.036048055 -98.592049
9209250000 -1.0033101 132.40411 -9.1403551 -73.08223 -9.1400537 -73.832748 -0.025210682 -98.515556
9209312500 -1.0146661 132.31921 -9.1516199 -73.160484 -9.1336517 -73.828117 -0.03479027 -98.543449
9209375000 -0.99898881 132.429 -9.1479244 -73.019417 -9.149395 -73.696747 -0.040958107 -98.462135
9209437500 -1.016765 132.32079 -9.1451635 -73.046371 -9.1356182 -73.790909 -0.029547321 -98.458084
9209500000 -1.0074929 132.34607 -9.1430721 -73.065926 -9.1362171 -73.69722 -0.031624749 -98.402931
9209562500 -1.0179744 132.35872 -9.148015 -73.078499 -9.1410275 -73.744881 -0.041282117 -98.401733
9209625000 -1.0103838 132.27043 -9.1334391 -73.15004 -9.1374178 -73.708778 -0.029512903 -98.389091
9209687500 -1.0120277 132.24504 -9.1367836 -73.036377 -9.1489906 -73.690598 -0.041516576 -98.370018
9209750000 -1.0152284 132.26094 -9.1344872 -73.125252 -9.1337004 -73.739662 -0.023030352 -98.413727
9209812500 -1.0083114 132.26523 -9.1428566 -73.061081 -9.1398611 -73.762978 -0.034655429 -98.356369
9209875000 -1.0107793 132.29459 -9.1309319 -73.032722 -9.1279106 -73.783928 -0.031213842 -98.368393
9209937500 -1.013389 132.34987 -9.1497002 -73.080894 -9.1454124 -73.748344 -0.042842075 -98.411301
9210000000 -1.0054077 132.26733 -9.1459951 -73.071373 -9.1331291 -73.687424 -0.046173275 -98.286324
9210062500 -1.0201727 132.26704 -9.1370611 -73.04525 -9.134408 -73.79406 -0.036080692 -98.31678
9210125000 -1.0057869 132.18187 -9.1426544 -73.051773 -9.1331177 -73.734169 -0.040770281 -98.322495
9210187500 -1.0169028 132.24512 -9.1346846 -73.053856 -9.1266003 -73.759819 -0.03227821 -98.262459
9210250000 -1.0140318 132.24684 -9.1290026 -73.050148 -9.1359682 -73.719551 -0.040649962 -98.229118
9210312500 -1.0146694 132.16159 -9.1402864 -72.998512 -9.138875 -73.72274 -0.036486771 -98.29911
9210375000 -1.0090404 132.20633 -9.1400013 -73.041451 -9.1363277 -73.716515 -0.034200072 -98.146469
9210437500 -1.008497 132.17342 -9.143878 -73.043442 -9.1292057 -73.767708 -0.034505367 -98.272285
9210500000 -1.0032282 132.1212 -9.1297045 -73.118439 -9.1259251 -73.737816 -0.030989597 -98.203178
9210562500 -1.0112298 132.10715 -9.1291142 -72.996117 -9.1379099 -73.692474 -0.0392217 -98.127228
9210625000 -1.0069096 132.11769 -9.1380053 -73.056725 -9.1351995 -73.745979 -0.041511532 -98.223068
9210687500 -1.0101641 132.15005 -9.1318617 -73.068329 -9.1233644 -73.78614 -0.038318537 -98.121796
9210750000 -1.0062199 132.08148 -9.1277018 -73.14119 -9.1315975 -73.7257 -0.040055495 -98.113937
9210812500 -1.0192853 132.06544 -9.1439266 -73.02433 -9.1276331 -73.667381 -0.04453003 -98.078362
9210875000 -1.014913 132.09525 -9.1401081 -73.054634 -9.1201286 -73.699921 -0.036426902 -98.141205
9210937500 -1.0098205 132.06827 -9.131238 -73.094887 -9.1220961 -73.716049 -0.041209534 -98.084404
9211000000 -1.0109706 132.06435 -9.1293917 -73.025116 -9.128891 -73.713982 -0.028666807 -98.077263
9211062500 -1.007791 132.03601 -9.1281834 -73.079803 -9.1261492 -73.675308 -0.044373229 -98.033348
9211125000 -1.0080452 131.99846 -9.121829 -73.05439 -9.1110258 -73.688934 -0.029914198 -98.019409
9211187500 -1.0176506 132.0002 -9.1232834 -72.988358 -9.1239223 -73.654572 -0.037554428 -97.976036
9211250000 -1.0188024 132.00957 -9.1285191 -73.05925 -9.1240053 -73.68866 -0.036472168 -98.019325
9211312500 -1.0128407 131.99263 -9.1286716 -72.981194 -9.1176233 -73.684212 -0.038761392 -97.953598
9211375000 -1.0123894 131.89761 -9.1270723 -73.062111 -9.1197777 -73.711426 -0.046364736 -97.947044
9211437500 -1.011089 131.93317 -9.1216383 -73.048508 -9.1133327 -73.676659 -0.033834655 -97.883904
9211500000 -1.0153064 131.90721 -9.1258183 -73.062447 -9.1251593 -73.672195 -0.037973888 -97.91774
9211562500 -1.0165571 131.98083 -9.1327448 -73.028053 -9.1178856 -73.672638 -0.04381147 -97.920311
9211625000 -1.012518 131.86964 -9.1142349 -73.072678 -9.1114035 -73.708511 -0.026560171 -97.937729
9211687500 -1.0132525 131.91498 -9.1270456 -73.005379 -9.1039658 -73.708763 -0.038516395 -97.848244
9211750000 -1.0142308 131.87497 -9.1171465 -73.000359 -9.1139193 -73.693909 -0.038984627 -97.823013
9211812500 -1.0175931 131.84314 -9.1360369 -73.004326 -9.1149893 -73.626015 -0.052325364 -97.776741
9211875000 -1.0182124 131.83154 -9.1262684 -72.990051 -9.1032448 -73.624557 -0.035637848 -97.71479
9211937500 -1.014605 131.87708 -9.1173773 -73.006226 -9.1133575 -73.690453 -0.051488347 -97.764229
9212000000 -1.0119996 131.76637 -9.119216 -72.992897 -9.1059008 -73.678223 -0.039637741 -97.777176
9212062500 -1.0115949 131.77348 -9.1255999 -73.01606 -9.1070738 -73.6446 -0.053990252 -97.718277
9212125000 -1.01458 131.73668 -9.1137781 -73.010277 -9.1223478 -73.661415 -0.048698016 -97.683823
9212187500 -0.99948609 131.7809 -9.0938826 -72.963196 -9.1081038 -73.655899 -0.048516296 -97.737038
