!Agilent Technologies,N5242A,MY51221714,A.09.90.19
!Agilent N5242A: A.09.90.19
!Date: Tuesday, March 26, 2024 15:57:10
!Correction: S11(Full 2 Port(1,2)) 
!S21(Full 2 Port(1,2)) 
!S12(Full 2 Port(1,2)) 
!S22(Full 2 Port(1,2)) 
!S2P File: Measurements: S11, S21, S12, S22:
# Hz S  dB   R 50
9200000000 -1.1890601 132.71443 -9.0000286 -76.312553 -8.9796171 -76.991768 -0.19735482 -101.97288
9200062500 -1.1917578 132.67982 -8.9831219 -76.327576 -8.9919863 -77.004761 -0.18564846 -101.93594
9200125000 -1.1958841 132.6541 -8.9911404 -76.250153 -8.989852 -76.948761 -0.19612983 -101.88361
9200187500 -1.1963652 132.68286 -8.995369 -76.247612 -8.9856052 -77.009407 -0.17825523 -101.93589
9200250000 -1.1859919 132.62192 -8.9758291 -76.303032 -8.9804792 -76.993279 -0.18522198 -101.90182
9200312500 -1.1978773 132.62 -8.9871531 -76.314362 -8.9880877 -76.963501 -0.18751636 -101.89782
9200375000 -1.1999753 132.61697 -8.9917717 -76.250221 -8.982461 -77.080284 -0.17796299 -101.85773
9200437500 -1.187582 132.62457 -8.9833488 -76.266029 -8.9769421 -77.032425 -0.18172595 -101.85246
9200500000 -1.188623 132.56491 -8.9891043 -76.249367 -8.9750328 -76.938766 -0.19169237 -101.77003
9200562500 -1.1884612 132.59752 -8.9800854 -76.262268 -8.9846449 -76.973572 -0.18979755 -101.87511
9200625000 -1.1967891 132.55167 -8.9830055 -76.298447 -8.9701881 -77.02697 -0.18573032 -101.78198
9200687500 -1.1826481 132.53993 -8.9804888 -76.213043 -8.9798803 -77.004944 -0.1870376 -101.79397
9200750000 -1.193959 132.49495 -8.978735 -76.340797 -8.9775991 -76.959892 -0.19170515 -101.79704
9200812500 -1.2048789 132.49139 -8.9874144 -76.246445 -8.9873447 -76.978447 -0.20452388 -101.78075
9200875000 -1.1887797 132.5874 -8.9857378 -76.223015 -8.986064 -76.93811 -0.19649772 -101.7498
9200937500 -1.2005529 132.50441 -8.9915047 -76.260788 -8.9777794 -76.923531 -0.19555821 -101.68201
9201000000 -1.1904807 132.46202 -8.9887724 -76.307701 -8.9661999 -76.955894 -0.18525079 -101.71476
9201062500 -1.1844323 132.44032 -8.9686956 -76.233208 -8.9733448 -76.984123 -0.19002341 -101.68461
9201125000 -1.1972889 132.46091 -8.9756908 -76.243645 -8.9758329 -76.971687 -0.18950373 -101.67216
9201187500 -1.2000877 132.35666 -8.9828167 -76.300102 -8.9751587 -76.943672 -0.19837759 -101.57244
9201250000 -1.1896702 132.45862 -8.9712458 -76.231575 -8.9797134 -76.932678 -0.19526479 -101.61443
9201312500 -1.2040484 132.38635 -8.9793844 -76.250565 -8.9678516 -76.951859 -0.18477988 -101.62363
9201375000 -1.1995525 132.39732 -8.9835672 -76.198143 -8.9744749 -76.859726 -0.20482892 -101.57546
9201437500 -1.1944493 132.41257 -8.9831877 -76.240715 -8.9835091 -76.990044 -0.1996665 -101.65673
9201500000 -1.196748 132.40178 -8.9832916 -76.273033 -8.981904 -76.940788 -0.20416355 -101.60155
9201562500 -1.200284 132.31535 -8.9848366 -76.300301 -8.9711933 -76.937782 -0.20191015 -101.58137
9201625000 -1.1935515 132.33028 -8.978302 -76.250282 -8.9691372 -76.867912 -0.20441918 -101.49951
9201687500 -1.1964004 132.35451 -8.969162 -76.146019 -8.970355 -76.90184 -0.20198844 -101.42628
9201750000 -1.1995476 132.31062 -8.9819813 -76.235428 -8.9659729 -76.975914 -0.18611412 -101.48002
9201812500 -1.1921546 132.29356 -8.9767838 -76.214622 -8.9630623 -76.989296 -0.19629824 -101.55685
9201875000 -1.1948243 132.25638 -8.9735928 -76.250687 -8.9682808 -76.972382 -0.19021693 -101.4509
9201937500 -1.2056975 132.25214 -8.9762135 -76.218613 -8.9663258 -76.980713 -0.19714364 -101.50244
9202000000 -1.2011112 132.25244 -8.9680262 -76.190048 -8.9680223 -76.978363 -0.19268939 -101.44476
9202062500 -1.2014657 132.25206 -8.9589348 -76.23674 -8.9507456 -76.998611 -0.18276656 -101.4242
9202125000 -1.1984798 132.26556 -8.987072 -76.289604 -8.9694023 -76.911049 -0.20210138 -101.45628
9202187500 -1.1883099 132.23778 -8.9609976 -76.17971 -8.9674606 -76.969101 -0.1958604 -101.34642
9202250000 -1.1961604 132.21648 -8.9691744 -76.296242 -8.9591436 -76.885239 -0.19642042 -101.33501
9202312500 -1.1929044 132.1994 -8.9640017 -76.243851 -8.9611931 -76.929436 -0.19817437 -101.32632
9202375000 -1.1986991 132.16399 -8.9735279 -76.239571 -8.9537582 -76.98925 -0.20127447 -101.29021
9202437500 -1.1991268 132.17996 -8.972147 -76.195419 -8.9623518 -76.871567 -0.19307323 -101.314
9202500000 -1.2032236 132.16174 -8.9666414 -76.261368 -8.9646692 -76.941833 -0.19670248 -101.36008
9202562500 -1.1842898 132.07111 -8.9511175 -76.245117 -8.9596577 -76.841461 -0.20054549 -101.2631
9202625000 -1.200725 132.20122 -8.9662123 -76.243172 -8.9610596 -76.908913 -0.20008448 -101.27643
9202687500 -1.1949809 132.12634 -8.9545345 -76.236633 -8.9570961 -76.911453 -0.18629275 -101.16617
9202750000 -1.1873384 132.06474 -8.9519892 -76.269897 -8.9555569 -76.942665 -0.19269773 -101.22945
9202812500 -1.1961336 132.09142 -8.959919 -76.232513 -8.9512005 -76.909294 -0.19123086 -101.1791
9202875000 -1.1903479 132.02879 -8.9549274 -76.191925 -8.9579926 -76.902603 -0.19639565 -101.1787
9202937500 -1.1955332 132.03558 -8.9557924 -76.292442 -8.946825 -76.8638 -0.19125468 -101.1414
9203000000 -1.1960802 132.05478 -8.9601135 -76.244438 -8.9552603 -76.944107 -0.19846082 -101.12981
9203062500 -1.1992912 132.00409 -8.9534492 -76.255028 -8.9567137 -76.886139 -0.20405458 -101.1433
9203125000 -1.1918432 131.98882 -8.9559059 -76.235703 -8.9501019 -76.91082 -0.20745979 -101.12223
9203187500 -1.1990942 131.96524 -8.9615726 -76.248451 -8.9475689 -76.926239 -0.19995311 -101.11519
9203250000 -1.1978624 131.95151 -8.9620361 -76.243896 -8.949975 -76.862183 -0.19609785 -101.06041
9203312500 -1.206769 131.9989 -8.96387 -76.160706 -8.9532309 -76.947769 -0.19843192 -101.07327
9203375000 -1.1965845 131.96471 -8.9526405 -76.261536 -8.9440479 -76.930626 -0.19583279 -101.0507
9203437500 -1.2081019 131.97697 -8.9605732 -76.243752 -8.9506893 -76.88073 -0.19944549 -101.09789
9203500000 -1.1961672 131.93494 -8.9494324 -76.191124 -8.9564142 -76.934265 -0.19725516 -101.04264
9203562500 -1.2026564 131.937 -8.9562159 -76.225784 -8.9659338 -76.94664 -0.21254051 -101.05228
9203625000 -1.1976365 131.88902 -8.9578886 -76.295555 -8.9550228 -76.911232 -0.20665073 -101.06534
9203687500 -1.2092638 131.86826 -8.9683418 -76.309921 -8.9594326 -76.883621 -0.20521183 -100.95358
9203750000 -1.1978513 131.84256 -8.9548378 -76.198349 -8.9573936 -76.894569 -0.1982006 -100.93973
9203812500 -1.1995209 131.84018 -8.9452877 -76.263069 -8.94979 -76.903687 -0.20067573 -100.9301
9203875000 -1.2004459 131.87785 -8.9601297 -76.179512 -8.9493704 -76.922142 -0.21640632 -100.88923
9203937500 -1.2036016 131.83315 -8.9440527 -76.206917 -8.9373198 -76.835945 -0.19705208 -100.92194
9204000000 -1.195294 131.85086 -8.9383764 -76.147888 -8.9459448 -76.936371 -0.20028904 -100.87118
9204062500 -1.1957445 131.82811 -8.9390612 -76.189987 -8.9417095 -76.895287 -0.20500574 -100.83469
9204125000 -1.2014345 131.8054 -8.947278 -76.201828 -8.9439793 -76.889191 -0.2026262 -100.8589
9204187500 -1.2037445 131.75775 -8.953289 -76.229912 -8.9399824 -76.894615 -0.21088517 -100.83418
9204250000 -1.2009586 131.76227 -8.9383802 -76.280182 -8.9474421 -76.863785 -0.2044367 -100.81092
9204312500 -1.1982909 131.82518 -8.9468546 -76.120476 -8.9461794 -76.890411 -0.21252416 -100.74078
9204375000 -1.1924137 131.78581 -8.9520826 -76.128441 -8.9468956 -76.901909 -0.20648739 -100.75779
9204437500 -1.2061752 131.7486 -8.9413757 -76.263664 -8.940937 -76.916321 -0.19724716 -100.78362
9204500000 -1.2070788 131.77887 -8.9521084 -76.168663 -8.9451571 -76.896011 -0.21095893 -100.75768
9204562500 -1.1979431 131.67993 -8.9548521 -76.276619 -8.9408197 -76.933365 -0.19698429 -100.81863
9204625000 -1.1947652 131.67775 -8.9352484 -76.191994 -8.9355888 -76.951401 -0.20710695 -100.68147
9204687500 -1.2016063 131.69003 -8.9478893 -76.169601 -8.9376116 -76.8451 -0.20375326 -100.60095
9204750000 -1.207528 131.62872 -8.9394684 -76.182983 -8.937376 -76.920876 -0.22050609 -100.71532
9204812500 -1.1992571 131.62663 -8.9422827 -76.163513 -8.9420805 -76.892921 -0.20290974 -100.6616
9204875000 -1.1996206 131.67088 -8.9281893 -76.186363 -8.9423304 -76.863373 -0.20511323 -100.70407
9204937500 -1.2009856 131.65515 -8.9442673 -76.208672 -8.9326 -76.868126 -0.19887358 -100.61036
9205000000 -1.1890388 131.56926 -8.9367466 -76.125717 -8.9332304 -76.823677 -0.21359621 -100.59987
9205062500 -1.2073209 131.56606 -8.9423351 -76.245186 -8.9223232 -76.873444 -0.20512737 -100.56352
9205125000 -1.198989 131.57426 -8.9343681 -76.146889 -8.9313631 -76.839981 -0.20595752 -100.52135
9205187500 -1.2026323 131.58818 -8.9344988 -76.148651 -8.9399223 -76.821312 -0.21409932 -100.50806
9205250000 -1.1991191 131.55455 -8.9465609 -76.212494 -8.9443779 -76.847916 -0.21811326 -100.63345
9205312500 -1.2039437 131.61255 -8.9312639 -76.169586 -8.9345465 -76.80011 -0.21380363 -100.52726
9205375000 -1.2025212 131.50592 -8.9296398 -76.167862 -8.9277086 -76.773521 -0.20223425 -100.48158
9205437500 -1.1988776 131.51854 -8.9285069 -76.070457 -8.9272318 -76.790817 -0.2036881 -100.46571
9205500000 -1.2077222 131.42934 -8.9292936 -76.135269 -8.9325924 -76.904854 -0.21312657 -100.39977
9205562500 -1.2069125 131.50603 -8.9252386 -76.251389 -8.9311152 -76.896194 -0.21159023 -100.45242
9205625000 -1.2097913 131.46851 -8.9325733 -76.200638 -8.9266033 -76.923866 -0.21432379 -100.42274
9205687500 -1.1999364 131.47826 -8.9273233 -76.173424 -8.9232912 -76.952164 -0.20787142 -100.40637
9205750000 -1.2036731 131.42807 -8.9267511 -76.217346 -8.9296474 -76.91024 -0.20427676 -100.38625
9205812500 -1.2080867 131.40694 -8.921545 -76.149704 -8.9243212 -76.935165 -0.20985337 -100.35142
9205875000 -1.2025629 131.46669 -8.933465 -76.167664 -8.9336128 -76.849922 -0.21398348 -100.38451
9205937500 -1.2042681 131.40805 -8.9243622 -76.155342 -8.9166937 -76.775688 -0.20932803 -100.31579
9206000000 -1.205107 131.40172 -8.9179363 -76.108109 -8.9190187 -76.818916 -0.2045677 -100.27986
9206062500 -1.2029166 131.37418 -8.9262295 -76.255882 -8.9204302 -76.843933 -0.21666093 -100.34782
9206125000 -1.1992906 131.35808 -8.9135065 -76.164207 -8.9159327 -76.831223 -0.2147841 -100.25379
9206187500 -1.2033955 131.36409 -8.9247303 -76.185242 -8.9140902 -76.863319 -0.20479731 -100.29077
9206250000 -1.2105097 131.30775 -8.9313259 -76.196167 -8.9224739 -76.782425 -0.21347538 -100.25517
9206312500 -1.2024626 131.26939 -8.9185219 -76.174347 -8.915123 -76.982101 -0.2046335 -100.27984
9206375000 -1.2083975 131.29024 -8.9256086 -76.123512 -8.9167614 -76.7836 -0.2070716 -100.24175
9206437500 -1.2061032 131.27673 -8.9268427 -76.153328 -8.9198561 -76.799942 -0.21900733 -100.24081
9206500000 -1.2001231 131.2775 -8.9244337 -76.162689 -8.9190607 -76.801033 -0.22238408 -100.22083
9206562500 -1.2031835 131.26387 -8.9160633 -76.234138 -8.919754 -76.790649 -0.20934944 -100.22715
9206625000 -1.2060804 131.20308 -8.9231148 -76.132675 -8.9282846 -76.890381 -0.2238546 -100.20674
9206687500 -1.2038443 131.23293 -8.9218311 -76.207611 -8.9024935 -76.87365 -0.2000424 -100.21028
9206750000 -1.2016891 131.21512 -8.9137764 -76.138237 -8.9203711 -76.786743 -0.21751015 -100.10764
9206812500 -1.2049899 131.24478 -8.9291801 -76.176933 -8.9164467 -76.864204 -0.21054412 -100.17316
9206875000 -1.2086112 131.15817 -8.9184713 -76.245644 -8.9029837 -76.775352 -0.20875193 -100.01279
9206937500 -1.2100141 131.21297 -8.9211397 -76.055542 -8.9175005 -76.861626 -0.2122145 -100.05821
9207000000 -1.2024212 131.1722 -8.9167337 -76.132774 -8.9154148 -76.877098 -0.21389492 -100.09624
9207062500 -1.2019613 131.14352 -8.9075108 -76.097366 -8.913063 -76.787384 -0.21779099 -99.971657
9207125000 -1.215905 131.09824 -8.9001417 -76.191223 -8.9104185 -76.848358 -0.21430777 -100.0128
9207187500 -1.2074597 131.0988 -8.9157095 -76.241325 -8.9227285 -76.814888 -0.22401336 -100.02874
9207250000 -1.2058618 131.11119 -8.9179268 -76.188751 -8.9135513 -76.819328 -0.21232557 -100.03596
9207312500 -1.2032987 131.09979 -8.9168015 -76.191826 -8.8989172 -76.83532 -0.20493901 -100.01072
9207375000 -1.2103641 131.04456 -8.9103632 -76.193428 -8.9060202 -76.851295 -0.21780382 -99.944542
9207437500 -1.2045908 131.08063 -8.9100189 -76.166161 -8.9214516 -76.847839 -0.21505795 -99.962357
9207500000 -1.2151806 131.11414 -8.9313803 -76.131554 -8.9002581 -76.786209 -0.224849 -99.867897
9207562500 -1.2016664 131.11195 -8.9066715 -76.145836 -8.9044466 -76.84613 -0.21726339 -99.969246
9207625000 -1.2073241 130.97147 -8.9132481 -76.14444 -8.903801 -76.803574 -0.2190804 -99.833969
9207687500 -1.2107962 131.02209 -8.9007015 -76.183022 -8.90903 -76.851715 -0.21802349 -99.918663
9207750000 -1.2072197 130.99687 -8.9015789 -76.112526 -8.8941097 -76.851631 -0.20708087 -99.910858
9207812500 -1.2126697 130.98883 -8.9134035 -76.181595 -8.9043531 -76.838005 -0.22853987 -99.874611
9207875000 -1.2072824 130.98253 -8.9077425 -76.143196 -8.8969288 -76.795532 -0.21240628 -99.811943
9207937500 -1.2116178 130.93106 -8.919898 -76.151505 -8.9007998 -76.933105 -0.22407933 -99.89904
9208000000 -1.2164396 130.95493 -8.903038 -76.140778 -8.8946371 -76.79808 -0.21551625 -99.806763
9208062500 -1.2130384 130.93488 -8.9016533 -76.149033 -8.9018869 -76.80027 -0.22056773 -99.737473
9208125000 -1.2124419 130.88737 -8.9054804 -76.204163 -8.904067 -76.830055 -0.22315373 -99.764282
9208187500 -1.2017111 130.94751 -8.9088373 -76.068954 -8.9056053 -76.806183 -0.22375725 -99.726723
9208250000 -1.2208768 130.90903 -8.9167652 -76.076538 -8.8941231 -76.804626 -0.22093239 -99.711594
9208312500 -1.2041506 130.88988 -8.9056883 -76.134277 -8.8855486 -76.752731 -0.21711154 -99.681732
9208375000 -1.2136542 130.86809 -8.898859 -76.08886 -8.900281 -76.769295 -0.22684649 -99.672546
9208437500 -1.208001 130.78467 -8.9017 -76.177742 -8.9080839 -76.711121 -0.23115198 -99.66201
9208500000 -1.2143146 130.79439 -8.9051857 -76.108734 -8.8934612 -76.844147 -0.22277293 -99.671326
9208562500 -1.2103654 130.8197 -8.8913774 -76.141975 -8.8993311 -76.750648 -0.22156498 -99.625023
9208625000 -1.205323 130.79379 -8.8929853 -76.102676 -8.8921366 -76.686028 -0.2315409 -99.651932
9208687500 -1.2029315 130.75291 -8.8935757 -76.160339 -8.9010305 -76.836906 -0.22287416 -99.633102
9208750000 -1.2079326 130.79688 -8.8977299 -76.118134 -8.8958206 -76.769104 -0.22451016 -99.567581
9208812500 -1.2179557 130.82071 -8.9100294 -76.119415 -8.9001245 -76.814682 -0.22121589 -99.582184
9208875000 -1.2121601 130.72797 -8.8969116 -76.130783 -8.9030952 -76.7976 -0.22476394 -99.551666
9208937500 -1.21372 130.74651 -8.8886929 -76.179977 -8.8852758 -76.770195 -0.22204363 -99.494682
9209000000 -1.2063053 130.76244 -8.899889 -76.181229 -8.8859873 -76.74379 -0.23077638 -99.57
9209062500 -1.2106252 130.76724 -8.9044285 -76.081802 -8.9005594 -76.769859 -0.22819656 -99.467934
9209125000 -1.2182277 130.68349 -8.8922548 -76.159203 -8.8870554 -76.786636 -0.21397057 -99.463821
9209187500 -1.2078477 130.72539 -8.8897867 -76.096436 -8.8957062 -76.699181 -0.22470134 -99.428413
9209250000 -1.2028517 130.65071 -8.8862429 -76.114128 -8.8759451 -76.847534 -0.21419898 -99.41497
9209312500 -1.2094178 130.61328 -8.893774 -76.104515 -8.8877192 -76.796402 -0.23007935 -99.432716
9209375000 -1.2062061 130.64928 -8.893302 -76.082077 -8.9004831 -76.724373 -0.23400259 -99.438652
9209437500 -1.2190366 130.59787 -8.9004192 -76.146744 -8.8833284 -76.794991 -0.22363833 -99.322189
9209500000 -1.2034141 130.60551 -8.886898 -76.186066 -8.8881474 -76.737801 -0.22717595 -99.329254
9209562500 -1.2217963 130.61809 -8.9063902 -76.068184 -8.8855066 -76.765602 -0.23539446 -99.307762
9209625000 -1.216693 130.57298 -8.896349 -76.137878 -8.8772821 -76.80249 -0.22363971 -99.345963
9209687500 -1.2114991 130.51117 -8.8853092 -76.171913 -8.8897667 -76.748573 -0.22532071 -99.343849
9209750000 -1.2089375 130.5489 -8.8750114 -76.20282 -8.8882313 -76.739449 -0.22017992 -99.315163
9209812500 -1.2089678 130.52785 -8.8919744 -76.116135 -8.8832588 -76.721886 -0.22818239 -99.238945
9209875000 -1.2083492 130.57159 -8.8802862 -76.093285 -8.8841763 -76.782936 -0.23367585 -99.311417
9209937500 -1.2153966 130.62352 -8.908844 -76.105995 -8.8878822 -76.750587 -0.23259716 -99.300415
9210000000 -1.2064625 130.55125 -8.8842354 -76.066711 -8.8737726 -76.771881 -0.24167228 -99.251816
9210062500 -1.2125336 130.51649 -8.8859301 -76.119484 -8.872962 -76.819412 -0.22727098 -99.257675
9210125000 -1.2056249 130.45494 -8.8845291 -76.147713 -8.8748674 -76.719124 -0.22796135 -99.188354
9210187500 -1.2099782 130.48289 -8.8796062 -76.103233 -8.8751478 -76.683495 -0.2272155 -99.122246
9210250000 -1.2154721 130.48036 -8.8880644 -76.116013 -8.8694763 -76.687889 -0.23074801 -99.197601
9210312500 -1.2209039 130.48845 -8.8845234 -75.954575 -8.8775444 -76.767654 -0.22914936 -99.179359
9210375000 -1.2095664 130.4803 -8.8876514 -76.078125 -8.8837271 -76.75872 -0.23525032 -99.098557
9210437500 -1.208698 130.42644 -8.8899193 -76.060829 -8.8753633 -76.796425 -0.22675259 -99.153198
9210500000 -1.2095019 130.38821 -8.8781176 -76.086311 -8.8757572 -76.749458 -0.22700258 -99.12175
9210562500 -1.2120082 130.3923 -8.8757648 -76.066986 -8.8733015 -76.790947 -0.22974485 -99.040741
9210625000 -1.2103428 130.41266 -8.889081 -76.090088 -8.8777618 -76.679405 -0.23387814 -99.113304
9210687500 -1.2145617 130.41612 -8.878027 -76.014893 -8.8795443 -76.752747 -0.23419946 -99.073227
9210750000 -1.2146879 130.37753 -8.8826056 -76.084801 -8.8747454 -76.774178 -0.23056732 -99.048889
9210812500 -1.2156706 130.31966 -8.8834095 -76.066986 -8.8795586 -76.661987 -0.23787104 -98.982109
9210875000 -1.21091 130.35164 -8.8830814 -76.062515 -8.8719568 -76.701721 -0.23993364 -99.025421
9210937500 -1.2099358 130.36043 -8.8744497 -76.040596 -8.872488 -76.678101 -0.2352522 -98.996399
9211000000 -1.2130108 130.32069 -8.878623 -76.039268 -8.8696833 -76.743919 -0.22516847 -98.973
9211062500 -1.2100018 130.26341 -8.8768311 -76.043007 -8.8744736 -76.74765 -0.23724408 -98.987976
9211125000 -1.2123834 130.24004 -8.8698883 -76.114204 -8.8692961 -76.706955 -0.23049521 -98.962563
9211187500 -1.2138627 130.27681 -8.8702993 -76.050957 -8.8593235 -76.712509 -0.23705496 -98.915466
9211250000 -1.2163941 130.25449 -8.8631639 -76.092209 -8.8695393 -76.68618 -0.22251761 -98.9151
9211312500 -1.2163192 130.24294 -8.875617 -76.06694 -8.8640404 -76.698227 -0.23990306 -98.885452
9211375000 -1.2151879 130.17149 -8.8708715 -76.083443 -8.8646479 -76.770798 -0.22781651 -98.824295
9211437500 -1.205268 130.16838 -8.8571033 -76.087479 -8.8714352 -76.737221 -0.23706257 -98.821991
9211500000 -1.2211285 130.15475 -8.8755074 -76.08287 -8.863471 -76.719482 -0.23202394 -98.83461
9211562500 -1.2201111 130.22874 -8.87883 -76.091652 -8.8519554 -76.727737 -0.23497158 -98.819038
9211625000 -1.2135915 130.17363 -8.8599262 -76.110489 -8.8501711 -76.822739 -0.22845913 -98.874786
9211687500 -1.2161762 130.17326 -8.8655462 -76.054626 -8.8602448 -76.710571 -0.23708291 -98.756996
9211750000 -1.2180868 130.09282 -8.8716707 -76.084846 -8.8701286 -76.729233 -0.23257656 -98.722206
9211812500 -1.2184829 130.10583 -8.8742304 -76.086189 -8.861639 -76.679237 -0.24364997 -98.745354
9211875000 -1.2197173 130.07869 -8.8706779 -76.090019 -8.8553076 -76.656929 -0.2302762 -98.668526
9211937500 -1.2164768 130.14224 -8.8654699 -76.057404 -8.865571 -76.687836 -0.24931084 -98.687775
9212000000 -1.2085764 129.99936 -8.8517675 -76.097168 -8.8556137 -76.750206 -0.23853858 -98.698097
9212062500 -1.2122128 130.03821 -8.8674183 -76.053757 -8.8601856 -76.661583 -0.24653873 -98.669449
9212125000 -1.2077634 129.97519 -8.8488016 -76.114708 -8.8677864 -76.726814 -0.24151918 -98.684349
9212187500 -1.2043045 130.0242 -8.8560886 -76.035706 -8.8566484 -76.705879 -0.24651189 -98.653206
9212250000 -1.2084881 129.99055 -8.8643112 -76.072769 -8.85007 -76.763496 -0.23141904 -98.654404
9212312500 -1.2117398 130.03667 -8.8633404 -75.989182 -8.8525963 -76.67572 -0.24151227 -98.629097
