!Agilent Technologies,N5242A,MY51221714,A.09.90.19
!Agilent N5242A: A.09.90.19
!Date: Tuesday, March 26, 2024 15:58:17
!Correction: S11(Full 2 Port(1,2)) 
!S21(Full 2 Port(1,2)) 
!S12(Full 2 Port(1,2)) 
!S22(Full 2 Port(1,2)) 
!S2P File: Measurements: S11, S21, S12, S22:
# Hz S  dB   R 50
9200000000 -0.98317057 134.43654 -9.206934 -72.852715 -9.1935282 -73.590851 0.0013194238 -100.61215
9200062500 -0.98438114 134.41721 -9.201376 -72.919991 -9.2044983 -73.515053 0.0040630153 -100.52214
9200125000 -0.9843865 134.36119 -9.1965923 -72.880882 -9.2011356 -73.55246 -0.001438463 -100.56045
9200187500 -0.99063921 134.43831 -9.2079725 -72.784889 -9.2028675 -73.598579 0.010986111 -100.50992
9200250000 -0.97908634 134.38466 -9.1992369 -72.882866 -9.19872 -73.518715 0.0096170548 -100.54075
9200312500 -0.99100095 134.33995 -9.2082014 -72.883148 -9.1971407 -73.51236 0.0090038823 -100.48271
9200375000 -0.98626447 134.34167 -9.2082386 -72.874367 -9.1947203 -73.589287 0.01757589 -100.50281
9200437500 -0.98881137 134.37456 -9.2095566 -72.855148 -9.1849031 -73.594498 0.018255753 -100.48289
9200500000 -0.98747939 134.29485 -9.1994638 -72.863136 -9.1913671 -73.442017 0.0060808877 -100.43785
9200562500 -0.97521293 134.31483 -9.1938486 -72.826515 -9.2052975 -73.549522 0.0038947701 -100.4733
9200625000 -0.98957026 134.25439 -9.1987257 -72.924324 -9.1953135 -73.514412 0.0035792235 -100.39165
9200687500 -0.97411633 134.31543 -9.1962175 -72.751816 -9.1999674 -73.523178 0.0056576449 -100.36309
9200750000 -0.98815954 134.20692 -9.1978188 -72.889359 -9.1916351 -73.521492 0.0054349257 -100.38291
9200812500 -0.99372798 134.26361 -9.2024555 -72.791611 -9.1953678 -73.472336 -0.015074009 -100.34267
9200875000 -0.98137128 134.30995 -9.1885262 -72.771095 -9.2010202 -73.494057 -0.0059936009 -100.3918
9200937500 -0.98277795 134.2274 -9.1975317 -72.845947 -9.1844902 -73.519249 0.016412344 -100.29918
9201000000 -0.98291111 134.24217 -9.1961851 -72.87796 -9.1874752 -73.524811 0.012143608 -100.35152
9201062500 -0.97986072 134.19658 -9.191061 -72.769753 -9.1907244 -73.495773 0.00016675402 -100.23601
9201125000 -0.98648083 134.1877 -9.1912775 -72.789734 -9.1952925 -73.512756 0.0048825047 -100.24413
9201187500 -0.99131799 134.11958 -9.1987648 -72.793793 -9.1790476 -73.487587 0.0045552454 -100.15064
9201250000 -0.98543614 134.18214 -9.1814461 -72.775986 -9.1966143 -73.462029 0.0026417309 -100.18929
9201312500 -0.99522549 134.16373 -9.199563 -72.805473 -9.1862297 -73.510078 0.013011659 -100.25834
9201375000 -0.9890098 134.14491 -9.202693 -72.805695 -9.2001066 -73.448181 -0.0062630479 -100.18033
9201437500 -0.98401558 134.13174 -9.1932135 -72.771606 -9.1858177 -73.48687 0.0073900828 -100.26232
9201500000 -0.99051839 134.10916 -9.1927309 -72.818787 -9.1866961 -73.486214 0.0021728394 -100.19208
9201562500 -0.98947436 134.06958 -9.1986837 -72.830025 -9.1941814 -73.488861 -0.011022095 -100.1575
9201625000 -0.98503941 134.05692 -9.1844368 -72.76371 -9.182498 -73.436783 -0.0042194165 -100.05035
9201687500 -0.99413466 134.08235 -9.1915693 -72.642456 -9.1835709 -73.438644 0.0027069103 -99.974533
9201750000 -0.98480481 134.0468 -9.1915903 -72.802948 -9.1781282 -73.475334 0.0091696158 -100.07204
9201812500 -0.98316228 134.0779 -9.1970491 -72.767754 -9.1852894 -73.458923 -0.0059558516 -100.1138
9201875000 -0.98424995 134.03545 -9.1813059 -72.814308 -9.184864 -73.472267 0.014781384 -100.01373
9201937500 -0.99888992 133.95712 -9.2050667 -72.796867 -9.1849146 -73.510605 0.0026822991 -100.02283
9202000000 -0.99343729 133.99724 -9.1881819 -72.831581 -9.188405 -73.498863 -0.00012955049 -100.02377
9202062500 -0.99067885 134.00803 -9.1754456 -72.819046 -9.183754 -73.541359 0.0046434402 -100.02914
9202125000 -0.99351096 134.0262 -9.2111807 -72.799622 -9.1872311 -73.409279 -0.0084864842 -100.00146
9202187500 -0.99324554 133.98616 -9.1912069 -72.796547 -9.177556 -73.4422 0.0013653111 -99.888313
9202250000 -0.98835385 133.9498 -9.1935453 -72.781326 -9.1860456 -73.436913 -0.0012400072 -99.921227
9202312500 -0.98927552 133.90463 -9.185317 -72.790314 -9.1764021 -73.485771 -0.0044465945 -99.912437
9202375000 -0.99007618 133.91505 -9.1945696 -72.847679 -9.1732807 -73.443626 -0.00039733906 -99.909828
9202437500 -0.99094599 133.95325 -9.1799374 -72.798927 -9.1705751 -73.469788 0.0044287238 -99.964989
9202500000 -0.99394995 133.88484 -9.1884203 -72.839561 -9.1863184 -73.486847 0.0017319421 -99.948853
9202562500 -0.986996 133.85249 -9.1861458 -72.758446 -9.1833057 -73.447945 -0.011311787 -99.928741
9202625000 -0.99778569 133.91675 -9.1807804 -72.80204 -9.1722012 -73.474014 -0.0022606298 -99.835144
9202687500 -0.98955977 133.86838 -9.184103 -72.814705 -9.1682014 -73.413315 0.0041443477 -99.770203
9202750000 -0.97893059 133.78683 -9.1745844 -72.85894 -9.1750526 -73.495285 0.0002257521 -99.866348
9202812500 -0.99820286 133.8208 -9.187129 -72.771599 -9.1606436 -73.527054 0.0081635136 -99.792252
9202875000 -0.97811413 133.83792 -9.164814 -72.769516 -9.1662254 -73.450813 0.0023865739 -99.711411
9202937500 -0.98745376 133.82207 -9.1849194 -72.818344 -9.1645651 -73.427803 0.0018593722 -99.721893
9203000000 -0.99331248 133.82909 -9.1830978 -72.7705 -9.1729717 -73.487228 -0.0035545775 -99.746323
9203062500 -0.98999727 133.74222 -9.1781607 -72.835945 -9.1799517 -73.39006 -0.0078366594 -99.775566
9203125000 -0.98030424 133.73354 -9.172946 -72.802834 -9.1662893 -73.529709 -0.0044876882 -99.773537
9203187500 -0.98987299 133.75117 -9.1918287 -72.781639 -9.1658354 -73.516594 -0.0022804525 -99.733978
9203250000 -0.9930824 133.73296 -9.1800241 -72.749626 -9.1688728 -73.400803 -0.0018985266 -99.691536
9203312500 -0.99374652 133.75964 -9.186944 -72.76754 -9.1651392 -73.507538 0.0076841912 -99.663841
9203375000 -0.98618615 133.72328 -9.171855 -72.753296 -9.1647215 -73.421021 -0.0025690093 -99.624435
9203437500 -0.99552196 133.67696 -9.1815195 -72.811394 -9.1713066 -73.392075 0.00052017719 -99.662827
9203500000 -0.98499751 133.68538 -9.1669321 -72.77964 -9.1712799 -73.450523 -0.00062178535 -99.648056
9203562500 -0.99687666 133.69868 -9.1881027 -72.77639 -9.1737309 -73.449112 -0.0074343858 -99.667419
9203625000 -0.99456716 133.68953 -9.1799679 -72.778564 -9.1658678 -73.480835 0.0011813815 -99.658295
9203687500 -0.99321175 133.63307 -9.1769123 -72.763931 -9.1838512 -73.48452 -0.011676623 -99.605255
9203750000 -0.99227768 133.61949 -9.175498 -72.744591 -9.1664944 -73.434456 0.0020341619 -99.559746
9203812500 -0.98991001 133.6555 -9.1722221 -72.73687 -9.1689291 -73.421341 -0.0043508061 -99.502739
9203875000 -0.98872703 133.59653 -9.1822958 -72.734222 -9.1743279 -73.437302 -0.016812922 -99.521103
9203937500 -0.99624759 133.60857 -9.1712074 -72.71373 -9.1668949 -73.412933 0.0012964141 -99.546349
9204000000 -0.99244136 133.58427 -9.1654243 -72.766983 -9.1675806 -73.413528 -0.0034559569 -99.46508
9204062500 -0.98433763 133.57344 -9.1600523 -72.734314 -9.1555147 -73.404846 -0.010736126 -99.420097
9204125000 -0.99112326 133.60635 -9.1710062 -72.688324 -9.1643553 -73.35714 -0.0010759066 -99.40918
9204187500 -0.99728674 133.47786 -9.167469 -72.778633 -9.1668167 -73.379036 -0.01169942 -99.381798
9204250000 -0.99384183 133.53708 -9.1621847 -72.745712 -9.1583881 -73.410049 0.0018476067 -99.436378
9204312500 -0.99101716 133.56876 -9.1647758 -72.698639 -9.1573553 -73.454926 -0.0024148016 -99.366753
9204375000 -0.98214316 133.52452 -9.1668158 -72.726685 -9.1619596 -73.435699 -0.003704302 -99.435738
9204437500 -0.99866158 133.508 -9.1765223 -72.77401 -9.1689386 -73.38636 -0.0065251794 -99.391197
9204500000 -1.0008794 133.47882 -9.1657248 -72.790199 -9.1666613 -73.44529 -0.0087304451 -99.352051
9204562500 -0.98621476 133.45567 -9.1712074 -72.808243 -9.1547956 -73.411186 0.0051913355 -99.366226
9204625000 -0.98012519 133.43625 -9.1627655 -72.663612 -9.160718 -73.447815 -0.005428256 -99.255867
9204687500 -0.98997635 133.43622 -9.163331 -72.733887 -9.1508865 -73.370071 -0.0044153538 -99.251251
9204750000 -0.99453044 133.43918 -9.1642227 -72.673882 -9.1651363 -73.40509 -0.020154398 -99.284645
9204812500 -0.9878518 133.40393 -9.1598864 -72.634575 -9.1589231 -73.424606 -0.0016487684 -99.266357
9204875000 -0.98997861 133.43636 -9.1603384 -72.705673 -9.162981 -73.374924 -0.0096870242 -99.250633
9204937500 -0.98751295 133.34921 -9.1569519 -72.717133 -9.1540976 -73.426239 -0.00048767883 -99.26265
9205000000 -0.98156142 133.33667 -9.1531696 -72.641937 -9.1483564 -73.371246 -0.015287586 -99.208557
9205062500 -0.99148071 133.32019 -9.1687527 -72.729935 -9.1468153 -73.41288 -0.013663511 -99.16761
9205125000 -0.98637211 133.30617 -9.1547966 -72.738014 -9.1528311 -73.396698 -0.0085587678 -99.111778
9205187500 -0.99491972 133.40137 -9.1645632 -72.633316 -9.1580153 -73.406578 -0.0095914779 -99.169052
9205250000 -0.98904884 133.28333 -9.1609621 -72.690445 -9.1627531 -73.352997 -0.020801552 -99.181602
9205312500 -0.98851538 133.34329 -9.1497707 -72.641434 -9.1513996 -73.375298 -0.0091625918 -99.189034
9205375000 -0.99369603 133.27829 -9.1533031 -72.693115 -9.1551638 -73.352608 -0.0057583298 -99.062584
9205437500 -0.98789155 133.3047 -9.1562023 -72.668633 -9.1528568 -73.372955 -0.010351406 -99.089745
9205500000 -0.99743909 133.19701 -9.1490116 -72.728043 -9.1559992 -73.413193 -0.0052218153 -99.038689
9205562500 -0.99640638 133.2459 -9.1536646 -72.75383 -9.1497202 -73.410667 -0.0047651795 -99.050735
9205625000 -1.0027899 133.24097 -9.1642704 -72.655502 -9.1463623 -73.367683 -0.016726779 -98.998375
9205687500 -0.98402852 133.24092 -9.1478252 -72.672028 -9.1484594 -73.387474 -0.013710331 -99.00885
9205750000 -0.99509931 133.17316 -9.1478481 -72.732613 -9.1469259 -73.353004 -0.010117642 -98.955299
9205812500 -0.9954266 133.1797 -9.1417923 -72.716209 -9.1542072 -73.401985 -0.012697836 -98.90815
9205875000 -0.9844901 133.21097 -9.1618309 -72.721687 -9.1470976 -73.34259 -0.0067947819 -98.98835
9205937500 -0.98496139 133.15533 -9.1516685 -72.691544 -9.1455841 -73.329018 -0.0098414132 -98.92865
9206000000 -0.98960209 133.14157 -9.1402016 -72.685165 -9.1473808 -73.330002 -0.005805918 -98.889824
9206062500 -0.99039704 133.14738 -9.1473703 -72.74617 -9.1478224 -73.36058 -0.012689034 -98.931786
9206125000 -0.99443376 133.12906 -9.1452627 -72.704163 -9.1404772 -73.268517 -0.011601125 -98.829247
9206187500 -0.99159861 133.09438 -9.1407547 -72.678551 -9.1331577 -73.392776 0.0045751231 -98.898567
9206250000 -0.99498934 133.05589 -9.1484785 -72.698158 -9.1430702 -73.288528 -0.010582813 -98.880623
9206312500 -0.98830777 133.04692 -9.1473684 -72.749611 -9.1488457 -73.475136 -0.014893596 -98.920746
9206375000 -0.99163479 133.06876 -9.1469297 -72.652077 -9.1392155 -73.268494 -0.0067650229 -98.787971
9206437500 -0.98657823 133.02603 -9.146286 -72.663437 -9.1461859 -73.312805 -0.013771429 -98.840614
9206500000 -0.99432862 133.01424 -9.1494513 -72.738281 -9.1362305 -73.360916 -0.023068702 -98.857422
9206562500 -0.99373549 133.02449 -9.1484871 -72.761627 -9.1485023 -73.327515 -0.012760021 -98.811447
9206625000 -0.99654299 132.95354 -9.1329775 -72.73156 -9.1388435 -73.407394 -0.0058324141 -98.82476
9206687500 -0.99847072 132.99751 -9.1495619 -72.652672 -9.1394615 -73.38002 -0.0023626687 -98.795013
9206750000 -0.9917773 133.0177 -9.1349983 -72.576942 -9.1479979 -73.357079 -0.019549478 -98.774368
9206812500 -0.9936676 133.03044 -9.1483145 -72.649734 -9.1386948 -73.360954 -0.0068710824 -98.774422
9206875000 -0.99191254 132.9675 -9.1348209 -72.70182 -9.1311913 -73.304893 -0.0064453282 -98.665405
9206937500 -0.98808038 132.95947 -9.138341 -72.631294 -9.1465664 -73.342674 -0.010202517 -98.636795
9207000000 -0.98858762 132.92665 -9.1386547 -72.641457 -9.1390228 -73.359909 -0.014180635 -98.68158
9207062500 -0.99084461 132.9015 -9.1241627 -72.68045 -9.132597 -73.260918 -0.011536404 -98.545113
9207125000 -0.998559 132.90646 -9.1356144 -72.714355 -9.1332178 -73.372154 -0.010532602 -98.585129
9207187500 -0.99408495 132.88107 -9.1343794 -72.784859 -9.1355267 -73.350067 -0.013814195 -98.636559
9207250000 -0.98837733 132.88026 -9.1313343 -72.67028 -9.1388731 -73.371857 -0.0099861361 -98.693275
9207312500 -0.98481196 132.82756 -9.1383638 -72.685013 -9.1303787 -73.376595 -0.014417995 -98.612144
9207375000 -1.0002367 132.86165 -9.1492376 -72.637184 -9.1276388 -73.339478 -0.013986559 -98.548721
9207437500 -0.99308896 132.87442 -9.1412048 -72.631027 -9.1429577 -73.226685 -0.012549182 -98.496277
9207500000 -0.99411708 132.87262 -9.1474304 -72.621925 -9.1211567 -73.299561 -0.018412292 -98.5205
9207562500 -0.99063218 132.81927 -9.138258 -72.680779 -9.1195383 -73.278984 -0.010777287 -98.491631
9207625000 -0.9953596 132.77383 -9.1318941 -72.653458 -9.1359272 -73.310364 -0.020543125 -98.443863
9207687500 -0.9954322 132.83783 -9.1259708 -72.645958 -9.13235 -73.28614 -0.0099393772 -98.46312
9207750000 -0.9967705 132.77754 -9.1354618 -72.625618 -9.1245861 -73.346764 -0.012062499 -98.435097
9207812500 -0.9964717 132.76041 -9.1382694 -72.662666 -9.1333561 -73.288567 -0.024706587 -98.460663
9207875000 -0.98800445 132.78879 -9.1358662 -72.587868 -9.1343651 -73.322212 -0.016291002 -98.391762
9207937500 -0.99707061 132.71013 -9.140624 -72.674995 -9.1297798 -73.352188 -0.017659696 -98.444
9208000000 -0.99686831 132.73541 -9.1348629 -72.65567 -9.1222496 -73.243645 -0.0096602384 -98.356705
9208062500 -0.99742144 132.71439 -9.1349649 -72.574333 -9.1274891 -73.337486 -0.018601587 -98.383049
9208125000 -0.99678981 132.67754 -9.1352434 -72.646553 -9.1291857 -73.289406 -0.019473499 -98.344803
9208187500 -0.98716676 132.69218 -9.1258888 -72.665695 -9.129365 -73.328278 -0.019859187 -98.359589
9208250000 -0.99445397 132.6684 -9.1293821 -72.559296 -9.1173096 -73.319824 -0.014362669 -98.282188
9208312500 -0.98701805 132.68198 -9.13241 -72.591286 -9.1125679 -73.265152 -0.0097892461 -98.266495
9208375000 -0.99756902 132.68042 -9.1200819 -72.561356 -9.1233187 -73.245911 -0.015826158 -98.18811
9208437500 -0.99105752 132.57487 -9.1217403 -72.596535 -9.129467 -73.262161 -0.030533932 -98.257431
9208500000 -0.99913657 132.56966 -9.1272898 -72.645874 -9.1156702 -73.340889 -0.014293715 -98.260918
9208562500 -0.99888551 132.60338 -9.1212177 -72.616005 -9.1238794 -73.341591 -0.014681848 -98.252586
9208625000 -0.98850334 132.56027 -9.117445 -72.572594 -9.1231823 -73.235817 -0.020252239 -98.202003
9208687500 -0.98609388 132.55511 -9.1024284 -72.639336 -9.1177902 -73.280083 -0.012940018 -98.143898
9208750000 -0.9919402 132.58495 -9.1228094 -72.587135 -9.1081295 -73.281174 -0.014955426 -98.172836
9208812500 -1.0016594 132.56819 -9.1384754 -72.66391 -9.117671 -73.251289 -0.015647417 -98.161285
9208875000 -0.99575311 132.50517 -9.1155739 -72.622025 -9.1276388 -73.323471 -0.01935818 -98.124687
9208937500 -0.99481636 132.53717 -9.1096382 -72.636032 -9.113699 -73.239586 -0.019406376 -98.110748
9209000000 -0.99129504 132.54318 -9.124218 -72.621971 -9.1131353 -73.304146 -0.02359635 -98.180687
9209062500 -0.99808681 132.50299 -9.1232119 -72.582367 -9.1210432 -73.274521 -0.020966379 -98.070854
9209125000 -1.0020565 132.48795 -9.1266842 -72.584038 -9.1130295 -73.296921 -0.015589462 -98.017197
9209187500 -0.99350399 132.47101 -9.11446 -72.645493 -9.1217594 -73.255989 -0.022243198 -98.101341
9209250000 -0.98915595 132.4418 -9.1200256 -72.579597 -9.1094656 -73.296112 -0.013345405 -97.942497
9209312500 -0.9931345 132.35651 -9.1280107 -72.653778 -9.1090908 -73.2938 -0.02656549 -98.048584
9209375000 -0.98852831 132.44955 -9.1077299 -72.556564 -9.116375 -73.182816 -0.025782799 -97.973579
9209437500 -0.99702495 132.39525 -9.1196871 -72.572021 -9.1109819 -73.312027 -0.015618816 -97.891983
9209500000 -0.9931035 132.38968 -9.112216 -72.579201 -9.1035128 -73.283508 -0.01718523 -97.955688
9209562500 -0.99725556 132.41992 -9.117136 -72.541054 -9.1149597 -73.207756 -0.030821104 -97.868675
9209625000 -0.99545455 132.35205 -9.1142912 -72.591835 -9.1118679 -73.249298 -0.018546563 -97.887405
9209687500 -0.99347579 132.30396 -9.116642 -72.646278 -9.1142464 -73.209671 -0.025855105 -97.871025
9209750000 -0.99878383 132.2881 -9.1121864 -72.674767 -9.1109533 -73.205101 -0.017835259 -97.866203
9209812500 -0.98906523 132.31007 -9.1130886 -72.573906 -9.1124506 -73.262108 -0.025006702 -97.84774
9209875000 -0.99238348 132.31406 -9.10849 -72.562431 -9.1078157 -73.22979 -0.030385613 -97.863525
9209937500 -0.9939214 132.39192 -9.1253366 -72.564583 -9.1183109 -73.241234 -0.032723755 -97.938942
9210000000 -0.98807764 132.28043 -9.1117153 -72.592491 -9.0951414 -73.266098 -0.035098296 -97.831703
9210062500 -0.99898565 132.2829 -9.1107836 -72.581299 -9.1145601 -73.240585 -0.027642129 -97.81517
9210125000 -0.99069691 132.24031 -9.1073437 -72.554901 -9.1039362 -73.176407 -0.02615493 -97.800064
9210187500 -0.99891019 132.28578 -9.1082296 -72.529259 -9.1097708 -73.22963 -0.030865436 -97.739967
9210250000 -0.99764526 132.27893 -9.1047907 -72.556313 -9.1023512 -73.22625 -0.028256776 -97.781578
9210312500 -0.99702781 132.23863 -9.1101942 -72.521614 -9.1100616 -73.232582 -0.025595967 -97.747307
9210375000 -0.9976629 132.27432 -9.121974 -72.494759 -9.0989828 -73.18792 -0.026826875 -97.617706
9210437500 -0.98878837 132.17291 -9.1140461 -72.569221 -9.1098671 -73.284019 -0.019657668 -97.73925
9210500000 -0.99118626 132.15817 -9.0979023 -72.540161 -9.0987597 -73.233955 -0.015920317 -97.709282
9210562500 -0.99592537 132.16107 -9.1110764 -72.515579 -9.0973883 -73.276993 -0.031370483 -97.666985
9210625000 -0.99671519 132.15562 -9.105547 -72.563026 -9.109437 -73.172379 -0.032481242 -97.65551
9210687500 -0.99896604 132.14578 -9.1107235 -72.525726 -9.1041155 -73.290268 -0.037106834 -97.643639
9210750000 -0.9969486 132.11938 -9.1082125 -72.597275 -9.0897951 -73.22274 -0.017538574 -97.613136
9210812500 -0.99940443 132.11214 -9.107502 -72.595207 -9.1024761 -73.170341 -0.035368964 -97.562325
9210875000 -0.99864668 132.11656 -9.1082087 -72.539581 -9.0949421 -73.230774 -0.026282994 -97.639458
9210937500 -0.9943853 132.11008 -9.0993586 -72.564453 -9.1051836 -73.175209 -0.035603113 -97.566475
9211000000 -0.99285984 132.09612 -9.0964098 -72.506706 -9.1023378 -73.193527 -0.021700738 -97.623062
9211062500 -0.99430549 132.09506 -9.1053648 -72.434059 -9.0936174 -73.151253 -0.031795811 -97.531792
9211125000 -0.99376136 132.0101 -9.0951595 -72.613831 -9.0936365 -73.15567 -0.02157215 -97.504875
9211187500 -1.0006428 132.05467 -9.1039743 -72.553368 -9.086813 -73.161598 -0.024683945 -97.486298
9211250000 -0.99811655 132.03447 -9.0948734 -72.541344 -9.1058397 -73.130913 -0.026113719 -97.490662
9211312500 -1.0002309 132.02737 -9.0965528 -72.547974 -9.0962124 -73.177986 -0.028502693 -97.469955
9211375000 -0.99836814 131.93143 -9.0987215 -72.52565 -9.0869923 -73.28846 -0.026379518 -97.458496
9211437500 -0.99129272 132.00449 -9.0838413 -72.496483 -9.1000528 -73.208878 -0.031793363 -97.392746
9211500000 -1.0009564 131.94662 -9.0951509 -72.490036 -9.0888109 -73.172012 -0.022561887 -97.407204
9211562500 -1.0052929 132.02408 -9.1070681 -72.518532 -9.0919657 -73.199425 -0.033199262 -97.421707
9211625000 -0.99364412 131.91248 -9.0883112 -72.572014 -9.0774384 -73.24485 -0.02329367 -97.428368
9211687500 -1.0040164 132.00508 -9.099493 -72.464508 -9.082756 -73.181122 -0.033314344 -97.348831
9211750000 -0.99737853 131.91318 -9.0869408 -72.431618 -9.0902815 -73.156525 -0.021592295 -97.264923
9211812500 -0.99557394 131.90561 -9.1060066 -72.515511 -9.1068201 -73.177681 -0.052150428 -97.356514
9211875000 -1.0055716 131.8493 -9.0925293 -72.603882 -9.0770788 -73.147766 -0.02466497 -97.260269
9211937500 -0.99415296 131.88167 -9.0956879 -72.507248 -9.0917654 -73.1717 -0.033866834 -97.26252
9212000000 -0.99604654 131.83398 -9.0840311 -72.520882 -9.0770931 -73.184174 -0.027463343 -97.260658
9212062500 -0.99437642 131.80891 -9.0973845 -72.454781 -9.0906792 -73.208519 -0.037309092 -97.292854
