!Agilent Technologies,N5242A,MY51221714,A.09.90.19
!Agilent N5242A: A.09.90.19
!Date: Tuesday, March 26, 2024 15:59:27
!Correction: S11(Full 2 Port(1,2)) 
!S21(Full 2 Port(1,2)) 
!S12(Full 2 Port(1,2)) 
!S22(Full 2 Port(1,2)) 
!S2P File: Measurements: S11, S21, S12, S22:
# Hz S  dB   R 50
9200000000 -1.0226228 134.13771 -9.1209059 -73.389114 -9.1111364 -74.04644 -0.046706054 -100.79037
9200062500 -1.0215679 134.16066 -9.1179638 -73.344788 -9.1141434 -74.076103 -0.047232594 -100.74727
9200125000 -1.0214117 134.10878 -9.1171484 -73.371529 -9.1150475 -73.992165 -0.05091938 -100.6868
9200187500 -1.0254946 134.13687 -9.1147213 -73.254593 -9.1078768 -74.074005 -0.030824218 -100.68729
9200250000 -1.0204316 134.12146 -9.1103802 -73.293747 -9.103591 -73.946365 -0.034638803 -100.67554
9200312500 -1.0246663 134.08662 -9.1125574 -73.362656 -9.1215601 -74.068954 -0.046012942 -100.71655
9200375000 -1.0242417 134.05275 -9.1144705 -73.407494 -9.1051807 -74.070648 -0.032198586 -100.69979
9200437500 -1.0186362 134.09654 -9.1090841 -73.358551 -9.1059561 -74.038101 -0.03855744 -100.64745
9200500000 -1.0218815 134.03157 -9.1125526 -73.305954 -9.0993557 -73.918808 -0.042617131 -100.59946
9200562500 -1.0136914 134.03456 -9.1055317 -73.285187 -9.1178131 -73.982567 -0.036432296 -100.64936
9200625000 -1.0300314 133.96906 -9.1089745 -73.397614 -9.09972 -73.984138 -0.035186697 -100.61015
9200687500 -1.0186397 134.03532 -9.1129961 -73.287979 -9.1165581 -74.032295 -0.040742688 -100.56967
9200750000 -1.0278047 133.94173 -9.1127176 -73.356964 -9.1041965 -73.922089 -0.038684081 -100.59815
9200812500 -1.0333927 133.96935 -9.1125793 -73.290863 -9.1100025 -73.993355 -0.050785206 -100.59062
9200875000 -1.0228347 134.05359 -9.1119175 -73.30619 -9.1120434 -73.975914 -0.04867347 -100.59576
9200937500 -1.0166211 133.95952 -9.1054649 -73.247505 -9.091857 -73.961777 -0.030591682 -100.53217
9201000000 -1.0168374 133.91548 -9.1068449 -73.39077 -9.0951309 -74.018028 -0.044069856 -100.56266
9201062500 -1.0126202 133.92894 -9.0919971 -73.284477 -9.0970945 -74.070816 -0.040242631 -100.4893
9201125000 -1.0202137 133.97585 -9.1101866 -73.220253 -9.1113777 -74.002121 -0.049885135 -100.44464
9201187500 -1.0259701 133.81668 -9.110733 -73.320923 -9.094924 -73.955551 -0.044184074 -100.34222
9201250000 -1.0203493 133.9437 -9.09688 -73.212708 -9.1084652 -73.982162 -0.050832234 -100.44014
9201312500 -1.0318409 133.8813 -9.1112337 -73.265244 -9.104269 -73.961243 -0.043713469 -100.42651
9201375000 -1.0291497 133.87315 -9.1027727 -73.275421 -9.1096935 -73.918442 -0.05553744 -100.34598
9201437500 -1.0210806 133.86009 -9.1037474 -73.335236 -9.1049728 -73.960114 -0.04614374 -100.43808
9201500000 -1.0271858 133.84399 -9.1130667 -73.294548 -9.1052675 -73.92897 -0.052516598 -100.37817
9201562500 -1.0266354 133.82019 -9.1119242 -73.249748 -9.1109734 -73.888657 -0.058181543 -100.33852
9201625000 -1.0269259 133.82558 -9.1006069 -73.218735 -9.0959759 -73.906319 -0.055232067 -100.25805
9201687500 -1.0317316 133.79868 -9.0984735 -73.244583 -9.0967455 -73.985771 -0.048034947 -100.2267
9201750000 -1.023101 133.77951 -9.1010637 -73.303001 -9.0891447 -74.045525 -0.037817471 -100.29044
9201812500 -1.0229867 133.77197 -9.104867 -73.339737 -9.0952263 -74.020439 -0.052606881 -100.38136
9201875000 -1.0241311 133.75185 -9.083971 -73.302711 -9.0946655 -74.019363 -0.039954662 -100.24026
9201937500 -1.0339408 133.65079 -9.1084604 -73.266815 -9.0989704 -74.054138 -0.046544086 -100.27412
9202000000 -1.0233394 133.67268 -9.0967522 -73.291153 -9.0830393 -74.00708 -0.0443459 -100.24726
9202062500 -1.0304177 133.71608 -9.0936956 -73.295052 -9.0831823 -73.983421 -0.039504468 -100.15058
9202125000 -1.0291767 133.71039 -9.1081791 -73.264328 -9.0906181 -73.945923 -0.053500101 -100.21237
9202187500 -1.0225179 133.68564 -9.089159 -73.282104 -9.0930481 -73.932732 -0.047723711 -100.1316
9202250000 -1.0258456 133.6545 -9.0988808 -73.287643 -9.0939188 -73.892372 -0.050188538 -100.12443
9202312500 -1.0258956 133.68695 -9.096736 -73.289429 -9.0820799 -73.972267 -0.049330357 -100.15675
9202375000 -1.0292543 133.58574 -9.098362 -73.303879 -9.0846901 -73.96286 -0.050706413 -100.08501
9202437500 -1.0275671 133.64334 -9.0992241 -73.304787 -9.0859947 -73.958405 -0.043246947 -100.1581
9202500000 -1.0305272 133.60698 -9.1021366 -73.284485 -9.1030178 -73.933052 -0.051681593 -100.15685
9202562500 -1.0201697 133.58525 -9.0957756 -73.195992 -9.0938015 -73.943954 -0.063871898 -100.10381
9202625000 -1.0318877 133.65215 -9.0914764 -73.255798 -9.0803661 -73.974083 -0.049022742 -100.07873
9202687500 -1.0279943 133.59384 -9.0977669 -73.269409 -9.0896492 -73.882385 -0.04595729 -99.993927
9202750000 -1.0181339 133.50337 -9.0847111 -73.258705 -9.0757656 -73.982513 -0.051909246 -100.0345
9202812500 -1.0283988 133.53229 -9.097518 -73.265602 -9.0767698 -73.975937 -0.044312645 -99.9785
9202875000 -1.0217804 133.52785 -9.0840664 -73.226418 -9.0883093 -73.930511 -0.049275972 -99.953445
9202937500 -1.0215211 133.53629 -9.0834475 -73.305336 -9.0797186 -73.91613 -0.051303949 -99.962296
9203000000 -1.0318614 133.53381 -9.0942059 -73.326408 -9.0909176 -73.94841 -0.05493908 -99.898033
9203062500 -1.0264217 133.50502 -9.0871973 -73.288834 -9.0784311 -73.910362 -0.056390736 -99.952568
9203125000 -1.025273 133.4845 -9.0922985 -73.259315 -9.0776768 -73.957794 -0.049819835 -99.933167
9203187500 -1.0268755 133.45573 -9.0949926 -73.316376 -9.0757837 -73.977562 -0.050030135 -99.929489
9203250000 -1.025193 133.4281 -9.0834103 -73.263817 -9.0851593 -73.872154 -0.051261745 -99.876678
9203312500 -1.0330402 133.45746 -9.0907087 -73.295593 -9.0706472 -73.981056 -0.048967596 -99.901047
9203375000 -1.0237942 133.42656 -9.0864763 -73.259903 -9.0748205 -73.963028 -0.047484245 -99.864006
9203437500 -1.0322999 133.47321 -9.0963545 -73.30024 -9.0719481 -73.902077 -0.046188753 -99.884171
9203500000 -1.0244412 133.41849 -9.0814009 -73.221245 -9.0815039 -73.914658 -0.051544834 -99.842133
9203562500 -1.0328981 133.38234 -9.0908957 -73.254509 -9.0887213 -73.952568 -0.060831156 -99.898209
9203625000 -1.0303999 133.36668 -9.083374 -73.321625 -9.0773277 -73.874496 -0.051206406 -99.845848
9203687500 -1.0319059 133.35478 -9.0897255 -73.29335 -9.0798712 -73.946899 -0.060159374 -99.768646
9203750000 -1.0303559 133.304 -9.086421 -73.3181 -9.0700712 -73.875786 -0.044386454 -99.703865
9203812500 -1.0329403 133.34966 -9.0773182 -73.263977 -9.07794 -73.972527 -0.059840899 -99.771202
9203875000 -1.0262079 133.33287 -9.0890837 -73.16272 -9.0867443 -73.88253 -0.074878678 -99.689812
9203937500 -1.0331011 133.28708 -9.0850639 -73.257996 -9.0801878 -73.903442 -0.058729731 -99.698441
9204000000 -1.0271227 133.25671 -9.0702839 -73.258179 -9.0807734 -73.903206 -0.052083526 -99.649223
9204062500 -1.0204771 133.34732 -9.0728817 -73.197006 -9.0684242 -74.022423 -0.052409504 -99.719704
9204125000 -1.0312331 133.30519 -9.0754042 -73.153969 -9.0704899 -73.881577 -0.049752411 -99.650757
9204187500 -1.0347984 133.18925 -9.0819216 -73.272232 -9.0766115 -73.940277 -0.056336954 -99.619232
9204250000 -1.0231805 133.24229 -9.0624094 -73.19268 -9.0664358 -73.901123 -0.053519502 -99.601959
9204312500 -1.0293026 133.23428 -9.0685349 -73.174889 -9.0690994 -73.918205 -0.051698614 -99.560982
9204375000 -1.0241957 133.19946 -9.0821552 -73.198624 -9.0689964 -73.911331 -0.055105682 -99.583527
9204437500 -1.0302718 133.21992 -9.0670719 -73.256432 -9.0670042 -73.886337 -0.046345647 -99.570755
9204500000 -1.0373653 133.24615 -9.0837202 -73.212044 -9.0858917 -73.946243 -0.060792487 -99.591057
9204562500 -1.0278517 133.13945 -9.0767794 -73.278397 -9.0693502 -73.917732 -0.043062437 -99.603134
9204625000 -1.0222005 133.15302 -9.0689087 -73.182457 -9.0586042 -73.944809 -0.051673185 -99.488281
9204687500 -1.0268805 133.1209 -9.0695753 -73.251808 -9.0730028 -73.931206 -0.05177528 -99.45652
9204750000 -1.0312431 133.12976 -9.0673208 -73.19548 -9.069334 -73.853409 -0.064939789 -99.481071
9204812500 -1.0231918 133.1129 -9.07829 -73.209259 -9.0728283 -73.929703 -0.056337059 -99.507301
9204875000 -1.0278301 133.18004 -9.0678043 -73.160027 -9.0867796 -73.85305 -0.061215527 -99.467613
9204937500 -1.0266488 133.09644 -9.0641804 -73.20311 -9.0672302 -73.940086 -0.053016908 -99.452705
9205000000 -1.0175494 133.05739 -9.0660324 -73.162338 -9.0661774 -73.833527 -0.070328876 -99.392998
9205062500 -1.0282894 133.06409 -9.0692081 -73.232582 -9.05581 -73.897705 -0.057708457 -99.384956
9205125000 -1.0288153 133.07541 -9.0683708 -73.170349 -9.0604305 -73.901329 -0.062158972 -99.318382
9205187500 -1.0316925 133.08202 -9.07166 -73.131096 -9.0657263 -73.863487 -0.061747979 -99.349785
9205250000 -1.0247916 133.02895 -9.0678205 -73.197174 -9.075861 -73.901924 -0.068469599 -99.401031
9205312500 -1.0232089 133.02837 -9.0589914 -73.160522 -9.0631247 -73.835175 -0.061272494 -99.316917
9205375000 -1.0277385 132.97966 -9.0705891 -73.225822 -9.0635538 -73.876007 -0.060023833 -99.290039
9205437500 -1.0193743 132.97786 -9.0646038 -73.143768 -9.0545883 -73.834969 -0.053682931 -99.279045
9205500000 -1.0314273 132.93695 -9.0579357 -73.132027 -9.0539713 -73.897896 -0.051476236 -99.205093
9205562500 -1.0342933 132.97073 -9.0543594 -73.238045 -9.0615444 -73.889717 -0.061367068 -99.232216
9205625000 -1.0319517 132.93552 -9.0629425 -73.161285 -9.0682821 -73.89817 -0.065757073 -99.192841
9205687500 -1.0283715 132.93045 -9.0581884 -73.207924 -9.0484209 -73.861023 -0.058850832 -99.186005
9205750000 -1.0263711 132.88286 -9.0481911 -73.170593 -9.0655918 -73.874962 -0.056960326 -99.16082
9205812500 -1.0303251 132.84697 -9.0437984 -73.180328 -9.0611019 -73.866753 -0.0615228 -99.111534
9205875000 -1.0196065 132.93216 -9.0547132 -73.167603 -9.0670595 -73.867828 -0.067164257 -99.222237
9205937500 -1.0316139 132.87302 -9.0677643 -73.159065 -9.0456858 -73.811737 -0.0586312 -99.156303
9206000000 -1.0295705 132.84384 -9.0443459 -73.168976 -9.0608301 -73.842735 -0.067049898 -99.091354
9206062500 -1.0268645 132.87236 -9.0626574 -73.196281 -9.0646391 -73.881683 -0.07265272 -99.140289
9206125000 -1.0278894 132.82368 -9.0546608 -73.174278 -9.0471277 -73.794067 -0.06192958 -99.036438
9206187500 -1.0265665 132.82796 -9.0455828 -73.230324 -9.0482569 -73.863029 -0.051507711 -99.081848
9206250000 -1.0355114 132.77167 -9.0637045 -73.202751 -9.0557795 -73.814911 -0.057081275 -99.034805
9206312500 -1.0325288 132.75435 -9.0595026 -73.220253 -9.0446148 -73.936852 -0.05416967 -99.065735
9206375000 -1.0302291 132.80876 -9.060008 -73.142975 -9.0520163 -73.789436 -0.056984693 -99.060516
9206437500 -1.0216849 132.74146 -9.0536709 -73.163704 -9.0459805 -73.894142 -0.061435502 -99.059921
9206500000 -1.0281758 132.73642 -9.0583019 -73.222458 -9.0446014 -73.798157 -0.068325087 -98.995743
9206562500 -1.0297184 132.73553 -9.0538044 -73.22641 -9.046114 -73.802475 -0.058328066 -99.017784
9206625000 -1.0306447 132.62544 -9.0410872 -73.189064 -9.046217 -73.845726 -0.056688558 -98.973442
9206687500 -1.0341355 132.7179 -9.0545664 -73.224701 -9.0413132 -73.889641 -0.054035414 -98.983101
9206750000 -1.0300521 132.70871 -9.0464544 -73.218681 -9.041811 -73.790604 -0.054174535 -98.936005
9206812500 -1.0248591 132.70677 -9.0508108 -73.156036 -9.0551138 -73.876808 -0.061183266 -99.030518
9206875000 -1.0253009 132.6899 -9.0491133 -73.17379 -9.0407972 -73.810204 -0.061432604 -98.861176
9206937500 -1.0344536 132.65057 -9.0502691 -73.182823 -9.046052 -73.824791 -0.066546485 -98.903252
9207000000 -1.023937 132.6501 -9.0529051 -73.13501 -9.0506439 -73.867928 -0.068952233 -98.859344
9207062500 -1.0283837 132.62164 -9.0464439 -73.155563 -9.0463953 -73.802048 -0.069222331 -98.759125
9207125000 -1.0411445 132.57938 -9.0367022 -73.166985 -9.0444145 -73.898712 -0.059968308 -98.806786
9207187500 -1.0318369 132.57585 -9.0410585 -73.223206 -9.0483532 -73.744278 -0.073081642 -98.807655
9207250000 -1.0305437 132.59029 -9.0462456 -73.191269 -9.0478468 -73.834404 -0.060320165 -98.855934
9207312500 -1.0241473 132.55107 -9.0494318 -73.194511 -9.0432825 -73.681305 -0.064834677 -98.739784
9207375000 -1.0423988 132.52371 -9.051259 -73.150757 -9.0425272 -73.825737 -0.064655848 -98.712456
9207437500 -1.0284154 132.59293 -9.0433483 -73.128403 -9.059947 -73.793915 -0.065083884 -98.726883
9207500000 -1.0330551 132.58662 -9.0549765 -73.176613 -9.0295439 -73.714279 -0.076270558 -98.714561
9207562500 -1.0229695 132.54211 -9.0398216 -73.15007 -9.0323563 -73.781097 -0.066471376 -98.741615
9207625000 -1.030282 132.47971 -9.0372696 -73.120865 -9.0304375 -73.823586 -0.065687381 -98.633003
9207687500 -1.03076 132.55367 -9.0308723 -73.106232 -9.041954 -73.74865 -0.059881911 -98.647873
9207750000 -1.0370103 132.45848 -9.0491838 -73.170898 -9.0383482 -73.812401 -0.058446631 -98.686432
9207812500 -1.0297934 132.47874 -9.0358925 -73.147461 -9.0333405 -73.711166 -0.063039117 -98.638039
9207875000 -1.0324763 132.48483 -9.046752 -73.110046 -9.0350676 -73.814804 -0.060179818 -98.603935
9207937500 -1.0287232 132.41167 -9.0439291 -73.125992 -9.0402431 -73.856758 -0.069728263 -98.64341
9208000000 -1.0436659 132.44482 -9.0443792 -73.186363 -9.0283098 -73.778023 -0.06277626 -98.577347
9208062500 -1.034513 132.39185 -9.0377169 -73.1744 -9.0402775 -73.83728 -0.073204532 -98.585884
9208125000 -1.0378847 132.36165 -9.0428858 -73.182129 -9.0411873 -73.785995 -0.071171798 -98.551407
9208187500 -1.0247941 132.42667 -9.0373774 -73.134857 -9.0411615 -73.764961 -0.072945938 -98.535698
9208250000 -1.0335579 132.39618 -9.0374479 -73.04805 -9.0335293 -73.859695 -0.062142141 -98.533615
9208312500 -1.0319697 132.38417 -9.0469913 -73.125877 -9.018733 -73.79229 -0.065437332 -98.497871
9208375000 -1.0357764 132.36967 -9.0294733 -73.114548 -9.0232124 -73.819221 -0.063217193 -98.499199
9208437500 -1.035841 132.26353 -9.0377407 -73.162949 -9.0327816 -73.66217 -0.075432114 -98.417854
9208500000 -1.0377965 132.30008 -9.0371504 -73.103035 -9.0307131 -73.791199 -0.066949613 -98.412201
9208562500 -1.0355024 132.34532 -9.0365639 -73.119156 -9.0366993 -73.830521 -0.073242262 -98.454887
9208625000 -1.0312461 132.27374 -9.0297165 -73.138412 -9.0299282 -73.757767 -0.080843911 -98.47467
9208687500 -1.0224748 132.23161 -9.0197468 -73.173424 -9.0351543 -73.807396 -0.067899212 -98.446609
9208750000 -1.0251051 132.26062 -9.0312033 -73.083214 -9.0148039 -73.691086 -0.057207372 -98.338753
9208812500 -1.0377892 132.29601 -9.0372133 -73.084167 -9.0353317 -73.769394 -0.066565976 -98.322937
9208875000 -1.0326167 132.20625 -9.0253572 -73.163948 -9.0373974 -73.772453 -0.068936028 -98.342171
9208937500 -1.0384611 132.23518 -9.0193911 -73.171211 -9.0206766 -73.717873 -0.068645149 -98.294785
9209000000 -1.0270342 132.24774 -9.0419807 -73.084213 -9.0259962 -73.742882 -0.080718577 -98.369667
9209062500 -1.0388194 132.19116 -9.0352755 -73.116966 -9.0381365 -73.74205 -0.076090984 -98.284569
9209125000 -1.0327227 132.18169 -9.0170469 -73.048096 -9.0165319 -73.745796 -0.06523785 -98.232124
9209187500 -1.0330595 132.15793 -9.0282326 -73.14743 -9.0358219 -73.725273 -0.075028434 -98.253975
9209250000 -1.0305657 132.16338 -9.0261774 -73.00975 -9.0184212 -73.910248 -0.070225567 -98.189873
9209312500 -1.0354711 132.07321 -9.0384464 -73.167313 -9.0193148 -73.758415 -0.078743227 -98.26651
9209375000 -1.0216651 132.13452 -9.025959 -73.105438 -9.0283165 -73.692307 -0.078345247 -98.203377
9209437500 -1.0397428 132.08107 -9.0316019 -73.064392 -9.017705 -73.751396 -0.068246603 -98.113754
9209500000 -1.0332423 132.09488 -9.026371 -73.091293 -9.0140762 -73.767288 -0.072738819 -98.113716
9209562500 -1.0398178 132.08276 -9.0265636 -73.092247 -9.013854 -73.694221 -0.073970482 -98.086815
9209625000 -1.0345987 132.03891 -9.0230522 -73.129944 -9.0285587 -73.764015 -0.079368725 -98.110023
9209687500 -1.0300825 132.01152 -9.0105848 -73.069923 -9.0190296 -73.676559 -0.075569585 -98.093071
9209750000 -1.0314683 132.0275 -9.009903 -73.15477 -9.0230932 -73.694267 -0.067098103 -98.102562
9209812500 -1.0346155 132.01294 -9.0298471 -73.099884 -9.0223389 -73.798553 -0.078090519 -98.069923
9209875000 -1.0293375 132.0119 -9.0092421 -73.096046 -9.0163298 -73.771904 -0.07360813 -98.094307
9209937500 -1.0342739 132.09088 -9.0284872 -73.075218 -9.0275621 -73.75013 -0.081972025 -98.101151
9210000000 -1.0273465 132.01476 -9.015296 -73.075035 -9.0154352 -73.715157 -0.080942407 -97.968948
9210062500 -1.0411454 131.98712 -9.027482 -73.06913 -9.013339 -73.675522 -0.078956857 -97.96212
9210125000 -1.0265273 131.97554 -9.0186949 -73.057472 -9.0126562 -73.726532 -0.076149933 -97.998589
9210187500 -1.0361025 131.98196 -9.026021 -73.060921 -9.0124292 -73.715881 -0.077928416 -97.953178
9210250000 -1.0344044 131.96379 -9.0158482 -73.071747 -9.0104456 -73.682625 -0.076987103 -97.959091
9210312500 -1.0353501 131.92931 -9.0198011 -73.067863 -9.0178833 -73.781265 -0.075777426 -97.974503
9210375000 -1.0326469 131.96078 -9.0164518 -73.04776 -9.0068254 -73.716675 -0.076987773 -97.890762
9210437500 -1.0286194 131.87561 -9.0134373 -73.134315 -9.0075378 -73.780754 -0.073250473 -97.96154
9210500000 -1.0256605 131.85451 -9.0103035 -73.081841 -9.0053482 -73.751297 -0.066785663 -97.942322
9210562500 -1.035084 131.84706 -9.0132589 -73.028023 -9.0038776 -73.76989 -0.074394405 -97.859734
9210625000 -1.0360237 131.89014 -9.0159311 -72.990578 -9.0201063 -73.691475 -0.077369377 -97.901634
9210687500 -1.0365992 131.90498 -9.0207462 -73.028481 -9.0116768 -73.710083 -0.077779733 -97.758774
9210750000 -1.0366036 131.83185 -9.0167732 -73.087303 -9.0148888 -73.735619 -0.075813957 -97.820824
9210812500 -1.0413913 131.81381 -9.0220671 -73.060478 -9.0062752 -73.672226 -0.0845249 -97.757538
9210875000 -1.0295293 131.83003 -9.012805 -73.103821 -9.0044422 -73.717415 -0.078897245 -97.844223
9210937500 -1.0328994 131.83159 -9.0093269 -73.062752 -9.0048437 -73.629562 -0.083361864 -97.760597
9211000000 -1.0289475 131.8358 -9.0115871 -72.974586 -9.012002 -73.679955 -0.071097091 -97.781792
9211062500 -1.0334721 131.78355 -9.0100555 -73.030945 -9.0102329 -73.682137 -0.084237412 -97.750824
9211125000 -1.0258414 131.73033 -9.0018625 -73.026161 -9.0117455 -73.619324 -0.07636632 -97.720535
9211187500 -1.0366931 131.73647 -9.0000544 -73.005783 -8.9951811 -73.662155 -0.078690112 -97.667244
9211250000 -1.0361481 131.74062 -9.0010996 -73.042191 -9.005888 -73.632927 -0.066624641 -97.703125
9211312500 -1.0321604 131.73616 -9.0168533 -73.024643 -9.0038948 -73.713974 -0.083135679 -97.715134
9211375000 -1.029817 131.66829 -9.0052862 -73.040749 -9.003974 -73.747711 -0.075925857 -97.632408
9211437500 -1.0281534 131.69843 -8.993947 -72.998917 -9.0011921 -73.751862 -0.083357848 -97.654015
9211500000 -1.0402764 131.65889 -9.0153246 -73.006264 -9.0027399 -73.646454 -0.085888438 -97.600029
9211562500 -1.0344298 131.70563 -9.0125856 -73.046715 -9.0048752 -73.693489 -0.086447649 -97.59742
9211625000 -1.0327648 131.58992 -8.9998121 -73.142113 -8.9958982 -73.742073 -0.075964183 -97.62722
9211687500 -1.0359429 131.71257 -9.0012169 -73.004532 -9.00144 -73.696243 -0.084527209 -97.539795
9211750000 -1.0299906 131.59799 -8.9878645 -72.983315 -8.9988594 -73.666824 -0.075045295 -97.538574
9211812500 -1.0394493 131.58786 -9.0132284 -73.008934 -9.0006781 -73.699585 -0.089682609 -97.541046
9211875000 -1.0366347 131.58652 -9.0047503 -73.048843 -8.9912262 -73.608574 -0.072231546 -97.503563
9211937500 -1.0368918 131.6032 -8.9994392 -73.044563 -8.9917564 -73.636383 -0.083657965 -97.45771
9212000000 -1.0351523 131.52333 -8.9972086 -73.047623 -8.9888744 -73.708206 -0.087931968 -97.464378
9212062500 -1.0390838 131.51373 -9.0067177 -73.04258 -9.0011797 -73.646881 -0.091333188 -97.466766
9212125000 -1.031315 131.48967 -8.9869032 -73.012039 -9.0081406 -73.687241 -0.083194904 -97.440002
9212187500 -1.0245435 131.49399 -8.9908285 -73.01194 -8.9941473 -73.622284 -0.096758656 -97.41568
