!Agilent Technologies,N5242A,MY51221714,A.09.90.19
!Agilent N5242A: A.09.90.19
!Date: Tuesday, March 26, 2024 16:00:28
!Correction: S11(Full 2 Port(1,2)) 
!S21(Full 2 Port(1,2)) 
!S12(Full 2 Port(1,2)) 
!S22(Full 2 Port(1,2)) 
!S2P File: Measurements: S11, S21, S12, S22:
# Hz S  dB   R 50
9200000000 -1.0528293 133.69376 -9.1670675 -74.425934 -9.1482286 -75.044098 -0.053348828 -101.66994
9200062500 -1.0532317 133.7606 -9.1589565 -74.317719 -9.1507502 -75.033958 -0.043054551 -101.64199
9200125000 -1.0522735 133.72113 -9.1533403 -74.301109 -9.1520977 -75.013657 -0.054138739 -101.55895
9200187500 -1.0604184 133.71506 -9.1560612 -74.295601 -9.1482525 -75.088806 -0.036653038 -101.5817
9200250000 -1.0529379 133.68874 -9.1499949 -74.330276 -9.1463585 -74.946472 -0.040423911 -101.58932
9200312500 -1.060665 133.69145 -9.1655121 -74.357719 -9.1600237 -75.065094 -0.048745442 -101.59585
9200375000 -1.0569062 133.6693 -9.1584473 -74.296043 -9.1474123 -75.120544 -0.043094091 -101.57752
9200437500 -1.0466051 133.6597 -9.1448355 -74.339958 -9.1407843 -75.07737 -0.035978198 -101.54525
9200500000 -1.0554861 133.62766 -9.1577635 -74.392006 -9.1463127 -74.90197 -0.043160081 -101.51428
9200562500 -1.043139 133.58578 -9.1488285 -74.352798 -9.158658 -75.021103 -0.048980102 -101.54855
9200625000 -1.0586972 133.6116 -9.1631384 -74.380257 -9.1368532 -74.996796 -0.043746799 -101.49492
9200687500 -1.0515916 133.5999 -9.1544847 -74.2351 -9.1451902 -75.03051 -0.041687246 -101.49133
9200750000 -1.0519531 133.56305 -9.1487007 -74.330269 -9.1476412 -74.975807 -0.047518201 -101.45625
9200812500 -1.0681788 133.59956 -9.1581621 -74.327805 -9.152667 -74.990677 -0.063811727 -101.43889
9200875000 -1.0472944 133.63509 -9.1512012 -74.263176 -9.1409645 -74.986328 -0.053837452 -101.46913
9200937500 -1.0577052 133.55583 -9.1548624 -74.304108 -9.1408739 -74.960716 -0.043754436 -101.36806
9201000000 -1.058049 133.55176 -9.1663065 -74.347176 -9.1355658 -75.033127 -0.048098825 -101.40964
9201062500 -1.0553554 133.50537 -9.1391315 -74.34684 -9.1395779 -75.054939 -0.04785436 -101.41387
9201125000 -1.0549407 133.52505 -9.1523438 -74.275719 -9.1461287 -74.991211 -0.049690727 -101.31339
9201187500 -1.056209 133.45023 -9.1510649 -74.276138 -9.1373358 -74.989708 -0.053267781 -101.24678
9201250000 -1.0613751 133.53145 -9.1458521 -74.251266 -9.1581392 -75.000473 -0.052754145 -101.33799
9201312500 -1.0638665 133.48167 -9.1410379 -74.280037 -9.142437 -75.105202 -0.047024976 -101.32663
9201375000 -1.0646278 133.44798 -9.1464672 -74.26078 -9.1392851 -74.918655 -0.056230128 -101.26016
9201437500 -1.0553809 133.43636 -9.1418333 -74.271011 -9.1446362 -74.93148 -0.056099087 -101.30177
9201500000 -1.054428 133.43449 -9.1473122 -74.274986 -9.1454935 -74.99202 -0.057318289 -101.27255
9201562500 -1.0571121 133.40526 -9.1478567 -74.256721 -9.1506472 -74.927361 -0.065092236 -101.21268
9201625000 -1.0487632 133.41876 -9.1417551 -74.245567 -9.1325512 -74.981712 -0.056870706 -101.15663
9201687500 -1.0669751 133.37514 -9.1410055 -74.279411 -9.1406622 -74.915527 -0.054307505 -101.09845
9201750000 -1.0543658 133.35085 -9.1344357 -74.288071 -9.1263895 -74.976974 -0.044593491 -101.13147
9201812500 -1.0542201 133.37123 -9.1498337 -74.296997 -9.139493 -74.958389 -0.063800149 -101.22409
9201875000 -1.0560941 133.32401 -9.1397247 -74.374458 -9.133112 -75.011711 -0.043966029 -101.1182
9201937500 -1.0672475 133.25818 -9.1427021 -74.310493 -9.1291075 -74.988968 -0.049083859 -101.13593
9202000000 -1.0583587 133.31013 -9.1368914 -74.254631 -9.1356964 -75.009613 -0.052978471 -101.09122
9202062500 -1.0632875 133.30623 -9.1293993 -74.297729 -9.1351547 -75.01355 -0.055484198 -101.10455
9202125000 -1.061811 133.32187 -9.1444788 -74.321358 -9.1414032 -74.956177 -0.063784972 -101.12836
9202187500 -1.0582212 133.25552 -9.1422234 -74.397102 -9.1428547 -74.879967 -0.0529611 -100.97883
9202250000 -1.0620927 133.2571 -9.1394091 -74.265335 -9.1260729 -74.935196 -0.058197334 -101.05029
9202312500 -1.054324 133.27646 -9.1441183 -74.272606 -9.1341696 -74.987968 -0.056572594 -101.05972
9202375000 -1.0585859 133.19591 -9.1418247 -74.31443 -9.1244516 -74.949661 -0.053773522 -100.95254
9202437500 -1.0563018 133.28148 -9.1351233 -74.243156 -9.1360464 -74.96524 -0.04977823 -100.98665
9202500000 -1.0665305 133.22134 -9.1477165 -74.291161 -9.1437311 -74.935066 -0.054596331 -101.01454
9202562500 -1.0517883 133.1808 -9.1303959 -74.278061 -9.1324692 -74.864838 -0.056620281 -100.95207
9202625000 -1.0605773 133.23299 -9.1323576 -74.307327 -9.1252165 -74.934334 -0.057337783 -100.91196
9202687500 -1.0559504 133.17105 -9.1365643 -74.313889 -9.1305075 -74.943108 -0.054577317 -100.86082
9202750000 -1.0506647 133.11691 -9.1294069 -74.246513 -9.126091 -74.991539 -0.053275105 -100.90221
9202812500 -1.0542147 133.11758 -9.1265631 -74.320694 -9.1138802 -74.970619 -0.043639537 -100.83704
9202875000 -1.0514537 133.13086 -9.126462 -74.233452 -9.1283102 -74.934013 -0.057374757 -100.85021
9202937500 -1.0542437 133.12276 -9.1244364 -74.306145 -9.1184273 -74.914139 -0.052340552 -100.87311
9203000000 -1.0569972 133.11075 -9.1252337 -74.286507 -9.1215839 -74.986794 -0.052062441 -100.80451
9203062500 -1.0594958 133.05762 -9.1290159 -74.304314 -9.1296043 -74.912071 -0.07186655 -100.81671
9203125000 -1.0614235 133.05006 -9.1380892 -74.250252 -9.1183796 -74.989731 -0.058523297 -100.79768
9203187500 -1.055393 133.07166 -9.1399193 -74.278313 -9.1173697 -75.013672 -0.059729256 -100.80458
9203250000 -1.0526332 133.02353 -9.1194248 -74.265015 -9.1282969 -74.958473 -0.060083304 -100.77741
9203312500 -1.0703346 133.05852 -9.1299744 -74.285332 -9.1105528 -74.99736 -0.048612151 -100.76912
9203375000 -1.0578935 133.03511 -9.1277046 -74.229057 -9.1148415 -74.899521 -0.051582407 -100.67973
9203437500 -1.061271 133.01387 -9.1360197 -74.325508 -9.1198368 -74.894775 -0.052114625 -100.75807
9203500000 -1.0536906 133.0099 -9.1192722 -74.245918 -9.1214752 -74.92955 -0.056206591 -100.70574
9203562500 -1.0647141 132.9649 -9.126132 -74.278419 -9.1311722 -74.927551 -0.068752587 -100.72231
9203625000 -1.0633682 133.01962 -9.1335945 -74.259872 -9.1235504 -74.88382 -0.05766483 -100.7097
9203687500 -1.0626962 132.93707 -9.1386318 -74.252075 -9.1228361 -74.946106 -0.062783793 -100.65437
9203750000 -1.0607026 132.94748 -9.1260118 -74.197952 -9.1246958 -74.91555 -0.055879325 -100.5962
9203812500 -1.0528301 132.96355 -9.1131334 -74.245605 -9.117321 -74.947212 -0.066230729 -100.61442
9203875000 -1.0585685 132.94682 -9.1341572 -74.224113 -9.1168604 -74.976791 -0.073890679 -100.60661
9203937500 -1.062971 132.90187 -9.1140947 -74.257683 -9.1088324 -74.887093 -0.057235382 -100.5806
9204000000 -1.0634708 132.94034 -9.1121893 -74.185638 -9.1138935 -74.894722 -0.058088135 -100.53069
9204062500 -1.0519515 132.90643 -9.1173086 -74.2491 -9.1027412 -74.949463 -0.059032828 -100.56039
9204125000 -1.0654957 132.86955 -9.1194496 -74.20256 -9.1085548 -74.908813 -0.054328911 -100.52631
9204187500 -1.0615588 132.81596 -9.1234751 -74.23175 -9.1137581 -74.924675 -0.06768778 -100.51155
9204250000 -1.0598431 132.89018 -9.1039324 -74.213699 -9.1125479 -74.926544 -0.063252069 -100.55161
9204312500 -1.0630516 132.85526 -9.1183386 -74.206833 -9.1099043 -74.964752 -0.060259867 -100.40312
9204375000 -1.0483785 132.80891 -9.1058578 -74.207153 -9.1090851 -74.931374 -0.055838849 -100.47981
9204437500 -1.0665404 132.80688 -9.1128864 -74.24646 -9.1126566 -74.857498 -0.054490853 -100.42395
9204500000 -1.0679245 132.82224 -9.1171207 -74.24678 -9.1279612 -74.856552 -0.066953376 -100.44298
9204562500 -1.0615816 132.74704 -9.1139412 -74.298836 -9.1053905 -74.95369 -0.050984699 -100.48653
9204625000 -1.0531241 132.78021 -9.1062717 -74.097397 -9.105689 -74.959801 -0.06113638 -100.36601
9204687500 -1.0619768 132.76678 -9.1148262 -74.249863 -9.1072855 -74.911018 -0.060437206 -100.35738
9204750000 -1.0685933 132.74333 -9.1129894 -74.152786 -9.1093922 -74.865715 -0.071416162 -100.33513
9204812500 -1.055148 132.69981 -9.1071119 -74.220955 -9.1077728 -74.946594 -0.057432327 -100.39953
9204875000 -1.0578048 132.75998 -9.1113014 -74.229111 -9.1270676 -74.836693 -0.066704243 -100.36971
9204937500 -1.0599414 132.72794 -9.1004419 -74.221581 -9.0990276 -74.905609 -0.05675859 -100.31635
9205000000 -1.0562963 132.65849 -9.112133 -74.137787 -9.0999575 -74.831841 -0.072194122 -100.2794
9205062500 -1.0586761 132.62929 -9.1142826 -74.231239 -9.0976706 -74.900368 -0.05979972 -100.25445
9205125000 -1.058305 132.63881 -9.1123924 -74.225502 -9.1036682 -74.8918 -0.064084291 -100.18355
9205187500 -1.0642935 132.70299 -9.119812 -74.09584 -9.1028862 -74.888496 -0.065837011 -100.23546
9205250000 -1.0539471 132.6086 -9.1071358 -74.231873 -9.1110106 -74.852036 -0.076334178 -100.27097
9205312500 -1.0597861 132.67554 -9.1027079 -74.160133 -9.1000261 -74.924591 -0.065763541 -100.23084
9205375000 -1.0626607 132.57545 -9.1103067 -74.194946 -9.1022224 -74.875023 -0.063784957 -100.13345
9205437500 -1.0584307 132.62946 -9.0919819 -74.18679 -9.1031275 -74.848442 -0.064011529 -100.19149
9205500000 -1.0630178 132.52769 -9.092494 -74.188271 -9.1048717 -74.886902 -0.060825069 -100.06522
9205562500 -1.0680848 132.56255 -9.0931759 -74.220589 -9.1007671 -74.890175 -0.062603235 -100.10274
9205625000 -1.0699247 132.54718 -9.1068611 -74.166542 -9.0934086 -74.879219 -0.063478492 -100.06332
9205687500 -1.0549729 132.54926 -9.0992098 -74.205978 -9.0948839 -74.915329 -0.067489043 -100.04941
9205750000 -1.0606874 132.47778 -9.0971642 -74.232574 -9.1008654 -74.842987 -0.058659714 -100.02904
9205812500 -1.0626104 132.46004 -9.100008 -74.163116 -9.1006956 -74.831383 -0.06594725 -99.953232
9205875000 -1.0526844 132.507 -9.0955429 -74.167068 -9.096405 -74.845497 -0.067504339 -100.07388
9205937500 -1.0648092 132.47311 -9.1084013 -74.193893 -9.0825043 -74.86673 -0.063539341 -100.01428
9206000000 -1.0616955 132.43423 -9.0868492 -74.12188 -9.091671 -74.836731 -0.059928998 -99.96389
9206062500 -1.0573769 132.48346 -9.0895767 -74.163498 -9.0851393 -74.847343 -0.058772504 -100.02858
9206125000 -1.0586257 132.42192 -9.0897188 -74.209953 -9.0822659 -74.749191 -0.0697124 -99.90052
9206187500 -1.0640955 132.43515 -9.0979643 -74.230042 -9.0850573 -74.842224 -0.057065777 -99.966675
9206250000 -1.0651997 132.38187 -9.102479 -74.240875 -9.0859079 -74.860039 -0.064521767 -99.972893
9206312500 -1.052572 132.3 -9.0850992 -74.226151 -9.0949984 -75.010231 -0.06580209 -99.979378
9206375000 -1.0622224 132.35661 -9.0897779 -74.201599 -9.083972 -74.796028 -0.062782183 -99.923393
9206437500 -1.061453 132.3037 -9.0950756 -74.242462 -9.0970716 -74.821129 -0.078515746 -99.930511
9206500000 -1.0638133 132.36499 -9.0951815 -74.200203 -9.0853214 -74.833939 -0.070523262 -99.898552
9206562500 -1.0591606 132.3719 -9.0936041 -74.292961 -9.0838375 -74.793922 -0.066295728 -99.909454
9206625000 -1.0661914 132.25795 -9.0903873 -74.214455 -9.0881224 -74.912056 -0.068086721 -99.89341
9206687500 -1.0690458 132.28896 -9.0980844 -74.181778 -9.0897989 -74.858757 -0.064657599 -99.815056
9206750000 -1.0672773 132.27121 -9.0947685 -74.199364 -9.0903997 -74.773636 -0.068872973 -99.809387
9206812500 -1.057472 132.31842 -9.0915165 -74.18187 -9.0838652 -74.896553 -0.062177919 -99.858887
9206875000 -1.0609937 132.30463 -9.0876675 -74.136925 -9.0784426 -74.782478 -0.066625036 -99.712914
9206937500 -1.0653667 132.22673 -9.0908298 -74.198105 -9.0885258 -74.8526 -0.073170848 -99.728775
9207000000 -1.0638525 132.22246 -9.0873671 -74.239677 -9.0795517 -74.839302 -0.063285269 -99.754021
9207062500 -1.0577985 132.26117 -9.0858927 -74.096519 -9.0751438 -74.826653 -0.068236336 -99.624794
9207125000 -1.0687529 132.19255 -9.0787401 -74.192017 -9.0812855 -74.852547 -0.06759315 -99.642403
9207187500 -1.0558708 132.15523 -9.076108 -74.256706 -9.0920401 -74.836845 -0.074275881 -99.701424
9207250000 -1.0633993 132.14178 -9.0865469 -74.183945 -9.0895023 -74.816246 -0.060057759 -99.702728
9207312500 -1.0518242 132.16588 -9.0776014 -74.221107 -9.0766153 -74.838661 -0.060680237 -99.65168
9207375000 -1.0658863 132.16731 -9.0888023 -74.217041 -9.0802565 -74.816345 -0.077437781 -99.567047
9207437500 -1.0606883 132.21265 -9.0901623 -74.11998 -9.099102 -74.764755 -0.082205355 -99.625786
9207500000 -1.0725846 132.16682 -9.0969915 -74.18219 -9.0604162 -74.782959 -0.068360545 -99.593948
9207562500 -1.0550162 132.12769 -9.0834846 -74.163345 -9.0706005 -74.778839 -0.071285747 -99.628006
9207625000 -1.064767 132.03728 -9.0800009 -74.152466 -9.0720682 -74.825752 -0.070170663 -99.494514
9207687500 -1.0669997 132.11133 -9.0725374 -74.123703 -9.0798807 -74.819023 -0.065439798 -99.582855
9207750000 -1.0664362 132.08578 -9.0808439 -74.178932 -9.0742044 -74.812347 -0.064187489 -99.50795
9207812500 -1.0625303 132.08539 -9.0731544 -74.146713 -9.0672569 -74.829887 -0.073014274 -99.515747
9207875000 -1.0620656 132.09738 -9.0757847 -74.081062 -9.0674667 -74.840546 -0.062490314 -99.513901
9207937500 -1.0614476 131.99306 -9.0808563 -74.172783 -9.0831356 -74.794807 -0.076434359 -99.501831
9208000000 -1.0724826 132.02032 -9.0786257 -74.170982 -9.0716858 -74.789047 -0.064337946 -99.459305
9208062500 -1.0696231 132.0061 -9.0889435 -74.09713 -9.0738125 -74.777534 -0.070225947 -99.454781
9208125000 -1.0631226 132.04427 -9.0778017 -74.14328 -9.0636387 -74.882645 -0.07148847 -99.459938
9208187500 -1.059373 131.98901 -9.0697565 -74.138214 -9.0752048 -74.751701 -0.069452882 -99.403259
9208250000 -1.0714691 131.94519 -9.08006 -74.103447 -9.0690231 -74.820107 -0.075779751 -99.393684
9208312500 -1.0731729 131.95534 -9.0946236 -74.089081 -9.0573092 -74.753525 -0.073771626 -99.349663
9208375000 -1.072331 131.98207 -9.0824108 -74.11496 -9.0704718 -74.735298 -0.073413 -99.296532
9208437500 -1.0681601 131.88184 -9.0705986 -74.206673 -9.0785122 -74.703453 -0.083886996 -99.307861
9208500000 -1.0655216 131.87022 -9.0744257 -74.15789 -9.0852966 -74.870705 -0.085208952 -99.37397
9208562500 -1.0634962 131.8856 -9.0712366 -74.132317 -9.0663347 -74.739082 -0.07484968 -99.28569
9208625000 -1.0590085 131.85188 -9.0667219 -74.072075 -9.0658236 -74.784836 -0.081503004 -99.280731
9208687500 -1.0556333 131.84421 -9.0607052 -74.168633 -9.0594292 -74.789993 -0.072925992 -99.238914
9208750000 -1.0604677 131.87962 -9.0719233 -74.112076 -9.0653963 -74.788445 -0.075296618 -99.278885
9208812500 -1.0657934 131.90616 -9.0692282 -74.16143 -9.0727777 -74.820595 -0.071273074 -99.254501
9208875000 -1.0634978 131.83362 -9.0683699 -74.185112 -9.0605927 -74.782303 -0.069458395 -99.195351
9208937500 -1.0661482 131.82289 -9.0613022 -74.130272 -9.0634193 -74.758125 -0.075516932 -99.198692
9209000000 -1.0621601 131.82799 -9.0763063 -74.095863 -9.0598364 -74.69677 -0.076006152 -99.199364
9209062500 -1.0731184 131.80177 -9.0736742 -74.114304 -9.0685253 -74.800064 -0.082045212 -99.177574
9209125000 -1.071897 131.78954 -9.0714712 -74.114555 -9.0629206 -74.757225 -0.068801127 -99.0709
9209187500 -1.0706453 131.78172 -9.0615444 -74.121132 -9.0638094 -74.705276 -0.080220953 -99.1492
9209250000 -1.0622162 131.73213 -9.0603352 -74.048271 -9.0626192 -74.739845 -0.083403245 -99.025711
9209312500 -1.0713145 131.69392 -9.0747871 -74.086792 -9.0608177 -74.790169 -0.084807202 -99.106636
9209375000 -1.0595076 131.75801 -9.063139 -74.066612 -9.0624285 -74.733955 -0.081562072 -99.099945
9209437500 -1.0687951 131.66356 -9.0721436 -74.052483 -9.0594559 -74.795288 -0.072387457 -98.995712
9209500000 -1.0659741 131.67439 -9.0673046 -74.145828 -9.0650673 -74.753937 -0.08227206 -98.999466
9209562500 -1.0738667 131.72209 -9.0734177 -74.081909 -9.0665913 -74.744118 -0.090602867 -98.997261
9209625000 -1.0666133 131.63931 -9.0555229 -74.157784 -9.0531197 -74.812897 -0.072791554 -99.021149
9209687500 -1.0705119 131.57829 -9.0616198 -74.112877 -9.055975 -74.700508 -0.080775432 -99.012573
9209750000 -1.0635229 131.6279 -9.0470848 -74.172546 -9.0593519 -74.789688 -0.069404669 -98.984146
9209812500 -1.0605202 131.6089 -9.0541763 -74.057648 -9.0575066 -74.7416 -0.078099802 -98.91362
9209875000 -1.0628207 131.60539 -9.0485926 -74.087418 -9.0493116 -74.697876 -0.081487104 -98.938377
9209937500 -1.0663216 131.6698 -9.0602207 -74.114098 -9.0691814 -74.714302 -0.085877039 -98.976814
9210000000 -1.0629882 131.60512 -9.0611887 -74.068573 -9.0415163 -74.755577 -0.088547572 -98.918602
9210062500 -1.0682584 131.62083 -9.0524206 -74.080231 -9.0522766 -74.7771 -0.085563898 -98.914963
9210125000 -1.0594093 131.57794 -9.0682802 -74.07753 -9.0501051 -74.716438 -0.08057458 -98.884491
9210187500 -1.0681401 131.582 -9.0561543 -74.077019 -9.0338593 -74.729347 -0.081002384 -98.840485
9210250000 -1.0700116 131.61423 -9.0516911 -74.045723 -9.0502567 -74.713364 -0.08880581 -98.822571
9210312500 -1.0696646 131.51712 -9.0600462 -74.066017 -9.0517082 -74.741646 -0.082317345 -98.85466
9210375000 -1.0626106 131.55342 -9.0525064 -74.028885 -9.0538073 -74.72155 -0.087040238 -98.73233
9210437500 -1.0594954 131.46782 -9.0534096 -74.072464 -9.0494041 -74.75415 -0.071028262 -98.856834
9210500000 -1.063902 131.47054 -9.0447187 -74.127914 -9.0454035 -74.757385 -0.075273834 -98.793808
9210562500 -1.0742623 131.4882 -9.0650358 -74.086792 -9.0480223 -74.78611 -0.086463198 -98.744408
9210625000 -1.0654578 131.4525 -9.0513639 -74.060173 -9.0439215 -74.697464 -0.080189995 -98.789925
9210687500 -1.065663 131.48708 -9.0485592 -74.018242 -9.0479164 -74.822632 -0.081257693 -98.747787
9210750000 -1.0710572 131.47346 -9.0584478 -74.05883 -9.0421133 -74.754738 -0.080200531 -98.726089
9210812500 -1.0694499 131.40837 -9.0539036 -74.08931 -9.0497208 -74.655151 -0.087040849 -98.662781
9210875000 -1.0655856 131.42754 -9.0524044 -74.050919 -9.0321417 -74.733109 -0.081939869 -98.725182
9210937500 -1.0691971 131.42491 -9.0559216 -74.055847 -9.044796 -74.66259 -0.093534656 -98.627625
9211000000 -1.0639913 131.39903 -9.0553207 -74.020866 -9.0493364 -74.701088 -0.081661776 -98.657265
9211062500 -1.06657 131.38593 -9.0505314 -74.063171 -9.0389977 -74.659729 -0.085609697 -98.60331
9211125000 -1.0664749 131.32687 -9.0421209 -74.097427 -9.0310068 -74.658127 -0.076183826 -98.574913
9211187500 -1.0716939 131.36423 -9.0418348 -74.013786 -9.0350752 -74.692413 -0.084374078 -98.582146
9211250000 -1.0712552 131.35016 -9.0356483 -74.078835 -9.0450392 -74.686989 -0.078492746 -98.555313
9211312500 -1.0650643 131.32729 -9.0364237 -74.018341 -9.0426121 -74.757942 -0.091081075 -98.597672
9211375000 -1.0684024 131.21327 -9.0430965 -74.062843 -9.0402002 -74.757324 -0.090986677 -98.531815
9211437500 -1.0607895 131.29974 -9.024004 -73.972733 -9.0401077 -74.677925 -0.087195404 -98.472137
9211500000 -1.0668685 131.2159 -9.0353937 -74.108612 -9.0432558 -74.718781 -0.091671556 -98.532173
9211562500 -1.0737368 131.27628 -9.0481195 -74.070297 -9.0242224 -74.695938 -0.088773005 -98.505173
9211625000 -1.06783 131.22928 -9.0272493 -74.101425 -9.0283079 -74.733566 -0.081843339 -98.493912
9211687500 -1.0710744 131.27393 -9.0431938 -74.034508 -9.0332508 -74.666664 -0.093904816 -98.385933
9211750000 -1.0689576 131.21359 -9.0343885 -74.029709 -9.03934 -74.714455 -0.084161036 -98.41198
9211812500 -1.0753623 131.21992 -9.0458746 -74.042641 -9.0313425 -74.657494 -0.094163522 -98.43232
9211875000 -1.0728428 131.16882 -9.0369425 -74.049095 -9.0261555 -74.593414 -0.081083149 -98.286743
9211937500 -1.0671519 131.20381 -9.0334806 -74.118248 -9.0347471 -74.754204 -0.097431496 -98.40844
9212000000 -1.0619403 131.0874 -9.0219927 -74.079323 -9.0223856 -74.674866 -0.08861652 -98.362099
9212062500 -1.0687475 131.13438 -9.0370312 -74.019608 -9.0288115 -74.606895 -0.091216005 -98.326385
9212125000 -1.0639747 131.03751 -9.0350399 -74.070129 -9.0394297 -74.689987 -0.088633418 -98.321236
9212187500 -1.0626401 131.10358 -9.0271072 -74.010292 -9.0266542 -74.631012 -0.094431601 -98.235313
