!Agilent Technologies,N5242A,MY51221714,A.09.90.19
!Agilent N5242A: A.09.90.19
!Date: Tuesday, March 26, 2024 16:01:22
!Correction: S11(Full 2 Port(1,2)) 
!S21(Full 2 Port(1,2)) 
!S12(Full 2 Port(1,2)) 
!S22(Full 2 Port(1,2)) 
!S2P File: Measurements: S11, S21, S12, S22:
# Hz S  dB   R 50
9200000000 -1.9420146 130.29367 -8.6041403 -87.214592 -8.5839796 -87.971375 -0.82721782 -104.46054
9200062500 -1.9431782 130.30208 -8.5946484 -87.279053 -8.6007671 -87.873924 -0.82941151 -104.38589
9200125000 -1.9358414 130.27483 -8.5949631 -87.214493 -8.583539 -87.896835 -0.82681084 -104.35316
9200187500 -1.9449723 130.34929 -8.5997267 -87.112503 -8.5827036 -87.931694 -0.81199455 -104.35596
9200250000 -1.9425167 130.24574 -8.5927296 -87.246689 -8.5916214 -87.861893 -0.82627743 -104.40543
9200312500 -1.9409745 130.27434 -8.5933647 -87.20137 -8.5899372 -87.92646 -0.83343112 -104.36134
9200375000 -1.9401696 130.20866 -8.5881271 -87.263893 -8.5890045 -87.978722 -0.82353926 -104.35054
9200437500 -1.9378043 130.23645 -8.5877714 -87.216904 -8.5824862 -87.870506 -0.82304019 -104.2905
9200500000 -1.9369767 130.19464 -8.5938711 -87.206024 -8.5845356 -87.88678 -0.82712078 -104.29134
9200562500 -1.9421556 130.209 -8.5846729 -87.229378 -8.5919333 -87.917236 -0.83097786 -104.31633
9200625000 -1.9496137 130.15794 -8.598649 -87.23452 -8.583005 -87.902733 -0.83149391 -104.26056
9200687500 -1.9375541 130.18536 -8.5928278 -87.148788 -8.5877409 -87.864708 -0.82488662 -104.1889
9200750000 -1.9421958 130.13258 -8.5905304 -87.232506 -8.5879898 -87.823311 -0.84014207 -104.20333
9200812500 -1.9572097 130.12737 -8.5921555 -87.188179 -8.5814962 -87.931961 -0.84935993 -104.23856
9200875000 -1.9415259 130.20378 -8.5846119 -87.123787 -8.5859556 -87.882973 -0.83392179 -104.19939
9200937500 -1.9436805 130.11325 -8.5904684 -87.236313 -8.5801754 -87.872337 -0.82433999 -104.17027
9201000000 -1.9410485 130.08635 -8.5870619 -87.29216 -8.5759344 -87.937378 -0.82355523 -104.14581
9201062500 -1.9411435 130.05891 -8.5806351 -87.227043 -8.5706224 -87.895653 -0.82772195 -104.12119
9201125000 -1.9417332 130.11606 -8.5814047 -87.178993 -8.5824604 -87.971489 -0.83478802 -104.18729
9201187500 -1.9526925 129.99344 -8.5910139 -87.238998 -8.5845919 -87.876366 -0.84249473 -104.03223
9201250000 -1.9492131 130.03549 -8.5762348 -87.21096 -8.5770493 -87.882362 -0.8357532 -104.06088
9201312500 -1.9568685 130.05426 -8.5815401 -87.197731 -8.5733461 -87.932693 -0.83364207 -104.10079
9201375000 -1.95881 130.02252 -8.588994 -87.159332 -8.5793829 -87.856888 -0.8360073 -104.04163
9201437500 -1.9437251 130.00731 -8.5839796 -87.185532 -8.5799065 -87.900223 -0.84311134 -104.11296
9201500000 -1.9529049 130.041 -8.5872993 -87.176369 -8.5809736 -87.891098 -0.83719152 -104.05699
9201562500 -1.9492443 130.01447 -8.5820246 -87.163208 -8.5794039 -87.937668 -0.85199583 -104.05732
9201625000 -1.9450464 129.98093 -8.5699387 -87.194443 -8.5647783 -87.938667 -0.84226805 -103.93534
9201687500 -1.9591337 129.95464 -8.577322 -87.119766 -8.5592051 -87.874016 -0.8409189 -103.90047
9201750000 -1.9440497 129.91646 -8.5773888 -87.263153 -8.568491 -87.887154 -0.82353282 -103.92113
9201812500 -1.9487653 129.9003 -8.5818539 -87.252365 -8.5810938 -87.897804 -0.85536003 -104.00759
9201875000 -1.9532686 129.89278 -8.5713434 -87.2323 -8.569108 -87.893875 -0.8363626 -103.88289
9201937500 -1.9656341 129.86534 -8.5915918 -87.206947 -8.5669737 -87.958694 -0.83806092 -103.96436
9202000000 -1.9587443 129.8811 -8.5761967 -87.192329 -8.570035 -87.940178 -0.83540606 -103.88598
9202062500 -1.9655784 129.90112 -8.5722799 -87.205803 -8.5570021 -87.950768 -0.83082873 -103.85521
9202125000 -1.9571635 129.91585 -8.5876045 -87.206604 -8.576436 -87.927917 -0.85311615 -103.92531
9202187500 -1.9498513 129.8324 -8.577775 -87.285126 -8.5706015 -87.87149 -0.8419745 -103.74985
9202250000 -1.9565983 129.80856 -8.5751324 -87.17588 -8.5634146 -87.865005 -0.85070801 -103.8065
9202312500 -1.9416405 129.82339 -8.567481 -87.217133 -8.5648117 -87.932457 -0.84508067 -103.80044
9202375000 -1.9509292 129.77853 -8.5676718 -87.242256 -8.5616465 -87.888321 -0.84575993 -103.7012
9202437500 -1.9537064 129.82864 -8.5708303 -87.246811 -8.5610723 -87.962692 -0.84366393 -103.80401
9202500000 -1.9602833 129.74155 -8.5741539 -87.326675 -8.5693836 -87.900421 -0.84822965 -103.78275
9202562500 -1.9466197 129.75298 -8.56637 -87.184555 -8.5631657 -87.879303 -0.85244113 -103.75478
9202625000 -1.9540012 129.80582 -8.5670433 -87.205376 -8.5644131 -87.87326 -0.85572582 -103.69022
9202687500 -1.9559423 129.70956 -8.5731287 -87.263908 -8.5596504 -87.888138 -0.84197164 -103.62956
9202750000 -1.9510157 129.65569 -8.568367 -87.296783 -8.5622864 -87.93882 -0.84615862 -103.66619
9202812500 -1.9544718 129.66986 -8.5696878 -87.253777 -8.549057 -88.026619 -0.83980364 -103.67918
9202875000 -1.9512746 129.69189 -8.5685148 -87.174652 -8.5624495 -87.935242 -0.84911925 -103.62478
9202937500 -1.9526156 129.6763 -8.5641651 -87.298744 -8.54914 -87.8918 -0.84526271 -103.62192
9203000000 -1.9573145 129.69579 -8.5587387 -87.231033 -8.5616846 -87.9188 -0.84048551 -103.55965
9203062500 -1.9491725 129.63365 -8.5507517 -87.250809 -8.5606403 -87.925102 -0.85545045 -103.62569
9203125000 -1.9556693 129.59961 -8.5568781 -87.304131 -8.5446291 -87.935921 -0.84866929 -103.58923
9203187500 -1.9505229 129.61133 -8.5659475 -87.279442 -8.5451756 -87.956177 -0.84810251 -103.59019
9203250000 -1.9621129 129.60059 -8.5646229 -87.208229 -8.5556993 -87.933296 -0.84550864 -103.52497
9203312500 -1.9593807 129.61543 -8.5592794 -87.250824 -8.5555668 -87.965805 -0.84118122 -103.52184
9203375000 -1.9547372 129.57077 -8.5586958 -87.273354 -8.5523319 -87.974777 -0.84590524 -103.47279
9203437500 -1.9610156 129.59335 -8.5595598 -87.314194 -8.5528412 -87.93261 -0.84538579 -103.55044
9203500000 -1.9583517 129.55017 -8.5556574 -87.268082 -8.5471106 -87.926086 -0.8429963 -103.50851
9203562500 -1.9616995 129.51981 -8.5583124 -87.260666 -8.5598106 -87.953247 -0.85629141 -103.53974
9203625000 -1.961652 129.53816 -8.5605841 -87.285728 -8.5440264 -87.930359 -0.85042953 -103.51588
9203687500 -1.9720877 129.49718 -8.561368 -87.291016 -8.548934 -87.913055 -0.85222524 -103.43614
9203750000 -1.9541706 129.48906 -8.5465279 -87.286552 -8.5550289 -87.89534 -0.84105235 -103.34676
9203812500 -1.9649352 129.49937 -8.5453215 -87.297005 -8.5423632 -87.921997 -0.84799224 -103.40752
9203875000 -1.9534456 129.48465 -8.5413637 -87.184196 -8.5518436 -87.903168 -0.86749232 -103.3877
9203937500 -1.9646932 129.40793 -8.5486622 -87.31958 -8.5489635 -87.89872 -0.85417718 -103.40865
9204000000 -1.958372 129.44745 -8.540535 -87.250801 -8.5505648 -87.955383 -0.84999585 -103.30964
9204062500 -1.9566078 129.45485 -8.5565844 -87.196411 -8.5331926 -87.944252 -0.85366631 -103.31298
9204125000 -1.9601108 129.423 -8.5429678 -87.239082 -8.5426188 -87.91906 -0.8513695 -103.29464
9204187500 -1.9613981 129.39822 -8.5473337 -87.26123 -8.5462027 -87.898926 -0.86610985 -103.23212
9204250000 -1.9591657 129.39413 -8.5377102 -87.272758 -8.5388069 -87.956909 -0.84739769 -103.29971
9204312500 -1.9572763 129.38876 -8.5405846 -87.242561 -8.5337896 -88.003128 -0.85165554 -103.22165
9204375000 -1.9495066 129.38246 -8.5389452 -87.242889 -8.5435734 -87.968582 -0.85197401 -103.29388
9204437500 -1.9756936 129.40494 -8.5428905 -87.28717 -8.5409031 -87.849426 -0.84785819 -103.17303
9204500000 -1.9660804 129.36626 -8.5467138 -87.262627 -8.5409288 -87.992416 -0.86133701 -103.21347
9204562500 -1.9630398 129.30194 -8.5478067 -87.326866 -8.5343866 -87.923683 -0.85136223 -103.22339
9204625000 -1.9531854 129.30203 -8.5358019 -87.241348 -8.535326 -88.03949 -0.86212838 -103.17482
9204687500 -1.9672526 129.30693 -8.5435371 -87.244904 -8.5318184 -87.96347 -0.86334664 -103.12748
9204750000 -1.9709736 129.26331 -8.5389013 -87.240318 -8.5397749 -87.990021 -0.86758018 -103.16147
9204812500 -1.9564372 129.25154 -8.5377541 -87.241089 -8.5351839 -87.95237 -0.8487094 -103.09935
9204875000 -1.9639347 129.34676 -8.5442734 -87.274948 -8.5537472 -87.849037 -0.8674978 -103.12142
9204937500 -1.9631541 129.23558 -8.5346861 -87.290092 -8.5360088 -87.938698 -0.8585428 -103.06059
9205000000 -1.9555329 129.19576 -8.5366802 -87.256218 -8.5232849 -87.930542 -0.87213635 -103.08929
9205062500 -1.9663819 129.21895 -8.5471869 -87.28006 -8.5209093 -87.940125 -0.86160201 -103.05235
9205125000 -1.9683897 129.20705 -8.5371714 -87.243042 -8.5364904 -87.95755 -0.86547619 -103.03786
9205187500 -1.969349 129.21208 -8.5550823 -87.251213 -8.5340061 -87.940117 -0.87263638 -103.027
9205250000 -1.9617012 129.17084 -8.5369549 -87.316528 -8.5372276 -87.906685 -0.87244791 -103.09619
9205312500 -1.9634111 129.23706 -8.5376263 -87.229851 -8.5361919 -87.952919 -0.86719227 -103.01611
9205375000 -1.9653628 129.10213 -8.5227184 -87.290314 -8.5258369 -87.997688 -0.86172628 -102.96813
9205437500 -1.9630878 129.14133 -8.5271368 -87.273994 -8.5257607 -87.906525 -0.8579303 -102.95564
9205500000 -1.9772954 129.04382 -8.531827 -87.275375 -8.5262985 -88.024422 -0.85920477 -102.92442
9205562500 -1.9668578 129.11465 -8.5254498 -87.245331 -8.5292282 -87.97599 -0.86102718 -102.8908
9205625000 -1.9762124 129.10292 -8.5392618 -87.254372 -8.5271673 -87.952713 -0.86846322 -102.87207
9205687500 -1.9682457 129.13126 -8.5286407 -87.23848 -8.5158291 -88.025253 -0.86220121 -102.91388
9205750000 -1.9682044 129.05524 -8.5211878 -87.302605 -8.5260992 -87.97364 -0.86226034 -102.83048
9205812500 -1.9758816 129.04161 -8.5209846 -87.282227 -8.5274811 -87.965355 -0.86447591 -102.84101
9205875000 -1.9644626 129.049 -8.5277987 -87.236336 -8.5300808 -87.886375 -0.86944979 -102.82227
9205937500 -1.9691744 129.00171 -8.5181208 -87.259827 -8.516223 -87.892685 -0.87188691 -102.75692
9206000000 -1.9737006 129.00716 -8.5121346 -87.289749 -8.5304718 -87.962685 -0.87027472 -102.80552
9206062500 -1.9651729 129.00514 -8.5190029 -87.319214 -8.5313902 -87.902977 -0.87330288 -102.79615
9206125000 -1.9697865 128.96976 -8.5222368 -87.278519 -8.5186138 -87.87381 -0.87201178 -102.7047
9206187500 -1.9723164 128.98814 -8.5227652 -87.349121 -8.5218515 -87.944557 -0.87104154 -102.74107
9206250000 -1.9739327 128.91521 -8.5264215 -87.340225 -8.5213814 -87.942558 -0.8752411 -102.74185
9206312500 -1.9639503 128.88525 -8.5119104 -87.260384 -8.5215187 -88.063477 -0.86398423 -102.75939
9206375000 -1.9722445 128.93474 -8.5163317 -87.256172 -8.5171118 -87.897919 -0.86485481 -102.71032
9206437500 -1.9686819 128.89722 -8.5151157 -87.262825 -8.5131531 -87.971413 -0.8717947 -102.7231
9206500000 -1.975397 128.89307 -8.5275383 -87.308212 -8.5168324 -87.951988 -0.88538331 -102.70337
9206562500 -1.974246 128.91194 -8.5234995 -87.353111 -8.5195341 -87.947395 -0.8712821 -102.69765
9206625000 -1.9817438 128.78941 -8.51682 -87.352547 -8.5229473 -87.989586 -0.86971164 -102.65425
9206687500 -1.9758832 128.85231 -8.517909 -87.337578 -8.5162268 -88.003311 -0.87165511 -102.66983
9206750000 -1.9728009 128.84483 -8.5131464 -87.355995 -8.5104799 -87.968498 -0.87233281 -102.64271
9206812500 -1.9690828 128.85471 -8.5202017 -87.305305 -8.5119534 -87.963417 -0.8681041 -102.62892
9206875000 -1.9748986 128.80701 -8.519577 -87.328194 -8.5078516 -87.910652 -0.86730534 -102.49993
9206937500 -1.9717448 128.81454 -8.5111437 -87.325287 -8.5182943 -87.96299 -0.88059449 -102.52479
9207000000 -1.9752868 128.77455 -8.517458 -87.286865 -8.508543 -88.005096 -0.86795706 -102.56773
9207062500 -1.974528 128.77425 -8.5034485 -87.212242 -8.5034399 -87.966141 -0.87153822 -102.45422
9207125000 -1.9827749 128.77518 -8.5088921 -87.321144 -8.5064297 -88.013092 -0.87392503 -102.47486
9207187500 -1.9719852 128.74364 -8.5071764 -87.361839 -8.512641 -87.945457 -0.88130343 -102.49663
9207250000 -1.9749874 128.72592 -8.5124273 -87.273575 -8.5109949 -87.996979 -0.87191445 -102.51143
9207312500 -1.9667819 128.7307 -8.5020676 -87.290634 -8.4995499 -87.978928 -0.86798245 -102.40675
9207375000 -1.9866812 128.67685 -8.516345 -87.270798 -8.5039473 -87.954666 -0.87833935 -102.4148
9207437500 -1.9719822 128.69255 -8.5065689 -87.31723 -8.5176792 -87.903015 -0.87593466 -102.39694
9207500000 -1.979594 128.74693 -8.5176134 -87.249466 -8.4954653 -87.971954 -0.88355583 -102.41559
9207562500 -1.9732646 128.68074 -8.5091467 -87.33831 -8.4915695 -87.922577 -0.88081419 -102.40482
9207625000 -1.9824046 128.59123 -8.5092268 -87.339676 -8.5079765 -87.996475 -0.87913936 -102.32045
9207687500 -1.9824879 128.64616 -8.5023575 -87.342476 -8.4991846 -87.940697 -0.87299865 -102.35955
9207750000 -1.9804125 128.60966 -8.509263 -87.322617 -8.4933672 -88.000153 -0.87262487 -102.34958
9207812500 -1.9778082 128.6218 -8.5028152 -87.321983 -8.4991856 -87.946709 -0.88857991 -102.29671
9207875000 -1.9795976 128.60051 -8.5137243 -87.307358 -8.4957161 -87.969086 -0.87721986 -102.29306
9207937500 -1.9851412 128.54477 -8.5131264 -87.28392 -8.5036821 -88.021065 -0.8887161 -102.34483
9208000000 -1.9872451 128.57285 -8.4997234 -87.345322 -8.4998226 -87.954346 -0.88331831 -102.24463
9208062500 -1.9894079 128.54933 -8.4993658 -87.324272 -8.4950352 -87.982117 -0.88122553 -102.24821
9208125000 -1.9785763 128.53006 -8.5009165 -87.327278 -8.4974041 -88.036453 -0.87771118 -102.26351
9208187500 -1.9794384 128.56055 -8.5016289 -87.286545 -8.5042658 -87.943184 -0.8826474 -102.1891
9208250000 -1.9891993 128.52518 -8.5146217 -87.282333 -8.496479 -88.034538 -0.88166755 -102.20259
9208312500 -1.9754747 128.52028 -8.5051537 -87.301834 -8.4885397 -87.974197 -0.88280296 -102.18174
9208375000 -1.990845 128.52365 -8.4962797 -87.344131 -8.4911203 -87.987358 -0.88533419 -102.11158
9208437500 -1.98457 128.40742 -8.5054178 -87.39975 -8.4963961 -87.951393 -0.89059818 -102.14452
9208500000 -1.9922211 128.4052 -8.4957962 -87.370369 -8.4874716 -87.999146 -0.88019365 -102.11172
9208562500 -1.986853 128.44858 -8.4868288 -87.342934 -8.5007801 -88.003403 -0.88616192 -102.09953
9208625000 -1.9826247 128.39366 -8.4775219 -87.285667 -8.4851828 -87.918152 -0.89569968 -102.08569
9208687500 -1.9756323 128.41228 -8.4797564 -87.31723 -8.4873304 -88.013031 -0.882415 -102.07899
9208750000 -1.9806843 128.44022 -8.5007219 -87.290031 -8.4843731 -88.021042 -0.89549065 -102.08681
9208812500 -1.9860315 128.44843 -8.5003157 -87.334717 -8.4974613 -87.999489 -0.88827986 -101.98733
9208875000 -1.9882041 128.35133 -8.4926224 -87.336975 -8.484704 -88.002174 -0.88672924 -102.03647
9208937500 -1.9887587 128.33533 -8.4838619 -87.368713 -8.4759979 -87.987999 -0.88001907 -101.9905
9209000000 -1.9807298 128.34921 -8.4984617 -87.355988 -8.4719219 -87.94136 -0.88929522 -101.95686
9209062500 -1.9877474 128.34923 -8.4972982 -87.353226 -8.4899149 -87.981842 -0.88804096 -101.99457
9209125000 -1.9905332 128.33356 -8.4913473 -87.328331 -8.4899845 -88.019478 -0.88706273 -101.91191
9209187500 -1.9895562 128.36469 -8.4899883 -87.339661 -8.481349 -87.945183 -0.88773602 -101.92424
9209250000 -1.983063 128.27408 -8.4846468 -87.332573 -8.4746475 -88.068413 -0.8804478 -101.88102
9209312500 -1.9865015 128.19044 -8.4892836 -87.3498 -8.4819508 -87.980965 -0.89981508 -101.905
9209375000 -1.9767067 128.25888 -8.4764366 -87.359604 -8.496913 -87.948013 -0.91073376 -101.89724
9209437500 -1.9964997 128.22935 -8.4924774 -87.317802 -8.4867563 -88.09977 -0.90092295 -101.80929
9209500000 -1.9892296 128.23537 -8.4857979 -87.395309 -8.478076 -88.041451 -0.89932978 -101.82545
9209562500 -1.994974 128.24979 -8.4944773 -87.301788 -8.4844055 -87.970207 -0.90184832 -101.7446
9209625000 -1.9902464 128.17159 -8.4664927 -87.297852 -8.4772711 -87.959198 -0.89156151 -101.74964
9209687500 -1.9950585 128.125 -8.4746437 -87.420189 -8.476758 -87.977531 -0.89494282 -101.79652
9209750000 -1.9942372 128.14473 -8.4703512 -87.433784 -8.4737148 -87.952332 -0.88739944 -101.77919
9209812500 -1.9896853 128.11717 -8.4831772 -87.353302 -8.4804201 -88.03006 -0.89616817 -101.74377
9209875000 -1.9862931 128.12482 -8.4783478 -87.314377 -8.4765577 -87.966324 -0.90229976 -101.70663
9209937500 -1.9845033 128.22827 -8.4864779 -87.316368 -8.4809322 -88.010002 -0.90205055 -101.78661
9210000000 -1.984832 128.1265 -8.4763088 -87.345085 -8.4734011 -87.971344 -0.90266144 -101.67134
9210062500 -1.9899389 128.11276 -8.4754028 -87.43045 -8.4713755 -87.988579 -0.90157104 -101.67577
9210125000 -1.9904858 128.06581 -8.48281 -87.341286 -8.4706993 -87.973183 -0.89903915 -101.63982
9210187500 -1.9911594 128.11879 -8.4764071 -87.325592 -8.4713354 -87.927162 -0.9009425 -101.59626
9210250000 -1.9949077 128.06696 -8.4735947 -87.338951 -8.4739504 -87.92025 -0.90715164 -101.61152
9210312500 -2.0023577 128.06914 -8.4764328 -87.311554 -8.466238 -88.056015 -0.89597809 -101.67229
9210375000 -1.9902335 128.07936 -8.4825392 -87.329147 -8.4692278 -87.976349 -0.90013641 -101.54273
9210437500 -1.9891839 128.02202 -8.4742851 -87.342316 -8.4695568 -88.015266 -0.89637083 -101.61903
9210500000 -1.9869539 128.00958 -8.4627132 -87.354301 -8.4682655 -88.018974 -0.89945316 -101.5843
9210562500 -1.9971913 127.97578 -8.4763203 -87.333984 -8.4604349 -88.04248 -0.90041268 -101.53471
9210625000 -1.9915059 128.01926 -8.4726868 -87.279999 -8.4664612 -87.991531 -0.90286964 -101.57745
9210687500 -1.9964693 127.97862 -8.4721994 -87.320129 -8.4609289 -88.019501 -0.90114427 -101.47517
9210750000 -1.9978366 127.95723 -8.4705391 -87.344429 -8.4571114 -88.012268 -0.90541524 -101.51067
9210812500 -1.9981515 127.96993 -8.4689245 -87.378227 -8.47085 -87.959183 -0.91309482 -101.4744
9210875000 -1.9956964 127.95047 -8.4720831 -87.315002 -8.4549713 -87.98365 -0.90684879 -101.48737
9210937500 -1.997618 127.94559 -8.4647503 -87.368599 -8.4657707 -88.010139 -0.90901941 -101.45582
9211000000 -1.9952056 127.92075 -8.468339 -87.393211 -8.473505 -87.976059 -0.90437251 -101.43722
9211062500 -1.9977989 127.93741 -8.4654503 -87.270157 -8.4619398 -87.96032 -0.9082911 -101.39779
9211125000 -1.9950531 127.8705 -8.4654903 -87.362213 -8.4556131 -87.9879 -0.89578027 -101.415
9211187500 -2.0088234 127.88242 -8.4691324 -87.329994 -8.4586687 -87.976311 -0.90990287 -101.3597
9211250000 -1.9976019 127.8885 -8.4570131 -87.372467 -8.4701824 -87.944855 -0.90863854 -101.33913
9211312500 -2.0003366 127.8472 -8.4692402 -87.287247 -8.4681263 -87.984238 -0.91395962 -101.34471
9211375000 -1.9952643 127.7803 -8.4569244 -87.414474 -8.452157 -88.043175 -0.9081738 -101.27729
9211437500 -1.9941695 127.81836 -8.4605045 -87.378548 -8.463624 -88.025475 -0.91513264 -101.29717
9211500000 -2.0026128 127.81194 -8.4679613 -87.404526 -8.4561434 -88.091019 -0.90982473 -101.3695
9211562500 -2.0081103 127.79684 -8.4670973 -87.360229 -8.4524393 -88.015747 -0.91311705 -101.32646
9211625000 -2.0022984 127.72633 -8.4553556 -87.44342 -8.4480152 -88.089172 -0.90132087 -101.30742
9211687500 -2.0045412 127.81684 -8.4657049 -87.376274 -8.4480267 -88.011177 -0.90819103 -101.23003
9211750000 -2.0040584 127.73092 -8.4533014 -87.343315 -8.4382906 -87.981911 -0.90434068 -101.14957
9211812500 -2.0015433 127.71777 -8.4642658 -87.375008 -8.4552011 -87.994263 -0.92258888 -101.22191
9211875000 -2.006994 127.72533 -8.4632273 -87.353523 -8.4482441 -87.965111 -0.90633982 -101.11809
9211937500 -1.9990448 127.70824 -8.451087 -87.376854 -8.4530649 -88.010994 -0.92002183 -101.16098
9212000000 -2.001545 127.60054 -8.4528551 -87.380379 -8.4513884 -88.040077 -0.91916358 -101.11945
9212062500 -2.0036409 127.60557 -8.455492 -87.359749 -8.4509869 -88.067772 -0.92364252 -101.18837
9212125000 -2.0029898 127.61692 -8.4459324 -87.434898 -8.4558764 -88.025726 -0.91018599 -101.1265
9212187500 -1.9985107 127.63093 -8.4415417 -87.342094 -8.4324799 -87.975739 -0.91317695 -101.0612
9212250000 -2.0045271 127.64973 -8.4533777 -87.325005 -8.4397535 -87.959053 -0.90273517 -101.06067
9212312500 -2.0054657 127.6181 -8.4489765 -87.350372 -8.4445238 -87.976067 -0.91420805 -101.10303
