!Agilent Technologies,N5242A,MY51221714,A.09.90.19
!Agilent N5242A: A.09.90.19
!Date: Saturday, December 30, 2023 10:23:05
!Correction: S11(Full 2 Port(1,2)) 
!S21(Full 2 Port(1,2)) 
!S12(Full 2 Port(1,2)) 
!S22(Full 2 Port(1,2)) 
!S2P File: Measurements: S11, S21, S12, S22:
# Hz S  dB   R 50
9200000000 -1.1713918 123.30685 -8.4479084 -75.862839 -8.4462948 -76.673851 -0.33755773 -94.031235
9200062500 -1.1769005 123.29822 -8.458334 -75.890892 -8.443244 -76.664352 -0.33838621 -94.019997
9200125000 -1.1771415 123.27467 -8.4612207 -75.89328 -8.4301043 -76.677109 -0.33476049 -93.998344
9200187500 -1.1724553 123.25418 -8.4596014 -75.886848 -8.4420462 -76.657196 -0.33612302 -93.955711
9200250000 -1.1791098 123.25596 -8.4594917 -75.873253 -8.4339228 -76.659012 -0.34274542 -93.937546
9200312500 -1.1807458 123.20435 -8.4603481 -75.895432 -8.4384127 -76.622475 -0.337744 -93.925606
9200375000 -1.179379 123.20358 -8.4638195 -75.89035 -8.4347868 -76.589546 -0.33669987 -93.909676
9200437500 -1.1761428 123.15014 -8.4528112 -75.943954 -8.4345798 -76.652267 -0.34074971 -93.925026
9200500000 -1.1734169 123.16396 -8.4507198 -75.906342 -8.4342947 -76.622223 -0.33548021 -93.941101
9200562500 -1.1744263 123.12198 -8.4467573 -75.946404 -8.4420319 -76.619659 -0.33874753 -93.886986
9200625000 -1.1767508 123.13218 -8.4554644 -75.885284 -8.4261332 -76.641006 -0.33171374 -93.881783
9200687500 -1.1695986 123.09986 -8.4505529 -75.909225 -8.4246016 -76.642914 -0.33101952 -93.869064
9200750000 -1.1710085 123.07439 -8.4516029 -75.893814 -8.4284964 -76.610313 -0.33908328 -93.819221
9200812500 -1.1772519 123.09694 -8.4517374 -75.94677 -8.4180269 -76.622597 -0.3335022 -93.802925
9200875000 -1.1750039 123.05846 -8.447113 -75.911263 -8.4216127 -76.626541 -0.33735141 -93.799736
9200937500 -1.173256 123.05963 -8.4505901 -75.919662 -8.4208117 -76.624153 -0.34351173 -93.809296
9201000000 -1.1694378 123.06922 -8.4569178 -75.933372 -8.4293652 -76.639946 -0.34150589 -93.797531
9201062500 -1.1691345 123.05097 -8.4483175 -75.945061 -8.4293432 -76.625061 -0.34240666 -93.80632
9201125000 -1.1782697 123.06403 -8.450387 -75.931427 -8.4335346 -76.646606 -0.34589288 -93.791298
9201187500 -1.1781864 123.09224 -8.4493628 -75.911316 -8.4346523 -76.623703 -0.34599337 -93.762535
9201250000 -1.1797886 123.04832 -8.4602633 -75.90361 -8.4347572 -76.561775 -0.35427648 -93.727356
9201312500 -1.1730337 123.04906 -8.4401464 -75.894577 -8.4296188 -76.626228 -0.34900177 -93.723984
9201375000 -1.175747 123.05967 -8.4473791 -75.851639 -8.4215765 -76.668457 -0.34263974 -93.700226
9201437500 -1.1763283 123.02003 -8.4433985 -75.847626 -8.4284821 -76.575867 -0.34273538 -93.606834
9201500000 -1.1735775 123.02623 -8.4352417 -75.849205 -8.4293861 -76.631561 -0.34074003 -93.615135
9201562500 -1.1785219 122.97727 -8.4344387 -75.836021 -8.428133 -76.622841 -0.34108222 -93.57074
9201625000 -1.1793568 122.99464 -8.4323387 -75.844994 -8.4277449 -76.693764 -0.34518531 -93.576408
9201687500 -1.180379 122.93777 -8.4329519 -75.889816 -8.4267139 -76.634186 -0.3464267 -93.539772
9201750000 -1.1778281 122.97224 -8.4331083 -75.805222 -8.4208565 -76.607422 -0.33827534 -93.536339
9201812500 -1.1776145 122.93428 -8.4389763 -75.807495 -8.421443 -76.570038 -0.34655252 -93.515678
9201875000 -1.1754364 122.93167 -8.434906 -75.859283 -8.4155531 -76.605507 -0.34620729 -93.5448
9201937500 -1.1750737 122.91972 -8.4373713 -75.897255 -8.417057 -76.563736 -0.34489033 -93.555756
9202000000 -1.1758339 122.88869 -8.4304523 -75.885437 -8.4208975 -76.531502 -0.3522892 -93.496498
9202062500 -1.1788794 122.90411 -8.4358625 -75.841042 -8.4195499 -76.556328 -0.34602657 -93.510765
9202125000 -1.1756914 122.84171 -8.4270868 -75.883492 -8.421134 -76.568588 -0.35171762 -93.50164
9202187500 -1.1715556 122.81274 -8.4288454 -75.905144 -8.4132519 -76.602898 -0.35172829 -93.477058
9202250000 -1.1709545 122.77582 -8.4255095 -75.908485 -8.4170723 -76.585175 -0.35055199 -93.475594
9202312500 -1.1788 122.78592 -8.4295101 -75.897003 -8.4128323 -76.646225 -0.35196483 -93.4599
9202375000 -1.175602 122.76753 -8.4268999 -75.905968 -8.4222288 -76.626892 -0.35302988 -93.424843
9202437500 -1.1738158 122.736 -8.426878 -75.920952 -8.4215212 -76.649307 -0.35210431 -93.441856
9202500000 -1.1728145 122.73402 -8.4252224 -75.864876 -8.4166117 -76.565346 -0.34586501 -93.34185
9202562500 -1.1742325 122.74455 -8.4249773 -75.86879 -8.4141378 -76.580887 -0.35182437 -93.36145
9202625000 -1.1749803 122.73439 -8.4254608 -75.869888 -8.4188385 -76.6306 -0.35656533 -93.356201
9202687500 -1.1785195 122.72062 -8.4257574 -75.819885 -8.4087658 -76.658218 -0.34944403 -93.379486
9202750000 -1.1809455 122.71844 -8.4268541 -75.866402 -8.4093513 -76.674423 -0.34571671 -93.388878
9202812500 -1.1748201 122.67617 -8.4134808 -75.85408 -8.4006958 -76.667572 -0.34378192 -93.348877
9202875000 -1.1748447 122.68156 -8.4265089 -75.828232 -8.4091759 -76.611946 -0.35580871 -93.295509
9202937500 -1.170561 122.65308 -8.4235678 -75.855148 -8.4003477 -76.626633 -0.34798121 -93.300568
9203000000 -1.1747518 122.64323 -8.4270878 -75.834229 -8.4069052 -76.619614 -0.35444662 -93.302452
9203062500 -1.1690766 122.59105 -8.4194822 -75.875916 -8.4093275 -76.630066 -0.35391507 -93.280899
9203125000 -1.1667317 122.5797 -8.4236307 -75.862282 -8.4022989 -76.57412 -0.35179684 -93.228485
9203187500 -1.1689798 122.60605 -8.4112263 -75.84198 -8.4002209 -76.61367 -0.34842655 -93.229156
9203250000 -1.1673192 122.58929 -8.4037209 -75.866638 -8.4085608 -76.575493 -0.35401669 -93.173859
9203312500 -1.1699262 122.56799 -8.4087076 -75.853401 -8.4079638 -76.600563 -0.35238162 -93.178078
9203375000 -1.1731374 122.61086 -8.4041157 -75.841476 -8.4049816 -76.605888 -0.35161784 -93.119194
9203437500 -1.1730405 122.58369 -8.4064064 -75.891541 -8.398488 -76.598717 -0.34591156 -93.132843
9203500000 -1.1730654 122.60419 -8.4076929 -75.788177 -8.3990068 -76.616043 -0.34101576 -93.062332
9203562500 -1.1734755 122.56896 -8.4049606 -75.842796 -8.4043398 -76.575226 -0.34530178 -93.067276
9203625000 -1.1730503 122.54299 -8.4006948 -75.863022 -8.4038467 -76.582748 -0.35389069 -93.090675
9203687500 -1.1789403 122.48633 -8.4080486 -75.889061 -8.395977 -76.575378 -0.34983632 -93.077362
9203750000 -1.1777329 122.50222 -8.4133434 -75.858864 -8.400547 -76.597984 -0.35220748 -93.092804
9203812500 -1.1820188 122.42856 -8.4163961 -75.915588 -8.3959951 -76.573135 -0.35353616 -93.098885
9203875000 -1.181254 122.4378 -8.4092312 -75.856155 -8.3955784 -76.593498 -0.35050711 -93.071014
9203937500 -1.1776878 122.44083 -8.4055786 -75.900558 -8.3852377 -76.590469 -0.34629005 -93.059708
9204000000 -1.1795143 122.428 -8.4108019 -75.870064 -8.4012737 -76.614548 -0.35158831 -93.031136
9204062500 -1.1707269 122.39803 -8.3996515 -75.828003 -8.3967876 -76.540619 -0.34764081 -93.005608
9204125000 -1.1744329 122.42268 -8.3976078 -75.833397 -8.3932724 -76.610382 -0.34402466 -92.986565
9204187500 -1.1754731 122.39662 -8.4066696 -75.865761 -8.3876619 -76.555008 -0.3415086 -92.951553
9204250000 -1.1757154 122.38905 -8.3921309 -75.842903 -8.3961811 -76.560265 -0.34763446 -92.93132
9204312500 -1.1723119 122.3922 -8.3987598 -75.83567 -8.3904686 -76.610596 -0.35030004 -92.937675
9204375000 -1.1722366 122.34526 -8.3942499 -75.866196 -8.3877802 -76.519913 -0.34445253 -92.881233
9204437500 -1.1699564 122.33607 -8.3897638 -75.798958 -8.3912144 -76.572945 -0.35597658 -92.855743
9204500000 -1.1709635 122.32351 -8.3879232 -75.792778 -8.3820934 -76.559341 -0.34996015 -92.850914
9204562500 -1.1649197 122.31725 -8.3842154 -75.743126 -8.3941345 -76.592819 -0.35753885 -92.810623
9204625000 -1.1652993 122.28119 -8.3951445 -75.764771 -8.3909254 -76.59066 -0.36076388 -92.823608
9204687500 -1.1682808 122.24377 -8.3916378 -75.810852 -8.3872957 -76.555107 -0.35427019 -92.812279
9204750000 -1.1737505 122.2414 -8.391943 -75.749039 -8.3861351 -76.548134 -0.35939738 -92.799019
9204812500 -1.1744903 122.22742 -8.3928614 -75.796135 -8.3825064 -76.514549 -0.35365289 -92.761322
9204875000 -1.1846635 122.26781 -8.4028091 -75.782196 -8.3760643 -76.526733 -0.35604015 -92.742096
9204937500 -1.179938 122.21038 -8.4008436 -75.84304 -8.3782978 -76.584389 -0.35514876 -92.771957
9205000000 -1.1749414 122.17874 -8.3938456 -75.849655 -8.3863802 -76.549866 -0.36009666 -92.740059
9205062500 -1.1769722 122.16689 -8.3913841 -75.800247 -8.3862715 -76.618866 -0.35524046 -92.71196
9205125000 -1.1821018 122.16817 -8.3961182 -75.863472 -8.3854609 -76.550919 -0.35182732 -92.690796
9205187500 -1.1785893 122.16257 -8.3915491 -75.859184 -8.3818378 -76.592499 -0.35008979 -92.689713
9205250000 -1.1809955 122.15358 -8.392354 -75.851395 -8.3869343 -76.581886 -0.35073301 -92.639153
9205312500 -1.1759561 122.15849 -8.3866072 -75.833961 -8.3806782 -76.615311 -0.34713864 -92.633141
9205375000 -1.1777228 122.16594 -8.3848581 -75.781265 -8.3935785 -76.596954 -0.35166785 -92.585686
9205437500 -1.1774354 122.0947 -8.3813896 -75.809212 -8.3816071 -76.619362 -0.35014895 -92.597702
9205500000 -1.1756124 122.11313 -8.3856907 -75.791168 -8.3750896 -76.616791 -0.35484767 -92.550331
9205562500 -1.1747987 122.09727 -8.3870516 -75.723434 -8.3787928 -76.546516 -0.35699689 -92.472481
9205625000 -1.179036 122.07551 -8.3953218 -75.748192 -8.3719482 -76.551338 -0.35983676 -92.476219
9205687500 -1.1779019 122.02077 -8.3936605 -75.747398 -8.3678503 -76.564072 -0.36372349 -92.451332
9205750000 -1.1731079 122.02005 -8.3833132 -75.739082 -8.3728466 -76.525726 -0.36429003 -92.434334
9205812500 -1.1747527 121.99204 -8.3803701 -75.765266 -8.3691521 -76.55175 -0.36133447 -92.390205
9205875000 -1.1827811 121.98376 -8.3933897 -75.763832 -8.3705025 -76.535316 -0.36329994 -92.402458
9205937500 -1.18556 121.95779 -8.3853769 -75.75238 -8.3772535 -76.512802 -0.36480328 -92.384537
9206000000 -1.1788231 121.94592 -8.3824835 -75.818954 -8.3675041 -76.487106 -0.36435178 -92.366539
9206062500 -1.1834246 121.91343 -8.3773527 -75.772758 -8.3661985 -76.531898 -0.36081529 -92.339577
9206125000 -1.1798106 121.96695 -8.3764029 -75.716644 -8.3716393 -76.584473 -0.36127147 -92.395889
9206187500 -1.1815817 121.90458 -8.3775234 -75.732628 -8.3672323 -76.516739 -0.36718068 -92.30471
9206250000 -1.1809344 121.88034 -8.3751917 -75.731392 -8.3666563 -76.500145 -0.36476579 -92.301544
9206312500 -1.1784865 121.87795 -8.3763247 -75.761017 -8.3700209 -76.522064 -0.36465555 -92.291946
9206375000 -1.1779486 121.84279 -8.3739119 -75.794815 -8.3640127 -76.556381 -0.36665761 -92.308044
9206437500 -1.1800618 121.80836 -8.3726196 -75.771759 -8.3573866 -76.543922 -0.3675788 -92.272987
9206500000 -1.1826645 121.77911 -8.3719492 -75.825119 -8.3612633 -76.592087 -0.37005332 -92.277351
9206562500 -1.1779889 121.79317 -8.3671751 -75.773453 -8.3556805 -76.525726 -0.35719779 -92.256592
9206625000 -1.1818838 121.83283 -8.3704939 -75.844849 -8.3614264 -76.524712 -0.36349642 -92.245567
9206687500 -1.1807437 121.79633 -8.3693409 -75.879593 -8.3559885 -76.466843 -0.35715333 -92.243034
9206750000 -1.1803252 121.83527 -8.3616123 -75.816719 -8.35495 -76.505219 -0.35842919 -92.206436
9206812500 -1.1792899 121.8203 -8.365572 -75.846756 -8.3596249 -76.547348 -0.35877681 -92.231819
9206875000 -1.1786861 121.81844 -8.3733644 -75.758888 -8.3581362 -76.475014 -0.35598594 -92.186264
9206937500 -1.1783435 121.80017 -8.3681402 -75.816292 -8.3500214 -76.517494 -0.35001794 -92.183311
9207000000 -1.1780058 121.78886 -8.3669996 -75.783966 -8.3506975 -76.458389 -0.35082904 -92.115562
9207062500 -1.1773089 121.75624 -8.3662004 -75.801971 -8.3483028 -76.546432 -0.35186267 -92.15242
9207125000 -1.1788925 121.72142 -8.3722181 -75.782501 -8.3549538 -76.537804 -0.36414587 -92.134369
9207187500 -1.1824255 121.69893 -8.3664618 -75.7369 -8.3444567 -76.56218 -0.36105773 -92.104538
9207250000 -1.1762066 121.67722 -8.3593302 -75.786125 -8.3493071 -76.573944 -0.35110334 -92.069939
9207312500 -1.1745198 121.63823 -8.3582401 -75.748291 -8.3449602 -76.537689 -0.35285291 -92.02916
9207375000 -1.1817605 121.64526 -8.3686228 -75.79892 -8.3489742 -76.513405 -0.36262938 -92.071709
9207437500 -1.1811351 121.59069 -8.3608437 -75.805283 -8.3464413 -76.498901 -0.37207925 -92.007149
9207500000 -1.1813418 121.59667 -8.3600922 -75.774734 -8.3469801 -76.450233 -0.36383939 -92.00666
9207562500 -1.1793437 121.59092 -8.3533821 -75.818764 -8.3527212 -76.545624 -0.37015179 -92.021553
9207625000 -1.1811486 121.51311 -8.362546 -75.830734 -8.347476 -76.507652 -0.37476587 -92.014069
9207687500 -1.1855761 121.52805 -8.3529253 -75.781448 -8.3588676 -76.451981 -0.37263212 -91.994652
9207750000 -1.1887264 121.51136 -8.3580046 -75.79615 -8.3540039 -76.494667 -0.36375883 -91.981903
9207812500 -1.1863563 121.55715 -8.3560495 -75.789192 -8.3578024 -76.471764 -0.35917228 -91.951935
9207875000 -1.1930498 121.55693 -8.3591347 -75.783112 -8.3554182 -76.521858 -0.36059636 -91.93129
9207937500 -1.1949537 121.5359 -8.3467007 -75.87162 -8.345293 -76.561623 -0.35940492 -91.979546
9208000000 -1.1889235 121.52252 -8.3535757 -75.86338 -8.3461666 -76.533302 -0.35468569 -91.924194
9208062500 -1.188623 121.51952 -8.3447094 -75.797874 -8.3505278 -76.561035 -0.35787734 -91.917427
9208125000 -1.1863365 121.49072 -8.3434191 -75.830902 -8.341629 -76.512955 -0.35659 -91.811005
9208187500 -1.1852622 121.50439 -8.3428936 -75.756042 -8.351675 -76.510445 -0.36404976 -91.827888
9208250000 -1.1823715 121.45672 -8.3478556 -75.715729 -8.3418684 -76.481178 -0.3590062 -91.742775
9208312500 -1.1828182 121.48026 -8.3395357 -75.730881 -8.3406324 -76.528503 -0.36114579 -91.761055
9208375000 -1.1806858 121.46955 -8.3387432 -75.717659 -8.3396282 -76.528389 -0.3657749 -91.738205
9208437500 -1.1824254 121.44821 -8.3426809 -75.758064 -8.3354273 -76.511765 -0.36194897 -91.724831
9208500000 -1.1809808 121.43736 -8.3364973 -75.750114 -8.3404789 -76.570518 -0.3676714 -91.740768
9208562500 -1.18532 121.43253 -8.3447876 -75.724747 -8.3456573 -76.489151 -0.37072346 -91.721863
9208625000 -1.1774151 121.44604 -8.3357449 -75.700996 -8.3432455 -76.516876 -0.36890739 -91.708656
9208687500 -1.1789333 121.36492 -8.3342981 -75.685478 -8.3366423 -76.504333 -0.36520439 -91.731979
9208750000 -1.1807266 121.35092 -8.3425674 -75.7565 -8.3400173 -76.499603 -0.3664093 -91.706284
9208812500 -1.1816684 121.34164 -8.344408 -75.726097 -8.3318262 -76.460358 -0.37514439 -91.707367
9208875000 -1.1823515 121.36649 -8.3388243 -75.738297 -8.3330412 -76.473701 -0.36704934 -91.663689
9208937500 -1.1784233 121.33131 -8.3389025 -75.724403 -8.3352346 -76.474419 -0.37790933 -91.615364
9209000000 -1.1736116 121.3307 -8.3278236 -75.7388 -8.3305569 -76.44136 -0.36920431 -91.608643
9209062500 -1.1753609 121.3151 -8.3368206 -75.753349 -8.3311386 -76.487328 -0.37508008 -91.61232
9209125000 -1.1798674 121.30627 -8.3410339 -75.739304 -8.3213024 -76.465683 -0.36924091 -91.6064
9209187500 -1.1748283 121.27496 -8.3302822 -75.734024 -8.3208475 -76.438484 -0.36854386 -91.510071
9209250000 -1.17779 121.2495 -8.3380003 -75.710983 -8.3240471 -76.499695 -0.37246284 -91.538734
9209312500 -1.1750878 121.23032 -8.3319941 -75.673729 -8.3309336 -76.382042 -0.38095552 -91.471893
9209375000 -1.1720209 121.19652 -8.3372993 -75.760292 -8.3322334 -76.463577 -0.38221189 -91.530243
9209437500 -1.1757187 121.19702 -8.3334789 -75.702423 -8.3205919 -76.442322 -0.37318701 -91.473427
9209500000 -1.1737665 121.1665 -8.331459 -75.683578 -8.3253193 -76.448685 -0.37311375 -91.482338
9209562500 -1.1767515 121.1402 -8.3291883 -75.753212 -8.3179407 -76.422684 -0.36845803 -91.440582
9209625000 -1.1808809 121.1713 -8.3294554 -75.730209 -8.3249331 -76.454185 -0.36903426 -91.417374
9209687500 -1.1766181 121.13775 -8.3272839 -75.687325 -8.3210287 -76.419701 -0.3595638 -91.415344
9209750000 -1.1846426 121.13007 -8.3332853 -75.717476 -8.3304157 -76.443695 -0.37084526 -91.391022
9209812500 -1.1882334 121.11941 -8.3330631 -75.735733 -8.3315639 -76.511971 -0.37482554 -91.411163
9209875000 -1.1930273 121.10118 -8.3299704 -75.778885 -8.3283949 -76.443779 -0.36096725 -91.378418
9209937500 -1.1918818 121.11578 -8.3254747 -75.779617 -8.3315439 -76.431442 -0.37448975 -91.359695
9210000000 -1.1931924 121.08675 -8.3327513 -75.756065 -8.3148108 -76.504906 -0.3608748 -91.385094
9210062500 -1.1908423 121.08273 -8.3326464 -75.749062 -8.3135996 -76.46862 -0.36788169 -91.334297
9210125000 -1.1886452 121.07673 -8.3219681 -75.773018 -8.3143473 -76.457764 -0.36569211 -91.328514
9210187500 -1.1866852 121.05241 -8.3263874 -75.707794 -8.3222237 -76.464684 -0.37883571 -91.268883
9210250000 -1.1878027 121.03676 -8.3193359 -75.770699 -8.3048182 -76.475151 -0.37293401 -91.282639
9210312500 -1.1897916 121.03289 -8.3268185 -75.692039 -8.3077803 -76.471848 -0.37011701 -91.269844
9210375000 -1.1846348 121.04411 -8.3216066 -75.677917 -8.3232546 -76.499634 -0.3781741 -91.24073
9210437500 -1.1884902 121.01913 -8.3273458 -75.712036 -8.3106461 -76.515671 -0.37674156 -91.24987
9210500000 -1.1933601 120.96508 -8.3160276 -75.704399 -8.3095446 -76.455467 -0.37726423 -91.202797
9210562500 -1.1891626 120.93997 -8.323391 -75.712181 -8.3113108 -76.44574 -0.37718266 -91.228661
9210625000 -1.1878312 120.87166 -8.3192577 -75.70031 -8.3106232 -76.499023 -0.37775567 -91.215027
9210687500 -1.1848119 120.86174 -8.3129225 -75.738495 -8.3110743 -76.480988 -0.37705326 -91.185524
9210750000 -1.1858132 120.8483 -8.3114376 -75.722244 -8.3072777 -76.482025 -0.37150273 -91.176491
9210812500 -1.1870321 120.8495 -8.311202 -75.706367 -8.3084974 -76.432228 -0.37505704 -91.110718
9210875000 -1.1857312 120.85258 -8.3045702 -75.744339 -8.3022175 -76.417206 -0.3717142 -91.096649
9210937500 -1.1834832 120.83958 -8.3110571 -75.722275 -8.3055153 -76.434227 -0.37695399 -91.055412
9211000000 -1.1866595 120.81147 -8.3130093 -75.709892 -8.3085556 -76.376862 -0.3780506 -90.990112
9211062500 -1.1852322 120.82717 -8.3046827 -75.684456 -8.3030863 -76.354057 -0.38053894 -91.017143
9211125000 -1.1838424 120.7904 -8.3161621 -75.714821 -8.3016644 -76.427429 -0.38052571 -91.009575
9211187500 -1.1904606 120.76653 -8.3143053 -75.760506 -8.2985659 -76.404327 -0.38127846 -91.001366
9211250000 -1.1907744 120.75916 -8.3125668 -75.735855 -8.2926455 -76.381775 -0.37943092 -90.95137
9211312500 -1.1822172 120.7831 -8.3091822 -75.684509 -8.3024273 -76.414673 -0.38568738 -90.977783
9211375000 -1.1862429 120.74158 -8.2987528 -75.739403 -8.2978859 -76.458946 -0.38252905 -90.947578
9211437500 -1.1860039 120.73004 -8.312089 -75.70536 -8.2981701 -76.432198 -0.37815285 -90.960762
9211500000 -1.1854148 120.74805 -8.3084745 -75.653351 -8.3061695 -76.389198 -0.38226369 -90.933968
9211562500 -1.1836123 120.74701 -8.3064413 -75.702698 -8.2994938 -76.403938 -0.38029063 -90.966858
9211625000 -1.1816554 120.74533 -8.3031883 -75.704376 -8.3038635 -76.457405 -0.38176927 -90.972748
9211687500 -1.1825688 120.72499 -8.3027878 -75.702881 -8.2972479 -76.405899 -0.3729983 -90.920273
9211750000 -1.1780156 120.70113 -8.29636 -75.724678 -8.2865181 -76.431854 -0.36922747 -90.978767
9211812500 -1.183391 120.67481 -8.2979403 -75.706078 -8.2890377 -76.366463 -0.37505239 -90.877113
9211875000 -1.1775455 120.6908 -8.294776 -75.683548 -8.294075 -76.429817 -0.37820572 -90.89061
9211937500 -1.1845286 120.65831 -8.3016119 -75.700356 -8.2874012 -76.383598 -0.37629098 -90.839783
9212000000 -1.1765481 120.64623 -8.296196 -75.670959 -8.2939091 -76.411034 -0.37935701 -90.810165
9212062500 -1.1817722 120.61075 -8.2954702 -75.662552 -8.2870054 -76.382149 -0.38124922 -90.736687
9212125000 -1.1845939 120.56753 -8.2970295 -75.692505 -8.2841129 -76.437309 -0.37639466 -90.772682
9212187500 -1.1812195 120.49246 -8.2854214 -75.709969 -8.292201 -76.395462 -0.37679985 -90.731834
9212250000 -1.184687 120.50995 -8.2941189 -75.661819 -8.276329 -76.443764 -0.37210137 -90.756721
9212312500 -1.1856776 120.47252 -8.2919264 -75.722008 -8.288167 -76.443481 -0.37776631 -90.740074
