!Agilent Technologies,N5242A,MY51221714,A.09.90.19
!Agilent N5242A: A.09.90.19
!Date: Saturday, December 30, 2023 10:24:21
!Correction: S11(Full 2 Port(1,2)) 
!S21(Full 2 Port(1,2)) 
!S12(Full 2 Port(1,2)) 
!S22(Full 2 Port(1,2)) 
!S2P File: Measurements: S11, S21, S12, S22:
# Hz S  dB   R 50
9200000000 -3.0285788 121.5847 -8.1685247 -100.40234 -8.1537933 -101.01878 -1.9667748 -95.579491
9200062500 -3.0356455 121.5923 -8.1594801 -100.31659 -8.150341 -101.05524 -1.9621974 -95.562088
9200125000 -3.0293186 121.59364 -8.1563797 -100.27555 -8.150198 -101.08371 -1.9628689 -95.514046
9200187500 -3.035784 121.56648 -8.1696892 -100.36055 -8.1518984 -101.0457 -1.9741631 -95.489426
9200250000 -3.0442483 121.52152 -8.1750145 -100.35344 -8.1433058 -101.0383 -1.9692641 -95.502365
9200312500 -3.0387149 121.51675 -8.1657524 -100.31187 -8.1487265 -101.02351 -1.9702834 -95.487778
9200375000 -3.0418794 121.50255 -8.1695566 -100.31993 -8.1443615 -101.07641 -1.9632747 -95.479942
9200437500 -3.0368519 121.44396 -8.1702585 -100.37373 -8.1481524 -101.09398 -1.9678053 -95.450294
9200500000 -3.0355213 121.40577 -8.1640825 -100.40941 -8.1501179 -101.09452 -1.9745922 -95.480301
9200562500 -3.0421638 121.41592 -8.1731882 -100.39636 -8.1467037 -101.08425 -1.97189 -95.408066
9200625000 -3.0399683 121.40104 -8.1654463 -100.39367 -8.1386557 -101.076 -1.9682295 -95.369041
9200687500 -3.0388963 121.40264 -8.161047 -100.40221 -8.141408 -101.06289 -1.9663531 -95.362
9200750000 -3.0382612 121.37983 -8.1631298 -100.43159 -8.1444283 -101.06787 -1.9696398 -95.364555
9200812500 -3.041868 121.32782 -8.1612291 -100.4971 -8.1364603 -101.11118 -1.973026 -95.36869
9200875000 -3.0415094 121.35493 -8.1540756 -100.4188 -8.1436815 -101.0035 -1.9773077 -95.296143
9200937500 -3.0365341 121.35637 -8.1618223 -100.41208 -8.1425285 -101.08706 -1.9753253 -95.263336
9201000000 -3.0366197 121.34769 -8.1618147 -100.45627 -8.1394215 -101.13107 -1.9795952 -95.327682
9201062500 -3.0413649 121.43057 -8.1590672 -100.39082 -8.1491575 -101.0863 -1.9766759 -95.285904
9201125000 -3.0404785 121.38074 -8.1628561 -100.41245 -8.1472578 -101.13177 -1.9837801 -95.314407
9201187500 -3.0401564 121.40133 -8.159935 -100.42002 -8.1496248 -101.09339 -1.9891269 -95.260178
9201250000 -3.0403197 121.36926 -8.1603308 -100.37799 -8.1576214 -101.06298 -1.9901657 -95.228043
9201312500 -3.04883 121.38218 -8.1611433 -100.40195 -8.1456852 -101.08965 -1.9818213 -95.221954
9201375000 -3.0427198 121.39223 -8.1500244 -100.38686 -8.1403494 -101.09211 -1.977626 -95.196266
9201437500 -3.0456924 121.32408 -8.1505823 -100.38885 -8.1425428 -101.13718 -1.9798206 -95.158211
9201500000 -3.0458248 121.36153 -8.1613226 -100.29969 -8.1404247 -101.18769 -1.9800589 -95.132721
9201562500 -3.0466194 121.32804 -8.1460791 -100.3661 -8.1343832 -101.16265 -1.9781368 -95.116219
9201625000 -3.0518732 121.30368 -8.1476097 -100.3748 -8.1330175 -101.15539 -1.9838188 -95.04937
9201687500 -3.0563362 121.24448 -8.1442785 -100.39985 -8.1343222 -101.14507 -1.973612 -95.054131
9201750000 -3.0483127 121.25225 -8.1475887 -100.38428 -8.1364832 -101.19614 -1.9830353 -95.041992
9201812500 -3.0510399 121.25427 -8.1435509 -100.39111 -8.1334066 -101.12028 -1.9868312 -95.045143
9201875000 -3.0488977 121.23187 -8.1506405 -100.42437 -8.1357126 -101.14552 -1.9884138 -95.052994
9201937500 -3.0487471 121.27368 -8.150526 -100.37683 -8.1336899 -101.11671 -1.9987407 -95.023445
9202000000 -3.0488369 121.23307 -8.1509295 -100.46165 -8.138298 -101.10612 -1.9940534 -95.013329
9202062500 -3.0530086 121.20725 -8.1544685 -100.45216 -8.1256256 -101.15472 -1.992785 -94.987213
9202125000 -3.0516284 121.2057 -8.1445532 -100.39943 -8.1319695 -101.18045 -1.9927547 -95.024155
9202187500 -3.0533233 121.19688 -8.151824 -100.44023 -8.1316071 -101.12791 -1.9958631 -95.020035
9202250000 -3.0497715 121.15435 -8.1436491 -100.45515 -8.1296492 -101.185 -1.9921873 -94.951225
9202312500 -3.0497396 121.12585 -8.1419907 -100.39619 -8.1291418 -101.16312 -1.998274 -94.949593
9202375000 -3.0548508 121.09798 -8.1483002 -100.4943 -8.1241636 -101.17736 -1.9850037 -94.908524
9202437500 -3.0519676 121.12418 -8.1426134 -100.45811 -8.1267357 -101.2022 -1.9910493 -94.855919
9202500000 -3.0519071 121.10921 -8.1400309 -100.42249 -8.1320038 -101.15844 -1.9936442 -94.885597
9202562500 -3.0531754 121.08186 -8.1413546 -100.44177 -8.1283512 -101.2127 -1.9939563 -94.893028
9202625000 -3.0598795 121.06113 -8.1402216 -100.4778 -8.1271029 -101.19589 -1.9913977 -94.797058
9202687500 -3.0577731 121.04877 -8.1426296 -100.45229 -8.1323071 -101.17886 -1.9990472 -94.809181
9202750000 -3.0526018 121.0631 -8.1342335 -100.54059 -8.1284018 -101.25317 -2.0000124 -94.825523
9202812500 -3.0522935 121.04918 -8.1393328 -100.46833 -8.1257629 -101.22955 -2.0022597 -94.791138
9202875000 -3.056437 121.04455 -8.1439476 -100.44884 -8.1171942 -101.18037 -1.9942117 -94.81179
9202937500 -3.0505538 120.97417 -8.1274939 -100.46861 -8.1245298 -101.2303 -1.9997032 -94.777496
9203000000 -3.0532629 120.99794 -8.135581 -100.5356 -8.1238775 -101.25031 -2.0033514 -94.754753
9203062500 -3.0519118 120.97337 -8.1347551 -100.48045 -8.1156178 -101.21101 -1.9995505 -94.754234
9203125000 -3.0525579 120.95067 -8.1413565 -100.49016 -8.112339 -101.21603 -1.9996624 -94.670914
9203187500 -3.054683 120.94705 -8.1289778 -100.42701 -8.1221418 -101.18941 -1.9992394 -94.619095
9203250000 -3.0548701 120.95113 -8.1300774 -100.45581 -8.1223507 -101.2457 -2.0049121 -94.646042
9203312500 -3.0574834 120.95589 -8.1214476 -100.50368 -8.1254368 -101.25894 -2.003058 -94.646477
9203375000 -3.056052 120.95502 -8.1190138 -100.48624 -8.1262207 -101.22691 -1.9977723 -94.598076
9203437500 -3.063339 120.96795 -8.1226606 -100.45226 -8.1225023 -101.21878 -1.9970207 -94.577217
9203500000 -3.0608313 120.96331 -8.1192913 -100.4562 -8.1185894 -101.23916 -1.9986354 -94.546028
9203562500 -3.0631037 120.9197 -8.1245413 -100.5049 -8.1221991 -101.17786 -2.002419 -94.544159
9203625000 -3.0638151 120.89928 -8.1251869 -100.46925 -8.1187191 -101.23691 -2.0095227 -94.517105
9203687500 -3.0692914 120.84113 -8.1225471 -100.53701 -8.1244011 -101.22626 -2.0133107 -94.484444
9203750000 -3.0603483 120.87237 -8.1240797 -100.48295 -8.1085243 -101.23486 -2.0023267 -94.509872
9203812500 -3.0685914 120.84786 -8.1252975 -100.53147 -8.1088524 -101.24075 -2.0082347 -94.528458
9203875000 -3.0651507 120.82594 -8.1214123 -100.5321 -8.1148481 -101.33153 -2.0138729 -94.588669
9203937500 -3.0641177 120.82168 -8.1239843 -100.48738 -8.1100588 -101.2904 -2.0052824 -94.520554
9204000000 -3.0672343 120.78622 -8.1231251 -100.51792 -8.1124973 -101.2377 -2.0006387 -94.444084
9204062500 -3.0677624 120.7823 -8.1251345 -100.54918 -8.1126518 -101.25835 -2.0104825 -94.470772
9204125000 -3.0645645 120.79562 -8.1133366 -100.55673 -8.1090641 -101.27924 -2.0042288 -94.451897
9204187500 -3.0670483 120.75556 -8.1226377 -100.52778 -8.114934 -101.26485 -2.0046978 -94.374763
9204250000 -3.0674031 120.75069 -8.1063652 -100.55958 -8.1057663 -101.24856 -2.0013928 -94.347176
9204312500 -3.0722272 120.71706 -8.1164474 -100.61263 -8.111311 -101.25443 -2.0055211 -94.369125
9204375000 -3.0640166 120.70671 -8.116889 -100.52415 -8.1110945 -101.2464 -2.014261 -94.338516
9204437500 -3.0687315 120.73534 -8.1165733 -100.5108 -8.1026392 -101.27013 -2.0091124 -94.279594
9204500000 -3.06107 120.68594 -8.1108837 -100.51407 -8.1070499 -101.23606 -2.0161262 -94.313248
9204562500 -3.065449 120.7119 -8.1066971 -100.4831 -8.1001091 -101.24595 -2.0192361 -94.243187
9204625000 -3.0682707 120.63926 -8.1056538 -100.53365 -8.0946722 -101.28734 -2.0091989 -94.275139
9204687500 -3.0679798 120.61147 -8.1105947 -100.51885 -8.0910139 -101.31911 -2.0250993 -94.262344
9204750000 -3.0694876 120.63106 -8.1090374 -100.48539 -8.1028538 -101.25143 -2.0162148 -94.171036
9204812500 -3.0677474 120.61879 -8.1065369 -100.58068 -8.1059179 -101.29043 -2.0264065 -94.206146
9204875000 -3.0718453 120.58765 -8.1124983 -100.6072 -8.0995455 -101.28828 -2.0281124 -94.206802
9204937500 -3.0752618 120.56433 -8.1084299 -100.6305 -8.1006746 -101.28616 -2.028928 -94.136284
9205000000 -3.0749941 120.58239 -8.1196718 -100.5927 -8.1063623 -101.33472 -2.0274322 -94.149818
9205062500 -3.0784004 120.59371 -8.096674 -100.57851 -8.0975122 -101.29359 -2.0193501 -94.096085
9205125000 -3.0751743 120.56596 -8.1116276 -100.62309 -8.1012144 -101.3189 -2.0187435 -94.059875
9205187500 -3.074513 120.58212 -8.0959539 -100.61115 -8.1038857 -101.30326 -2.0128987 -94.066055
9205250000 -3.0721009 120.56008 -8.1098099 -100.612 -8.1023512 -101.38019 -2.0160003 -94.094643
9205312500 -3.0732181 120.58217 -8.0998154 -100.59452 -8.1010046 -101.36132 -2.0177155 -94.042015
9205375000 -3.078912 120.59106 -8.1016884 -100.51814 -8.1088152 -101.3708 -2.0219538 -93.98381
9205437500 -3.0774498 120.53855 -8.1011181 -100.56751 -8.0911274 -101.33749 -2.0121114 -94.018555
9205500000 -3.0839567 120.52339 -8.1015577 -100.57408 -8.0974798 -101.31052 -2.0211411 -93.912895
9205562500 -3.0741382 120.50634 -8.1083994 -100.58379 -8.0974655 -101.25733 -2.0276296 -93.855438
9205625000 -3.0820382 120.4901 -8.11415 -100.56236 -8.0987215 -101.32855 -2.0322931 -93.894707
9205687500 -3.0800004 120.44595 -8.1108799 -100.56749 -8.090003 -101.27679 -2.0332882 -93.847145
9205750000 -3.0803227 120.41228 -8.1063061 -100.55835 -8.0851173 -101.3199 -2.0271428 -93.796165
9205812500 -3.0817156 120.40604 -8.107831 -100.59682 -8.0886917 -101.30733 -2.0375609 -93.831856
9205875000 -3.0830255 120.40084 -8.1083403 -100.54372 -8.0969543 -101.30033 -2.0349169 -93.772285
9205937500 -3.0842123 120.37865 -8.0995312 -100.57499 -8.0875311 -101.30701 -2.0323029 -93.769966
9206000000 -3.0871027 120.35696 -8.1060133 -100.62394 -8.0916529 -101.33118 -2.0358791 -93.776268
9206062500 -3.0832849 120.36584 -8.1017218 -100.60376 -8.0923367 -101.30901 -2.029335 -93.785316
9206125000 -3.083004 120.35648 -8.0901928 -100.62048 -8.0903883 -101.34982 -2.0317497 -93.763313
9206187500 -3.086067 120.3122 -8.0929174 -100.63969 -8.0879612 -101.33559 -2.0375891 -93.743156
9206250000 -3.0863655 120.29878 -8.0945787 -100.605 -8.0900917 -101.30847 -2.0443671 -93.680725
9206312500 -3.0859435 120.28152 -8.1010571 -100.62026 -8.0939722 -101.33694 -2.0508604 -93.686684
9206375000 -3.0817347 120.2683 -8.0934401 -100.65544 -8.09163 -101.35786 -2.0441267 -93.66671
9206437500 -3.0834215 120.26545 -8.0895491 -100.6778 -8.0879116 -101.36124 -2.0461767 -93.650841
9206500000 -3.0938015 120.24073 -8.0917835 -100.67006 -8.0840549 -101.28526 -2.0463004 -93.578743
9206562500 -3.0890505 120.2737 -8.0898466 -100.67831 -8.0884123 -101.3575 -2.0418942 -93.618271
9206625000 -3.0924208 120.23645 -8.0927734 -100.6993 -8.0817728 -101.33546 -2.0395973 -93.595726
9206687500 -3.0924919 120.2798 -8.084198 -100.6987 -8.0771894 -101.32204 -2.0390353 -93.581413
9206750000 -3.0983016 120.2843 -8.0974321 -100.68823 -8.0788879 -101.2999 -2.0419137 -93.5541
9206812500 -3.0927889 120.28542 -8.0894985 -100.65348 -8.0751381 -101.33008 -2.0305221 -93.579216
9206875000 -3.0852714 120.28236 -8.0860682 -100.69881 -8.0731354 -101.32927 -2.0298643 -93.555
9206937500 -3.090018 120.24368 -8.0896416 -100.67867 -8.0804834 -101.3802 -2.0389714 -93.549637
9207000000 -3.0886769 120.23656 -8.0781412 -100.70013 -8.0809898 -101.37152 -2.038342 -93.508842
9207062500 -3.0931225 120.16916 -8.0942984 -100.7092 -8.0723915 -101.35509 -2.0446763 -93.459473
9207125000 -3.0887725 120.17833 -8.0872145 -100.66214 -8.0783663 -101.425 -2.0455565 -93.456322
9207187500 -3.0920832 120.16338 -8.0957899 -100.72907 -8.0733566 -101.41795 -2.033797 -93.454857
9207250000 -3.0942826 120.10829 -8.0894556 -100.67838 -8.0773945 -101.42738 -2.0425799 -93.437767
9207312500 -3.0956142 120.0896 -8.0886345 -100.70802 -8.0686655 -101.40367 -2.0428793 -93.391876
9207375000 -3.0946579 120.10617 -8.0882568 -100.65467 -8.0762892 -101.43818 -2.0500538 -93.392281
9207437500 -3.094506 120.10123 -8.0880156 -100.72611 -8.0752754 -101.38593 -2.0526111 -93.384827
9207500000 -3.0977824 120.0339 -8.0858192 -100.72881 -8.0729351 -101.44234 -2.0533566 -93.380592
9207562500 -3.0965979 120.06613 -8.0784283 -100.6865 -8.0693569 -101.39091 -2.0471554 -93.344696
9207625000 -3.1032362 119.97812 -8.0792646 -100.73798 -8.0641918 -101.44233 -2.0487809 -93.357513
9207687500 -3.1052387 120.00186 -8.0836248 -100.76593 -8.0746498 -101.41232 -2.0482619 -93.340431
9207750000 -3.1047559 119.9988 -8.079195 -100.75916 -8.0751324 -101.37256 -2.0547624 -93.310188
9207812500 -3.1108515 120.04895 -8.0736017 -100.70483 -8.0788612 -101.51249 -2.0449059 -93.385963
9207875000 -3.1092494 120.00141 -8.0776911 -100.76172 -8.0764933 -101.40098 -2.0392141 -93.281639
9207937500 -3.1124988 120.01997 -8.0775232 -100.76785 -8.072772 -101.44023 -2.0409098 -93.27964
9208000000 -3.1103387 120.00323 -8.0794687 -100.74512 -8.0765543 -101.40717 -2.0477381 -93.234283
9208062500 -3.1102495 119.99972 -8.0682116 -100.7574 -8.0730505 -101.45672 -2.0421815 -93.24527
9208125000 -3.1114826 119.96191 -8.0670252 -100.75476 -8.0736103 -101.43993 -2.0532541 -93.155136
9208187500 -3.1120715 119.94321 -8.0674963 -100.77541 -8.0707655 -101.41406 -2.0470455 -93.105881
9208250000 -3.1100836 119.94364 -8.0680523 -100.75467 -8.0676012 -101.46796 -2.0501757 -93.148544
9208312500 -3.1059499 119.98361 -8.0628815 -100.71677 -8.0685511 -101.51559 -2.050276 -93.122856
9208375000 -3.1077435 119.92561 -8.0690908 -100.69743 -8.0683002 -101.43086 -2.0511329 -93.034668
9208437500 -3.1093569 119.91647 -8.0642166 -100.69736 -8.0650349 -101.44437 -2.0559349 -93.036217
9208500000 -3.110445 119.89576 -8.0789337 -100.75692 -8.0706091 -101.52798 -2.0603025 -93.073166
9208562500 -3.1061499 119.88295 -8.0656595 -100.71858 -8.0661459 -101.48254 -2.0573621 -93.072899
9208625000 -3.106636 119.88497 -8.0666361 -100.72425 -8.0635929 -101.47332 -2.0575511 -93.042999
9208687500 -3.1091192 119.83913 -8.0636778 -100.72241 -8.0622854 -101.45589 -2.05479 -93.047066
9208750000 -3.1038916 119.82005 -8.0684433 -100.72134 -8.0583096 -101.46802 -2.0603824 -93.012054
9208812500 -3.1080165 119.86387 -8.0649042 -100.68366 -8.0551777 -101.5021 -2.0595977 -92.999153
9208875000 -3.1064577 119.85578 -8.0640745 -100.73927 -8.0617428 -101.44892 -2.0625072 -92.988091
9208937500 -3.1051931 119.82157 -8.0674429 -100.77892 -8.0568066 -101.44766 -2.0628273 -92.930603
9209000000 -3.1090481 119.79378 -8.0658026 -100.73125 -8.052186 -101.43135 -2.0644 -92.851616
9209062500 -3.1114151 119.81288 -8.0656261 -100.77229 -8.0540495 -101.46942 -2.0624807 -92.896576
9209125000 -3.112643 119.82585 -8.0660305 -100.73123 -8.0503883 -101.49368 -2.0670865 -92.908882
9209187500 -3.1164851 119.78748 -8.0671539 -100.77379 -8.0574732 -101.42036 -2.07286 -92.868538
9209250000 -3.1154354 119.77728 -8.0661697 -100.78611 -8.0483274 -101.51809 -2.0685239 -92.88459
9209312500 -3.1103442 119.75388 -8.0641766 -100.73469 -8.054348 -101.45327 -2.0728831 -92.806976
9209375000 -3.110585 119.69736 -8.0632114 -100.76977 -8.052372 -101.49325 -2.0731201 -92.806511
9209437500 -3.1158643 119.69277 -8.0569639 -100.82356 -8.057126 -101.45255 -2.0660627 -92.755783
9209500000 -3.1067765 119.6784 -8.062911 -100.80967 -8.0602121 -101.54978 -2.0742974 -92.794189
9209562500 -3.1079228 119.64542 -8.0597811 -100.81036 -8.0558882 -101.51401 -2.0712945 -92.763649
9209625000 -3.1172738 119.64339 -8.0619345 -100.81232 -8.0493984 -101.49926 -2.0622268 -92.770279
9209687500 -3.1177943 119.62455 -8.0503998 -100.85746 -8.0529556 -101.56405 -2.0667489 -92.782822
9209750000 -3.1182997 119.62852 -8.0517225 -100.83781 -8.0454588 -101.49383 -2.0636067 -92.69558
9209812500 -3.1248314 119.63371 -8.0544062 -100.82585 -8.0607862 -101.51383 -2.069943 -92.686592
9209875000 -3.12551 119.60015 -8.0551443 -100.9059 -8.0436525 -101.48347 -2.0587807 -92.638008
9209937500 -3.1289041 119.58432 -8.0611 -100.86698 -8.0515041 -101.52229 -2.0702524 -92.654259
9210000000 -3.1263683 119.57242 -8.0545549 -100.86398 -8.0449181 -101.52744 -2.0686674 -92.627075
9210062500 -3.1236348 119.60646 -8.0544252 -100.82847 -8.0423441 -101.51716 -2.0698459 -92.614822
9210125000 -3.1231 119.59742 -8.0573177 -100.84264 -8.0467815 -101.52894 -2.0764613 -92.591026
9210187500 -3.1279631 119.57137 -8.0552053 -100.83532 -8.0378504 -101.51288 -2.0723126 -92.584457
9210250000 -3.1290412 119.59892 -8.0528154 -100.80076 -8.0398464 -101.5532 -2.0743065 -92.539993
9210312500 -3.1289227 119.57639 -8.0527077 -100.81783 -8.0388527 -101.57085 -2.0752983 -92.558792
9210375000 -3.1296639 119.56391 -8.0539026 -100.84843 -8.0460968 -101.54523 -2.0861642 -92.517433
9210437500 -3.1309657 119.50317 -8.0537224 -100.84163 -8.0431795 -101.56811 -2.0798905 -92.527107
9210500000 -3.1315904 119.49196 -8.0501614 -100.85463 -8.0422945 -101.54412 -2.0795517 -92.474152
9210562500 -3.1316352 119.47285 -8.0434446 -100.90832 -8.0434923 -101.55759 -2.0873184 -92.470192
9210625000 -3.1299653 119.37668 -8.041276 -100.87122 -8.0408602 -101.58018 -2.0848515 -92.484032
9210687500 -3.1298151 119.38444 -8.0396528 -100.8531 -8.0396662 -101.57111 -2.0826406 -92.458832
9210750000 -3.1316786 119.39285 -8.0352793 -100.87678 -8.0350771 -101.57948 -2.0880938 -92.415405
9210812500 -3.130434 119.36275 -8.0404196 -100.91457 -8.0286865 -101.57309 -2.0784819 -92.377602
9210875000 -3.1332946 119.36691 -8.0437851 -100.86437 -8.0383158 -101.50596 -2.0857515 -92.313278
9210937500 -3.1328647 119.3267 -8.0383253 -100.90305 -8.0311499 -101.53947 -2.0803332 -92.298523
9211000000 -3.1356089 119.33805 -8.0414085 -100.89673 -8.035985 -101.49254 -2.0861356 -92.251549
9211062500 -3.1331918 119.33971 -8.044282 -100.9281 -8.0267563 -101.54053 -2.0865421 -92.254745
9211125000 -3.1357031 119.34688 -8.0461559 -100.91341 -8.0317097 -101.52155 -2.0890813 -92.209183
9211187500 -3.1366184 119.33674 -8.0390015 -100.9015 -8.0282202 -101.59249 -2.0921335 -92.26561
9211250000 -3.1330483 119.35112 -8.0336065 -100.8845 -8.0386744 -101.51908 -2.0957243 -92.219772
9211312500 -3.1321232 119.31821 -8.0380478 -100.85564 -8.0307865 -101.53716 -2.1007891 -92.172607
9211375000 -3.1359935 119.3019 -8.0444899 -100.86846 -8.0361509 -101.54597 -2.1013877 -92.203003
9211437500 -3.1361883 119.29006 -8.0381794 -100.92084 -8.0213919 -101.60432 -2.0920236 -92.210732
9211500000 -3.1334689 119.27002 -8.0337038 -100.96888 -8.0254974 -101.5876 -2.086026 -92.211357
9211562500 -3.1352363 119.29087 -8.0360537 -100.93107 -8.0273485 -101.58994 -2.0991659 -92.207436
9211625000 -3.1361578 119.30313 -8.0390644 -100.94635 -8.0317183 -101.61052 -2.0906069 -92.26593
9211687500 -3.1324515 119.31338 -8.0298853 -100.91735 -8.0226002 -101.57108 -2.0840709 -92.185112
9211750000 -3.1346338 119.31222 -8.0383549 -100.92081 -8.0292664 -101.64295 -2.0878382 -92.220146
9211812500 -3.1308465 119.28584 -8.0293865 -100.88441 -8.0273123 -101.6638 -2.0930676 -92.209641
9211875000 -3.1352179 119.24707 -8.0278358 -100.94683 -8.0266352 -101.57644 -2.0958066 -92.062012
9211937500 -3.134028 119.26215 -8.0342112 -100.88759 -8.0216885 -101.6276 -2.0999925 -92.081085
9212000000 -3.1341231 119.19357 -8.0247583 -100.9447 -8.0346556 -101.62811 -2.1052458 -92.063614
9212062500 -3.1392407 119.16913 -8.0289555 -100.91619 -8.0188875 -101.61903 -2.0964322 -92.014961
9212125000 -3.1367242 119.07841 -8.0335827 -100.91067 -8.0226107 -101.59624 -2.1068299 -91.958656
9212187500 -3.1359425 119.10742 -8.0171089 -100.92722 -8.0252438 -101.59739 -2.1027102 -91.921822
9212250000 -3.1417584 119.06476 -8.0226068 -100.94144 -8.0179434 -101.667 -2.0937808 -91.952995
9212312500 -3.1459172 119.06454 -8.0288773 -100.94358 -8.0160704 -101.63805 -2.0923479 -91.943535
9212375000 -3.1448138 119.03528 -8.0279913 -100.96855 -8.0179071 -101.70728 -2.0997608 -91.958221
9212437500 -3.149267 119.02644 -8.0220566 -101.0072 -8.0120249 -101.6953 -2.0963945 -91.938736
