!Agilent Technologies,N5242A,MY51221714,A.09.90.19
!Agilent N5242A: A.09.90.19
!Date: Saturday, December 30, 2023 10:25:23
!Correction: S11(Full 2 Port(1,2)) 
!S21(Full 2 Port(1,2)) 
!S12(Full 2 Port(1,2)) 
!S22(Full 2 Port(1,2)) 
!S2P File: Measurements: S11, S21, S12, S22:
# Hz S  dB   R 50
9200000000 -1.11905 124.22675 -8.5284758 -74.997414 -8.5054951 -75.734932 -0.29479173 -93.876335
9200062500 -1.1198075 124.18542 -8.5211935 -74.979523 -8.5064383 -75.736206 -0.30194554 -93.823051
9200125000 -1.1176356 124.14539 -8.5208721 -75.009529 -8.5039425 -75.754761 -0.30475393 -93.849869
9200187500 -1.1223789 124.17306 -8.5286207 -74.961388 -8.5032187 -75.772575 -0.29373217 -93.811409
9200250000 -1.1225411 124.11793 -8.5263195 -75.015167 -8.5100431 -75.72554 -0.30738905 -93.788269
9200312500 -1.1234661 124.10668 -8.5288134 -75.031654 -8.5010138 -75.750664 -0.30402595 -93.805344
9200375000 -1.1266297 124.06301 -8.5326414 -75.038109 -8.502883 -75.770645 -0.30178851 -93.79763
9200437500 -1.1231437 124.08354 -8.5299692 -74.997047 -8.5022564 -75.741859 -0.30408311 -93.806656
9200500000 -1.1230812 124.06771 -8.5337429 -75.023186 -8.5060816 -75.683479 -0.30699903 -93.746735
9200562500 -1.1208546 124.05757 -8.5200958 -75.035118 -8.4985428 -75.712761 -0.30523738 -93.749535
9200625000 -1.1275549 124.02124 -8.5291195 -75.039101 -8.5021658 -75.750046 -0.30540133 -93.747643
9200687500 -1.1183314 123.94962 -8.5146456 -75.127777 -8.4921255 -75.727554 -0.29416788 -93.726616
9200750000 -1.1205863 124.01098 -8.5174084 -74.993721 -8.4890709 -75.690956 -0.29332915 -93.696487
9200812500 -1.1204951 123.94118 -8.5183868 -75.068169 -8.48417 -75.696014 -0.30137923 -93.699692
9200875000 -1.1212443 123.94933 -8.5140648 -75.031654 -8.4909401 -75.706314 -0.29803056 -93.661247
9200937500 -1.1192344 123.9707 -8.5164042 -75.040581 -8.4919024 -75.772331 -0.3045643 -93.680687
9201000000 -1.1228284 123.94985 -8.527895 -75.028954 -8.4951353 -75.714905 -0.30916372 -93.642281
9201062500 -1.1193488 124.01205 -8.5251522 -74.976601 -8.4997749 -75.714172 -0.31346613 -93.640694
9201125000 -1.1185995 124.00156 -8.5219126 -75.018608 -8.503458 -75.724541 -0.31303582 -93.626678
9201187500 -1.1207904 123.9882 -8.5194931 -75.02816 -8.4938402 -75.727623 -0.30605972 -93.604736
9201250000 -1.1215901 123.99098 -8.5156527 -74.949974 -8.4971428 -75.667938 -0.3075757 -93.589851
9201312500 -1.1225301 123.96429 -8.5220642 -74.965454 -8.5000648 -75.686501 -0.3109616 -93.527473
9201375000 -1.1239773 123.94724 -8.5135174 -74.98024 -8.4947052 -75.731079 -0.3104381 -93.549599
9201437500 -1.1183566 123.89893 -8.5088167 -74.972862 -8.4978304 -75.717155 -0.30790636 -93.508965
9201500000 -1.1240257 123.92439 -8.5050821 -74.937088 -8.4908342 -75.71656 -0.30613396 -93.460274
9201562500 -1.1205643 123.9014 -8.5058041 -74.908096 -8.5007811 -75.705109 -0.31067997 -93.418739
9201625000 -1.1264894 123.90876 -8.5038624 -74.917953 -8.4843102 -75.729439 -0.29907459 -93.436981
9201687500 -1.1277617 123.89306 -8.5108395 -74.945854 -8.4866962 -75.70195 -0.31368774 -93.394867
9201750000 -1.125873 123.8717 -8.5090027 -74.934006 -8.4847946 -75.787788 -0.31238174 -93.421959
9201812500 -1.1243701 123.84984 -8.5040579 -74.950066 -8.4882412 -75.67627 -0.3045339 -93.380379
9201875000 -1.1239203 123.82901 -8.5048218 -74.95797 -8.4822178 -75.699646 -0.30859596 -93.413185
9201937500 -1.1195929 123.81586 -8.505477 -74.957176 -8.4782658 -75.686974 -0.30709457 -93.411644
9202000000 -1.1238523 123.79877 -8.5070505 -74.963577 -8.489996 -75.643692 -0.31958076 -93.341866
9202062500 -1.125234 123.7625 -8.50249 -74.956299 -8.4892654 -75.671471 -0.32069305 -93.365303
9202125000 -1.1188568 123.78299 -8.5037241 -75.005882 -8.4877253 -75.680023 -0.3186281 -93.359123
9202187500 -1.1158737 123.73338 -8.4932098 -74.966904 -8.4883986 -75.704147 -0.31570369 -93.320076
9202250000 -1.1150134 123.73009 -8.4952145 -74.984955 -8.4814987 -75.721939 -0.31606019 -93.360992
9202312500 -1.1172695 123.71257 -8.4962149 -74.934044 -8.4970274 -75.693504 -0.31964073 -93.253578
9202375000 -1.122676 123.6692 -8.5001478 -74.961105 -8.4922228 -75.716049 -0.3182404 -93.303139
9202437500 -1.1229908 123.65473 -8.4948301 -75.013878 -8.4753447 -75.73037 -0.31047249 -93.298759
9202500000 -1.125657 123.67182 -8.4985542 -74.976082 -8.4833431 -75.706329 -0.32052946 -93.241638
9202562500 -1.1207753 123.65048 -8.5037651 -74.980385 -8.4893541 -75.684151 -0.31759316 -93.246536
9202625000 -1.1209795 123.6487 -8.4981003 -74.999474 -8.485075 -75.804428 -0.31259245 -93.28643
9202687500 -1.1211649 123.62731 -8.4909649 -74.965118 -8.4746237 -75.717995 -0.30901715 -93.20475
9202750000 -1.1215967 123.63721 -8.4984789 -74.94722 -8.4767523 -75.743324 -0.31013668 -93.194633
9202812500 -1.1198963 123.58022 -8.4891481 -74.957268 -8.4861317 -75.712097 -0.31901377 -93.161728
9202875000 -1.1153375 123.60719 -8.4912834 -74.901169 -8.4749823 -75.768097 -0.32285967 -93.185791
9202937500 -1.116838 123.58389 -8.4864435 -74.920212 -8.4733944 -75.699867 -0.32193366 -93.146378
9203000000 -1.1210709 123.53947 -8.4957733 -74.934097 -8.4692001 -75.711723 -0.31229025 -93.176735
9203062500 -1.1150763 123.5154 -8.4879847 -74.92955 -8.480876 -75.726524 -0.31918338 -93.129814
9203125000 -1.1162314 123.52187 -8.4954424 -74.988953 -8.4645233 -75.685493 -0.3130722 -93.099396
9203187500 -1.1100016 123.51083 -8.476572 -74.965683 -8.4753428 -75.724617 -0.31876829 -93.058052
9203250000 -1.1157335 123.46188 -8.467082 -74.952957 -8.4700222 -75.71637 -0.31608635 -93.05162
9203312500 -1.1200521 123.51018 -8.4848452 -74.890533 -8.473959 -75.722137 -0.31576726 -93.016396
9203375000 -1.1135451 123.48699 -8.470089 -74.907265 -8.475276 -75.653847 -0.30866611 -92.970627
9203437500 -1.1170816 123.48333 -8.4684467 -74.903297 -8.4737263 -75.683128 -0.30767301 -92.939049
9203500000 -1.1164854 123.48612 -8.4700289 -74.925446 -8.4772806 -75.630051 -0.30725396 -92.918144
9203562500 -1.1222023 123.46433 -8.4703255 -74.910576 -8.4700394 -75.638077 -0.30974108 -92.869408
9203625000 -1.1205827 123.42554 -8.4774323 -74.934937 -8.4667358 -75.67511 -0.30797854 -92.916824
9203687500 -1.1219989 123.41438 -8.4807539 -74.958244 -8.4641953 -75.64782 -0.31502345 -92.912003
9203750000 -1.1132188 123.37415 -8.4765129 -74.974121 -8.4668779 -75.685425 -0.31124222 -92.963791
9203812500 -1.1205561 123.34266 -8.4756927 -74.981842 -8.461339 -75.72641 -0.31255031 -92.93985
9203875000 -1.1201937 123.3288 -8.482995 -74.982315 -8.4704876 -75.699791 -0.3240886 -92.953262
9203937500 -1.1248895 123.33072 -8.4801064 -74.947495 -8.4557552 -75.62455 -0.31265008 -92.893181
9204000000 -1.1231579 123.32899 -8.4788208 -74.934395 -8.4656429 -75.70134 -0.31363288 -92.879417
9204062500 -1.1229414 123.29691 -8.4761457 -74.919495 -8.4608784 -75.628357 -0.31260055 -92.797195
9204125000 -1.1237097 123.30559 -8.4693327 -74.948814 -8.4604006 -75.664665 -0.30895957 -92.824799
9204187500 -1.1178375 123.30205 -8.4739246 -74.898186 -8.460084 -75.643372 -0.31242234 -92.793617
9204250000 -1.1208309 123.28194 -8.4741611 -74.901283 -8.4578743 -75.607681 -0.3118425 -92.768753
9204312500 -1.110723 123.27455 -8.4623184 -74.896111 -8.4621811 -75.684357 -0.31307048 -92.801224
9204375000 -1.1161821 123.26583 -8.4635906 -74.869751 -8.4630194 -75.638519 -0.3174251 -92.748489
9204437500 -1.1124638 123.26816 -8.4603882 -74.876869 -8.4630222 -75.650642 -0.31690702 -92.721443
9204500000 -1.1169633 123.23405 -8.4583015 -74.82933 -8.4500809 -75.616966 -0.31320164 -92.684311
9204562500 -1.1101925 123.19331 -8.4624786 -74.871979 -8.4533949 -75.617035 -0.31522819 -92.665329
9204625000 -1.1096327 123.20679 -8.4626303 -74.797188 -8.4485092 -75.614502 -0.31433535 -92.66124
9204687500 -1.1149359 123.15874 -8.4651442 -74.876869 -8.451457 -75.599617 -0.32246038 -92.633408
9204750000 -1.1207675 123.14874 -8.462327 -74.907135 -8.4509068 -75.611412 -0.31812379 -92.602592
9204812500 -1.1164637 123.14308 -8.4553394 -74.896309 -8.4531918 -75.573708 -0.32014561 -92.576279
9204875000 -1.1264033 123.10944 -8.4691153 -74.916321 -8.4461393 -75.671127 -0.32132387 -92.62307
9204937500 -1.1233389 123.12763 -8.4674845 -74.939247 -8.4492464 -75.590782 -0.31992939 -92.584633
9205000000 -1.1253685 123.09637 -8.4648876 -74.961739 -8.4432068 -75.654129 -0.31892702 -92.594376
9205062500 -1.1241441 123.08844 -8.4622049 -74.989174 -8.4504032 -75.620171 -0.31697142 -92.601631
9205125000 -1.1276028 123.0999 -8.4580564 -74.917519 -8.4509468 -75.645668 -0.31414595 -92.531761
9205187500 -1.1211817 123.07199 -8.458518 -74.9077 -8.4520845 -75.642616 -0.31397519 -92.49176
9205250000 -1.1202435 123.0817 -8.4606199 -74.937492 -8.459012 -75.670357 -0.31626287 -92.493034
9205312500 -1.121371 123.09454 -8.4559355 -74.865677 -8.4531994 -75.651192 -0.30915797 -92.457687
9205375000 -1.1188353 123.07662 -8.4475927 -74.902473 -8.4541512 -75.689056 -0.30749354 -92.475861
9205437500 -1.1250224 123.02743 -8.4523106 -74.861603 -8.4581823 -75.638298 -0.31540534 -92.386185
9205500000 -1.114481 123.0112 -8.4522705 -74.876579 -8.4483404 -75.689674 -0.31457391 -92.43071
9205562500 -1.1252609 122.97456 -8.4633055 -74.845413 -8.4352112 -75.593811 -0.30914888 -92.333138
9205625000 -1.1197996 122.95757 -8.4571123 -74.904564 -8.440876 -75.596184 -0.31948587 -92.278641
9205687500 -1.1187905 122.92032 -8.4540663 -74.843582 -8.4487276 -75.602417 -0.33000481 -92.2929
9205750000 -1.1244794 122.92312 -8.4704018 -74.835938 -8.4367437 -75.618561 -0.32323092 -92.275475
9205812500 -1.1243421 122.88506 -8.4630785 -74.847809 -8.4354353 -75.563431 -0.32325056 -92.251015
9205875000 -1.1231799 122.90663 -8.4538107 -74.867699 -8.4411612 -75.638954 -0.3327826 -92.299408
9205937500 -1.124314 122.91035 -8.4511023 -74.813019 -8.4453697 -75.624893 -0.32876688 -92.267784
9206000000 -1.1215304 122.86742 -8.4502144 -74.852882 -8.4435616 -75.637566 -0.32337645 -92.243599
9206062500 -1.128165 122.87926 -8.4528456 -74.861893 -8.4433022 -75.651405 -0.32603899 -92.235764
9206125000 -1.1288787 122.86799 -8.4536858 -74.870155 -8.4410172 -75.658035 -0.32945305 -92.205513
9206187500 -1.1231025 122.83801 -8.44347 -74.852623 -8.4338589 -75.600357 -0.32603359 -92.169243
9206250000 -1.1225092 122.80331 -8.450882 -74.85997 -8.4301977 -75.6194 -0.32729611 -92.169159
9206312500 -1.1259092 122.76194 -8.4478273 -74.910599 -8.4390373 -75.646332 -0.32954153 -92.182777
9206375000 -1.1270136 122.7709 -8.4500256 -74.874786 -8.4340153 -75.622673 -0.33037463 -92.181374
9206437500 -1.1261164 122.74212 -8.4439087 -74.896576 -8.4258976 -75.526146 -0.32282603 -92.038628
9206500000 -1.1238462 122.74533 -8.4366236 -74.880089 -8.433238 -75.578255 -0.32567069 -92.106094
9206562500 -1.1258478 122.699 -8.4392805 -74.937057 -8.436347 -75.543961 -0.32651293 -92.066666
9206625000 -1.1301197 122.72066 -8.440877 -74.899269 -8.4251509 -75.575699 -0.31861278 -92.057076
9206687500 -1.1301972 122.74495 -8.4479599 -74.858307 -8.4311924 -75.550209 -0.32214347 -92.071892
9206750000 -1.1239095 122.74896 -8.44067 -74.969193 -8.4333334 -75.558434 -0.32220116 -92.055916
9206812500 -1.1293175 122.7416 -8.4415646 -74.937553 -8.421833 -75.561401 -0.3167209 -92.028442
9206875000 -1.1240543 122.71844 -8.4419727 -74.907196 -8.4312963 -75.594872 -0.31488094 -92.052406
9206937500 -1.1240869 122.72276 -8.4484186 -74.909531 -8.4242802 -75.519318 -0.31009382 -91.996506
9207000000 -1.1258202 122.68875 -8.4440918 -74.927132 -8.4234409 -75.586082 -0.31608379 -91.996452
9207062500 -1.1259745 122.66985 -8.439456 -74.928551 -8.4182949 -75.57029 -0.30825847 -91.958359
9207125000 -1.1224295 122.64176 -8.4389982 -74.853325 -8.4179621 -75.494919 -0.31919813 -91.93248
9207187500 -1.1177639 122.6234 -8.4323053 -74.840065 -8.4210882 -75.560066 -0.31546035 -91.920135
9207250000 -1.1205121 122.57639 -8.4314556 -74.809258 -8.4224672 -75.559662 -0.32519737 -91.8927
9207312500 -1.1194061 122.55592 -8.4299994 -74.854202 -8.4172001 -75.612221 -0.32235119 -91.916321
9207375000 -1.12463 122.57481 -8.4324989 -74.844994 -8.4179611 -75.546928 -0.32569143 -91.86232
9207437500 -1.1243985 122.51888 -8.429863 -74.863213 -8.4223833 -75.557701 -0.33465052 -91.874878
9207500000 -1.1263845 122.52686 -8.4313393 -74.873581 -8.416832 -75.590584 -0.32691297 -91.898605
9207562500 -1.1226084 122.5245 -8.4245672 -74.88958 -8.4193077 -75.569473 -0.3252629 -91.855751
9207625000 -1.1264814 122.43856 -8.4265146 -74.874847 -8.4216518 -75.568138 -0.3326337 -91.864082
9207687500 -1.126884 122.4437 -8.4254103 -74.86393 -8.4213533 -75.582436 -0.32208034 -91.820198
9207750000 -1.1334804 122.43021 -8.4319496 -74.898872 -8.4256697 -75.594147 -0.3264693 -91.797432
9207812500 -1.1298351 122.46539 -8.4196949 -74.915962 -8.4217701 -75.620621 -0.32588565 -91.861214
9207875000 -1.1328064 122.46583 -8.4173298 -74.895309 -8.4212046 -75.61776 -0.31673816 -91.807228
9207937500 -1.1351645 122.46893 -8.4167814 -74.888466 -8.4202518 -75.578865 -0.31620738 -91.79258
9208000000 -1.1321583 122.43155 -8.4194345 -74.869911 -8.4208593 -75.537636 -0.32289916 -91.718704
9208062500 -1.1344358 122.42517 -8.4164438 -74.874771 -8.4161806 -75.602333 -0.32027194 -91.70697
9208125000 -1.1284977 122.43428 -8.4136734 -74.870331 -8.4229078 -75.562729 -0.32715529 -91.666191
9208187500 -1.1281317 122.41889 -8.4080458 -74.874016 -8.4192858 -75.601311 -0.32633066 -91.711349
9208250000 -1.1280164 122.4012 -8.4101095 -74.844284 -8.4135361 -75.590034 -0.32707846 -91.663124
9208312500 -1.1281099 122.37336 -8.4160624 -74.83979 -8.4117489 -75.588486 -0.32471469 -91.592072
9208375000 -1.1245079 122.3861 -8.415823 -74.797752 -8.4139853 -75.680763 -0.32835987 -91.603333
9208437500 -1.1250068 122.36522 -8.4116488 -74.794373 -8.4089661 -75.583458 -0.32146227 -91.609512
9208500000 -1.1283495 122.37521 -8.4130392 -74.770401 -8.4150963 -75.638329 -0.33063391 -91.578766
9208562500 -1.1292216 122.34164 -8.4142523 -74.796875 -8.4121132 -75.581482 -0.32847169 -91.549988
9208625000 -1.1267015 122.32142 -8.4126844 -74.78186 -8.4100599 -75.508934 -0.32612655 -91.512375
9208687500 -1.1267635 122.3101 -8.409111 -74.79348 -8.4098597 -75.553001 -0.33350837 -91.550583
9208750000 -1.1245656 122.2776 -8.4143095 -74.811211 -8.4053802 -75.499115 -0.32964277 -91.516289
9208812500 -1.12251 122.27049 -8.4063635 -74.800156 -8.4096289 -75.525803 -0.33157626 -91.490479
9208875000 -1.1211818 122.25484 -8.4138737 -74.819054 -8.4023552 -75.590851 -0.3326731 -91.522141
9208937500 -1.1210978 122.30247 -8.4159746 -74.757896 -8.4019632 -75.511261 -0.33030322 -91.479828
9209000000 -1.1268367 122.22319 -8.4105015 -74.809471 -8.4033537 -75.509872 -0.33294395 -91.434906
9209062500 -1.1244646 122.24491 -8.4115839 -74.81649 -8.4010544 -75.508675 -0.33622789 -91.449501
9209125000 -1.123538 122.21629 -8.4117785 -74.798393 -8.3939352 -75.48851 -0.33132824 -91.410004
9209187500 -1.1214465 122.21098 -8.4114542 -74.789162 -8.3999023 -75.54747 -0.33581227 -91.426743
9209250000 -1.1174868 122.17667 -8.401701 -74.835953 -8.3997726 -75.475746 -0.33584711 -91.351372
9209312500 -1.1219397 122.15761 -8.4069681 -74.763718 -8.4033928 -75.555618 -0.33462703 -91.381111
9209375000 -1.1207649 122.14086 -8.4095068 -74.7771 -8.3968706 -75.497177 -0.33284876 -91.324356
9209437500 -1.1161482 122.11918 -8.4041681 -74.797386 -8.4004774 -75.509346 -0.33441299 -91.300674
9209500000 -1.1186996 122.06673 -8.4033022 -74.844391 -8.4011097 -75.508377 -0.33583841 -91.343094
9209562500 -1.1262761 122.07238 -8.4072294 -74.833878 -8.3942823 -75.472 -0.33657318 -91.251358
9209625000 -1.1271124 122.05305 -8.4082565 -74.829979 -8.3964911 -75.546577 -0.33398581 -91.300804
9209687500 -1.1276692 122.03728 -8.3947983 -74.848808 -8.3902349 -75.478287 -0.32343405 -91.276413
9209750000 -1.1285111 122.04343 -8.3992348 -74.808289 -8.3919544 -75.557663 -0.32486799 -91.293236
9209812500 -1.1269282 122.03378 -8.3993263 -74.800789 -8.3973045 -75.537697 -0.32743925 -91.267006
9209875000 -1.1300033 121.99918 -8.399929 -74.879837 -8.3955708 -75.576248 -0.32870167 -91.262436
9209937500 -1.1336837 122.05276 -8.4026184 -74.776901 -8.3888254 -75.532074 -0.32791811 -91.162369
9210000000 -1.1287936 122.05498 -8.3957586 -74.778511 -8.3888416 -75.544411 -0.33102089 -91.208511
9210062500 -1.1332582 121.98136 -8.3959961 -74.850082 -8.3897915 -75.524956 -0.32541412 -91.187279
9210125000 -1.1326296 121.98292 -8.4006128 -74.715881 -8.3883677 -75.506042 -0.33248538 -91.14933
9210187500 -1.1275219 121.9652 -8.392354 -74.770073 -8.3778658 -75.575279 -0.32933789 -91.181953
9210250000 -1.1295134 121.98658 -8.3923302 -74.797874 -8.3887444 -75.468506 -0.33047974 -91.101509
9210312500 -1.1296871 121.95602 -8.3981085 -74.794342 -8.3841763 -75.537727 -0.33648098 -91.138725
9210375000 -1.1304219 121.96275 -8.3847504 -74.779846 -8.3873873 -75.60067 -0.34251153 -91.17244
9210437500 -1.1282508 121.87334 -8.3902464 -74.770515 -8.3861017 -75.538681 -0.33997279 -91.066811
9210500000 -1.1313888 121.88438 -8.3930531 -74.810158 -8.3987627 -75.51812 -0.33834276 -91.065742
9210562500 -1.1274 121.82875 -8.3927422 -74.823364 -8.3880911 -75.566391 -0.34605157 -91.060715
9210625000 -1.1257952 121.79716 -8.3838711 -74.740128 -8.3921776 -75.477295 -0.34243712 -91.038811
9210687500 -1.1301099 121.7821 -8.3867559 -74.830254 -8.3855762 -75.494629 -0.33684099 -91.002533
9210750000 -1.1237596 121.76041 -8.3877935 -74.827271 -8.3894348 -75.551041 -0.34156126 -91.023254
9210812500 -1.1246517 121.71242 -8.3794441 -74.813744 -8.3760948 -75.510307 -0.33376893 -90.985809
9210875000 -1.1283928 121.77489 -8.3823662 -74.856277 -8.3775425 -75.494881 -0.33670118 -90.90905
9210937500 -1.1246365 121.75797 -8.381918 -74.803284 -8.3756418 -75.453766 -0.33933842 -90.898712
9211000000 -1.12651 121.75946 -8.3787193 -74.797264 -8.378294 -75.417389 -0.33933559 -90.883018
9211062500 -1.1369656 121.70908 -8.3919668 -74.85762 -8.3687525 -75.431541 -0.3378588 -90.846329
9211125000 -1.127809 121.73616 -8.376338 -74.781319 -8.3716049 -75.455162 -0.34224153 -90.821304
9211187500 -1.1264739 121.67741 -8.3782959 -74.772392 -8.3717632 -75.460297 -0.33494955 -90.8423
9211250000 -1.1310518 121.69742 -8.3834419 -74.830505 -8.3761845 -75.443924 -0.34864837 -90.807457
9211312500 -1.1288499 121.68791 -8.3850851 -74.803986 -8.3735294 -75.450775 -0.34315282 -90.81385
9211375000 -1.1286081 121.70799 -8.3866625 -74.785912 -8.3695822 -75.48996 -0.34036413 -90.77153
9211437500 -1.1226138 121.66049 -8.3825302 -74.817497 -8.377409 -75.467949 -0.3437368 -90.790199
9211500000 -1.1236932 121.66154 -8.3745012 -74.76973 -8.3721209 -75.462471 -0.342695 -90.775688
9211562500 -1.1229296 121.62638 -8.376606 -74.811722 -8.3776407 -75.496742 -0.34148523 -90.843384
9211625000 -1.1238414 121.65061 -8.3750668 -74.798035 -8.3749037 -75.456566 -0.3407113 -90.844627
9211687500 -1.1274631 121.63925 -8.377224 -74.812172 -8.374156 -75.477684 -0.3408854 -90.788475
9211750000 -1.125424 121.62261 -8.3813229 -74.844429 -8.3705559 -75.456047 -0.33746737 -90.801422
9211812500 -1.1217033 121.62401 -8.372344 -74.795586 -8.3774004 -75.510193 -0.34383208 -90.775406
9211875000 -1.1207148 121.59055 -8.3791761 -74.794312 -8.3655901 -75.478767 -0.34361967 -90.750679
9211937500 -1.1210742 121.58404 -8.3685684 -74.731537 -8.3654003 -75.468285 -0.33960855 -90.673904
9212000000 -1.1234002 121.56588 -8.3700991 -74.7481 -8.3698778 -75.467987 -0.35148278 -90.652847
9212062500 -1.1234329 121.49953 -8.3653421 -74.713928 -8.361907 -75.401138 -0.34328201 -90.586891
9212125000 -1.1247379 121.51219 -8.3758469 -74.696564 -8.3661461 -75.478554 -0.34111154 -90.574692
9212187500 -1.1272241 121.47953 -8.3761158 -74.712791 -8.3608742 -75.44265 -0.33580986 -90.55912
9212250000 -1.1229717 121.44894 -8.3633604 -74.772758 -8.3564377 -75.480713 -0.34234869 -90.5522
9212312500 -1.1278999 121.44108 -8.3614254 -74.736839 -8.3586321 -75.505371 -0.34081134 -90.541321
