!Agilent Technologies,N5242A,MY51221714,A.09.90.19
!Agilent N5242A: A.09.90.19
!Date: Saturday, December 30, 2023 10:26:21
!Correction: S11(Full 2 Port(1,2)) 
!S21(Full 2 Port(1,2)) 
!S12(Full 2 Port(1,2)) 
!S22(Full 2 Port(1,2)) 
!S2P File: Measurements: S11, S21, S12, S22:
# Hz S  dB   R 50
9200000000 -2.055279 120.41263 -8.0627804 -87.301201 -8.0457602 -88.042061 -1.0791007 -96.555153
9200062500 -2.0607429 120.39913 -8.0749006 -87.366859 -8.0478497 -88.053055 -1.0774121 -96.553658
9200125000 -2.0605385 120.41232 -8.07265 -87.318695 -8.0389433 -88.03849 -1.0767082 -96.509079
9200187500 -2.0551238 120.37901 -8.0599499 -87.277603 -8.0493507 -88.034576 -1.0815948 -96.450226
9200250000 -2.05211 120.36054 -8.062047 -87.321251 -8.0454693 -88.080963 -1.076843 -96.50647
9200312500 -2.0614212 120.32961 -8.0689077 -87.302673 -8.0575085 -88.083557 -1.0876042 -96.485863
9200375000 -2.0642452 120.32399 -8.0670357 -87.363647 -8.0464354 -88.051521 -1.0848354 -96.501564
9200437500 -2.063611 120.3003 -8.0691328 -87.358704 -8.043355 -88.098038 -1.0844553 -96.495346
9200500000 -2.0605769 120.26007 -8.0648804 -87.369972 -8.0434332 -88.051788 -1.0791425 -96.459282
9200562500 -2.0649505 120.26337 -8.0713186 -87.366226 -8.0451918 -87.978844 -1.0841624 -96.41346
9200625000 -2.06059 120.19875 -8.0589476 -87.417084 -8.0480108 -88.091927 -1.0874771 -96.439606
9200687500 -2.0577116 120.21507 -8.0593863 -87.401955 -8.0408039 -88.075371 -1.0800589 -96.419235
9200750000 -2.0603158 120.17381 -8.0591993 -87.373993 -8.0330238 -88.052711 -1.0803634 -96.375877
9200812500 -2.0605803 120.19568 -8.061635 -87.398407 -8.0321531 -88.086807 -1.0852315 -96.344734
9200875000 -2.0592082 120.16998 -8.0553484 -87.36438 -8.0297089 -88.041695 -1.083969 -96.327217
9200937500 -2.0628586 120.17352 -8.0506182 -87.38311 -8.0303202 -88.058418 -1.0795299 -96.367203
9201000000 -2.0667863 120.18946 -8.0633736 -87.417397 -8.0357342 -88.097679 -1.0889136 -96.36544
9201062500 -2.0659957 120.20216 -8.067771 -87.42968 -8.0363169 -88.077179 -1.0935338 -96.350014
9201125000 -2.0657408 120.2098 -8.0583658 -87.366165 -8.0368176 -88.050957 -1.0878202 -96.330635
9201187500 -2.0661097 120.22267 -8.0587559 -87.348946 -8.0390997 -88.021667 -1.095314 -96.302132
9201250000 -2.0624733 120.18655 -8.0617132 -87.344315 -8.0510321 -88.040993 -1.0922494 -96.256798
9201312500 -2.060288 120.18906 -8.0514545 -87.345329 -8.0449152 -88.100601 -1.0889732 -96.276665
9201375000 -2.069787 120.16673 -8.0540438 -87.357178 -8.0377579 -88.051636 -1.0892466 -96.215996
9201437500 -2.0643008 120.17482 -8.0494547 -87.295723 -8.035964 -88.045212 -1.086271 -96.165871
9201500000 -2.0692303 120.13382 -8.0466805 -87.352295 -8.0434952 -88.135475 -1.0899421 -96.18631
9201562500 -2.0676591 120.1263 -8.0404177 -87.305229 -8.0296984 -88.104462 -1.086464 -96.120041
9201625000 -2.0702052 120.09253 -8.0422649 -87.336067 -8.031498 -88.093964 -1.0887215 -96.112984
9201687500 -2.0697801 120.07306 -8.041625 -87.359169 -8.0342054 -88.120064 -1.0956211 -96.122314
9201750000 -2.0691218 120.09564 -8.0497236 -87.310036 -8.0304947 -88.091911 -1.0923153 -96.053932
9201812500 -2.0682528 120.08142 -8.0420742 -87.318161 -8.0300827 -88.087196 -1.0934643 -96.104774
9201875000 -2.0735044 120.03958 -8.0497246 -87.334404 -8.0205879 -88.074951 -1.0906788 -96.062599
9201937500 -2.0655642 120.04211 -8.0483847 -87.344063 -8.0194616 -88.045761 -1.098336 -96.065491
9202000000 -2.0657334 120.00539 -8.040206 -87.374229 -8.029439 -88.09111 -1.1045649 -96.114616
9202062500 -2.070163 120.00867 -8.0423307 -87.364883 -8.0236149 -88.039162 -1.0995537 -96.025742
9202125000 -2.0684123 120.00445 -8.036458 -87.359146 -8.023139 -88.063446 -1.1025932 -96.041557
9202187500 -2.070375 119.97266 -8.0415106 -87.379875 -8.0323343 -88.048233 -1.1009727 -96.030609
9202250000 -2.07076 119.92149 -8.0429335 -87.402908 -8.0303812 -88.145073 -1.0987561 -96.059799
9202312500 -2.0726743 119.89743 -8.0410671 -87.433952 -8.0262499 -88.166824 -1.1033618 -96.015068
9202375000 -2.0669377 119.88074 -8.0409794 -87.375862 -8.0165911 -88.104263 -1.0903074 -95.981003
9202437500 -2.0730565 119.87642 -8.0362616 -87.372513 -8.0197878 -88.126129 -1.0955671 -95.955429
9202500000 -2.0708861 119.86034 -8.0385351 -87.409698 -8.0204039 -88.16188 -1.0988076 -95.938835
9202562500 -2.0736873 119.87352 -8.0388479 -87.400505 -8.0183153 -88.140503 -1.099139 -95.96962
9202625000 -2.070112 119.84515 -8.0377178 -87.426422 -8.0234594 -88.140266 -1.102284 -95.892906
9202687500 -2.069958 119.83508 -8.0368395 -87.306648 -8.0177631 -88.145218 -1.097167 -95.877151
9202750000 -2.0695543 119.82324 -8.0349302 -87.407616 -8.0194445 -88.126038 -1.099008 -95.889885
9202812500 -2.0739501 119.79693 -8.0377312 -87.361366 -8.0236444 -88.154839 -1.1062814 -95.876389
9202875000 -2.0720253 119.76323 -8.0357819 -87.376587 -8.0147514 -88.134293 -1.1060306 -95.87632
9202937500 -2.0651767 119.76378 -8.0290594 -87.350044 -8.018364 -88.087914 -1.0999818 -95.798508
9203000000 -2.0684865 119.75017 -8.0349207 -87.36483 -7.9994707 -88.169632 -1.103958 -95.863724
9203062500 -2.0705943 119.74114 -8.0279779 -87.397682 -8.0098124 -88.175957 -1.1035306 -95.844139
9203125000 -2.0620623 119.70892 -8.0250244 -87.387939 -8.0138807 -88.123024 -1.1112195 -95.802956
9203187500 -2.0632992 119.69672 -8.0263596 -87.43338 -8.0130615 -88.105988 -1.1036744 -95.772713
9203250000 -2.068186 119.68979 -8.0158787 -87.355392 -8.0083103 -88.074303 -1.1008286 -95.739166
9203312500 -2.0701773 119.722 -8.0180969 -87.386383 -8.0141344 -88.134239 -1.0966183 -95.713036
9203375000 -2.0732651 119.67654 -8.0143099 -87.372452 -8.0140877 -88.063484 -1.0977738 -95.635147
9203437500 -2.069612 119.72402 -8.0146828 -87.357414 -8.0129223 -88.167603 -1.0956118 -95.673523
9203500000 -2.0666728 119.68645 -7.9998488 -87.389732 -8.0076532 -88.104164 -1.0976251 -95.616676
9203562500 -2.0781982 119.66302 -8.0141907 -87.375099 -8.0081234 -88.183922 -1.1016968 -95.683258
9203625000 -2.0744104 119.64551 -8.0094109 -87.417503 -8.0077124 -88.106659 -1.1048712 -95.603699
9203687500 -2.0757315 119.59809 -8.017107 -87.420898 -8.0075531 -88.118835 -1.1075821 -95.637321
9203750000 -2.0740857 119.57301 -8.0125389 -87.448082 -8.0013151 -88.117188 -1.108703 -95.6231
9203812500 -2.0769672 119.59291 -8.0216703 -87.414055 -8.0002251 -88.134178 -1.1101304 -95.624817
9203875000 -2.0802331 119.55648 -8.0149469 -87.395973 -8.0029526 -88.107666 -1.1055795 -95.573982
9203937500 -2.0784035 119.55251 -8.0134773 -87.37664 -7.9963036 -88.1474 -1.1074578 -95.549126
9204000000 -2.078604 119.54159 -8.0169849 -87.377571 -7.9930177 -88.205673 -1.0978508 -95.62043
9204062500 -2.0764613 119.53979 -8.0087252 -87.40873 -8.0039072 -88.129166 -1.1091529 -95.545868
9204125000 -2.0744653 119.53186 -8.0064449 -87.419395 -8.0062542 -88.171967 -1.1071986 -95.527092
9204187500 -2.0787148 119.47811 -8.0090075 -87.430328 -7.9990115 -88.122086 -1.0991652 -95.475121
9204250000 -2.0741472 119.48693 -8.0007887 -87.455902 -8.0094967 -88.098442 -1.1054001 -95.477264
9204312500 -2.0707176 119.48093 -7.9979687 -87.380615 -7.9963202 -88.139008 -1.1061274 -95.506104
9204375000 -2.0735612 119.44725 -8.0009127 -87.402245 -7.9920726 -88.131386 -1.1080797 -95.453812
9204437500 -2.0737088 119.43788 -8.0017118 -87.343468 -7.9899244 -88.128502 -1.1102498 -95.400162
9204500000 -2.0684962 119.40147 -7.9941173 -87.444244 -7.9943171 -88.139748 -1.1147701 -95.3871
9204562500 -2.0771203 119.40232 -7.9995694 -87.398415 -7.9828906 -88.107956 -1.1039016 -95.366043
9204625000 -2.0668256 119.38234 -7.9929781 -87.354019 -7.9922919 -88.138466 -1.1118444 -95.361908
9204687500 -2.0748875 119.34805 -7.99825 -87.427437 -7.991848 -88.156044 -1.1162965 -95.325211
9204750000 -2.0757835 119.32577 -8.001298 -87.370491 -7.9872098 -88.139832 -1.1113354 -95.292648
9204812500 -2.0810118 119.32939 -8.0016994 -87.409958 -7.9839587 -88.115593 -1.1159396 -95.265358
9204875000 -2.0816193 119.30581 -8.0005522 -87.441635 -7.9891744 -88.146797 -1.1158479 -95.321129
9204937500 -2.0811913 119.27614 -7.998313 -87.456329 -7.9860144 -88.158356 -1.1189855 -95.300316
9205000000 -2.0828309 119.29737 -8.0030174 -87.475746 -7.9813132 -88.107956 -1.116514 -95.282196
9205062500 -2.086082 119.25065 -7.9931164 -87.479012 -7.9813938 -88.128288 -1.1133881 -95.233391
9205125000 -2.0826092 119.25241 -7.9981756 -87.464859 -7.9801574 -88.157639 -1.1019417 -95.272766
9205187500 -2.0839653 119.27826 -7.9918156 -87.448471 -7.9841266 -88.142441 -1.1065022 -95.214989
9205250000 -2.0841653 119.27646 -7.9965992 -87.404236 -7.9849257 -88.191895 -1.1044054 -95.182343
9205312500 -2.0827065 119.2503 -7.9984283 -87.439377 -7.9968915 -88.155067 -1.1127795 -95.135513
9205375000 -2.0822923 119.24043 -7.9905686 -87.435448 -8.0008459 -88.155762 -1.1119238 -95.095917
9205437500 -2.0777478 119.27216 -7.9851093 -87.368256 -7.9888482 -88.226616 -1.116784 -95.132561
9205500000 -2.0860562 119.18404 -7.9964585 -87.422668 -7.9813027 -88.18615 -1.1107398 -95.111946
9205562500 -2.0833571 119.15138 -7.992712 -87.390022 -7.980113 -88.124641 -1.1199677 -95.026466
9205625000 -2.0854886 119.15999 -7.9946933 -87.358643 -7.9797149 -88.209503 -1.1245962 -95.036598
9205687500 -2.0822849 119.11002 -7.9970145 -87.422272 -7.9738579 -88.168793 -1.1240491 -94.984665
9205750000 -2.0875793 119.13464 -7.9877625 -87.39106 -7.9759989 -88.130722 -1.1275766 -94.978683
9205812500 -2.0925646 119.10424 -7.9962134 -87.377472 -7.9770517 -88.13546 -1.1279187 -94.961845
9205875000 -2.0900285 119.10165 -7.9909949 -87.35585 -7.9734836 -88.173393 -1.1243596 -94.952759
9205937500 -2.0900648 119.10146 -7.9915352 -87.340233 -7.9696784 -88.125931 -1.1217014 -94.939095
9206000000 -2.091748 119.10151 -7.9952235 -87.407013 -7.972096 -88.147575 -1.119158 -94.920746
9206062500 -2.0917363 119.0688 -7.9792194 -87.441628 -7.9747324 -88.144531 -1.1251893 -94.926994
9206125000 -2.0927005 119.02921 -7.983006 -87.427048 -7.9754639 -88.13591 -1.1269377 -94.886505
9206187500 -2.0869465 119.00543 -7.9763002 -87.36895 -7.9664149 -88.117027 -1.1253852 -94.833809
9206250000 -2.0900543 119.00795 -7.9825611 -87.437996 -7.967082 -88.14534 -1.126987 -94.85817
9206312500 -2.0937407 118.93249 -7.9831595 -87.456825 -7.9672966 -88.101257 -1.1326081 -94.805283
9206375000 -2.0904179 118.97026 -7.9801741 -87.449806 -7.9778519 -88.148376 -1.142996 -94.802696
9206437500 -2.0900154 118.92252 -7.9740596 -87.441261 -7.9718418 -88.153702 -1.1297411 -94.792465
9206500000 -2.0875039 118.91313 -7.9774771 -87.484024 -7.9690242 -88.151184 -1.1344907 -94.749092
9206562500 -2.0960469 118.88218 -7.9791317 -87.539078 -7.9629397 -88.168724 -1.1304698 -94.780922
9206625000 -2.092504 118.91988 -7.9779854 -87.468224 -7.9627123 -88.205429 -1.1275859 -94.802132
9206687500 -2.0956359 118.94353 -7.9766474 -87.468102 -7.9679413 -88.13237 -1.1269567 -94.762421
9206750000 -2.0970435 118.94073 -7.9750504 -87.534241 -7.9589505 -88.156517 -1.1207079 -94.759819
9206812500 -2.0982137 118.92704 -7.9739075 -87.553574 -7.9570313 -88.138252 -1.1208227 -94.742882
9206875000 -2.0922506 118.93216 -7.9775615 -87.465385 -7.9612479 -88.163513 -1.1231899 -94.710724
9206937500 -2.0952909 118.90366 -7.9778638 -87.46846 -7.9618354 -88.165825 -1.1286441 -94.717491
9207000000 -2.0872951 118.87944 -7.9706845 -87.496742 -7.9580269 -88.153137 -1.129701 -94.680916
9207062500 -2.0969279 118.84296 -7.9791865 -87.481903 -7.95784 -88.147232 -1.1235037 -94.645981
9207125000 -2.0877361 118.81956 -7.9702673 -87.434479 -7.9512491 -88.157104 -1.121711 -94.643097
9207187500 -2.0865912 118.81261 -7.9661832 -87.445015 -7.9468694 -88.203171 -1.1222723 -94.60421
9207250000 -2.0928364 118.77798 -7.9743009 -87.395767 -7.949235 -88.148651 -1.1239256 -94.56794
9207312500 -2.0902121 118.7678 -7.9637818 -87.481468 -7.9509244 -88.231979 -1.1319199 -94.629623
9207375000 -2.0948615 118.71627 -7.9658046 -87.514465 -7.9500861 -88.17807 -1.1318939 -94.603806
9207437500 -2.0956299 118.74252 -7.9633732 -87.461861 -7.9545732 -88.224991 -1.1327161 -94.570564
9207500000 -2.093981 118.6953 -7.9636436 -87.56456 -7.9418488 -88.189941 -1.1312492 -94.583092
9207562500 -2.0979815 118.70112 -7.9590173 -87.494247 -7.9517508 -88.228745 -1.1396424 -94.62101
9207625000 -2.0960546 118.65411 -7.9527941 -87.498764 -7.9528313 -88.213539 -1.1361257 -94.565414
9207687500 -2.1026292 118.64021 -7.9548416 -87.560547 -7.9520006 -88.228752 -1.1398202 -94.577873
9207750000 -2.105082 118.63104 -7.9569716 -87.509659 -7.9520879 -88.211494 -1.1287795 -94.539429
9207812500 -2.1079655 118.6501 -7.9630947 -87.53064 -7.9504757 -88.193329 -1.129257 -94.496307
9207875000 -2.1085939 118.62945 -7.9575448 -87.556587 -7.9505944 -88.190674 -1.1234215 -94.469566
9207937500 -2.1095066 118.6572 -7.9566655 -87.481453 -7.951797 -88.212296 -1.1269081 -94.463615
9208000000 -2.106015 118.64896 -7.9582071 -87.519196 -7.9581733 -88.218224 -1.1304075 -94.448212
9208062500 -2.1068704 118.6069 -7.9514236 -87.514366 -7.9522529 -88.166473 -1.1336031 -94.398872
9208125000 -2.1057441 118.613 -7.9509439 -87.589203 -7.9515967 -88.201729 -1.1337476 -94.38147
9208187500 -2.1070218 118.57874 -7.9527779 -87.495369 -7.9463286 -88.195129 -1.1336848 -94.357788
9208250000 -2.1028845 118.58841 -7.9467354 -87.469727 -7.9565573 -88.261421 -1.1408536 -94.311745
9208312500 -2.1019447 118.56677 -7.9503613 -87.463013 -7.9435415 -88.242203 -1.1318424 -94.273125
9208375000 -2.0986786 118.53896 -7.9375281 -87.440453 -7.943706 -88.193039 -1.135636 -94.260933
9208437500 -2.1051466 118.53504 -7.9420991 -87.418518 -7.9465771 -88.217422 -1.1377645 -94.226051
9208500000 -2.1015573 118.50753 -7.9459524 -87.451561 -7.9434829 -88.216599 -1.141438 -94.254906
9208562500 -2.1031024 118.50892 -7.9422102 -87.429504 -7.9399376 -88.262474 -1.1344898 -94.268288
9208625000 -2.1062801 118.48106 -7.9397268 -87.502106 -7.9391913 -88.196785 -1.1419353 -94.232376
9208687500 -2.0994711 118.47163 -7.9415503 -87.46978 -7.9372039 -88.224136 -1.1402249 -94.270775
9208750000 -2.0976675 118.47914 -7.9380279 -87.431023 -7.9473634 -88.159821 -1.1425878 -94.219582
9208812500 -2.100807 118.47025 -7.9419203 -87.422249 -7.9384747 -88.183235 -1.1477157 -94.195213
9208875000 -2.0985157 118.46246 -7.939599 -87.451889 -7.9239063 -88.181526 -1.1435589 -94.176376
9208937500 -2.1004951 118.42348 -7.9440389 -87.520859 -7.933825 -88.220985 -1.1422691 -94.227852
9209000000 -2.1013429 118.42661 -7.94063 -87.47541 -7.9340281 -88.168617 -1.1430725 -94.158936
9209062500 -2.0989647 118.40958 -7.9428163 -87.49128 -7.9345217 -88.199219 -1.1510108 -94.104004
9209125000 -2.1007121 118.44062 -7.937078 -87.480453 -7.919086 -88.175407 -1.1480889 -94.106911
9209187500 -2.1001141 118.37202 -7.9420004 -87.494209 -7.926733 -88.182678 -1.1483029 -94.097641
9209250000 -2.1020477 118.32626 -7.9361968 -87.541809 -7.9318805 -88.184975 -1.1474973 -94.06131
9209312500 -2.1012321 118.35748 -7.9427838 -87.487 -7.9288001 -88.221092 -1.1532563 -94.06707
9209375000 -2.0980408 118.30807 -7.9356422 -87.47242 -7.928576 -88.231567 -1.1470435 -94.067421
9209437500 -2.1005163 118.28307 -7.9330106 -87.44606 -7.9415212 -88.14518 -1.1564946 -93.98362
9209500000 -2.0975416 118.26512 -7.9267664 -87.532852 -7.933701 -88.197739 -1.1482576 -94.007317
9209562500 -2.1038914 118.24689 -7.9381762 -87.514381 -7.9309711 -88.193085 -1.1445485 -93.983284
9209625000 -2.103677 118.26167 -7.9384947 -87.473854 -7.9257307 -88.201134 -1.1428416 -93.976173
9209687500 -2.1069441 118.22417 -7.9295073 -87.556534 -7.9240689 -88.200043 -1.1471915 -93.982704
9209750000 -2.1076846 118.19714 -7.9249711 -87.521393 -7.9203606 -88.20665 -1.1434139 -93.930748
9209812500 -2.1079061 118.19682 -7.9361186 -87.558426 -7.9265256 -88.220039 -1.1404628 -93.920303
9209875000 -2.1144903 118.19816 -7.9288883 -87.573334 -7.9188066 -88.199379 -1.1409023 -93.963257
9209937500 -2.1107614 118.19513 -7.9259481 -87.508156 -7.9225025 -88.188965 -1.1441057 -93.896759
9210000000 -2.1150961 118.16769 -7.9286094 -87.491829 -7.9156337 -88.221664 -1.1478618 -93.850853
9210062500 -2.113112 118.17607 -7.9327941 -87.54406 -7.9224119 -88.255707 -1.1495451 -93.872437
9210125000 -2.1118073 118.19872 -7.9358931 -87.519897 -7.9169664 -88.26432 -1.1475614 -93.851036
9210187500 -2.1157598 118.16831 -7.9351583 -87.522087 -7.9091802 -88.256691 -1.1514611 -93.839417
9210250000 -2.1165597 118.16074 -7.9277987 -87.502937 -7.906342 -88.207939 -1.1459807 -93.789009
9210312500 -2.1131485 118.11446 -7.9244947 -87.549561 -7.9136906 -88.29911 -1.1538737 -93.858788
9210375000 -2.1158094 118.12931 -7.9302206 -87.455307 -7.9167662 -88.240761 -1.1511922 -93.788193
9210437500 -2.1153822 118.10401 -7.925292 -87.477699 -7.9164996 -88.31913 -1.1560161 -93.793732
9210500000 -2.1177619 118.05117 -7.9203615 -87.532768 -7.9211841 -88.231842 -1.15543 -93.763245
9210562500 -2.1113918 118.03185 -7.915277 -87.539825 -7.9140911 -88.223518 -1.1584193 -93.728241
9210625000 -2.1105988 117.95712 -7.9099569 -87.505127 -7.9101062 -88.283295 -1.1516738 -93.769897
9210687500 -2.1154857 117.95801 -7.9167838 -87.535225 -7.9029336 -88.202873 -1.1535612 -93.658485
9210750000 -2.1158271 117.92166 -7.9115915 -87.531952 -7.9070992 -88.191154 -1.1559269 -93.640739
9210812500 -2.1079459 117.92476 -7.9053326 -87.569221 -7.9050608 -88.271431 -1.1518025 -93.696465
9210875000 -2.1147463 117.89963 -7.9186597 -87.555458 -7.9018731 -88.213516 -1.1522048 -93.643776
9210937500 -2.1179156 117.93945 -7.9101634 -87.549171 -7.8949351 -88.18306 -1.1610126 -93.576279
9211000000 -2.1190648 117.91766 -7.9102635 -87.607552 -7.8963604 -88.219421 -1.1545844 -93.608315
9211062500 -2.114675 117.88439 -7.9125094 -87.548622 -7.8985605 -88.178894 -1.1569484 -93.536415
9211125000 -2.1214459 117.91798 -7.9158344 -87.518227 -7.9007339 -88.267632 -1.1665468 -93.54995
9211187500 -2.1213067 117.85622 -7.9165974 -87.621758 -7.8894286 -88.22805 -1.1617696 -93.501419
9211250000 -2.1179621 117.8483 -7.9070816 -87.550232 -7.9022112 -88.240997 -1.1608675 -93.482353
9211312500 -2.1206291 117.85288 -7.9159164 -87.555077 -7.8994374 -88.255447 -1.1670905 -93.487877
9211375000 -2.1204307 117.82236 -7.9154878 -87.573166 -7.8956728 -88.246086 -1.1653159 -93.496811
9211437500 -2.116739 117.83851 -7.9140072 -87.529999 -7.9020772 -88.271904 -1.1704375 -93.494835
9211500000 -2.1185138 117.86206 -7.9086299 -87.523018 -7.8969297 -88.249512 -1.1617647 -93.489319
9211562500 -2.1130705 117.84018 -7.9142771 -87.552948 -7.9083204 -88.203659 -1.1669277 -93.490471
9211625000 -2.1144755 117.84501 -7.9100909 -87.548843 -7.9032273 -88.206223 -1.1589788 -93.482422
9211687500 -2.1090741 117.78684 -7.8954015 -87.588097 -7.9015975 -88.198158 -1.1620889 -93.445129
9211750000 -2.1072233 117.84171 -7.895071 -87.578163 -7.902154 -88.249886 -1.1610599 -93.495468
9211812500 -2.1071215 117.79669 -7.8978682 -87.584526 -7.896348 -88.265404 -1.1619055 -93.476379
9211875000 -2.1156743 117.75607 -7.8994474 -87.585953 -7.8951831 -88.22007 -1.1628635 -93.433052
9211937500 -2.1176541 117.75188 -7.902205 -87.551842 -7.8872514 -88.236496 -1.1701504 -93.382172
9212000000 -2.1181087 117.69673 -7.9009123 -87.585625 -7.8883314 -88.238739 -1.1647533 -93.367027
9212062500 -2.1164379 117.67054 -7.8999796 -87.53688 -7.888679 -88.286415 -1.1644287 -93.315468
9212125000 -2.1176987 117.64146 -7.8892694 -87.51239 -7.8919544 -88.285492 -1.1709222 -93.266838
9212187500 -2.1180677 117.63401 -7.897047 -87.515366 -7.8889885 -88.268898 -1.1635985 -93.250084
9212250000 -2.1196058 117.59174 -7.8933945 -87.521179 -7.8845034 -88.30529 -1.1656951 -93.295792
9212312500 -2.1247866 117.57079 -7.8959002 -87.553078 -7.876585 -88.290695 -1.1605487 -93.234062
9212375000 -2.1206949 117.52827 -7.8853235 -87.569229 -7.8769164 -88.285667 -1.1591363 -93.235123
9212437500 -2.1206686 117.54774 -7.8903303 -87.606506 -7.8805761 -88.33918 -1.1682463 -93.27034
