!Agilent Technologies,N5242A,MY51221714,A.09.90.19
!Agilent N5242A: A.09.90.19
!Date: Saturday, December 30, 2023 10:27:20
!Correction: S11(Full 2 Port(1,2)) 
!S21(Full 2 Port(1,2)) 
!S12(Full 2 Port(1,2)) 
!S22(Full 2 Port(1,2)) 
!S2P File: Measurements: S11, S21, S12, S22:
# Hz S  dB   R 50
9200000000 -1.0833442 124.61414 -8.6167688 -74.441383 -8.5980043 -75.127991 -0.2693468 -93.420273
9200062500 -1.085263 124.64669 -8.6070585 -74.415619 -8.5930777 -75.202934 -0.2632603 -93.439163
9200125000 -1.084505 124.59641 -8.5957451 -74.438606 -8.5931206 -75.146278 -0.26770627 -93.383522
9200187500 -1.0866202 124.57592 -8.6076498 -74.398338 -8.591383 -75.187401 -0.26220328 -93.37899
9200250000 -1.0877628 124.59301 -8.6179953 -74.371628 -8.5908518 -75.170288 -0.26659921 -93.342583
9200312500 -1.089377 124.55032 -8.6193714 -74.4226 -8.5998116 -75.181564 -0.26549274 -93.336792
9200375000 -1.0918871 124.51002 -8.6218548 -74.430695 -8.5902729 -75.120407 -0.26758769 -93.332695
9200437500 -1.0832754 124.50446 -8.6096687 -74.418495 -8.5946026 -75.140984 -0.26677176 -93.32959
9200500000 -1.090801 124.4903 -8.6168766 -74.422478 -8.5898104 -75.126785 -0.26777241 -93.288094
9200562500 -1.0832273 124.43932 -8.6101017 -74.422592 -8.5876884 -75.073563 -0.26183215 -93.301384
9200625000 -1.0850488 124.44877 -8.6028414 -74.421814 -8.5808973 -75.1884 -0.25938207 -93.314728
9200687500 -1.0884374 124.46548 -8.6131668 -74.409546 -8.5825815 -75.149849 -0.26661071 -93.277534
9200750000 -1.0886973 124.38267 -8.6127834 -74.455727 -8.5853424 -75.139938 -0.26292637 -93.25042
9200812500 -1.0865233 124.37164 -8.6041012 -74.459099 -8.5816936 -75.163033 -0.25984153 -93.226357
9200875000 -1.0828987 124.39429 -8.6014404 -74.472542 -8.5774517 -75.140205 -0.265414 -93.212791
9200937500 -1.0813998 124.39236 -8.6003895 -74.443619 -8.5717583 -75.110313 -0.26657993 -93.177109
9201000000 -1.0876715 124.38632 -8.60256 -74.508034 -8.5819988 -75.172119 -0.27159443 -93.199165
9201062500 -1.0857338 124.41064 -8.6086798 -74.418739 -8.5835772 -75.131714 -0.27232283 -93.157501
9201125000 -1.0812567 124.41338 -8.5996323 -74.442802 -8.5920534 -75.158073 -0.27870509 -93.189384
9201187500 -1.0857035 124.40213 -8.6129446 -74.452164 -8.5993767 -75.145073 -0.27680665 -93.160545
9201250000 -1.086223 124.4568 -8.6082478 -74.36515 -8.5902176 -75.153122 -0.28027388 -93.103615
9201312500 -1.0840216 124.41004 -8.6013384 -74.411263 -8.5907936 -75.129387 -0.27627224 -93.126305
9201375000 -1.086464 124.38769 -8.6026058 -74.398773 -8.585309 -75.085556 -0.2710849 -93.032669
9201437500 -1.0899086 124.34137 -8.6014528 -74.419357 -8.5929146 -75.135849 -0.27776277 -93.059349
9201500000 -1.0895996 124.30181 -8.6000805 -74.360077 -8.5860195 -75.154877 -0.27550784 -93.027473
9201562500 -1.0920273 124.28745 -8.5916786 -74.366188 -8.5783825 -75.11953 -0.26788568 -92.989166
9201625000 -1.0934271 124.29906 -8.5923986 -74.411659 -8.5751333 -75.163658 -0.26659751 -92.993996
9201687500 -1.0895045 124.28192 -8.5954208 -74.377419 -8.5757027 -75.142517 -0.26915106 -92.942566
9201750000 -1.0932777 124.28051 -8.5939856 -74.331207 -8.577095 -75.180824 -0.27401504 -92.972511
9201812500 -1.0857813 124.25488 -8.5907249 -74.312889 -8.5770855 -75.145058 -0.26749188 -92.951553
9201875000 -1.086908 124.26767 -8.5886841 -74.38308 -8.579443 -75.091888 -0.27771613 -92.906143
9201937500 -1.0888067 124.28652 -8.5870953 -74.334358 -8.5764465 -75.093857 -0.27807209 -92.930656
9202000000 -1.0902265 124.2386 -8.5908585 -74.365654 -8.573988 -75.146591 -0.27946612 -92.948593
9202062500 -1.0866619 124.223 -8.5895433 -74.398163 -8.5759439 -75.11972 -0.27985308 -92.893166
9202125000 -1.0908954 124.20015 -8.5887585 -74.375771 -8.5770702 -75.101807 -0.27838936 -92.941895
9202187500 -1.0829232 124.21005 -8.5883045 -74.377396 -8.5829124 -75.100304 -0.28087541 -92.841522
9202250000 -1.0834715 124.14534 -8.5915565 -74.351913 -8.5862274 -75.100739 -0.28639624 -92.860222
9202312500 -1.0835732 124.1555 -8.5833578 -74.408508 -8.5676908 -75.140823 -0.27838179 -92.859261
9202375000 -1.0856862 124.11105 -8.594183 -74.422989 -8.5801277 -75.130272 -0.28280184 -92.826263
9202437500 -1.0904869 124.11758 -8.5879889 -74.374641 -8.5699005 -75.19516 -0.2751587 -92.831055
9202500000 -1.0847499 124.08328 -8.5869207 -74.406021 -8.5728483 -75.082527 -0.27664796 -92.785843
9202562500 -1.0858047 124.07604 -8.5928965 -74.391968 -8.5713348 -75.132584 -0.27335456 -92.778137
9202625000 -1.0859246 124.10048 -8.586689 -74.360329 -8.5773735 -75.18026 -0.27866107 -92.77198
9202687500 -1.0879865 124.06519 -8.5875645 -74.374451 -8.5686159 -75.12014 -0.27421597 -92.748657
9202750000 -1.0852392 124.05356 -8.5782471 -74.342972 -8.5727882 -75.185379 -0.27965915 -92.730789
9202812500 -1.0882419 124.00348 -8.5862503 -74.381439 -8.5692701 -75.189949 -0.28517979 -92.725708
9202875000 -1.08485 123.98882 -8.5740833 -74.371109 -8.5593624 -75.119217 -0.28111196 -92.728416
9202937500 -1.0802001 124.02062 -8.573185 -74.332932 -8.5646305 -75.123871 -0.28399733 -92.711487
9203000000 -1.0840992 123.95763 -8.5868034 -74.341911 -8.5623903 -75.179077 -0.28490394 -92.712166
9203062500 -1.0844266 123.94758 -8.5811796 -74.3908 -8.5610094 -75.150925 -0.28346807 -92.636261
9203125000 -1.0796853 123.97266 -8.5774288 -74.342201 -8.5640316 -75.093086 -0.28135014 -92.614838
9203187500 -1.086476 123.92487 -8.5741825 -74.332756 -8.5677109 -75.060471 -0.27622065 -92.6008
9203250000 -1.0798627 123.9389 -8.565589 -74.327988 -8.5630226 -75.100571 -0.27448314 -92.568283
9203312500 -1.08591 123.93368 -8.5636473 -74.346237 -8.5583286 -75.125854 -0.27314174 -92.593727
9203375000 -1.0834581 123.90271 -8.563096 -74.316963 -8.5649204 -75.097832 -0.27395025 -92.507744
9203437500 -1.0859523 123.90066 -8.5588331 -74.349205 -8.5629139 -75.06575 -0.272576 -92.482552
9203500000 -1.0910029 123.92011 -8.5682497 -74.350418 -8.568181 -75.085663 -0.27719611 -92.42749
9203562500 -1.0905628 123.85181 -8.5663271 -74.384491 -8.5708818 -75.088936 -0.28114185 -92.473068
9203625000 -1.0864782 123.86575 -8.5630713 -74.340904 -8.5584126 -75.091187 -0.27840796 -92.448471
9203687500 -1.0864555 123.81603 -8.5615664 -74.322601 -8.5590267 -75.068695 -0.27752563 -92.455803
9203750000 -1.0922409 123.81287 -8.5727997 -74.353943 -8.5572309 -75.137848 -0.28088337 -92.442039
9203812500 -1.0872856 123.77902 -8.5694828 -74.397949 -8.5496025 -75.057114 -0.27604625 -92.464134
9203875000 -1.0842673 123.75386 -8.564909 -74.37516 -8.5504589 -75.083328 -0.27626088 -92.43988
9203937500 -1.0841682 123.76224 -8.5704432 -74.342613 -8.5548086 -75.066681 -0.26841563 -92.436607
9204000000 -1.085533 123.76101 -8.5584068 -74.332344 -8.5511417 -75.060371 -0.27201432 -92.39843
9204062500 -1.089227 123.73448 -8.5695858 -74.421272 -8.5539742 -75.108521 -0.27937189 -92.392738
9204125000 -1.0856665 123.76136 -8.5664549 -74.352058 -8.5572901 -75.077736 -0.27246806 -92.352547
9204187500 -1.0865674 123.70319 -8.5663671 -74.335693 -8.5521412 -75.048859 -0.2714251 -92.353905
9204250000 -1.0848434 123.71217 -8.5554514 -74.353951 -8.5516777 -75.030022 -0.2735869 -92.302521
9204312500 -1.0828476 123.69918 -8.5489588 -74.370201 -8.5458908 -75.000557 -0.27022326 -92.307579
9204375000 -1.0868236 123.67907 -8.5483541 -74.301743 -8.5528755 -75.04422 -0.28153202 -92.25705
9204437500 -1.0800937 123.67471 -8.5543728 -74.265129 -8.5494766 -75.058327 -0.27969816 -92.241859
9204500000 -1.0828495 123.66368 -8.5493708 -74.227837 -8.5467215 -75.086502 -0.28464317 -92.255074
9204562500 -1.0777915 123.65454 -8.5515566 -74.240707 -8.5449247 -75.083885 -0.28231898 -92.195999
9204625000 -1.0801679 123.59473 -8.5523844 -74.264351 -8.5438147 -75.0289 -0.28140932 -92.174408
9204687500 -1.0819981 123.5838 -8.5610542 -74.25959 -8.5459518 -75.020889 -0.28613877 -92.13649
9204750000 -1.086292 123.58269 -8.5502739 -74.30687 -8.5395536 -75.037857 -0.28128549 -92.211601
9204812500 -1.0874269 123.54989 -8.5499516 -74.287819 -8.5382109 -75.038719 -0.27908561 -92.141609
9204875000 -1.0898503 123.55599 -8.554513 -74.342926 -8.5400715 -75.03054 -0.2858665 -92.143143
9204937500 -1.0921975 123.51045 -8.5605421 -74.39431 -8.5530033 -75.018631 -0.2872754 -92.142944
9205000000 -1.0934662 123.5228 -8.5685863 -74.359947 -8.5400696 -75.037041 -0.29120544 -92.105659
9205062500 -1.0907952 123.5149 -8.551569 -74.334892 -8.5421343 -75.098839 -0.28260773 -92.123009
9205125000 -1.0884544 123.50882 -8.5521889 -74.362038 -8.5451059 -75.066147 -0.28127307 -92.074753
9205187500 -1.0837619 123.53425 -8.5448332 -74.361023 -8.5410595 -75.085419 -0.27479896 -92.045448
9205250000 -1.0897577 123.51116 -8.5434818 -74.325676 -8.5398159 -75.134377 -0.27061266 -92.069595
9205312500 -1.0890783 123.52817 -8.5387154 -74.242165 -8.5379944 -75.110741 -0.26900724 -92.018661
9205375000 -1.0900947 123.50513 -8.5492554 -74.265251 -8.5479727 -75.102654 -0.27448589 -91.966766
9205437500 -1.0896711 123.46815 -8.5474062 -74.277939 -8.5354528 -75.042801 -0.27814943 -91.91304
9205500000 -1.0920211 123.45806 -8.5482483 -74.278534 -8.5380116 -75.108238 -0.28232512 -91.957321
9205562500 -1.0861351 123.43034 -8.5498676 -74.279823 -8.5332375 -75.066833 -0.28144756 -91.863571
9205625000 -1.0863146 123.40993 -8.5510588 -74.23201 -8.5358505 -75.000618 -0.2833966 -91.861259
9205687500 -1.0856067 123.3794 -8.5514126 -74.255623 -8.5290718 -75.024361 -0.28785574 -91.81459
9205750000 -1.0829146 123.3661 -8.5459785 -74.203484 -8.5255451 -75.009354 -0.28826153 -91.808128
9205812500 -1.0896699 123.35666 -8.5387802 -74.20549 -8.5330544 -75.032585 -0.29326406 -91.831161
9205875000 -1.0930907 123.33208 -8.5558424 -74.181824 -8.5385571 -75.002617 -0.29480454 -91.779465
9205937500 -1.0889684 123.32018 -8.5414104 -74.251511 -8.5258312 -74.993286 -0.28785729 -91.77549
9206000000 -1.0893308 123.28446 -8.544054 -74.256775 -8.5209446 -75.009743 -0.28476951 -91.769562
9206062500 -1.0940268 123.29915 -8.5407076 -74.262772 -8.5259857 -74.972244 -0.28828675 -91.707283
9206125000 -1.0915731 123.26723 -8.544138 -74.238968 -8.5292711 -74.956047 -0.28964838 -91.713211
9206187500 -1.0887606 123.25224 -8.5398121 -74.284119 -8.5333776 -75.028587 -0.29437184 -91.713097
9206250000 -1.0898211 123.22147 -8.5376101 -74.301422 -8.5277901 -75.006462 -0.28951859 -91.70723
9206312500 -1.0858922 123.19767 -8.534379 -74.311104 -8.528018 -75.017136 -0.28991845 -91.68927
9206375000 -1.0920455 123.19833 -8.5374165 -74.311325 -8.5364962 -75.03093 -0.29825845 -91.640488
9206437500 -1.0880036 123.17174 -8.5305834 -74.249886 -8.5226345 -74.98201 -0.29123122 -91.640259
9206500000 -1.0850991 123.13039 -8.5344706 -74.284599 -8.5252066 -75.002724 -0.29744253 -91.638794
9206562500 -1.0860484 123.14461 -8.5281782 -74.31266 -8.5187874 -74.93895 -0.28736019 -91.576012
9206625000 -1.0916214 123.14597 -8.5248861 -74.298355 -8.5124817 -74.925575 -0.27925807 -91.563744
9206687500 -1.0929836 123.15115 -8.5305891 -74.382164 -8.5148697 -74.995338 -0.28507033 -91.599319
9206750000 -1.0873672 123.16287 -8.52948 -74.255005 -8.5153141 -74.983582 -0.28480542 -91.595139
9206812500 -1.0946196 123.15725 -8.5308008 -74.383224 -8.5156803 -74.983482 -0.27587771 -91.646629
9206875000 -1.0902022 123.17039 -8.5276337 -74.304848 -8.5143576 -75.003059 -0.27609918 -91.581261
9206937500 -1.0919123 123.13837 -8.5260983 -74.310921 -8.5041704 -74.942574 -0.27175847 -91.523109
9207000000 -1.0927576 123.14061 -8.5355396 -74.263588 -8.5097275 -75.019165 -0.27798942 -91.551582
9207062500 -1.09782 123.09087 -8.5375643 -74.347626 -8.5090733 -74.970779 -0.28318065 -91.493439
9207125000 -1.0834293 123.07362 -8.5291252 -74.238533 -8.5065336 -75.002007 -0.28031835 -91.482903
9207187500 -1.0904576 123.02978 -8.5314541 -74.269112 -8.5130072 -74.9953 -0.28374296 -91.448792
9207250000 -1.08902 123.01459 -8.5291462 -74.2369 -8.506794 -74.974617 -0.28276515 -91.436104
9207312500 -1.0903333 123.00487 -8.5265617 -74.259041 -8.5078211 -74.96685 -0.28365991 -91.378738
9207375000 -1.0847185 122.96535 -8.5180359 -74.271576 -8.5135813 -75.01104 -0.29051194 -91.438766
9207437500 -1.0898094 122.9588 -8.5165854 -74.311684 -8.5083675 -75.037941 -0.29215014 -91.425362
9207500000 -1.0868156 122.93147 -8.5200405 -74.274475 -8.5173502 -74.938309 -0.29732493 -91.369736
9207562500 -1.0906868 122.88477 -8.5247355 -74.324371 -8.510047 -75.03112 -0.29187861 -91.414955
9207625000 -1.0921808 122.89749 -8.517724 -74.229149 -8.511797 -74.936394 -0.2935268 -91.35157
9207687500 -1.0953 122.87784 -8.5178423 -74.295326 -8.5092287 -74.989502 -0.29059753 -91.384613
9207750000 -1.0968713 122.90533 -8.519598 -74.314865 -8.5091696 -75.004631 -0.28703278 -91.332413
9207812500 -1.0989025 122.89441 -8.5176535 -74.301735 -8.511363 -74.996414 -0.28664151 -91.369835
9207875000 -1.0981733 122.8709 -8.5175667 -74.313873 -8.5061598 -74.963905 -0.2822732 -91.346077
9207937500 -1.1021949 122.90696 -8.5143795 -74.278015 -8.5110254 -74.98909 -0.28212005 -91.302467
9208000000 -1.1029582 122.89082 -8.5245781 -74.249077 -8.517395 -74.960808 -0.28669751 -91.269508
9208062500 -1.0989382 122.85361 -8.5150862 -74.287018 -8.5118189 -75.024933 -0.29055929 -91.253197
9208125000 -1.0920335 122.83046 -8.5020971 -74.311668 -8.507597 -75.009644 -0.28483883 -91.251877
9208187500 -1.0954163 122.83953 -8.5019741 -74.27578 -8.5065441 -74.982895 -0.28670147 -91.168221
9208250000 -1.0937164 122.81425 -8.5078974 -74.262436 -8.5033493 -74.977844 -0.29050133 -91.151779
9208312500 -1.0948281 122.8107 -8.5056324 -74.238586 -8.5104389 -75.020302 -0.29637948 -91.137711
9208375000 -1.088196 122.81998 -8.5032444 -74.210503 -8.5098743 -74.963089 -0.29097432 -91.103806
9208437500 -1.0897825 122.78411 -8.500701 -74.175453 -8.5075026 -74.977249 -0.29074553 -91.086494
9208500000 -1.0899843 122.77512 -8.5034781 -74.20787 -8.5087414 -74.921219 -0.29662022 -91.057968
9208562500 -1.0947037 122.75288 -8.500679 -74.227966 -8.4992046 -74.964508 -0.28618568 -91.048859
9208625000 -1.0905532 122.78228 -8.507103 -74.223007 -8.5029831 -74.99781 -0.29378697 -91.112038
9208687500 -1.08725 122.76861 -8.4967384 -74.218697 -8.4955902 -74.942841 -0.28992492 -91.08139
9208750000 -1.0887539 122.73584 -8.5031853 -74.186478 -8.503377 -75.011658 -0.29528624 -91.117332
9208812500 -1.0819302 122.76 -8.4948559 -74.126053 -8.5011187 -74.97364 -0.29609245 -91.073563
9208875000 -1.0833399 122.67297 -8.501317 -74.197586 -8.4951153 -74.958282 -0.29926836 -91.052658
9208937500 -1.0904218 122.69712 -8.5048065 -74.21386 -8.4843588 -74.920746 -0.29257828 -90.988251
9209000000 -1.0914091 122.69321 -8.5057945 -74.169868 -8.4910851 -74.945572 -0.29854721 -90.97361
9209062500 -1.0846239 122.68284 -8.5031824 -74.186974 -8.4927654 -74.91069 -0.29967365 -90.956024
9209125000 -1.0856818 122.65371 -8.5016384 -74.211845 -8.4937725 -74.965057 -0.30078396 -90.949547
9209187500 -1.0865483 122.61678 -8.4996576 -74.239204 -8.4884233 -74.902176 -0.29844743 -90.9272
9209250000 -1.0844611 122.58287 -8.4984188 -74.23349 -8.4828339 -74.943108 -0.29216567 -90.908104
9209312500 -1.0862327 122.56907 -8.4986706 -74.248131 -8.4918776 -74.906601 -0.30076751 -90.878082
9209375000 -1.0879736 122.56239 -8.5078564 -74.213623 -8.4975672 -74.989067 -0.30202916 -90.868919
9209437500 -1.0862201 122.54105 -8.4999552 -74.211311 -8.4913425 -74.888565 -0.29680732 -90.845856
9209500000 -1.0818779 122.50469 -8.4978027 -74.212105 -8.4892998 -74.88195 -0.29510549 -90.789848
9209562500 -1.0867746 122.50912 -8.4945755 -74.249626 -8.4936361 -74.945084 -0.2955063 -90.820213
9209625000 -1.0880411 122.48776 -8.4905224 -74.241951 -8.501586 -74.93502 -0.30068648 -90.786369
9209687500 -1.0878571 122.48107 -8.4891109 -74.212212 -8.4920273 -74.963318 -0.29115975 -90.814255
9209750000 -1.0952462 122.465 -8.4969673 -74.248238 -8.4945154 -74.940514 -0.2988086 -90.773087
9209812500 -1.0985934 122.44882 -8.4891233 -74.230209 -8.4836359 -74.943993 -0.28436491 -90.762611
9209875000 -1.097284 122.46047 -8.4923477 -74.201294 -8.4810572 -74.926338 -0.28354588 -90.744896
9209937500 -1.1010727 122.45914 -8.490201 -74.245842 -8.4922848 -74.971413 -0.30005485 -90.742783
9210000000 -1.0975457 122.42603 -8.4926214 -74.260406 -8.4808416 -74.953598 -0.29104483 -90.725601
9210062500 -1.0909929 122.41055 -8.4805517 -74.195236 -8.484149 -74.944527 -0.2953068 -90.746948
9210125000 -1.0987396 122.42458 -8.4921103 -74.226837 -8.4747686 -74.914917 -0.28755876 -90.695831
9210187500 -1.0938401 122.43072 -8.4862452 -74.178955 -8.474349 -74.934891 -0.29340723 -90.67778
9210250000 -1.0922393 122.40318 -8.48316 -74.179169 -8.4704313 -74.953545 -0.2890732 -90.640274
9210312500 -1.0972652 122.36273 -8.4823313 -74.173637 -8.4722347 -74.919807 -0.29273751 -90.644913
9210375000 -1.099371 122.35725 -8.4820318 -74.18615 -8.4757586 -74.95993 -0.29860646 -90.608032
9210437500 -1.1019316 122.35914 -8.4883261 -74.180252 -8.4783487 -75.007645 -0.29970682 -90.642593
9210500000 -1.0913236 122.33609 -8.4776316 -74.19117 -8.4801903 -74.948524 -0.29461345 -90.608475
9210562500 -1.097368 122.31175 -8.4866419 -74.178108 -8.4783783 -74.908173 -0.29983836 -90.576653
9210625000 -1.0927531 122.22549 -8.4719534 -74.199638 -8.475215 -74.929535 -0.30500764 -90.615562
9210687500 -1.092315 122.17651 -8.4789181 -74.222511 -8.4805117 -74.932243 -0.30747011 -90.560631
9210750000 -1.0941633 122.16818 -8.479269 -74.264198 -8.4685221 -74.953018 -0.29803601 -90.527641
9210812500 -1.0916551 122.18606 -8.4734449 -74.181793 -8.4705658 -74.841202 -0.29861224 -90.49173
9210875000 -1.0910755 122.16946 -8.4717045 -74.185364 -8.4673395 -74.851204 -0.29520419 -90.467827
9210937500 -1.089883 122.16637 -8.4687948 -74.228142 -8.4705992 -74.861122 -0.29847011 -90.435944
9211000000 -1.0915922 122.18415 -8.4603186 -74.272697 -8.4629564 -74.87764 -0.29358131 -90.433311
9211062500 -1.0935806 122.15799 -8.470438 -74.215294 -8.466424 -74.835808 -0.29844955 -90.384285
9211125000 -1.0916647 122.155 -8.473362 -74.194824 -8.4663839 -74.886703 -0.3046194 -90.397507
9211187500 -1.094021 122.14485 -8.4683323 -74.178139 -8.4590998 -74.861458 -0.3024922 -90.354721
9211250000 -1.0958314 122.10699 -8.4777336 -74.180634 -8.467473 -74.876335 -0.31087208 -90.310661
9211312500 -1.0927944 122.12287 -8.4742804 -74.190826 -8.4638548 -74.871239 -0.30708256 -90.342766
9211375000 -1.0960181 122.10242 -8.476635 -74.178734 -8.4605532 -74.878967 -0.30566156 -90.312813
9211437500 -1.0935388 122.08852 -8.4665833 -74.17868 -8.4656601 -74.871696 -0.30346751 -90.349991
9211500000 -1.0946904 122.11112 -8.4783115 -74.163406 -8.4708567 -74.893021 -0.30962527 -90.303871
9211562500 -1.090759 122.12685 -8.4768057 -74.12558 -8.4586668 -74.842041 -0.29937345 -90.326675
9211625000 -1.0891416 122.10437 -8.4726763 -74.222862 -8.4586096 -74.889351 -0.3001923 -90.386353
9211687500 -1.0881712 122.09379 -8.4723282 -74.193138 -8.465724 -74.889145 -0.30364299 -90.343979
9211750000 -1.0857013 122.06002 -8.4668398 -74.217636 -8.4684162 -74.872398 -0.29692292 -90.316299
9211812500 -1.0851415 122.09138 -8.4640903 -74.153435 -8.4646339 -74.895218 -0.30272308 -90.328239
9211875000 -1.0813185 122.03659 -8.4570522 -74.130791 -8.4515009 -74.905563 -0.29743326 -90.271828
9211937500 -1.0894963 121.99296 -8.4602489 -74.152908 -8.4540825 -74.869164 -0.30102804 -90.191002
9212000000 -1.0894151 121.99726 -8.4636059 -74.116974 -8.4618149 -74.86441 -0.31206939 -90.192894
9212062500 -1.0911542 121.99384 -8.4643488 -74.1166 -8.4600267 -74.850304 -0.30622971 -90.110207
9212125000 -1.0890487 121.91735 -8.4579391 -74.16465 -8.4504385 -74.914932 -0.31205976 -90.141975
9212187500 -1.0882524 121.91523 -8.4557829 -74.088539 -8.4584293 -74.902092 -0.30062047 -90.126556
9212250000 -1.0875316 121.88701 -8.4595137 -74.160316 -8.4590139 -74.882347 -0.30359963 -90.120499
9212312500 -1.0891378 121.86019 -8.4554977 -74.191521 -8.454174 -74.945511 -0.30039069 -90.126106
9212375000 -1.0958393 121.80323 -8.4599791 -74.1791 -8.4409113 -74.923378 -0.2965278 -90.093445
