!Agilent Technologies,N5242A,MY51221714,A.09.90.19
!Agilent N5242A: A.09.90.19
!Date: Saturday, December 30, 2023 10:28:16
!Correction: S11(Full 2 Port(1,2)) 
!S21(Full 2 Port(1,2)) 
!S12(Full 2 Port(1,2)) 
!S22(Full 2 Port(1,2)) 
!S2P File: Measurements: S11, S21, S12, S22:
# Hz S  dB   R 50
9200000000 -1.4129852 122.38008 -8.198638 -79.087074 -8.173893 -79.846313 -0.60193956 -94.775291
9200062500 -1.4147563 122.32729 -8.1864204 -79.145828 -8.1760311 -79.885521 -0.60158372 -94.769539
9200125000 -1.4178947 122.36829 -8.1949511 -79.068588 -8.1784248 -79.876167 -0.61276019 -94.737617
9200187500 -1.418432 122.30213 -8.1918745 -79.107719 -8.173543 -79.830582 -0.6074664 -94.704384
9200250000 -1.4214005 122.28551 -8.1901379 -79.140312 -8.1816444 -79.828697 -0.61221629 -94.703056
9200312500 -1.4219233 122.28832 -8.1958942 -79.092705 -8.1740885 -79.841087 -0.60248482 -94.701729
9200375000 -1.42529 122.28522 -8.1995974 -79.164024 -8.1805096 -79.857353 -0.61201018 -94.737862
9200437500 -1.4224931 122.238 -8.2013302 -79.166405 -8.184392 -79.795082 -0.61193532 -94.677292
9200500000 -1.4191483 122.23472 -8.1986494 -79.166466 -8.1820774 -79.916336 -0.61325395 -94.716064
9200562500 -1.4245354 122.20079 -8.1961994 -79.202103 -8.1735487 -79.89254 -0.60709184 -94.693001
9200625000 -1.4175179 122.17971 -8.1843519 -79.11367 -8.1703596 -79.847023 -0.60464799 -94.647026
9200687500 -1.4156233 122.14738 -8.1919327 -79.119934 -8.1712704 -79.846863 -0.60525185 -94.635155
9200750000 -1.4124744 122.17915 -8.1863737 -79.121231 -8.161356 -79.864357 -0.60439003 -94.619705
9200812500 -1.4156828 122.12462 -8.1820545 -79.165253 -8.1552954 -79.834694 -0.60073447 -94.56192
9200875000 -1.4163362 122.14648 -8.182519 -79.124008 -8.1665926 -79.884392 -0.60561955 -94.563538
9200937500 -1.4166729 122.13083 -8.1828098 -79.155243 -8.1652546 -79.829865 -0.60927629 -94.58654
9201000000 -1.4185638 122.09047 -8.194582 -79.200348 -8.1695156 -79.873352 -0.61399651 -94.605972
9201062500 -1.4188204 122.1497 -8.1911621 -79.162674 -8.1700983 -79.933571 -0.61895543 -94.599922
9201125000 -1.4167993 122.15489 -8.1920872 -79.152115 -8.1734047 -79.850403 -0.62067306 -94.57666
9201187500 -1.419331 122.1328 -8.1922808 -79.194084 -8.1811152 -79.842628 -0.61836463 -94.536629
9201250000 -1.4184679 122.1212 -8.1835804 -79.137581 -8.1837282 -79.875168 -0.62324965 -94.51886
9201312500 -1.4173543 122.14527 -8.1832342 -79.097664 -8.170639 -79.866547 -0.61830902 -94.496376
9201375000 -1.4188927 122.13592 -8.1788416 -79.070107 -8.1665125 -79.840797 -0.61248553 -94.418137
9201437500 -1.4227782 122.07864 -8.1789675 -79.083389 -8.1625185 -79.817963 -0.61474931 -94.378113
9201500000 -1.4252359 122.07212 -8.1767778 -79.050934 -8.1593018 -79.860252 -0.60979897 -94.43457
9201562500 -1.422663 122.06529 -8.1731577 -79.071037 -8.1719017 -79.891968 -0.61565268 -94.368942
9201625000 -1.4240363 122.01125 -8.1742401 -79.142433 -8.1653252 -79.883949 -0.61053449 -94.348572
9201687500 -1.4287381 122.04881 -8.1691008 -79.051926 -8.1494761 -79.865112 -0.60830867 -94.343857
9201750000 -1.4302391 121.98229 -8.1813784 -79.097176 -8.1577158 -79.842941 -0.61470038 -94.317711
9201812500 -1.4184777 121.99353 -8.1641951 -79.111206 -8.1488047 -79.842819 -0.61069244 -94.315079
9201875000 -1.4190016 121.97227 -8.173913 -79.188293 -8.160984 -79.888397 -0.62008411 -94.338379
9201937500 -1.4231451 121.9821 -8.1705656 -79.128883 -8.1519966 -79.878395 -0.6186102 -94.359436
9202000000 -1.42459 121.96408 -8.1787729 -79.171371 -8.1552305 -79.806183 -0.62400329 -94.312752
9202062500 -1.4218343 121.94991 -8.177865 -79.136398 -8.1548014 -79.809975 -0.62361783 -94.275208
9202125000 -1.4260811 121.93327 -8.1753159 -79.13401 -8.1532068 -79.854446 -0.61937863 -94.302261
9202187500 -1.4216324 121.89349 -8.1754608 -79.143715 -8.1601057 -79.874069 -0.62852728 -94.273697
9202250000 -1.4205714 121.87223 -8.170085 -79.133415 -8.165246 -79.871582 -0.62488323 -94.245903
9202312500 -1.4192419 121.84671 -8.1674738 -79.115822 -8.1606503 -79.904861 -0.628362 -94.258949
9202375000 -1.4250547 121.83454 -8.1662846 -79.141853 -8.1513033 -79.879379 -0.61856014 -94.182396
9202437500 -1.4176382 121.83429 -8.1733065 -79.160309 -8.1588974 -79.89595 -0.6265738 -94.187988
9202500000 -1.4221473 121.78557 -8.1602049 -79.201942 -8.1516409 -79.921608 -0.61794406 -94.192307
9202562500 -1.4255733 121.80662 -8.1690893 -79.084526 -8.1552382 -79.865799 -0.62680691 -94.167442
9202625000 -1.422989 121.77686 -8.1649256 -79.128807 -8.1562424 -79.877136 -0.6224665 -94.145744
9202687500 -1.4229915 121.79074 -8.1672468 -79.072136 -8.1532145 -79.873489 -0.6195094 -94.089554
9202750000 -1.4211814 121.75101 -8.1672592 -79.113983 -8.1456251 -79.891594 -0.61427647 -94.121681
9202812500 -1.4237694 121.79159 -8.1664696 -79.048286 -8.1387005 -79.901878 -0.61754131 -94.127991
9202875000 -1.4218726 121.71992 -8.1611338 -79.104424 -8.1419086 -79.859955 -0.62603801 -94.081467
9202937500 -1.4221283 121.71609 -8.1647062 -79.125435 -8.139617 -79.83947 -0.62098914 -94.052116
9203000000 -1.4151489 121.68156 -8.1573153 -79.154175 -8.1423798 -79.873566 -0.62447613 -94.056702
9203062500 -1.416132 121.68015 -8.158884 -79.095955 -8.1388083 -79.851021 -0.62483567 -94.015579
9203125000 -1.4124569 121.64138 -8.1566801 -79.158188 -8.1406994 -79.84523 -0.62407893 -94.002777
9203187500 -1.4156365 121.65186 -8.1520691 -79.113388 -8.1453037 -79.837975 -0.62432551 -93.978081
9203250000 -1.4177996 121.66708 -8.1470327 -79.091896 -8.1437349 -79.815018 -0.62253642 -93.992371
9203312500 -1.4213911 121.61541 -8.1421814 -79.100082 -8.1442442 -79.871567 -0.62109166 -93.936584
9203375000 -1.4174156 121.60248 -8.136178 -79.171669 -8.1479902 -79.903778 -0.62452263 -93.952431
9203437500 -1.418141 121.64893 -8.1404295 -79.063057 -8.1416435 -79.81089 -0.62262338 -93.856094
9203500000 -1.4252373 121.62466 -8.1401558 -79.128128 -8.1368027 -79.837296 -0.61374688 -93.847443
9203562500 -1.4154844 121.62782 -8.1332235 -79.104401 -8.1479445 -79.864807 -0.62404346 -93.854836
9203625000 -1.4235606 121.57484 -8.1400967 -79.089409 -8.1406574 -79.825378 -0.62706643 -93.830452
9203687500 -1.4262183 121.52262 -8.1492319 -79.128197 -8.1349697 -79.855316 -0.62330967 -93.886528
9203750000 -1.4237834 121.52 -8.1458197 -79.19651 -8.131094 -79.852844 -0.62256521 -93.830666
9203812500 -1.4281946 121.5352 -8.1502733 -79.106308 -8.1369886 -79.864388 -0.63243055 -93.834419
9203875000 -1.4255648 121.50313 -8.1493845 -79.118217 -8.1339025 -79.935143 -0.63112968 -93.872459
9203937500 -1.4237148 121.45254 -8.1486092 -79.14698 -8.1344233 -79.846992 -0.63086146 -93.807907
9204000000 -1.4265287 121.46947 -8.1416349 -79.128204 -8.1330538 -79.83535 -0.62205714 -93.811974
9204062500 -1.4243397 121.45428 -8.1379633 -79.16465 -8.1297693 -79.864357 -0.62149715 -93.810143
9204125000 -1.4253832 121.42698 -8.1411409 -79.106308 -8.1271267 -79.813225 -0.61711252 -93.717522
9204187500 -1.4247707 121.45735 -8.1381588 -79.137512 -8.1269369 -79.82766 -0.61654472 -93.744141
9204250000 -1.4202142 121.44194 -8.1326475 -79.116211 -8.1338005 -79.857574 -0.61773747 -93.748558
9204312500 -1.4222914 121.40956 -8.1287117 -79.149406 -8.1349487 -79.860519 -0.62630683 -93.728676
9204375000 -1.4203587 121.39368 -8.1372709 -79.113838 -8.1266117 -79.824379 -0.62294322 -93.664902
9204437500 -1.4130027 121.4385 -8.128314 -79.061462 -8.1233969 -79.832855 -0.63004506 -93.641106
9204500000 -1.417467 121.38141 -8.1242695 -79.069069 -8.1183357 -79.862885 -0.62534267 -93.674278
9204562500 -1.4207809 121.3404 -8.1330547 -79.098595 -8.1225863 -79.819977 -0.62756658 -93.610107
9204625000 -1.4127822 121.32336 -8.1220341 -79.059547 -8.1195421 -79.852341 -0.62948757 -93.614265
9204687500 -1.4147192 121.31674 -8.1205006 -79.050858 -8.1287374 -79.863449 -0.63325548 -93.587822
9204750000 -1.4218175 121.2977 -8.1283245 -79.062073 -8.1210079 -79.793655 -0.62960982 -93.505028
9204812500 -1.4225762 121.26189 -8.1309891 -79.160225 -8.1186686 -79.826859 -0.62893718 -93.547066
9204875000 -1.4284028 121.28116 -8.1405582 -79.136581 -8.1228018 -79.834335 -0.63238883 -93.539856
9204937500 -1.4265021 121.22153 -8.1340704 -79.130814 -8.112752 -79.822235 -0.62691319 -93.519714
9205000000 -1.4282125 121.23922 -8.1335249 -79.148811 -8.1232595 -79.77269 -0.63598663 -93.484215
9205062500 -1.4284515 121.20715 -8.1300421 -79.162178 -8.1150112 -79.823669 -0.6260649 -93.462433
9205125000 -1.4305403 121.20287 -8.1255627 -79.109612 -8.1148767 -79.852951 -0.62502807 -93.466026
9205187500 -1.4305596 121.22329 -8.1252384 -79.103088 -8.1146545 -79.878227 -0.62291837 -93.440285
9205250000 -1.4293801 121.22076 -8.1264458 -79.120697 -8.1181154 -79.846222 -0.62328982 -93.402565
9205312500 -1.4329863 121.18548 -8.1239347 -79.080467 -8.123127 -79.895958 -0.62107736 -93.421982
9205375000 -1.4256511 121.2191 -8.1196232 -79.07933 -8.1255054 -79.873184 -0.62731433 -93.349968
9205437500 -1.4300903 121.17558 -8.1264687 -79.092552 -8.1198225 -79.90345 -0.63264126 -93.347702
9205500000 -1.426752 121.13063 -8.1214981 -79.05584 -8.1113014 -79.845001 -0.62648916 -93.336395
9205562500 -1.4267232 121.13498 -8.1165113 -79.061905 -8.105361 -79.888344 -0.63026911 -93.327797
9205625000 -1.4311131 121.09292 -8.1172695 -79.050606 -8.1027985 -79.793236 -0.63277531 -93.280975
9205687500 -1.4283502 121.1083 -8.1216059 -79.008072 -8.1039639 -79.797417 -0.63211119 -93.21463
9205750000 -1.4275635 121.05389 -8.1243029 -79.043327 -8.1049032 -79.886597 -0.64441395 -93.271324
9205812500 -1.4254775 121.04002 -8.1209373 -79.028984 -8.1099844 -79.786545 -0.64041913 -93.174576
9205875000 -1.4318815 121.03716 -8.131444 -79.042564 -8.1019297 -79.810249 -0.63631463 -93.16906
9205937500 -1.4228852 120.98803 -8.1071777 -79.106453 -8.1062078 -79.81575 -0.63820004 -93.196671
9206000000 -1.4294865 120.99001 -8.1223507 -79.098526 -8.1090317 -79.823418 -0.64221448 -93.181007
9206062500 -1.436412 120.92776 -8.1177244 -79.153198 -8.1041126 -79.855476 -0.64261544 -93.199295
9206125000 -1.432199 120.96935 -8.1122961 -79.043976 -8.1054192 -79.861893 -0.63511741 -93.15947
9206187500 -1.4288189 120.94118 -8.1074171 -79.115044 -8.1091719 -79.809906 -0.6515249 -93.106148
9206250000 -1.4319954 120.94747 -8.1167631 -79.061035 -8.1054525 -79.83329 -0.64226252 -93.102768
9206312500 -1.4296918 120.92929 -8.1112242 -79.092918 -8.1092825 -79.832497 -0.64857203 -93.070877
9206375000 -1.4283183 120.88413 -8.1009197 -79.109703 -8.1070862 -79.81324 -0.64271903 -93.057899
9206437500 -1.4306384 120.87696 -8.1086378 -79.104881 -8.1062212 -79.764442 -0.64983016 -92.981293
9206500000 -1.4317437 120.81123 -8.1042042 -79.157455 -8.095809 -79.760956 -0.64467978 -93.007584
9206562500 -1.4281801 120.82859 -8.1021719 -79.096069 -8.0919123 -79.805779 -0.63371503 -93.022751
9206625000 -1.4276797 120.86572 -8.0929537 -79.163887 -8.0854998 -79.831276 -0.63529336 -93.020599
9206687500 -1.4388818 120.88102 -8.106967 -79.112068 -8.0894642 -79.87896 -0.63270432 -92.988747
9206750000 -1.4310132 120.88828 -8.1059532 -79.109726 -8.1034203 -79.73394 -0.64070773 -92.918266
9206812500 -1.4341413 120.86088 -8.1024246 -79.152473 -8.0940599 -79.802269 -0.63239443 -93.030556
9206875000 -1.433164 120.86468 -8.1028166 -79.130638 -8.0878372 -79.746185 -0.62790823 -92.964188
9206937500 -1.4298998 120.85236 -8.1071358 -79.128639 -8.091506 -79.809509 -0.63697034 -92.935486
9207000000 -1.4281416 120.84282 -8.1062813 -79.093712 -8.0910101 -79.836861 -0.6325286 -92.937241
9207062500 -1.4306056 120.79469 -8.0969257 -79.129616 -8.0889139 -79.807137 -0.63251114 -92.862694
9207125000 -1.4280803 120.74246 -8.106184 -79.088188 -8.0903282 -79.767883 -0.6347701 -92.857895
9207187500 -1.4315549 120.73009 -8.1052523 -79.118294 -8.0876474 -79.775307 -0.63646787 -92.820343
9207250000 -1.4303551 120.69683 -8.1042147 -79.138039 -8.0853958 -79.77298 -0.63802612 -92.825089
9207312500 -1.4307919 120.72453 -8.0985012 -79.071777 -8.0851021 -79.835136 -0.63742679 -92.840057
9207375000 -1.4276723 120.65034 -8.084753 -79.089622 -8.0828333 -79.845116 -0.64271492 -92.820625
9207437500 -1.4306049 120.64854 -8.0900078 -79.093307 -8.080183 -79.79007 -0.64076316 -92.821304
9207500000 -1.4326416 120.66074 -8.091485 -79.125092 -8.0838194 -79.792442 -0.6398012 -92.814644
9207562500 -1.4334265 120.63424 -8.0947924 -79.113403 -8.0846176 -79.819984 -0.64948601 -92.774292
9207625000 -1.4375998 120.57471 -8.0859804 -79.122482 -8.078557 -79.842102 -0.64768332 -92.810738
9207687500 -1.4381261 120.60344 -8.0897865 -79.101257 -8.0928364 -79.810951 -0.64708608 -92.781738
9207750000 -1.4295491 120.58076 -8.085784 -79.135941 -8.0888052 -79.774063 -0.64453608 -92.734818
9207812500 -1.4464833 120.62225 -8.0921497 -79.1567 -8.0827217 -79.811745 -0.63806999 -92.71862
9207875000 -1.4433856 120.58128 -8.0805607 -79.158913 -8.0849752 -79.860336 -0.63658005 -92.733253
9207937500 -1.445757 120.56003 -8.091733 -79.15847 -8.0806665 -79.818008 -0.63133246 -92.725296
9208000000 -1.4431401 120.5631 -8.0849333 -79.147018 -8.0868816 -79.821091 -0.6333369 -92.680679
9208062500 -1.4407339 120.54531 -8.0863304 -79.138565 -8.0861559 -79.837341 -0.63322502 -92.688339
9208125000 -1.4391133 120.5713 -8.0859051 -79.071014 -8.0861712 -79.866783 -0.64004195 -92.665024
9208187500 -1.4419341 120.53243 -8.0848761 -79.060097 -8.0825338 -79.864433 -0.63718611 -92.606819
9208250000 -1.438715 120.48925 -8.0790434 -79.094193 -8.0812387 -79.852692 -0.64587951 -92.606735
9208312500 -1.4368265 120.50216 -8.0709038 -79.112724 -8.0817928 -79.889778 -0.64596361 -92.592979
9208375000 -1.4348854 120.51745 -8.0769796 -79.044724 -8.0824566 -79.811279 -0.64189756 -92.490845
9208437500 -1.4369755 120.47824 -8.0723925 -79.090118 -8.0774279 -79.827026 -0.64654189 -92.544724
9208500000 -1.4367375 120.48649 -8.0762587 -79.027641 -8.0782557 -79.862831 -0.64287329 -92.545197
9208562500 -1.4341061 120.46656 -8.0727797 -79.072083 -8.0798378 -79.832451 -0.64441001 -92.486496
9208625000 -1.4372771 120.41551 -8.0753841 -79.097061 -8.0639534 -79.798492 -0.63720381 -92.475372
9208687500 -1.4326668 120.42453 -8.0686293 -79.058754 -8.0770855 -79.789879 -0.65103412 -92.483253
9208750000 -1.4329665 120.41491 -8.0726776 -79.059708 -8.074585 -79.827667 -0.64892173 -92.521645
9208812500 -1.4314756 120.41083 -8.0755262 -79.090927 -8.0711327 -79.798813 -0.65228593 -92.520195
9208875000 -1.4314055 120.35987 -8.0663948 -79.099785 -8.0629749 -79.823647 -0.64105576 -92.473328
9208937500 -1.4311137 120.35695 -8.0768061 -79.082161 -8.0682812 -79.806076 -0.65666032 -92.420425
9209000000 -1.4329275 120.36137 -8.0727949 -79.060913 -8.0613432 -79.765686 -0.6480847 -92.367744
9209062500 -1.4349514 120.35295 -8.0709219 -79.086212 -8.0645695 -79.784843 -0.6522392 -92.381821
9209125000 -1.4320349 120.32474 -8.0678806 -79.082756 -8.0637312 -79.812492 -0.65451187 -92.392151
9209187500 -1.4310158 120.33379 -8.0654955 -79.100327 -8.0611296 -79.77401 -0.65251577 -92.315788
9209250000 -1.4298766 120.27675 -8.0673084 -79.101288 -8.0627518 -79.763824 -0.65670282 -92.317307
9209312500 -1.430849 120.26949 -8.0690222 -79.037453 -8.0670023 -79.757133 -0.66126704 -92.306412
9209375000 -1.4299066 120.25746 -8.069253 -79.068909 -8.0630131 -79.779495 -0.65685016 -92.284958
9209437500 -1.4313873 120.21753 -8.0708017 -79.079964 -8.0664263 -79.788086 -0.65325159 -92.251167
9209500000 -1.4328065 120.19692 -8.0684309 -79.077797 -8.0663862 -79.775856 -0.65466499 -92.224091
9209562500 -1.4313302 120.17476 -8.0633545 -79.092621 -8.0691805 -79.772079 -0.65473342 -92.233414
9209625000 -1.4365855 120.19043 -8.0597277 -79.095963 -8.0638533 -79.809219 -0.65347171 -92.238472
9209687500 -1.4376434 120.16994 -8.0687304 -79.09761 -8.0596266 -79.831535 -0.64778137 -92.231033
9209750000 -1.44467 120.11349 -8.0625992 -79.190468 -8.0636501 -79.775192 -0.65343118 -92.222824
9209812500 -1.4428868 120.14638 -8.0543213 -79.161255 -8.055419 -79.811447 -0.64187092 -92.22625
9209875000 -1.4477651 120.13978 -8.0680809 -79.094955 -8.0625067 -79.780708 -0.64854449 -92.150764
9209937500 -1.4431869 120.13703 -8.0628805 -79.090576 -8.0530462 -79.809967 -0.64348924 -92.16571
9210000000 -1.446389 120.12109 -8.0681601 -79.077042 -8.0562716 -79.787331 -0.65031093 -92.116356
9210062500 -1.4441869 120.13556 -8.0634108 -79.039047 -8.0513678 -79.790665 -0.6530537 -92.113708
9210125000 -1.4371676 120.11372 -8.0567942 -79.054512 -8.0522127 -79.814598 -0.64856935 -92.086609
9210187500 -1.4460033 120.11668 -8.066617 -79.080444 -8.0491686 -79.809479 -0.65098548 -92.115456
9210250000 -1.4424185 120.10036 -8.0564022 -79.049644 -8.0476494 -79.815979 -0.65153694 -92.076347
9210312500 -1.4411149 120.07332 -8.0533257 -79.023155 -8.0441618 -79.7854 -0.64573014 -92.074944
9210375000 -1.4466299 120.046 -8.0558815 -79.069923 -8.0526562 -79.817108 -0.65347224 -92.101761
9210437500 -1.4426762 120.00412 -8.0490847 -79.108437 -8.0595903 -79.821609 -0.65782547 -92.017212
9210500000 -1.440764 119.98501 -8.0507393 -79.082314 -8.0478811 -79.813713 -0.65763032 -92.055702
9210562500 -1.4391923 119.9707 -8.0453033 -79.075043 -8.043622 -79.784332 -0.66226155 -91.99366
9210625000 -1.4413109 119.89098 -8.0430441 -79.141747 -8.0520878 -79.78595 -0.65846914 -91.995865
9210687500 -1.4361879 119.88969 -8.0407238 -79.06662 -8.048068 -79.800301 -0.66140485 -91.973267
9210750000 -1.4403317 119.8641 -8.0430975 -79.083664 -8.0384798 -79.807159 -0.65605307 -91.994606
9210812500 -1.4436314 119.82351 -8.0463257 -79.105438 -8.0474548 -79.72316 -0.66344857 -91.893562
9210875000 -1.4403821 119.85449 -8.0394964 -79.105026 -8.0384483 -79.770988 -0.65994376 -91.861816
9210937500 -1.4361277 119.85053 -8.0357075 -79.11937 -8.0387049 -79.767441 -0.65327537 -91.835701
9211000000 -1.4411548 119.86216 -8.0442705 -79.093552 -8.0396643 -79.750816 -0.66621178 -91.821747
9211062500 -1.4457408 119.8392 -8.0469637 -79.074173 -8.0395622 -79.713112 -0.66308844 -91.771751
9211125000 -1.4438627 119.84239 -8.0465231 -79.074036 -8.0393934 -79.699745 -0.66677284 -91.747726
9211187500 -1.4463971 119.8298 -8.0441637 -79.068909 -8.0392084 -79.729332 -0.65926963 -91.749474
9211250000 -1.4498755 119.77507 -8.0434313 -79.101639 -8.0290823 -79.774605 -0.66523975 -91.760422
9211312500 -1.4452912 119.81062 -8.0423698 -79.031265 -8.0379658 -79.795944 -0.66578072 -91.763733
9211375000 -1.4454721 119.80353 -8.0456152 -79.085426 -8.032939 -79.782104 -0.66826892 -91.761368
9211437500 -1.4429303 119.8126 -8.0357656 -79.048889 -8.0338659 -79.751274 -0.66280305 -91.750938
9211500000 -1.4352077 119.76714 -8.0284538 -79.052963 -8.0376959 -79.833115 -0.66247445 -91.768074
9211562500 -1.4415299 119.73888 -8.035635 -79.104668 -8.0338554 -79.820045 -0.66046637 -91.800331
9211625000 -1.4342697 119.76539 -8.0314054 -79.081779 -8.0349302 -79.771774 -0.66011053 -91.751068
9211687500 -1.4334669 119.76797 -8.034421 -79.088501 -8.0350294 -79.814552 -0.66407961 -91.758713
9211750000 -1.4380989 119.74161 -8.0333595 -79.113586 -8.0381527 -79.723976 -0.66541904 -91.722733
9211812500 -1.4352134 119.73396 -8.0268326 -79.112236 -8.0339136 -79.747437 -0.6643163 -91.723984
9211875000 -1.435619 119.71272 -8.025403 -79.061867 -8.0310001 -79.776558 -0.66061854 -91.692444
9211937500 -1.435941 119.67985 -8.0248585 -79.046989 -8.033946 -79.775711 -0.66732448 -91.624222
9212000000 -1.4360042 119.65389 -8.0329809 -79.07486 -8.0316324 -79.736259 -0.67439246 -91.577278
9212062500 -1.4366288 119.61996 -8.0260525 -79.042656 -8.022069 -79.756348 -0.66557038 -91.625084
9212125000 -1.4369607 119.60471 -8.0209951 -79.015724 -8.0274553 -79.770363 -0.6710009 -91.546616
9212187500 -1.4380714 119.59197 -8.0278168 -78.993706 -8.0269747 -79.774834 -0.66933411 -91.541458
9212250000 -1.4398986 119.54694 -8.0206947 -79.109985 -8.0133133 -79.794029 -0.66486669 -91.565834
9212312500 -1.4393578 119.52406 -8.0221939 -79.085869 -8.0145674 -79.805603 -0.65414637 -91.576263
