!Agilent Technologies,N5242A,MY51221714,A.09.90.19
!Agilent N5242A: A.09.90.19
!Date: Saturday, December 30, 2023 10:29:15
!Correction: S11(Full 2 Port(1,2)) 
!S21(Full 2 Port(1,2)) 
!S12(Full 2 Port(1,2)) 
!S22(Full 2 Port(1,2)) 
!S2P File: Measurements: S11, S21, S12, S22:
# Hz S  dB   R 50
9200000000 -1.0640235 124.80146 -8.6396255 -73.988808 -8.6162033 -74.670586 -0.25568041 -93.027771
9200062500 -1.0626484 124.7466 -8.6388187 -74.019608 -8.6107426 -74.648026 -0.25149214 -93.028183
9200125000 -1.0643141 124.78634 -8.6246471 -73.94812 -8.6111145 -74.71772 -0.24739999 -93.002579
9200187500 -1.0665686 124.74573 -8.6350613 -74.006187 -8.6144066 -74.742279 -0.25318441 -93.016861
9200250000 -1.0683413 124.73158 -8.6370945 -73.964973 -8.6165886 -74.732536 -0.25134084 -93.011597
9200312500 -1.0675031 124.70353 -8.6362038 -74.016533 -8.6178474 -74.681046 -0.2505987 -92.986046
9200375000 -1.0666947 124.70461 -8.6292171 -73.984459 -8.6170864 -74.707367 -0.25896385 -92.990547
9200437500 -1.0701919 124.6715 -8.6400261 -73.955482 -8.615097 -74.671799 -0.25519609 -92.962357
9200500000 -1.0668957 124.65695 -8.6334114 -74.027298 -8.6169643 -74.682213 -0.2601369 -92.948357
9200562500 -1.0692296 124.64326 -8.6324539 -73.986908 -8.6174679 -74.73098 -0.25531417 -92.937813
9200625000 -1.065986 124.6569 -8.6323681 -73.980034 -8.6106272 -74.669533 -0.2523559 -92.923241
9200687500 -1.0685691 124.59692 -8.6337261 -74.075089 -8.601963 -74.711868 -0.25395513 -92.894402
9200750000 -1.0716941 124.60618 -8.6317053 -73.984818 -8.606226 -74.708435 -0.24850494 -92.868889
9200812500 -1.0673441 124.54784 -8.6272917 -74.012077 -8.6033287 -74.690224 -0.25271598 -92.843155
9200875000 -1.0649188 124.57568 -8.631628 -74.011047 -8.6036825 -74.722603 -0.25535464 -92.869438
9200937500 -1.0624211 124.59324 -8.6247482 -73.971252 -8.6044455 -74.684532 -0.25834358 -92.829018
9201000000 -1.0694652 124.56384 -8.6316166 -73.974869 -8.6078959 -74.686455 -0.26067212 -92.839905
9201062500 -1.0612659 124.59972 -8.6265793 -73.970879 -8.6093016 -74.707596 -0.26467317 -92.839066
9201125000 -1.0677295 124.57954 -8.623497 -73.955742 -8.6121855 -74.681091 -0.26364651 -92.81102
9201187500 -1.066775 124.58788 -8.6346292 -73.951637 -8.6191301 -74.708427 -0.26849666 -92.829292
9201250000 -1.0649359 124.5569 -8.6305351 -73.999535 -8.611701 -74.691154 -0.26299629 -92.814674
9201312500 -1.0669106 124.57924 -8.6207924 -73.943504 -8.6163702 -74.711449 -0.26274204 -92.777069
9201375000 -1.0695 124.54279 -8.6174908 -73.957016 -8.6080952 -74.662872 -0.26018003 -92.740753
9201437500 -1.0655222 124.54789 -8.6237326 -73.908699 -8.6098785 -74.705185 -0.25913692 -92.710289
9201500000 -1.0669057 124.52695 -8.6139736 -73.856361 -8.6048174 -74.681061 -0.25243604 -92.634155
9201562500 -1.0762657 124.50181 -8.618433 -73.911255 -8.6024952 -74.74707 -0.25058392 -92.633064
9201625000 -1.0683384 124.46735 -8.6098137 -73.902748 -8.5947933 -74.718094 -0.25002149 -92.626579
9201687500 -1.0741091 124.46515 -8.6097736 -73.907593 -8.6066771 -74.694229 -0.25588584 -92.588104
9201750000 -1.0722744 124.43381 -8.6114788 -73.940506 -8.5951061 -74.659454 -0.25838634 -92.565636
9201812500 -1.0686089 124.43899 -8.6165895 -73.920937 -8.6015377 -74.666428 -0.25839052 -92.579048
9201875000 -1.0637978 124.41687 -8.6155987 -73.976471 -8.6017103 -74.633194 -0.26625884 -92.591156
9201937500 -1.0672979 124.39757 -8.6207047 -73.945679 -8.600172 -74.689537 -0.26676801 -92.617599
9202000000 -1.0682931 124.42204 -8.6185102 -73.927872 -8.6010036 -74.678291 -0.26426718 -92.573219
9202062500 -1.0693555 124.38248 -8.6107283 -73.915581 -8.595643 -74.609993 -0.26255503 -92.529266
9202125000 -1.0678363 124.37179 -8.6143818 -73.931511 -8.5962496 -74.670639 -0.26113725 -92.554146
9202187500 -1.0692211 124.37061 -8.6166763 -73.904388 -8.5937185 -74.626343 -0.26399025 -92.505791
9202250000 -1.0669013 124.34197 -8.6185122 -73.93058 -8.6029129 -74.685814 -0.26662272 -92.512703
9202312500 -1.0641254 124.29745 -8.6092958 -73.981369 -8.6043386 -74.659264 -0.2642813 -92.497093
9202375000 -1.0626301 124.27292 -8.6041794 -73.983627 -8.5977535 -74.699852 -0.26613203 -92.508469
9202437500 -1.0629927 124.254 -8.5991039 -73.934181 -8.5999107 -74.681435 -0.26545092 -92.47393
9202500000 -1.0665538 124.29504 -8.609952 -73.902679 -8.5960188 -74.741234 -0.26374769 -92.426109
9202562500 -1.0697103 124.27007 -8.6094589 -73.903587 -8.5899897 -74.688492 -0.27191874 -92.413521
9202625000 -1.06893 124.22221 -8.6110821 -73.92733 -8.5982733 -74.706627 -0.26816198 -92.405472
9202687500 -1.0682958 124.23978 -8.6104813 -73.895668 -8.5941095 -74.697418 -0.26433578 -92.392693
9202750000 -1.0708381 124.21362 -8.6088314 -73.92363 -8.5875092 -74.682175 -0.26551288 -92.312721
9202812500 -1.0647891 124.18139 -8.6000671 -73.950432 -8.5936127 -74.671425 -0.26606792 -92.347031
9202875000 -1.065293 124.18348 -8.6030092 -73.916817 -8.5867653 -74.677246 -0.26462808 -92.320236
9202937500 -1.0608209 124.13605 -8.6025515 -73.925766 -8.5844212 -74.637207 -0.2647329 -92.310982
9203000000 -1.0620706 124.13763 -8.6021719 -73.920052 -8.5848475 -74.649773 -0.26369849 -92.306923
9203062500 -1.0621271 124.13689 -8.6017675 -73.912712 -8.5816422 -74.70578 -0.26364329 -92.348305
9203125000 -1.0619144 124.09789 -8.6014624 -73.893723 -8.5825176 -74.633072 -0.26526296 -92.290352
9203187500 -1.0646125 124.11357 -8.5967875 -73.901016 -8.5856104 -74.643501 -0.26398852 -92.229897
9203250000 -1.0672319 124.10514 -8.5987129 -73.953346 -8.5846853 -74.611877 -0.25964275 -92.220993
9203312500 -1.0613006 124.07487 -8.5862026 -73.938683 -8.5965948 -74.626633 -0.26555935 -92.181053
9203375000 -1.0636455 124.11952 -8.5920877 -73.915215 -8.587059 -74.627617 -0.26498172 -92.154472
9203437500 -1.0676939 124.11427 -8.5890961 -73.887169 -8.588047 -74.645905 -0.26147458 -92.142296
9203500000 -1.0649036 124.07255 -8.5778418 -73.871208 -8.5909138 -74.68512 -0.25855228 -92.12854
9203562500 -1.0671346 124.08129 -8.5919886 -73.89991 -8.5800304 -74.606201 -0.26462477 -92.081818
9203625000 -1.0646168 124.01772 -8.5844431 -73.925652 -8.57833 -74.661499 -0.26916263 -92.117935
9203687500 -1.0675155 124.01172 -8.5868979 -73.938911 -8.5762024 -74.658936 -0.26335678 -92.117683
9203750000 -1.0687064 124.02039 -8.591794 -73.892899 -8.5748034 -74.659477 -0.26768401 -92.096214
9203812500 -1.0698999 123.95896 -8.5979891 -73.902443 -8.5708256 -74.631294 -0.26727763 -92.124107
9203875000 -1.0651507 123.95454 -8.5904884 -73.936249 -8.5753975 -74.662674 -0.26499 -92.087257
9203937500 -1.0687822 123.93857 -8.5907917 -73.908363 -8.5773182 -74.698509 -0.26384059 -92.110245
9204000000 -1.067464 123.90995 -8.5858278 -73.952263 -8.5836468 -74.67366 -0.26831636 -92.084091
9204062500 -1.0702652 123.90589 -8.5896854 -73.937317 -8.5770512 -74.667267 -0.25995159 -92.031532
9204125000 -1.0654387 123.91386 -8.5813074 -73.89328 -8.5784645 -74.643021 -0.25978673 -92.000313
9204187500 -1.0669044 123.89746 -8.5888071 -73.861549 -8.5742579 -74.609184 -0.25571051 -92.001778
9204250000 -1.0620993 123.90923 -8.5830851 -73.874504 -8.5721121 -74.587379 -0.25852004 -91.933296
9204312500 -1.0609164 123.87976 -8.5802889 -73.895042 -8.5704193 -74.675323 -0.25748235 -91.968079
9204375000 -1.0591342 123.86233 -8.5714808 -73.848732 -8.5747252 -74.586227 -0.26096109 -91.965935
9204437500 -1.0600927 123.86575 -8.5715704 -73.819695 -8.5616484 -74.581497 -0.25760376 -91.921272
9204500000 -1.060499 123.81508 -8.5714951 -73.842537 -8.5749283 -74.595932 -0.27316713 -91.886971
9204562500 -1.063596 123.82584 -8.5801926 -73.842621 -8.57024 -74.623184 -0.27417758 -91.870506
9204625000 -1.058449 123.80579 -8.5719109 -73.79895 -8.5667324 -74.590141 -0.2684733 -91.86895
9204687500 -1.0596989 123.76685 -8.5743494 -73.806824 -8.5670004 -74.609238 -0.2690815 -91.844879
9204750000 -1.067269 123.75294 -8.5776443 -73.823105 -8.5650749 -74.582031 -0.26633966 -91.799538
9204812500 -1.064549 123.72104 -8.5731974 -73.90052 -8.5617008 -74.579155 -0.27235749 -91.778175
9204875000 -1.0671073 123.72467 -8.5784197 -73.903526 -8.5650673 -74.602585 -0.27253267 -91.766579
9204937500 -1.0702826 123.71826 -8.5772448 -73.922623 -8.5640259 -74.551041 -0.26798055 -91.740593
9205000000 -1.0667878 123.69145 -8.5754166 -73.899818 -8.5639582 -74.605591 -0.27223781 -91.735878
9205062500 -1.0715253 123.68417 -8.5747995 -73.896698 -8.5684385 -74.627449 -0.26931712 -91.756546
9205125000 -1.0721372 123.67678 -8.5785389 -73.869156 -8.5716314 -74.597313 -0.26988709 -91.691582
9205187500 -1.0690873 123.69913 -8.5688639 -73.894188 -8.5671272 -74.643044 -0.2605384 -91.680672
9205250000 -1.0674762 123.67281 -8.5654573 -73.865829 -8.5717459 -74.60199 -0.25941539 -91.651299
9205312500 -1.0722648 123.68321 -8.5694437 -73.862389 -8.5683537 -74.644936 -0.2544117 -91.662766
9205375000 -1.0679939 123.67984 -8.5709906 -73.838791 -8.5691509 -74.600266 -0.26111415 -91.633728
9205437500 -1.0644095 123.66637 -8.5710268 -73.793762 -8.5650959 -74.572823 -0.2683596 -91.525734
9205500000 -1.0698603 123.63701 -8.5747824 -73.860016 -8.5555553 -74.615906 -0.26491848 -91.560181
9205562500 -1.0628376 123.5827 -8.5690365 -73.817917 -8.5645161 -74.590393 -0.27154815 -91.536903
9205625000 -1.0714078 123.58084 -8.576808 -73.838493 -8.5544472 -74.668404 -0.27292439 -91.568207
9205687500 -1.0674279 123.54763 -8.5630684 -73.794411 -8.5574722 -74.53891 -0.26938343 -91.436653
9205750000 -1.0690817 123.52316 -8.5791798 -73.817352 -8.558548 -74.636253 -0.27870628 -91.463722
9205812500 -1.069495 123.51939 -8.5723858 -73.801796 -8.5582056 -74.57354 -0.275195 -91.425011
9205875000 -1.0694882 123.51676 -8.5684147 -73.777115 -8.5667582 -74.531937 -0.28388312 -91.429115
9205937500 -1.0681435 123.45846 -8.5638256 -73.818909 -8.5489979 -74.543854 -0.27410263 -91.393578
9206000000 -1.0726938 123.48138 -8.5710344 -73.813278 -8.5529842 -74.533768 -0.27645475 -91.416985
9206062500 -1.0677516 123.465 -8.5605125 -73.785629 -8.5570269 -74.54644 -0.27731556 -91.39817
9206125000 -1.0719092 123.45911 -8.5588579 -73.746269 -8.5548849 -74.568779 -0.27384034 -91.398323
9206187500 -1.07219 123.38956 -8.5612116 -73.859512 -8.5552893 -74.585312 -0.27800381 -91.369522
9206250000 -1.0682811 123.38356 -8.5577545 -73.817886 -8.5535507 -74.622375 -0.28191087 -91.386223
9206312500 -1.0655427 123.40199 -8.5603476 -73.844017 -8.5486202 -74.56469 -0.2775147 -91.331345
9206375000 -1.0682867 123.34053 -8.5607386 -73.853836 -8.5525913 -74.506073 -0.28159186 -91.306396
9206437500 -1.0682079 123.33927 -8.5488749 -73.823776 -8.5483618 -74.538475 -0.28285688 -91.277184
9206500000 -1.0702798 123.35599 -8.5511351 -73.802689 -8.5413256 -74.629883 -0.27189267 -91.289948
9206562500 -1.0725662 123.3039 -8.5521708 -73.880829 -8.5373468 -74.45652 -0.26652557 -91.173798
9206625000 -1.0716206 123.33684 -8.5507584 -73.82756 -8.5419798 -74.50544 -0.26970595 -91.226097
9206687500 -1.0690569 123.35555 -8.548214 -73.828735 -8.5432024 -74.479912 -0.27117297 -91.220963
9206750000 -1.0783182 123.31706 -8.5669212 -73.876717 -8.5364017 -74.510551 -0.2682271 -91.223427
9206812500 -1.0707904 123.36046 -8.5449219 -73.809364 -8.5388441 -74.501617 -0.26548043 -91.215248
9206875000 -1.068308 123.32445 -8.5531511 -73.8461 -8.5378265 -74.513962 -0.26901904 -91.228889
9206937500 -1.0641319 123.31347 -8.560668 -73.847107 -8.5364351 -74.50148 -0.26551831 -91.160576
9207000000 -1.0712817 123.28288 -8.5562496 -73.858963 -8.53269 -74.51355 -0.26802361 -91.161484
9207062500 -1.0650734 123.25883 -8.5472765 -73.832428 -8.5273085 -74.511597 -0.26803306 -91.138718
9207125000 -1.0632734 123.25489 -8.552516 -73.844696 -8.5303516 -74.494797 -0.26362258 -91.0728
9207187500 -1.065398 123.22982 -8.5499477 -73.77446 -8.5340185 -74.561096 -0.27370125 -91.091248
9207250000 -1.0649978 123.19353 -8.5550203 -73.793213 -8.5329084 -74.537796 -0.26833799 -91.089813
9207312500 -1.0646719 123.17155 -8.5408401 -73.779472 -8.5263681 -74.520737 -0.26861006 -91.098221
9207375000 -1.063866 123.16924 -8.5409679 -73.778786 -8.5324736 -74.57518 -0.27743667 -91.083336
9207437500 -1.0667095 123.11623 -8.5434742 -73.885384 -8.5384312 -74.529099 -0.27583489 -91.057755
9207500000 -1.0661187 123.12498 -8.5401335 -73.85247 -8.5355701 -74.569527 -0.28029245 -91.042679
9207562500 -1.0712417 123.09928 -8.5430222 -73.863571 -8.5280561 -74.525528 -0.27903786 -91.007011
9207625000 -1.0660199 123.05777 -8.530901 -73.833412 -8.53759 -74.541046 -0.28107208 -91.039619
9207687500 -1.0760564 123.05685 -8.5439463 -73.905998 -8.5337219 -74.538528 -0.27971584 -90.997154
9207750000 -1.0696094 123.06934 -8.5399675 -73.83551 -8.5400991 -74.553925 -0.27992025 -90.997307
9207812500 -1.0752412 123.06297 -8.5394773 -73.836227 -8.52707 -74.529129 -0.27157378 -90.970314
9207875000 -1.0770704 123.02431 -8.5419369 -73.917015 -8.532547 -74.539185 -0.27213961 -91.002632
9207937500 -1.0788995 123.05199 -8.5347719 -73.860382 -8.5399675 -74.501312 -0.26600093 -90.95623
9208000000 -1.0779405 123.04251 -8.5370493 -73.838974 -8.5311174 -74.541786 -0.26586464 -90.907349
9208062500 -1.0740116 123.02874 -8.531518 -73.820076 -8.535181 -74.564339 -0.26954547 -90.871956
9208125000 -1.0736854 123.02638 -8.5359936 -73.815147 -8.5296526 -74.497551 -0.26796991 -90.856346
9208187500 -1.0718548 123.02612 -8.5313158 -73.791481 -8.534564 -74.566307 -0.27513027 -90.848198
9208250000 -1.0762765 123.02444 -8.52808 -73.780022 -8.5280886 -74.501411 -0.27197155 -90.772568
9208312500 -1.0748539 122.9753 -8.5349264 -73.788841 -8.5355082 -74.480637 -0.27769154 -90.739334
9208375000 -1.0730026 122.95151 -8.5236988 -73.748009 -8.5301123 -74.527016 -0.27602229 -90.73764
9208437500 -1.0685176 122.96623 -8.5217733 -73.732651 -8.5333939 -74.561028 -0.28104454 -90.760887
9208500000 -1.0728062 122.9747 -8.5263948 -73.707848 -8.5210867 -74.520851 -0.27461389 -90.727791
9208562500 -1.0703162 122.96429 -8.5280533 -73.679665 -8.5279255 -74.567093 -0.28137273 -90.769173
9208625000 -1.0668713 122.90051 -8.5249166 -73.769363 -8.5280256 -74.511208 -0.28241813 -90.720428
9208687500 -1.0700077 122.90274 -8.5289669 -73.76123 -8.5212517 -74.477737 -0.27741569 -90.703209
9208750000 -1.0710388 122.89987 -8.5250416 -73.756638 -8.5232353 -74.493797 -0.27835217 -90.688744
9208812500 -1.0626066 122.88266 -8.5239153 -73.718658 -8.523303 -74.434006 -0.27730441 -90.663338
9208875000 -1.0658425 122.88815 -8.5208416 -73.721069 -8.5259256 -74.427155 -0.28627902 -90.625229
9208937500 -1.0629996 122.83826 -8.5218182 -73.759354 -8.5162573 -74.489082 -0.28079388 -90.609505
9209000000 -1.0680482 122.85098 -8.5301361 -73.79863 -8.5103788 -74.526169 -0.27987006 -90.671234
9209062500 -1.0645829 122.8195 -8.5217972 -73.74398 -8.5135708 -74.46566 -0.28375635 -90.577515
9209125000 -1.0673082 122.86344 -8.5270519 -73.765335 -8.5118074 -74.490471 -0.2827661 -90.587654
9209187500 -1.0622748 122.79609 -8.5259457 -73.760933 -8.5197496 -74.488144 -0.2885932 -90.574234
9209250000 -1.0712155 122.78709 -8.5231829 -73.744766 -8.5085001 -74.414833 -0.28071371 -90.534187
9209312500 -1.0650412 122.77068 -8.5286512 -73.747185 -8.5200262 -74.507378 -0.28548753 -90.552872
9209375000 -1.0647956 122.7429 -8.5280294 -73.764755 -8.5194321 -74.441093 -0.28809649 -90.517548
9209437500 -1.0655621 122.71938 -8.5171871 -73.738838 -8.5166826 -74.457664 -0.28456742 -90.538712
9209500000 -1.0702171 122.68912 -8.5289001 -73.780655 -8.5144472 -74.432144 -0.28390205 -90.473938
9209562500 -1.0626733 122.67856 -8.5175848 -73.703598 -8.5116282 -74.480042 -0.2835646 -90.477264
9209625000 -1.0696254 122.66114 -8.5148869 -73.780029 -8.5098047 -74.485435 -0.27556667 -90.478775
9209687500 -1.070581 122.69002 -8.5173407 -73.74131 -8.5154419 -74.45948 -0.27970213 -90.439003
9209750000 -1.071817 122.616 -8.5107784 -73.807976 -8.5100737 -74.483223 -0.27315599 -90.460876
9209812500 -1.0770257 122.62656 -8.5234375 -73.760048 -8.5113487 -74.462463 -0.27423871 -90.369209
9209875000 -1.075528 122.63024 -8.51548 -73.843254 -8.5104942 -74.505569 -0.27524865 -90.469856
9209937500 -1.084262 122.62233 -8.5210829 -73.80806 -8.5052719 -74.505051 -0.27485639 -90.425652
9210000000 -1.0787762 122.60648 -8.5120211 -73.753334 -8.5114498 -74.476265 -0.27833313 -90.383286
9210062500 -1.07506 122.62611 -8.5109453 -73.730728 -8.4966984 -74.466805 -0.27003899 -90.350471
9210125000 -1.0767676 122.61807 -8.5195694 -73.737122 -8.5083866 -74.493309 -0.28053543 -90.337822
9210187500 -1.074893 122.5897 -8.5115929 -73.770988 -8.4997263 -74.462631 -0.27972087 -90.304764
9210250000 -1.078506 122.57137 -8.5165434 -73.709312 -8.5015841 -74.486839 -0.28353825 -90.2855
9210312500 -1.0791417 122.56369 -8.5156231 -73.720627 -8.4952145 -74.483261 -0.28278276 -90.281525
9210375000 -1.0762228 122.5394 -8.5059681 -73.704391 -8.492898 -74.491837 -0.27749705 -90.255547
9210437500 -1.0690432 122.50257 -8.4957666 -73.743614 -8.4943609 -74.478691 -0.28012398 -90.272614
9210500000 -1.0720651 122.44579 -8.4984598 -73.81411 -8.5080919 -74.477974 -0.28977382 -90.264046
9210562500 -1.0754676 122.4761 -8.4998941 -73.735428 -8.5021048 -74.517883 -0.28296793 -90.265114
9210625000 -1.0719368 122.36536 -8.4967403 -73.777328 -8.4966106 -74.475883 -0.28781462 -90.213623
9210687500 -1.0723593 122.36208 -8.4986057 -73.749313 -8.5052748 -74.464394 -0.29033205 -90.1782
9210750000 -1.0749483 122.382 -8.5107021 -73.721756 -8.5044184 -74.511482 -0.29275137 -90.172661
9210812500 -1.0703835 122.38098 -8.4989004 -73.740967 -8.4949369 -74.391891 -0.28516945 -90.08606
9210875000 -1.0767181 122.36291 -8.5041809 -73.760841 -8.4879894 -74.375443 -0.28565887 -90.119896
9210937500 -1.0721937 122.31953 -8.4922609 -73.804626 -8.4862928 -74.412651 -0.28117928 -90.067665
9211000000 -1.0718966 122.31816 -8.5010777 -73.706711 -8.4926329 -74.333336 -0.28688711 -89.99659
9211062500 -1.0712225 122.3235 -8.4935198 -73.791069 -8.4895878 -74.385124 -0.28407499 -90.070175
9211125000 -1.0725163 122.30939 -8.4978571 -73.721886 -8.4935856 -74.396896 -0.29066899 -90.001762
9211187500 -1.0740193 122.27697 -8.4923248 -73.737862 -8.4776516 -74.385239 -0.28983259 -89.962296
9211250000 -1.0732267 122.32037 -8.4910116 -73.69561 -8.4861975 -74.383339 -0.28512403 -89.963882
9211312500 -1.077298 122.30492 -8.5012789 -73.747322 -8.4901085 -74.417068 -0.29025045 -89.960403
9211375000 -1.0740882 122.30853 -8.4956932 -73.682747 -8.4896936 -74.397209 -0.28941125 -89.910805
9211437500 -1.0710896 122.29188 -8.4880638 -73.706543 -8.4880629 -74.447174 -0.29196671 -89.993591
9211500000 -1.0702342 122.25893 -8.4946222 -73.765831 -8.4902201 -74.408356 -0.29222289 -89.983971
9211562500 -1.0698626 122.28732 -8.4939833 -73.723923 -8.4890108 -74.462761 -0.28584483 -89.95089
9211625000 -1.0673221 122.27088 -8.4891405 -73.699806 -8.4939184 -74.391685 -0.29251444 -89.907562
9211687500 -1.0647814 122.24363 -8.4898815 -73.718323 -8.4895382 -74.420319 -0.28646702 -89.978752
9211750000 -1.0632224 122.2511 -8.4822874 -73.740135 -8.4926376 -74.448402 -0.2911801 -89.958275
9211812500 -1.067045 122.27589 -8.4803247 -73.729813 -8.4881372 -74.465446 -0.28500956 -89.959
9211875000 -1.0700054 122.20914 -8.4851847 -73.707726 -8.4827995 -74.439087 -0.28442547 -89.936409
9211937500 -1.0644865 122.19804 -8.4884977 -73.712067 -8.4894753 -74.388268 -0.29058725 -89.809418
9212000000 -1.0714691 122.15576 -8.4938889 -73.667358 -8.4882355 -74.412163 -0.29167488 -89.803741
9212062500 -1.0686346 122.13496 -8.4844522 -73.679077 -8.4815226 -74.43734 -0.29394394 -89.82383
9212125000 -1.0667069 122.0966 -8.4866619 -73.669823 -8.478673 -74.373436 -0.29727045 -89.720924
9212187500 -1.0695956 122.09151 -8.4824724 -73.670044 -8.4795704 -74.376984 -0.28802499 -89.701164
9212250000 -1.0663444 122.06261 -8.4795885 -73.692818 -8.4806528 -74.473518 -0.29400048 -89.760185
9212312500 -1.0709443 122.04051 -8.4838295 -73.658569 -8.473031 -74.422928 -0.28749385 -89.716843
