!Agilent Technologies,N5242A,MY51221714,A.09.90.19
!Agilent N5242A: A.09.90.19
!Date: Saturday, December 30, 2023 10:30:14
!Correction: S11(Full 2 Port(1,2)) 
!S21(Full 2 Port(1,2)) 
!S12(Full 2 Port(1,2)) 
!S22(Full 2 Port(1,2)) 
!S2P File: Measurements: S11, S21, S12, S22:
# Hz S  dB   R 50
9200000000 -1.3095646 122.94827 -8.3127232 -77.250923 -8.2922821 -78.002434 -0.48682302 -93.992477
9200062500 -1.3134412 122.91398 -8.3134203 -77.305153 -8.2921066 -78.016426 -0.48356277 -93.999825
9200125000 -1.3100773 122.91017 -8.3123903 -77.235077 -8.2819309 -78.059258 -0.48082572 -94.030235
9200187500 -1.3149247 122.87629 -8.3076572 -77.298218 -8.2903061 -78.045837 -0.49092871 -93.994339
9200250000 -1.3152293 122.84945 -8.3108425 -77.328598 -8.2905273 -78.008476 -0.49080426 -93.999603
9200312500 -1.3168865 122.80843 -8.3084049 -77.35569 -8.2912455 -78.067802 -0.4890641 -93.995934
9200375000 -1.319999 122.82192 -8.3117371 -77.311722 -8.2938309 -78.036255 -0.49346775 -94.009727
9200437500 -1.3179053 122.79773 -8.3183546 -77.301872 -8.2884531 -78.074379 -0.49283618 -93.979988
9200500000 -1.3190266 122.77197 -8.3122425 -77.288467 -8.2839956 -77.994637 -0.48400444 -93.903091
9200562500 -1.3189683 122.77712 -8.3079128 -77.320366 -8.2867689 -78.065887 -0.48478788 -93.947258
9200625000 -1.3141062 122.76887 -8.3118887 -77.30851 -8.2898989 -78.049377 -0.49226627 -93.921638
9200687500 -1.3115923 122.71655 -8.3067055 -77.381981 -8.2790318 -78.000885 -0.48843655 -93.879677
9200750000 -1.3170376 122.7178 -8.305604 -77.3106 -8.2791748 -78.027733 -0.48789662 -93.876076
9200812500 -1.3149266 122.6736 -8.2968693 -77.361679 -8.2736578 -78.08316 -0.48728675 -93.869934
9200875000 -1.3162293 122.68946 -8.3003321 -77.28109 -8.2721167 -78.008759 -0.4861955 -93.828102
9200937500 -1.313845 122.68733 -8.3028498 -77.311867 -8.2801609 -78.075378 -0.48975527 -93.848404
9201000000 -1.312991 122.69865 -8.3070803 -77.320129 -8.2839928 -78.035454 -0.49395809 -93.773918
9201062500 -1.316897 122.66949 -8.3106346 -77.34803 -8.2879896 -77.999405 -0.49835348 -93.802368
9201125000 -1.3154407 122.71824 -8.3025293 -77.275177 -8.2808523 -78.011078 -0.49660996 -93.792938
9201187500 -1.3183817 122.72222 -8.3045626 -77.331207 -8.2895288 -77.996979 -0.49644545 -93.806656
9201250000 -1.3138506 122.67856 -8.3021822 -77.293137 -8.2881021 -77.936005 -0.49464318 -93.734581
9201312500 -1.3175192 122.68689 -8.2986813 -77.285385 -8.2834806 -78.021141 -0.49952078 -93.765198
9201375000 -1.32085 122.68903 -8.2926245 -77.264359 -8.2758551 -78.113022 -0.4885405 -93.730164
9201437500 -1.3213682 122.65169 -8.2966089 -77.283394 -8.2805605 -78.061615 -0.49288163 -93.699097
9201500000 -1.3225535 122.63863 -8.2857132 -77.200951 -8.2804165 -78.023773 -0.49603653 -93.622612
9201562500 -1.3213124 122.63471 -8.2885323 -77.265869 -8.2630291 -78.068047 -0.48623389 -93.620476
9201625000 -1.3165386 122.59373 -8.2835083 -77.256035 -8.2720022 -78.06881 -0.48533505 -93.597214
9201687500 -1.3189746 122.56742 -8.2865314 -77.251991 -8.2727995 -78.01606 -0.49045715 -93.605904
9201750000 -1.318832 122.57876 -8.2867603 -77.262161 -8.2727098 -78.015572 -0.49257919 -93.609894
9201812500 -1.318809 122.53129 -8.288763 -77.284737 -8.2727871 -78.02079 -0.49713045 -93.551544
9201875000 -1.3206676 122.55946 -8.2955484 -77.293297 -8.2784853 -78.044205 -0.50592089 -93.60556
9201937500 -1.3219479 122.51933 -8.2945442 -77.322517 -8.2732706 -78.001877 -0.50220495 -93.595146
9202000000 -1.318609 122.52175 -8.2914152 -77.267838 -8.2719784 -78.002075 -0.50206929 -93.545578
9202062500 -1.3127949 122.48302 -8.2846909 -77.303352 -8.2753992 -78.054398 -0.50604039 -93.580528
9202125000 -1.3163513 122.50639 -8.2831106 -77.3097 -8.2701178 -78.030495 -0.49968132 -93.547424
9202187500 -1.3240418 122.49825 -8.2939148 -77.274506 -8.27279 -78.019295 -0.50742871 -93.506386
9202250000 -1.3136413 122.4603 -8.2784748 -77.262985 -8.2694893 -78.046654 -0.49923894 -93.524101
9202312500 -1.3148763 122.45284 -8.2841301 -77.283974 -8.2647305 -78.05603 -0.50188273 -93.482674
9202375000 -1.3117836 122.40644 -8.2795525 -77.296722 -8.2722359 -78.020218 -0.49950045 -93.442299
9202437500 -1.3179318 122.38231 -8.2906704 -77.276077 -8.2669754 -78.037796 -0.50031686 -93.439278
9202500000 -1.3102697 122.36728 -8.2823582 -77.287888 -8.2652836 -78.03347 -0.49740559 -93.441498
9202562500 -1.3188692 122.34754 -8.2822514 -77.305771 -8.2706423 -78.033897 -0.49973294 -93.434929
9202625000 -1.3119165 122.33529 -8.2797184 -77.30632 -8.2737961 -78.072639 -0.5042643 -93.406647
9202687500 -1.3158494 122.33102 -8.2815228 -77.275749 -8.2664528 -78.02272 -0.49712864 -93.348755
9202750000 -1.3186531 122.34305 -8.2829285 -77.23336 -8.2669153 -78.094261 -0.50881523 -93.39653
9202812500 -1.3203444 122.31103 -8.285881 -77.218544 -8.2628002 -78.033417 -0.50065356 -93.342712
9202875000 -1.3152497 122.27324 -8.277503 -77.343987 -8.2581329 -78.001625 -0.50094289 -93.343231
9202937500 -1.3156434 122.29133 -8.2752695 -77.233528 -8.2600393 -78.060928 -0.50597519 -93.307335
9203000000 -1.3163129 122.26125 -8.2761669 -77.324448 -8.2565746 -78.014565 -0.50204998 -93.334038
9203062500 -1.3141135 122.23666 -8.2791739 -77.286873 -8.2533579 -78.051765 -0.50590789 -93.304924
9203125000 -1.3127388 122.21431 -8.2696104 -77.231064 -8.2547827 -78.048134 -0.49947095 -93.281723
9203187500 -1.3110265 122.20767 -8.2649498 -77.333954 -8.2589684 -78.062523 -0.50543749 -93.293015
9203250000 -1.3141496 122.20188 -8.2603426 -77.323593 -8.2571411 -77.971283 -0.50594503 -93.194923
9203312500 -1.3163809 122.22739 -8.2643833 -77.248405 -8.2568903 -78.064468 -0.50544333 -93.238464
9203375000 -1.3158408 122.2089 -8.251852 -77.318764 -8.2557373 -77.963097 -0.4965772 -93.177505
9203437500 -1.3163724 122.17771 -8.250452 -77.243401 -8.2552032 -77.953499 -0.49882436 -93.116394
9203500000 -1.3141375 122.20135 -8.252491 -77.24852 -8.2606592 -77.993347 -0.5005607 -93.074753
9203562500 -1.3210697 122.16535 -8.2616825 -77.252388 -8.2502346 -77.972137 -0.4970066 -93.106834
9203625000 -1.3193988 122.14651 -8.2609301 -77.197433 -8.2526484 -77.994781 -0.50206232 -93.115173
9203687500 -1.3198748 122.10201 -8.2559805 -77.254326 -8.247364 -78.029724 -0.50034189 -93.140045
9203750000 -1.3210716 122.04408 -8.2620316 -77.296387 -8.2471647 -78.013229 -0.49939674 -93.109978
9203812500 -1.3211874 122.05813 -8.2579527 -77.366943 -8.2462683 -78.038483 -0.50986862 -93.136559
9203875000 -1.320015 122.04929 -8.2719212 -77.31768 -8.2449379 -78.023506 -0.50173116 -93.102486
9203937500 -1.3213989 122.05261 -8.2651243 -77.272804 -8.244463 -78.013077 -0.50533146 -93.071503
9204000000 -1.3176236 122.03167 -8.2601271 -77.259987 -8.2482128 -77.98082 -0.49498042 -93.044243
9204062500 -1.3203158 122.01397 -8.2568512 -77.238823 -8.2476082 -77.987938 -0.50026774 -93.03698
9204125000 -1.3183836 122.02386 -8.2525606 -77.28434 -8.2379971 -77.983864 -0.48916906 -93.018745
9204187500 -1.3155233 121.99236 -8.2538147 -77.263626 -8.2480612 -78.018707 -0.49959424 -93.028191
9204250000 -1.3151512 122.00625 -8.253684 -77.26461 -8.2466507 -77.94725 -0.49661899 -92.932419
9204312500 -1.3166381 121.97728 -8.2529669 -77.264565 -8.2404251 -78.021049 -0.49486104 -92.952904
9204375000 -1.3141909 121.97762 -8.2442484 -77.230202 -8.2419415 -77.961906 -0.50240028 -92.946533
9204437500 -1.3097986 121.94231 -8.2450924 -77.216209 -8.2357616 -77.986092 -0.50257665 -92.887428
9204500000 -1.3127538 121.93626 -8.2495441 -77.215675 -8.2410383 -77.962402 -0.50378072 -92.871078
9204562500 -1.3171599 121.91411 -8.2404041 -77.196861 -8.2309351 -77.976761 -0.50462824 -92.871605
9204625000 -1.3057339 121.89631 -8.2487373 -77.130844 -8.2328968 -77.956024 -0.50662464 -92.801559
9204687500 -1.3131045 121.9054 -8.2459259 -77.135071 -8.2398767 -77.979904 -0.51447952 -92.815025
9204750000 -1.3146123 121.85258 -8.2469616 -77.205284 -8.233037 -78.037323 -0.50632 -92.847069
9204812500 -1.3149378 121.83458 -8.2522259 -77.258888 -8.2323065 -77.969215 -0.5065614 -92.810883
9204875000 -1.3192556 121.83917 -8.2434769 -77.235756 -8.2361593 -77.973503 -0.51309854 -92.781494
9204937500 -1.3177198 121.7868 -8.253273 -77.328125 -8.2255898 -77.986572 -0.50782442 -92.786369
9205000000 -1.3238882 121.78645 -8.2422657 -77.301437 -8.2322016 -77.984467 -0.50931042 -92.77092
9205062500 -1.319705 121.75161 -8.2447453 -77.280746 -8.2359552 -77.937408 -0.50988895 -92.690453
9205125000 -1.3227817 121.77486 -8.2389698 -77.276703 -8.2304907 -77.998528 -0.50620973 -92.694809
9205187500 -1.3252026 121.78625 -8.2427225 -77.215218 -8.2356052 -77.984016 -0.50220352 -92.67392
9205250000 -1.3254976 121.79449 -8.2430754 -77.244789 -8.2358665 -78.015457 -0.50085974 -92.675499
9205312500 -1.3191278 121.79342 -8.2373095 -77.199043 -8.2378845 -78.048592 -0.50130147 -92.663651
9205375000 -1.3153073 121.75096 -8.2308769 -77.265625 -8.2352648 -78.014992 -0.50578749 -92.614983
9205437500 -1.3164374 121.73599 -8.2396631 -77.172272 -8.2314177 -77.979698 -0.50831819 -92.550278
9205500000 -1.3164343 121.69079 -8.2426395 -77.203705 -8.2307911 -77.972359 -0.50773299 -92.523865
9205562500 -1.3227167 121.69476 -8.2399015 -77.231392 -8.2330914 -78.006592 -0.51416051 -92.564552
9205625000 -1.321575 121.66898 -8.2460117 -77.208626 -8.221138 -78.003647 -0.5125767 -92.543404
9205687500 -1.3226712 121.65538 -8.2476797 -77.199181 -8.2168798 -77.994209 -0.50885999 -92.476288
9205750000 -1.3252426 121.59682 -8.2512054 -77.215164 -8.2221327 -77.982658 -0.51500738 -92.497177
9205812500 -1.3233402 121.64556 -8.2392597 -77.159912 -8.2145433 -78.003929 -0.50989944 -92.504326
9205875000 -1.3271674 121.5829 -8.2420025 -77.195053 -8.2235298 -77.923882 -0.51938272 -92.439934
9205937500 -1.326701 121.59019 -8.2447824 -77.21006 -8.2182808 -77.94854 -0.51090592 -92.428635
9206000000 -1.324344 121.57812 -8.2330818 -77.194328 -8.2242355 -77.946068 -0.51542574 -92.404648
9206062500 -1.3223859 121.56051 -8.230011 -77.180923 -8.218606 -78.02562 -0.51014239 -92.456444
9206125000 -1.3235475 121.5648 -8.2313223 -77.275391 -8.221797 -78.022499 -0.52453387 -92.430458
9206187500 -1.3242739 121.51931 -8.2324915 -77.194084 -8.2278662 -77.952621 -0.52222741 -92.400314
9206250000 -1.324628 121.47449 -8.2322588 -77.259026 -8.2212343 -77.963181 -0.52308512 -92.373795
9206312500 -1.323861 121.44156 -8.2246304 -77.299667 -8.2061415 -77.944023 -0.51599437 -92.287323
9206375000 -1.3219554 121.43826 -8.2306719 -77.276619 -8.2133713 -77.916008 -0.51795757 -92.27137
9206437500 -1.3268645 121.40069 -8.2254181 -77.29007 -8.2207832 -77.997993 -0.53013521 -92.308342
9206500000 -1.3236706 121.3925 -8.21805 -77.274719 -8.2153749 -77.934273 -0.51369989 -92.23587
9206562500 -1.3235674 121.41847 -8.2178259 -77.247475 -8.2132454 -77.947548 -0.52184904 -92.225128
9206625000 -1.3258381 121.44669 -8.2187481 -77.190735 -8.2095423 -77.988785 -0.51939255 -92.295853
9206687500 -1.3267326 121.43829 -8.2213173 -77.251694 -8.2150249 -77.931725 -0.51617241 -92.260223
9206750000 -1.3303689 121.47597 -8.2197523 -77.225319 -8.2105761 -77.896713 -0.51088554 -92.225899
9206812500 -1.321344 121.46247 -8.2178354 -77.246681 -8.2055216 -77.952217 -0.51033807 -92.261726
9206875000 -1.3232098 121.4258 -8.2201223 -77.233604 -8.202816 -77.918915 -0.50485992 -92.208344
9206937500 -1.3230778 121.42735 -8.2210598 -77.218231 -8.1982727 -77.929955 -0.508811 -92.178864
9207000000 -1.3190639 121.38224 -8.2147465 -77.273903 -8.2004309 -77.976974 -0.50652456 -92.166603
9207062500 -1.3199525 121.34676 -8.2158337 -77.250694 -8.2116623 -77.933502 -0.51114351 -92.15757
9207125000 -1.3220097 121.29968 -8.2197905 -77.211319 -8.2013006 -77.982552 -0.51574439 -92.124306
9207187500 -1.3183793 121.32838 -8.2213993 -77.144073 -8.1991606 -77.923256 -0.51456422 -92.108307
9207250000 -1.3215215 121.29983 -8.220871 -77.232681 -8.1946993 -77.996346 -0.51646805 -92.115372
9207312500 -1.3213302 121.24964 -8.2146778 -77.249046 -8.1953945 -77.9244 -0.51270002 -92.073921
9207375000 -1.3263496 121.20825 -8.2175636 -77.251122 -8.1972618 -77.973 -0.51567185 -92.112549
9207437500 -1.3234512 121.20477 -8.2153044 -77.245956 -8.1978436 -77.93705 -0.51337224 -92.05014
9207500000 -1.3267736 121.21845 -8.2113695 -77.266006 -8.1977968 -77.974388 -0.5203861 -92.085831
9207562500 -1.3253853 121.21361 -8.2173424 -77.229721 -8.2052317 -77.999054 -0.52674103 -92.07222
9207625000 -1.3263097 121.16296 -8.2140427 -77.266518 -8.2013445 -77.926941 -0.52840483 -92.044693
9207687500 -1.3271533 121.15473 -8.2058067 -77.222054 -8.2001991 -77.922943 -0.52481383 -92.049278
9207750000 -1.3277457 121.1403 -8.2045631 -77.244743 -8.2023487 -77.969147 -0.51801908 -92.04306
9207812500 -1.3328692 121.14861 -8.2000532 -77.278923 -8.202075 -77.99157 -0.5159328 -92.046455
9207875000 -1.3366439 121.1646 -8.2136621 -77.269089 -8.1965313 -77.969452 -0.51532656 -91.967278
9207937500 -1.3366412 121.14432 -8.2177153 -77.276649 -8.2016258 -77.920364 -0.5131005 -91.919968
9208000000 -1.3357725 121.10042 -8.206439 -77.257011 -8.1945505 -77.950638 -0.51194227 -91.928909
9208062500 -1.330142 121.16636 -8.2019053 -77.236885 -8.1966286 -78.01075 -0.51699972 -91.918358
9208125000 -1.3308389 121.08572 -8.2046156 -77.275536 -8.1985998 -77.951393 -0.51706409 -91.891312
9208187500 -1.3323082 121.09111 -8.1965685 -77.243454 -8.1906996 -77.991974 -0.51610464 -91.879333
9208250000 -1.3226174 121.11172 -8.1945667 -77.175255 -8.2008829 -77.918556 -0.52120823 -91.801712
9208312500 -1.3284214 121.09054 -8.202076 -77.143059 -8.192297 -77.982933 -0.52169043 -91.794113
9208375000 -1.3274403 121.07196 -8.1978207 -77.21244 -8.1884069 -78.00959 -0.52221155 -91.799744
9208437500 -1.3284806 121.02546 -8.1957235 -77.187721 -8.1957035 -77.970604 -0.52284765 -91.783813
9208500000 -1.3265867 121.03049 -8.1952991 -77.196083 -8.1933947 -77.919128 -0.52060044 -91.717285
9208562500 -1.3258964 121.00776 -8.1929569 -77.214645 -8.1934271 -77.965309 -0.52669537 -91.759399
9208625000 -1.3247578 121.00034 -8.1869526 -77.185799 -8.1840296 -77.92144 -0.52218896 -91.734718
9208687500 -1.3264176 121.01144 -8.1971359 -77.119041 -8.1952095 -77.938835 -0.52581817 -91.748253
9208750000 -1.3236202 120.99915 -8.2014189 -77.165291 -8.186552 -77.924911 -0.52711302 -91.71682
9208812500 -1.3201467 120.96941 -8.1892643 -77.139359 -8.1889963 -77.904831 -0.52498806 -91.70681
9208875000 -1.3224936 120.96568 -8.1904058 -77.177551 -8.1818275 -78.015747 -0.52376944 -91.699844
9208937500 -1.3201042 120.98078 -8.190362 -77.130363 -8.1850195 -77.896721 -0.52958184 -91.64402
9209000000 -1.3239902 120.97111 -8.1951561 -77.161186 -8.1750822 -77.872063 -0.52463657 -91.629265
9209062500 -1.3214726 120.91062 -8.1862078 -77.19297 -8.179493 -77.882889 -0.52783942 -91.633171
9209125000 -1.3217462 120.93645 -8.1942739 -77.159706 -8.181427 -77.930519 -0.53013968 -91.604263
9209187500 -1.3216999 120.87659 -8.19561 -77.227684 -8.178895 -77.862762 -0.53177905 -91.555611
9209250000 -1.3198788 120.87888 -8.1903286 -77.158646 -8.1773672 -77.929611 -0.53392607 -91.580704
9209312500 -1.3246722 120.84843 -8.1803722 -77.150879 -8.1799459 -77.878159 -0.53323674 -91.527092
9209375000 -1.323252 120.84013 -8.1975164 -77.151619 -8.1779289 -77.931816 -0.53374475 -91.55056
9209437500 -1.3223094 120.79375 -8.1890545 -77.165794 -8.1785631 -77.926689 -0.53049737 -91.526436
9209500000 -1.3171904 120.77639 -8.1748075 -77.193779 -8.1752434 -77.892334 -0.52618408 -91.487099
9209562500 -1.3225695 120.75548 -8.186471 -77.203285 -8.1827774 -77.97644 -0.533647 -91.508171
9209625000 -1.3319747 120.74326 -8.1845179 -77.207169 -8.1752634 -77.929474 -0.52034181 -91.479019
9209687500 -1.3306185 120.75098 -8.1794777 -77.21994 -8.1695795 -77.959831 -0.51799482 -91.512329
9209750000 -1.329631 120.72174 -8.1844273 -77.217041 -8.1812048 -77.908356 -0.52958822 -91.508965
9209812500 -1.3316542 120.68262 -8.1755857 -77.218819 -8.1712074 -77.916412 -0.51663524 -91.472023
9209875000 -1.3335981 120.68718 -8.180439 -77.204727 -8.1717272 -77.920334 -0.52267987 -91.425125
9209937500 -1.3329206 120.68255 -8.1833849 -77.200081 -8.1764164 -77.935478 -0.52603596 -91.429962
9210000000 -1.3332406 120.719 -8.1720123 -77.207214 -8.1604414 -77.960861 -0.51343906 -91.421387
9210062500 -1.3366966 120.67924 -8.1823549 -77.200874 -8.1610212 -77.942314 -0.51855308 -91.368011
9210125000 -1.3342912 120.68133 -8.1864109 -77.181396 -8.1630383 -77.962563 -0.5232659 -91.371094
9210187500 -1.3301073 120.66245 -8.1774597 -77.203979 -8.165699 -77.958313 -0.52607703 -91.340408
9210250000 -1.3344376 120.67551 -8.1794224 -77.131516 -8.1576653 -77.9086 -0.5211556 -91.312271
9210312500 -1.3376009 120.64203 -8.1740685 -77.164543 -8.1581745 -77.91938 -0.52521521 -91.310379
9210375000 -1.3314432 120.63345 -8.1732798 -77.151009 -8.1678696 -77.91909 -0.53156632 -91.283669
9210437500 -1.3269264 120.58582 -8.1702919 -77.214935 -8.1655121 -77.957664 -0.52660918 -91.316116
9210500000 -1.3314884 120.58023 -8.1695051 -77.179749 -8.1727886 -77.957878 -0.53888106 -91.27504
9210562500 -1.332472 120.55606 -8.1627617 -77.183968 -8.1614218 -77.949615 -0.53227168 -91.276169
9210625000 -1.3244396 120.44084 -8.1558743 -77.21051 -8.1673565 -77.884277 -0.53741723 -91.219261
9210687500 -1.3300835 120.43946 -8.1627655 -77.211815 -8.1549253 -77.924034 -0.52923101 -91.238571
9210750000 -1.3300277 120.43906 -8.1649523 -77.19561 -8.1570663 -77.901855 -0.53513414 -91.191277
9210812500 -1.327708 120.42241 -8.1538582 -77.227249 -8.1533842 -77.931633 -0.52931362 -91.176537
9210875000 -1.3258176 120.40079 -8.1578588 -77.186592 -8.1498079 -77.839546 -0.52425188 -91.11425
9210937500 -1.3281938 120.40931 -8.1559315 -77.226936 -8.1505556 -77.876564 -0.53104413 -91.130005
9211000000 -1.3302102 120.42101 -8.1619787 -77.234444 -8.1521072 -77.900551 -0.53309131 -91.098541
9211062500 -1.3259517 120.40875 -8.1585817 -77.181252 -8.1553736 -77.87812 -0.53616923 -91.057556
9211125000 -1.330699 120.40781 -8.1619196 -77.200211 -8.1511164 -77.835579 -0.53363693 -91.00415
9211187500 -1.3316156 120.37623 -8.1615553 -77.171997 -8.1555233 -77.867996 -0.53764248 -91.011162
9211250000 -1.3294051 120.37531 -8.1595955 -77.189949 -8.1490183 -77.887062 -0.53203213 -91.013184
9211312500 -1.3321451 120.39351 -8.1614313 -77.13459 -8.1500425 -77.883553 -0.54213059 -91.000732
9211375000 -1.3323672 120.34553 -8.1597347 -77.209351 -8.1507177 -77.862541 -0.54348689 -90.946022
9211437500 -1.327588 120.34731 -8.1536713 -77.206619 -8.1546078 -77.86731 -0.53978145 -90.964478
9211500000 -1.3248104 120.40366 -8.1562405 -77.161415 -8.1581087 -77.882912 -0.54281908 -90.976883
9211562500 -1.3273976 120.36453 -8.1571808 -77.139572 -8.1481371 -77.907295 -0.53226769 -91.018135
9211625000 -1.3254966 120.32747 -8.1539278 -77.200081 -8.1510038 -77.86216 -0.53240687 -90.971535
9211687500 -1.3247263 120.3212 -8.1513109 -77.171211 -8.150795 -77.881691 -0.53446484 -91.024132
9211750000 -1.3228569 120.31133 -8.1527872 -77.178108 -8.1464205 -77.905197 -0.52640003 -91.016052
9211812500 -1.3266801 120.31292 -8.1538439 -77.203217 -8.1456099 -77.86216 -0.53353155 -90.96405
9211875000 -1.3293076 120.26565 -8.1455603 -77.212891 -8.1479235 -77.863564 -0.53997797 -90.912399
9211937500 -1.3294739 120.22372 -8.1542835 -77.143364 -8.13867 -77.873177 -0.53589946 -90.896248
9212000000 -1.3236005 120.23692 -8.1454754 -77.195671 -8.1470366 -77.895531 -0.54355329 -90.850098
9212062500 -1.3265405 120.19096 -8.1486654 -77.168205 -8.1371622 -77.869492 -0.53481406 -90.836418
9212125000 -1.3302488 120.1619 -8.1471081 -77.077652 -8.1381683 -77.86853 -0.53651911 -90.750351
9212187500 -1.326498 120.1132 -8.139658 -77.196587 -8.1366253 -77.876503 -0.53515393 -90.757515
9212250000 -1.3302385 120.12573 -8.1398191 -77.188515 -8.1392536 -77.892174 -0.53505123 -90.753235
9212312500 -1.3254942 120.09049 -8.1294498 -77.210899 -8.1363459 -77.946045 -0.53778374 -90.790596
