!Agilent Technologies,N5242A,MY51221714,A.09.90.19
!Agilent N5242A: A.09.90.19
!Date: Saturday, December 30, 2023 10:31:17
!Correction: S11(Full 2 Port(1,2)) 
!S21(Full 2 Port(1,2)) 
!S12(Full 2 Port(1,2)) 
!S22(Full 2 Port(1,2)) 
!S2P File: Measurements: S11, S21, S12, S22:
# Hz S  dB   R 50
9200000000 -1.0499743 125.48275 -8.6846628 -73.378311 -8.6664248 -74.11618 -0.22639598 -93.067818
9200062500 -1.0505544 125.48637 -8.6895609 -73.312714 -8.6648607 -74.157013 -0.23044565 -93.000626
9200125000 -1.0490956 125.45939 -8.6828489 -73.353516 -8.6658287 -74.171585 -0.22964586 -93.030846
9200187500 -1.0523691 125.41724 -8.6847706 -73.371109 -8.6661539 -74.153343 -0.22458521 -93.031723
9200250000 -1.0593075 125.40435 -8.6931009 -73.410095 -8.664814 -74.097511 -0.22879794 -93.007141
9200312500 -1.0505986 125.40454 -8.6866655 -73.372513 -8.6626158 -74.108368 -0.22895759 -92.983864
9200375000 -1.053884 125.37333 -8.6956396 -73.439995 -8.6761837 -74.110336 -0.23878787 -92.97953
9200437500 -1.0534782 125.34824 -8.6944284 -73.415085 -8.6695099 -74.095833 -0.22818117 -92.970139
9200500000 -1.0541445 125.32288 -8.6901188 -73.414505 -8.6762152 -74.089088 -0.2347403 -92.964821
9200562500 -1.0565804 125.33058 -8.6906328 -73.425949 -8.6667576 -74.139221 -0.2291684 -92.980415
9200625000 -1.0536062 125.30373 -8.6857939 -73.413467 -8.6623058 -74.092133 -0.23160832 -92.920502
9200687500 -1.0543122 125.27119 -8.6849575 -73.414925 -8.6566515 -74.167587 -0.22430854 -92.949371
9200750000 -1.0530359 125.26906 -8.6847754 -73.434242 -8.6548824 -74.096001 -0.22641781 -92.863762
9200812500 -1.0543349 125.28043 -8.6820116 -73.35585 -8.6566591 -74.070236 -0.22915402 -92.821838
9200875000 -1.049232 125.22188 -8.6765423 -73.436905 -8.6490288 -74.068077 -0.22545917 -92.8563
9200937500 -1.0491236 125.24704 -8.6802397 -73.359337 -8.6532183 -74.131439 -0.22972998 -92.861504
9201000000 -1.0489945 125.23835 -8.6741619 -73.358116 -8.6569023 -74.160583 -0.2356998 -92.846062
9201062500 -1.0530515 125.26714 -8.6800737 -73.375206 -8.6593781 -74.130531 -0.23334974 -92.82457
9201125000 -1.049016 125.25719 -8.6788588 -73.42244 -8.6575003 -74.103111 -0.23943271 -92.834938
9201187500 -1.0499259 125.2994 -8.6818132 -73.365494 -8.6564579 -74.081078 -0.2432829 -92.776802
9201250000 -1.048673 125.27679 -8.6786966 -73.379463 -8.6672573 -74.088501 -0.24016429 -92.798218
9201312500 -1.0501468 125.26432 -8.6820993 -73.362938 -8.6623487 -74.142807 -0.23613907 -92.775017
9201375000 -1.0516826 125.2219 -8.6741858 -73.344513 -8.6634731 -74.105568 -0.23457776 -92.754547
9201437500 -1.0531461 125.20804 -8.6749916 -73.341393 -8.6490536 -74.134552 -0.23095568 -92.713554
9201500000 -1.0533857 125.18549 -8.6719017 -73.33049 -8.6528835 -74.120079 -0.23175532 -92.63475
9201562500 -1.0571647 125.18303 -8.667779 -73.348007 -8.6502504 -74.146294 -0.22534098 -92.644348
9201625000 -1.0584912 125.1507 -8.6706963 -73.341164 -8.6448479 -74.151939 -0.22292674 -92.680817
9201687500 -1.0528067 125.17506 -8.6643486 -73.31102 -8.6492052 -74.153969 -0.22857434 -92.597588
9201750000 -1.051318 125.12318 -8.6684666 -73.31118 -8.6456938 -74.10154 -0.23392667 -92.604362
9201812500 -1.0589714 125.10683 -8.6724434 -73.28788 -8.6463842 -74.089539 -0.23000063 -92.56179
9201875000 -1.0521067 125.11132 -8.6625643 -73.338249 -8.6530762 -74.052437 -0.23807865 -92.599045
9201937500 -1.0577846 125.10273 -8.6689005 -73.324997 -8.6488676 -74.02623 -0.23861894 -92.566383
9202000000 -1.0531958 125.06985 -8.6593294 -73.345848 -8.6528807 -74.067635 -0.24599239 -92.569565
9202062500 -1.0505338 125.07531 -8.6646814 -73.306885 -8.6481981 -74.034019 -0.24180321 -92.53476
9202125000 -1.051813 125.02899 -8.66679 -73.35537 -8.6425352 -74.022881 -0.24159876 -92.546066
9202187500 -1.0503881 125.00958 -8.6663446 -73.351776 -8.6492348 -74.058205 -0.2447411 -92.532173
9202250000 -1.0503386 125.00143 -8.659934 -73.35289 -8.6478167 -74.077957 -0.24621458 -92.517014
9202312500 -1.0501658 125.0013 -8.6714582 -73.3097 -8.652463 -74.060265 -0.24539576 -92.447334
9202375000 -1.0475945 124.94947 -8.6682596 -73.358643 -8.64886 -74.124878 -0.23942599 -92.487877
9202437500 -1.0472144 124.94744 -8.6576223 -73.360687 -8.6460428 -74.105782 -0.24048053 -92.4506
9202500000 -1.0498476 124.95518 -8.6523962 -73.287125 -8.6455421 -74.071793 -0.23995571 -92.453644
9202562500 -1.04888 124.91594 -8.6532211 -73.304153 -8.649704 -74.162811 -0.24165092 -92.434631
9202625000 -1.052417 124.93056 -8.6649151 -73.335632 -8.6463518 -74.123169 -0.24595532 -92.452782
9202687500 -1.0466375 124.91878 -8.6565943 -73.296928 -8.6426659 -74.079796 -0.23918357 -92.356483
9202750000 -1.0495127 124.90057 -8.6598673 -73.310173 -8.6352415 -74.086708 -0.24210131 -92.349121
9202812500 -1.0528555 124.84407 -8.6581926 -73.346039 -8.6380072 -74.109299 -0.24039066 -92.352707
9202875000 -1.0490916 124.84476 -8.6553698 -73.310242 -8.6357088 -74.153183 -0.240109 -92.371681
9202937500 -1.0432256 124.8176 -8.64781 -73.362129 -8.630538 -74.145302 -0.23597601 -92.370972
9203000000 -1.0497271 124.80771 -8.6544237 -73.336525 -8.6369953 -74.057327 -0.23547889 -92.320541
9203062500 -1.0492201 124.79494 -8.6547251 -73.349495 -8.6203613 -74.064812 -0.23377772 -92.320862
9203125000 -1.0391108 124.77982 -8.6426964 -73.304588 -8.6319914 -74.047813 -0.23865487 -92.26371
9203187500 -1.0469252 124.76544 -8.648241 -73.282066 -8.6303082 -74.003052 -0.23765019 -92.230827
9203250000 -1.0445656 124.78974 -8.6390247 -73.339645 -8.6328659 -74.03923 -0.23527874 -92.226692
9203312500 -1.0480924 124.78376 -8.6402788 -73.317436 -8.6364546 -74.112297 -0.23702331 -92.230766
9203375000 -1.0465611 124.77249 -8.6394787 -73.324257 -8.6361303 -74.052124 -0.23895964 -92.137245
9203437500 -1.0489079 124.74356 -8.638217 -73.300148 -8.6346664 -74.045868 -0.23392983 -92.139107
9203500000 -1.0498142 124.77246 -8.6261854 -73.265732 -8.6315126 -74.100037 -0.22971219 -92.140938
9203562500 -1.0541779 124.74178 -8.643425 -73.253197 -8.6439219 -74.031662 -0.2376055 -92.078949
9203625000 -1.0480465 124.72147 -8.6384792 -73.286369 -8.6350431 -74.065147 -0.23665094 -92.093498
9203687500 -1.0495623 124.64861 -8.6473522 -73.331039 -8.6255646 -74.099518 -0.23458298 -92.149223
9203750000 -1.0536827 124.68737 -8.6389971 -73.257225 -8.6349392 -74.07357 -0.24770638 -92.106918
9203812500 -1.0503594 124.66219 -8.6408606 -73.313187 -8.6198816 -74.057457 -0.23894903 -92.075829
9203875000 -1.0536257 124.61668 -8.6518641 -73.355843 -8.6284151 -74.035835 -0.24533445 -92.096596
9203937500 -1.0526912 124.61079 -8.6412573 -73.404297 -8.6335287 -74.074852 -0.24298818 -92.107262
9204000000 -1.0547891 124.60091 -8.6359787 -73.335457 -8.6255369 -74.058243 -0.23945464 -92.054749
9204062500 -1.0491952 124.58504 -8.6369238 -73.321815 -8.6277647 -74.082603 -0.23625988 -92.073677
9204125000 -1.0484549 124.56512 -8.6342001 -73.362991 -8.6290398 -74.012665 -0.23192132 -91.99028
9204187500 -1.0499333 124.55293 -8.6330757 -73.323402 -8.6245451 -74.023346 -0.23156135 -91.97361
9204250000 -1.0505245 124.56693 -8.6374359 -73.318718 -8.6204433 -74.067863 -0.23278305 -92.022781
9204312500 -1.0439821 124.53667 -8.6320772 -73.28952 -8.6266937 -74.044052 -0.23602068 -91.953766
9204375000 -1.046162 124.56146 -8.6278505 -73.234993 -8.6219873 -74.036865 -0.2408112 -91.933128
9204437500 -1.042915 124.54078 -8.6319542 -73.219742 -8.616168 -73.997864 -0.23275118 -91.886078
9204500000 -1.0419588 124.49297 -8.6240349 -73.277191 -8.6209488 -74.02626 -0.24223773 -91.864525
9204562500 -1.0403777 124.49462 -8.6208181 -73.221832 -8.6188898 -74.016403 -0.24465606 -91.849174
9204625000 -1.0425776 124.44459 -8.6264181 -73.24231 -8.6154909 -74.022102 -0.24620251 -91.84008
9204687500 -1.0433524 124.42883 -8.6255445 -73.226196 -8.6104708 -74.050415 -0.2451123 -91.831863
9204750000 -1.0503896 124.44478 -8.6332445 -73.245613 -8.6172085 -74.031883 -0.24673533 -91.84491
9204812500 -1.0455837 124.40771 -8.6230488 -73.232231 -8.6180458 -73.969803 -0.2432881 -91.815536
9204875000 -1.0532253 124.38229 -8.6343222 -73.30072 -8.6146259 -73.983994 -0.24946262 -91.772423
9204937500 -1.0511191 124.38317 -8.6284647 -73.278366 -8.6120958 -73.971466 -0.2425544 -91.768417
9205000000 -1.0492443 124.33704 -8.6256666 -73.360802 -8.6120281 -74.020416 -0.24629726 -91.767212
9205062500 -1.0518901 124.36828 -8.6264153 -73.322388 -8.6174231 -74.036743 -0.24458952 -91.74649
9205125000 -1.0489843 124.35835 -8.6183672 -73.277534 -8.6107559 -74.099518 -0.23051333 -91.746605
9205187500 -1.0505023 124.37645 -8.6152363 -73.283432 -8.6177311 -74.050941 -0.24016045 -91.735359
9205250000 -1.0521821 124.37814 -8.6231184 -73.210442 -8.6190414 -74.04612 -0.2436253 -91.689072
9205312500 -1.0495261 124.34521 -8.6150064 -73.228935 -8.6165562 -74.082161 -0.23524998 -91.663361
9205375000 -1.0506517 124.34164 -8.6293583 -73.268456 -8.6150341 -74.062119 -0.23325039 -91.631386
9205437500 -1.0462838 124.29912 -8.6184673 -73.235687 -8.6120539 -74.010971 -0.23502456 -91.587486
9205500000 -1.0470611 124.30211 -8.6125135 -73.242943 -8.6101227 -73.990967 -0.23977369 -91.590096
9205562500 -1.0516605 124.26775 -8.6316328 -73.215118 -8.6130571 -74.020203 -0.24332491 -91.577179
9205625000 -1.053334 124.23328 -8.6276464 -73.246437 -8.6094017 -73.961906 -0.24986587 -91.472168
9205687500 -1.0525033 124.24658 -8.6316681 -73.216248 -8.6090069 -73.953682 -0.25498697 -91.485229
9205750000 -1.0505055 124.20576 -8.6225548 -73.218178 -8.6049805 -74.024704 -0.2545695 -91.476768
9205812500 -1.0469056 124.20403 -8.6246099 -73.183472 -8.6070776 -73.998657 -0.25035816 -91.446838
9205875000 -1.0513572 124.15896 -8.6154375 -73.252899 -8.6088915 -74.01841 -0.24906856 -91.474213
9205937500 -1.0535914 124.16355 -8.6220093 -73.180389 -8.6017752 -73.981148 -0.25270978 -91.417397
9206000000 -1.0577778 124.15362 -8.6178064 -73.18705 -8.6004381 -73.939354 -0.24741955 -91.394684
9206062500 -1.0585462 124.17252 -8.6177902 -73.247971 -8.6039219 -74.004723 -0.25296155 -91.425735
9206125000 -1.0520419 124.12527 -8.60499 -73.228371 -8.602334 -74.001869 -0.25103241 -91.422272
9206187500 -1.0538014 124.0866 -8.6083097 -73.242073 -8.610713 -73.987183 -0.25318432 -91.350731
9206250000 -1.0466659 124.08026 -8.6075306 -73.20488 -8.5953112 -73.976814 -0.25182381 -91.354439
9206312500 -1.0503849 124.05437 -8.6051674 -73.256332 -8.606513 -73.930214 -0.25335369 -91.308815
9206375000 -1.0477186 124.04659 -8.6071911 -73.19516 -8.5998774 -73.930412 -0.25676158 -91.276321
9206437500 -1.0510719 124.01031 -8.6072426 -73.230072 -8.6043463 -73.942818 -0.2558406 -91.301308
9206500000 -1.0511667 124.00224 -8.6143541 -73.269958 -8.601368 -73.987221 -0.25390145 -91.285774
9206562500 -1.0544897 123.99648 -8.6036272 -73.248993 -8.5943346 -73.946564 -0.23975892 -91.256172
9206625000 -1.0560607 124.00156 -8.6073065 -73.244362 -8.5950909 -73.949493 -0.25236791 -91.269264
9206687500 -1.053564 124.02209 -8.6026335 -73.299118 -8.5934734 -73.953773 -0.24573793 -91.24688
9206750000 -1.0523976 124.013 -8.5970535 -73.288658 -8.5860186 -73.949043 -0.24217837 -91.2649
9206812500 -1.0555942 124.04326 -8.6031113 -73.242371 -8.589736 -73.944969 -0.2414923 -91.231941
9206875000 -1.0535553 124.02174 -8.6171808 -73.24054 -8.5922184 -73.938545 -0.24055523 -91.258438
9206937500 -1.0485711 124.02804 -8.6015663 -73.226616 -8.5887318 -73.967308 -0.24263069 -91.24366
9207000000 -1.0495147 123.96321 -8.6062174 -73.239113 -8.5849447 -73.934006 -0.24150494 -91.161537
9207062500 -1.0492904 123.93498 -8.6080532 -73.235947 -8.5865612 -73.921967 -0.2446941 -91.104736
9207125000 -1.0444527 123.89958 -8.6031914 -73.244202 -8.5915232 -73.972313 -0.24615787 -91.106728
9207187500 -1.0500946 123.85426 -8.6023512 -73.242432 -8.5764771 -73.94529 -0.24276985 -91.102234
9207250000 -1.0489066 123.8644 -8.6028318 -73.252823 -8.5766907 -73.97628 -0.2474235 -91.068466
9207312500 -1.0478548 123.84005 -8.5961285 -73.236694 -8.5890188 -73.985535 -0.25330165 -91.098145
9207375000 -1.0492887 123.85398 -8.6008711 -73.195404 -8.5849867 -73.969849 -0.2524347 -91.090446
9207437500 -1.0450954 123.80394 -8.593503 -73.201935 -8.5862265 -73.894844 -0.24865632 -91.039459
9207500000 -1.0481259 123.80177 -8.5937052 -73.206238 -8.5848732 -73.918221 -0.25560948 -91.03849
9207562500 -1.0515089 123.79198 -8.6040974 -73.25901 -8.5879488 -73.929192 -0.26304647 -91.046799
9207625000 -1.0563754 123.76468 -8.5994892 -73.194916 -8.5864363 -73.91481 -0.25766188 -91.004707
9207687500 -1.0542239 123.7415 -8.5863132 -73.223679 -8.5803356 -73.934708 -0.25289878 -91.010963
9207750000 -1.0615031 123.73279 -8.5919247 -73.245659 -8.5850191 -73.935715 -0.2477331 -91.003334
9207812500 -1.0613636 123.73946 -8.5965853 -73.276848 -8.5882282 -73.948227 -0.2436831 -91.008621
9207875000 -1.0586828 123.73433 -8.5929213 -73.32048 -8.5773849 -73.96022 -0.24487907 -90.958969
9207937500 -1.0596478 123.69977 -8.593298 -73.281548 -8.5827751 -73.974548 -0.24209322 -90.982292
9208000000 -1.0561662 123.7115 -8.5895386 -73.285904 -8.5861521 -73.969925 -0.24409594 -90.921181
9208062500 -1.0547338 123.7356 -8.5824127 -73.213531 -8.5862942 -73.972168 -0.24556553 -90.887268
9208125000 -1.0507969 123.70324 -8.5851498 -73.234108 -8.5819778 -73.995422 -0.24898469 -90.890404
9208187500 -1.0523361 123.68174 -8.5721025 -73.210442 -8.5763454 -73.922577 -0.24599509 -90.814034
9208250000 -1.0496236 123.67725 -8.5798817 -73.179237 -8.5848598 -73.986275 -0.25536022 -90.826118
9208312500 -1.049253 123.67526 -8.5795774 -73.187973 -8.584424 -73.996002 -0.25017235 -90.780792
9208375000 -1.0520687 123.62618 -8.5812149 -73.161995 -8.5822659 -73.969254 -0.25317687 -90.757195
9208437500 -1.0515198 123.64379 -8.5822639 -73.167732 -8.5765085 -73.973869 -0.24830483 -90.768539
9208500000 -1.0495926 123.63966 -8.5802946 -73.190506 -8.5756741 -73.919884 -0.25214097 -90.727425
9208562500 -1.0524931 123.59814 -8.5753555 -73.162941 -8.5673304 -73.944557 -0.24987394 -90.783623
9208625000 -1.0502442 123.60766 -8.5720062 -73.141006 -8.5753727 -73.946167 -0.24770403 -90.749634
9208687500 -1.0479969 123.57742 -8.5692434 -73.129623 -8.5797358 -73.906815 -0.25234264 -90.726776
9208750000 -1.0428792 123.59928 -8.5691881 -73.098854 -8.5766277 -73.939453 -0.2539143 -90.714386
9208812500 -1.0453677 123.59418 -8.5843697 -73.076828 -8.5709343 -73.882347 -0.25549948 -90.697792
9208875000 -1.0477606 123.57034 -8.569108 -73.1763 -8.569315 -73.947014 -0.25957572 -90.7127
9208937500 -1.0463724 123.53907 -8.5780039 -73.14138 -8.569767 -73.881645 -0.25392884 -90.662506
9209000000 -1.0459824 123.53774 -8.5796041 -73.138817 -8.5595083 -73.910561 -0.25555885 -90.65139
9209062500 -1.0454816 123.51419 -8.5719843 -73.139809 -8.5673695 -73.892403 -0.2594718 -90.619736
9209125000 -1.0440434 123.49409 -8.5723877 -73.148209 -8.5746555 -73.890739 -0.26611206 -90.591743
9209187500 -1.0476267 123.46988 -8.5753298 -73.177979 -8.5614147 -73.884605 -0.2582221 -90.578293
9209250000 -1.0431011 123.46919 -8.5718174 -73.105942 -8.5689917 -73.869453 -0.26269975 -90.537865
9209312500 -1.048954 123.48068 -8.579278 -73.146759 -8.5704765 -73.953003 -0.26268312 -90.601631
9209375000 -1.046896 123.42887 -8.574707 -73.147102 -8.5674667 -73.923378 -0.26295701 -90.54158
9209437500 -1.0474229 123.38683 -8.5691614 -73.142639 -8.5619869 -73.855141 -0.25948641 -90.47525
9209500000 -1.0403775 123.36955 -8.5662241 -73.135605 -8.5705585 -73.866417 -0.26154903 -90.506401
9209562500 -1.0442026 123.37189 -8.568716 -73.145683 -8.5671759 -73.873291 -0.25907052 -90.465248
9209625000 -1.0479696 123.3616 -8.568285 -73.170967 -8.5653152 -73.958748 -0.25668299 -90.529121
9209687500 -1.0518134 123.34745 -8.5807209 -73.119286 -8.5679874 -73.839417 -0.25078383 -90.409866
9209750000 -1.0508488 123.31048 -8.5683794 -73.180725 -8.5676889 -73.858238 -0.25572312 -90.429962
9209812500 -1.0515759 123.32654 -8.560791 -73.122902 -8.5712547 -73.914314 -0.2555162 -90.403923
9209875000 -1.0554718 123.28356 -8.5589781 -73.20768 -8.5633755 -73.878937 -0.25102139 -90.386719
9209937500 -1.0549905 123.30587 -8.5651646 -73.16774 -8.5643339 -73.877563 -0.24814565 -90.397575
9210000000 -1.0584478 123.30173 -8.5667925 -73.164589 -8.5639715 -73.849426 -0.25433528 -90.361778
9210062500 -1.0569999 123.28667 -8.5677738 -73.126183 -8.5525694 -73.910561 -0.24702972 -90.352966
9210125000 -1.0602989 123.27303 -8.5740318 -73.158852 -8.5544853 -73.865265 -0.25534964 -90.333038
9210187500 -1.0544829 123.27673 -8.5666246 -73.095573 -8.5579453 -73.898018 -0.25653103 -90.3284
9210250000 -1.0544773 123.23164 -8.5617208 -73.116829 -8.5516071 -73.867569 -0.25743261 -90.267006
9210312500 -1.0559877 123.23978 -8.565464 -73.138107 -8.5508385 -73.886467 -0.25568554 -90.29924
9210375000 -1.0540972 123.23052 -8.5558338 -73.11628 -8.5491133 -73.877319 -0.25379023 -90.269501
9210437500 -1.0551721 123.1945 -8.5523777 -73.119003 -8.5526686 -73.90226 -0.26004684 -90.2668
9210500000 -1.0529999 123.18905 -8.5550823 -73.130486 -8.5507746 -73.906258 -0.25693122 -90.2649
9210562500 -1.0527005 123.14016 -8.555851 -73.145851 -8.5597076 -73.93364 -0.26531667 -90.266373
9210625000 -1.0514686 123.10474 -8.5569305 -73.169189 -8.5557899 -73.875351 -0.26182786 -90.216507
9210687500 -1.0562512 123.06401 -8.5578232 -73.171577 -8.549099 -73.887047 -0.2634078 -90.201241
9210750000 -1.0530512 123.05309 -8.5578556 -73.18692 -8.5482731 -73.912834 -0.25835398 -90.182121
9210812500 -1.0504799 123.03616 -8.5546293 -73.178925 -8.5472364 -73.810371 -0.26015082 -90.116463
9210875000 -1.0504832 123.04223 -8.5460968 -73.125557 -8.5495596 -73.839935 -0.26647711 -90.123817
9210937500 -1.0538473 123.03639 -8.5480089 -73.107529 -8.5410042 -73.788513 -0.2556124 -90.046593
9211000000 -1.0560446 123.03757 -8.5474844 -73.137489 -8.5406132 -73.812965 -0.25859466 -90.034821
9211062500 -1.049183 123.00417 -8.5421991 -73.121529 -8.5521984 -73.800858 -0.2632896 -90.048645
9211125000 -1.0494246 123.00489 -8.54459 -73.135147 -8.5385237 -73.812523 -0.26062047 -89.96965
9211187500 -1.0496008 123.00478 -8.5495949 -73.134583 -8.5402679 -73.837883 -0.26519027 -90.025803
9211250000 -1.0589585 123.00266 -8.5556746 -73.12458 -8.5356731 -73.85321 -0.26436836 -89.974823
9211312500 -1.0528618 122.94921 -8.5478888 -73.167122 -8.5373335 -73.831223 -0.26985094 -89.969147
9211375000 -1.0549793 122.97592 -8.545742 -73.106277 -8.5426397 -73.833321 -0.27044854 -89.968773
9211437500 -1.0515227 122.94427 -8.5575638 -73.110184 -8.5443058 -73.87545 -0.26451576 -89.988075
9211500000 -1.0460488 122.95827 -8.5436563 -73.069565 -8.5488052 -73.849548 -0.26654148 -89.958008
9211562500 -1.0451306 122.9407 -8.5384703 -73.092117 -8.5424852 -73.788567 -0.26149669 -89.933647
9211625000 -1.0470308 122.97111 -8.5355158 -73.111534 -8.540616 -73.843979 -0.26617271 -89.991463
9211687500 -1.0389693 122.91506 -8.5405722 -73.136604 -8.5450039 -73.809021 -0.26464829 -89.96489
9211750000 -1.0465645 122.93327 -8.5381203 -73.150169 -8.5387907 -73.81633 -0.26129705 -89.950371
9211812500 -1.0447247 122.91482 -8.5468254 -73.10202 -8.5352249 -73.815041 -0.26096132 -89.926651
9211875000 -1.0482882 122.91515 -8.541996 -73.060829 -8.5357037 -73.791046 -0.26479143 -89.866943
9211937500 -1.0455226 122.86625 -8.5396528 -73.075447 -8.5433464 -73.764832 -0.26929232 -89.838776
9212000000 -1.0513362 122.83205 -8.5449114 -73.09668 -8.5406904 -73.795677 -0.26992723 -89.853004
9212062500 -1.0438122 122.81587 -8.5395184 -73.069931 -8.5296926 -73.798218 -0.26561126 -89.776375
9212125000 -1.0468301 122.77991 -8.5406647 -73.0923 -8.5348845 -73.821724 -0.26678839 -89.745209
9212187500 -1.0479003 122.7877 -8.5341749 -73.009308 -8.5257158 -73.858139 -0.26559043 -89.759834
9212250000 -1.0481129 122.72999 -8.5347462 -73.102547 -8.5215855 -73.836548 -0.25906852 -89.774956
9212312500 -1.0448679 122.69614 -8.5323887 -73.115883 -8.5288534 -73.859863 -0.26315275 -89.720741
