!Agilent Technologies,N5242A,MY51221714,A.09.90.19
!Agilent N5242A: A.09.90.19
!Date: Saturday, December 30, 2023 10:32:07
!Correction: S11(Full 2 Port(1,2)) 
!S21(Full 2 Port(1,2)) 
!S12(Full 2 Port(1,2)) 
!S22(Full 2 Port(1,2)) 
!S2P File: Measurements: S11, S21, S12, S22:
# Hz S  dB   R 50
9200000000 -1.1008933 124.86593 -8.6114159 -73.703125 -8.5911274 -74.489944 -0.25727278 -92.936691
9200062500 -1.1082063 124.87654 -8.6167812 -73.712021 -8.5903969 -74.483963 -0.25735614 -92.92926
9200125000 -1.1020113 124.82396 -8.6056004 -73.713463 -8.6019506 -74.524796 -0.26374233 -92.879929
9200187500 -1.1026169 124.80576 -8.6091566 -73.737839 -8.5930395 -74.485252 -0.25560096 -92.902451
9200250000 -1.1053663 124.80944 -8.6084881 -73.763084 -8.5882053 -74.488831 -0.26338485 -92.897598
9200312500 -1.1078937 124.79719 -8.60602 -73.735298 -8.5935698 -74.480835 -0.264043 -92.89212
9200375000 -1.1082144 124.75269 -8.6179848 -73.774948 -8.5934238 -74.513359 -0.26984507 -92.897423
9200437500 -1.1096224 124.76899 -8.6117754 -73.731766 -8.5874491 -74.521805 -0.26380908 -92.900391
9200500000 -1.1044778 124.7336 -8.6109171 -73.763489 -8.5972281 -74.496788 -0.26578364 -92.840866
9200562500 -1.105739 124.70375 -8.6156063 -73.744736 -8.583457 -74.487839 -0.26120433 -92.814987
9200625000 -1.1043222 124.70248 -8.607379 -73.766571 -8.5767851 -74.485229 -0.25230727 -92.839249
9200687500 -1.0995244 124.66832 -8.6029549 -73.790474 -8.5841169 -74.495911 -0.26440528 -92.788177
9200750000 -1.1022389 124.66302 -8.6023474 -73.755814 -8.5790091 -74.484932 -0.25753266 -92.777275
9200812500 -1.1051908 124.6291 -8.6058092 -73.74884 -8.5769167 -74.471214 -0.25408229 -92.750183
9200875000 -1.1009272 124.60832 -8.6031637 -73.778427 -8.5721006 -74.455322 -0.25681752 -92.700165
9200937500 -1.1029814 124.64026 -8.6054888 -73.779846 -8.5777531 -74.495285 -0.26352406 -92.727463
9201000000 -1.1044847 124.62547 -8.598217 -73.793457 -8.5809669 -74.496521 -0.26659581 -92.735703
9201062500 -1.105561 124.66982 -8.6035519 -73.759605 -8.5844994 -74.481163 -0.26926318 -92.693314
9201125000 -1.1006517 124.64508 -8.6014729 -73.701195 -8.5901794 -74.422005 -0.26725808 -92.71994
9201187500 -1.1006441 124.6474 -8.5992098 -73.736053 -8.5939264 -74.492798 -0.27390122 -92.696671
9201250000 -1.106511 124.62932 -8.6123247 -73.750778 -8.5875216 -74.4207 -0.26773843 -92.65567
9201312500 -1.1025679 124.63343 -8.5985126 -73.681664 -8.590065 -74.434326 -0.27428299 -92.648918
9201375000 -1.1078831 124.61792 -8.6026478 -73.64463 -8.5845737 -74.469719 -0.26779506 -92.615852
9201437500 -1.108459 124.59118 -8.5996752 -73.764183 -8.5824575 -74.438049 -0.26789042 -92.595985
9201500000 -1.1071664 124.55263 -8.5918818 -73.756439 -8.5797176 -74.516815 -0.2643517 -92.573212
9201562500 -1.1112 124.56947 -8.594388 -73.703125 -8.5755301 -74.487801 -0.26239091 -92.489166
9201625000 -1.1077547 124.53857 -8.5894804 -73.692017 -8.5865126 -74.457176 -0.26715839 -92.492989
9201687500 -1.1090674 124.53358 -8.590251 -73.652153 -8.5777082 -74.495094 -0.26881307 -92.483742
9201750000 -1.1073623 124.51283 -8.5875635 -73.705116 -8.5818748 -74.436386 -0.26910487 -92.442436
9201812500 -1.1091231 124.51579 -8.6009951 -73.654663 -8.5750341 -74.426117 -0.26523748 -92.447899
9201875000 -1.1085838 124.48103 -8.5921564 -73.648712 -8.5651064 -74.380302 -0.26802328 -92.450081
9201937500 -1.1108006 124.48632 -8.5948048 -73.734596 -8.5780125 -74.430717 -0.27223301 -92.472481
9202000000 -1.1051239 124.46751 -8.5888376 -73.645378 -8.5779057 -74.359184 -0.27294537 -92.430939
9202062500 -1.1053305 124.4278 -8.5928278 -73.700974 -8.5805511 -74.420052 -0.27927601 -92.424637
9202125000 -1.1031616 124.41471 -8.5912476 -73.683395 -8.5736485 -74.469345 -0.27348727 -92.410126
9202187500 -1.1051679 124.39709 -8.5869818 -73.706871 -8.5784893 -74.435478 -0.27272525 -92.39373
9202250000 -1.1031449 124.38443 -8.5899096 -73.693558 -8.5777349 -74.436256 -0.27506134 -92.374893
9202312500 -1.1040781 124.39368 -8.5834608 -73.685783 -8.5721798 -74.498528 -0.26849037 -92.395088
9202375000 -1.1015068 124.32271 -8.5854988 -73.739494 -8.5785046 -74.475052 -0.27885914 -92.324989
9202437500 -1.100759 124.34436 -8.5781107 -73.716362 -8.5657225 -74.507835 -0.27621016 -92.372696
9202500000 -1.1029197 124.3361 -8.5866728 -73.729424 -8.5726433 -74.487312 -0.27162704 -92.352119
9202562500 -1.1060979 124.30742 -8.5888815 -73.667809 -8.5731726 -74.471802 -0.2762101 -92.274887
9202625000 -1.1046195 124.28137 -8.5837679 -73.699089 -8.5684328 -74.487915 -0.26922253 -92.322777
9202687500 -1.1050448 124.25367 -8.5868092 -73.672279 -8.5693245 -74.449486 -0.27120727 -92.236221
9202750000 -1.1051072 124.25504 -8.5825615 -73.720528 -8.5660162 -74.468124 -0.27081653 -92.27507
9202812500 -1.101679 124.27548 -8.582201 -73.647789 -8.5701485 -74.501251 -0.27598709 -92.261078
9202875000 -1.1030474 124.25092 -8.5812235 -73.725883 -8.5620279 -74.481018 -0.27134115 -92.237534
9202937500 -1.0990633 124.20224 -8.5743599 -73.642227 -8.563262 -74.478752 -0.27578488 -92.207184
9203000000 -1.1053741 124.22505 -8.580574 -73.628082 -8.5578632 -74.472816 -0.27022821 -92.204453
9203062500 -1.094959 124.19706 -8.5781507 -73.684685 -8.5530605 -74.432014 -0.27308697 -92.166862
9203125000 -1.1007298 124.15045 -8.5750141 -73.709747 -8.5554247 -74.463516 -0.27674845 -92.155159
9203187500 -1.1022587 124.17304 -8.5737839 -73.706543 -8.5624113 -74.38961 -0.27230233 -92.102394
9203250000 -1.0945177 124.1499 -8.5650415 -73.669174 -8.5654907 -74.374077 -0.27004233 -92.087784
9203312500 -1.0997294 124.16326 -8.5592842 -73.652199 -8.5541706 -74.442688 -0.2699798 -92.103577
9203375000 -1.0946363 124.15956 -8.5553551 -73.66655 -8.568038 -74.412689 -0.27161136 -92.050728
9203437500 -1.1001756 124.15025 -8.5561943 -73.60627 -8.5590906 -74.385849 -0.27169928 -92.004868
9203500000 -1.1022204 124.15866 -8.5536871 -73.667664 -8.5597525 -74.404922 -0.26834917 -92.022614
9203562500 -1.1024735 124.15493 -8.5684929 -73.6175 -8.5542336 -74.405403 -0.26350662 -91.98658
9203625000 -1.1024081 124.1123 -8.5633545 -73.676666 -8.5651798 -74.382301 -0.282134 -91.976967
9203687500 -1.1007224 124.07445 -8.5621948 -73.705429 -8.5548315 -74.424141 -0.27383551 -91.972351
9203750000 -1.099507 124.06078 -8.5659781 -73.669853 -8.5508623 -74.408661 -0.27731496 -92.002045
9203812500 -1.1057696 124.01576 -8.5741186 -73.666138 -8.553627 -74.424713 -0.27725676 -91.964119
9203875000 -1.1087797 124.00208 -8.5769129 -73.702911 -8.5574121 -74.439552 -0.27764496 -91.987045
9203937500 -1.1072303 123.97479 -8.5734367 -73.727043 -8.5527906 -74.433861 -0.27250335 -91.94368
9204000000 -1.1028473 123.97751 -8.5609207 -73.708221 -8.558094 -74.405708 -0.27738339 -91.935539
9204062500 -1.1024768 123.98084 -8.5587206 -73.66803 -8.5447817 -74.412109 -0.25985551 -91.895775
9204125000 -1.1021233 123.95318 -8.5608702 -73.647461 -8.5496321 -74.383614 -0.26579785 -91.901436
9204187500 -1.1027354 123.95765 -8.5536022 -73.686188 -8.5419273 -74.393661 -0.26128379 -91.877197
9204250000 -1.1011491 123.95229 -8.5640078 -73.655151 -8.5417852 -74.379532 -0.26502758 -91.83757
9204312500 -1.0966581 123.9756 -8.5491505 -73.644341 -8.545928 -74.428787 -0.26574042 -91.850288
9204375000 -1.0975916 123.94111 -8.5485449 -73.588539 -8.5458126 -74.400322 -0.27084178 -91.818497
9204437500 -1.0970551 123.88493 -8.5463924 -73.679092 -8.5409021 -74.377251 -0.27206865 -91.775497
9204500000 -1.0970547 123.89777 -8.5502739 -73.574196 -8.54813 -74.379631 -0.28055829 -91.774925
9204562500 -1.0994612 123.85387 -8.5470076 -73.559746 -8.5378008 -74.351952 -0.27326387 -91.734627
9204625000 -1.0880367 123.85566 -8.5336752 -73.515793 -8.5432301 -74.393127 -0.27711347 -91.691399
9204687500 -1.1001973 123.82879 -8.5468416 -73.580048 -8.5432234 -74.389732 -0.27646464 -91.714577
9204750000 -1.0975959 123.79523 -8.551013 -73.605774 -8.5403996 -74.417381 -0.27544913 -91.696503
9204812500 -1.1006739 123.78738 -8.5481129 -73.657967 -8.5347738 -74.375908 -0.27827543 -91.667603
9204875000 -1.0992032 123.76194 -8.5492382 -73.674721 -8.5443659 -74.393478 -0.28528711 -91.64592
9204937500 -1.1041025 123.74918 -8.5569944 -73.673241 -8.5345888 -74.388191 -0.27759567 -91.700241
9205000000 -1.1047956 123.74628 -8.5568504 -73.680931 -8.540637 -74.378822 -0.28118756 -91.657951
9205062500 -1.1058055 123.72276 -8.5579739 -73.732773 -8.5397024 -74.387558 -0.27154177 -91.632957
9205125000 -1.1026112 123.73929 -8.5445938 -73.660583 -8.5398598 -74.399513 -0.27162462 -91.615662
9205187500 -1.1021029 123.72511 -8.5438461 -73.632652 -8.5430717 -74.396172 -0.27006152 -91.576248
9205250000 -1.1017255 123.71978 -8.5443907 -73.640961 -8.5402431 -74.414818 -0.26559624 -91.517136
9205312500 -1.101246 123.76105 -8.5473557 -73.584435 -8.5413465 -74.40213 -0.26784837 -91.501205
9205375000 -1.1051676 123.7401 -8.5415649 -73.597427 -8.5344181 -74.442871 -0.27071983 -91.553009
9205437500 -1.1047763 123.69078 -8.5473671 -73.621323 -8.5350275 -74.413582 -0.27664533 -91.481461
9205500000 -1.1029347 123.69797 -8.5507307 -73.567596 -8.5335789 -74.352341 -0.27277988 -91.436684
9205562500 -1.1071259 123.63844 -8.5478115 -73.582764 -8.5242805 -74.402512 -0.27460131 -91.450401
9205625000 -1.105921 123.58592 -8.5466261 -73.576981 -8.5296087 -74.31044 -0.28360084 -91.367165
9205687500 -1.1001294 123.59939 -8.550806 -73.598106 -8.5294151 -74.39045 -0.28413236 -91.394203
9205750000 -1.1043351 123.58718 -8.5409689 -73.521767 -8.5171995 -74.34623 -0.27825916 -91.34893
9205812500 -1.106424 123.56194 -8.5517893 -73.609482 -8.5243034 -74.371544 -0.28478184 -91.343719
9205875000 -1.1022972 123.53909 -8.550108 -73.554413 -8.5288839 -74.347298 -0.28281894 -91.298828
9205937500 -1.1077602 123.53349 -8.5471907 -73.516281 -8.5327206 -74.365952 -0.28832716 -91.312057
9206000000 -1.1063119 123.53164 -8.5359182 -73.58239 -8.5298986 -74.335068 -0.28416261 -91.281059
9206062500 -1.1088728 123.50954 -8.547965 -73.607361 -8.5300102 -74.329147 -0.28462034 -91.284767
9206125000 -1.1037065 123.45706 -8.5347748 -73.615044 -8.5341311 -74.350601 -0.28758916 -91.284103
9206187500 -1.101742 123.50268 -8.5305548 -73.569603 -8.5275068 -74.325478 -0.28795162 -91.246681
9206250000 -1.105775 123.4623 -8.5347948 -73.635597 -8.5254021 -74.320679 -0.28799573 -91.254539
9206312500 -1.1081686 123.44346 -8.5385637 -73.58989 -8.5307531 -74.310974 -0.2876786 -91.196518
9206375000 -1.1050751 123.41808 -8.5364571 -73.599007 -8.5357714 -74.329422 -0.291794 -91.167297
9206437500 -1.101655 123.39184 -8.5254946 -73.665802 -8.5272884 -74.324074 -0.29340592 -91.147583
9206500000 -1.0991092 123.37002 -8.5299606 -73.651772 -8.5234547 -74.344124 -0.28657094 -91.147766
9206562500 -1.0993446 123.40693 -8.5284634 -73.544846 -8.5180283 -74.299866 -0.28215677 -91.128212
9206625000 -1.1068482 123.37928 -8.5272427 -73.650261 -8.5265274 -74.357643 -0.28283593 -91.145531
9206687500 -1.1062539 123.40432 -8.5246134 -73.642532 -8.5216732 -74.295113 -0.28401175 -91.154015
9206750000 -1.1112149 123.39896 -8.5333443 -73.665634 -8.513792 -74.310692 -0.28155115 -91.074669
9206812500 -1.108112 123.42555 -8.5309525 -73.682602 -8.5186176 -74.301743 -0.27917168 -91.121635
9206875000 -1.1045419 123.40501 -8.5239916 -73.610466 -8.5017624 -74.272697 -0.26878142 -91.052078
9206937500 -1.0998387 123.32493 -8.5231113 -73.68663 -8.5047283 -74.31015 -0.27517045 -91.07312
9207000000 -1.1079507 123.38403 -8.5322838 -73.581596 -8.5044079 -74.347771 -0.27407128 -91.088203
9207062500 -1.0998672 123.32345 -8.5325193 -73.61026 -8.5099525 -74.308952 -0.27590117 -91.025955
9207125000 -1.0947732 123.2778 -8.5252333 -73.56778 -8.5093431 -74.333359 -0.27752182 -91.00531
9207187500 -1.1004609 123.24753 -8.5275373 -73.581642 -8.5014544 -74.306808 -0.27775139 -90.975868
9207250000 -1.0979227 123.21763 -8.5252676 -73.599945 -8.5061388 -74.332397 -0.27901265 -90.925049
9207312500 -1.1057659 123.21429 -8.5233011 -73.568558 -8.5080481 -74.3274 -0.28033689 -90.969757
9207375000 -1.1032405 123.20806 -8.5243502 -73.613503 -8.5086279 -74.321136 -0.28538483 -90.930466
9207437500 -1.1029736 123.21919 -8.5266905 -73.536346 -8.509675 -74.298546 -0.28436905 -90.92926
9207500000 -1.1086164 123.1609 -8.5154114 -73.613708 -8.5003757 -74.327232 -0.28262568 -90.910774
9207562500 -1.1068134 123.14457 -8.5239334 -73.623604 -8.5095158 -74.273308 -0.28548682 -90.8629
9207625000 -1.1038053 123.10101 -8.5205965 -73.624832 -8.5081072 -74.272377 -0.28905863 -90.903008
9207687500 -1.1087488 123.11305 -8.5204782 -73.679573 -8.5045652 -74.321808 -0.28371099 -90.91745
9207750000 -1.1052307 123.11272 -8.51231 -73.637474 -8.5090685 -74.293098 -0.28195944 -90.873749
9207812500 -1.1192659 123.08879 -8.5122824 -73.661812 -8.5002832 -74.317818 -0.27020052 -90.889954
9207875000 -1.1139486 123.08986 -8.5228939 -73.654884 -8.5100231 -74.340652 -0.28155103 -90.851395
9207937500 -1.1163844 123.09662 -8.5157404 -73.664162 -8.5059013 -74.359871 -0.27780181 -90.845573
9208000000 -1.1081532 123.09876 -8.5093079 -73.623924 -8.5142832 -74.318886 -0.28100273 -90.840454
9208062500 -1.1110479 123.10506 -8.5079842 -73.586189 -8.502902 -74.345436 -0.27598456 -90.800568
9208125000 -1.1070467 123.07761 -8.5087824 -73.562065 -8.5066214 -74.294067 -0.27678916 -90.770401
9208187500 -1.1097604 123.05958 -8.5090342 -73.594116 -8.5165119 -74.350388 -0.29042917 -90.73307
9208250000 -1.1068773 123.03102 -8.5061665 -73.529076 -8.5037546 -74.345192 -0.28406528 -90.676949
9208312500 -1.1098903 123.05046 -8.5120296 -73.517944 -8.5069952 -74.382492 -0.28567284 -90.685059
9208375000 -1.1057934 123.03934 -8.4957504 -73.481873 -8.5006752 -74.347862 -0.2804884 -90.667503
9208437500 -1.1065402 123.00967 -8.5040474 -73.536621 -8.5013494 -74.295036 -0.28403139 -90.611794
9208500000 -1.1064892 123.01932 -8.5015917 -73.493156 -8.4986362 -74.32531 -0.28307977 -90.618362
9208562500 -1.1042197 122.96471 -8.4907675 -73.564804 -8.4970312 -74.320183 -0.28191844 -90.644691
9208625000 -1.0987366 122.97604 -8.4964399 -73.496063 -8.5075827 -74.296181 -0.291271 -90.615639
9208687500 -1.103801 122.95306 -8.4904108 -73.535515 -8.5051651 -74.304878 -0.29023659 -90.59462
9208750000 -1.1003156 122.93767 -8.5035944 -73.487198 -8.4929924 -74.240913 -0.28333825 -90.572105
9208812500 -1.1013426 122.94518 -8.5112238 -73.468315 -8.4958363 -74.227127 -0.2892375 -90.493233
9208875000 -1.1034447 122.91412 -8.4977713 -73.510696 -8.4956121 -74.243935 -0.29325312 -90.551224
9208937500 -1.0979562 122.89709 -8.4991665 -73.560081 -8.4835653 -74.293564 -0.28873181 -90.5578
9209000000 -1.1022898 122.88477 -8.4956884 -73.534828 -8.4850283 -74.227829 -0.29201627 -90.493835
9209062500 -1.1009638 122.90504 -8.5030298 -73.475189 -8.4914064 -74.239807 -0.29073375 -90.456093
9209125000 -1.1015148 122.87808 -8.4947996 -73.53093 -8.4920511 -74.277031 -0.29625601 -90.507858
9209187500 -1.1044641 122.85246 -8.5077934 -73.544525 -8.4839983 -74.294991 -0.29278952 -90.493797
9209250000 -1.0960995 122.84499 -8.4996424 -73.529572 -8.4912224 -74.267197 -0.29546511 -90.465614
9209312500 -1.0987389 122.81146 -8.4982624 -73.488289 -8.4881439 -74.235657 -0.29675394 -90.400169
9209375000 -1.1031018 122.78736 -8.5053463 -73.541206 -8.4846621 -74.256989 -0.29025251 -90.408821
9209437500 -1.0994489 122.75525 -8.4952612 -73.518425 -8.4929724 -74.231201 -0.29186431 -90.341614
9209500000 -1.0971196 122.71771 -8.4843912 -73.516106 -8.4837446 -74.252243 -0.28636447 -90.369614
9209562500 -1.0967139 122.73812 -8.4912252 -73.576675 -8.4853697 -74.209663 -0.28636113 -90.306358
9209625000 -1.0999936 122.69703 -8.485096 -73.52417 -8.4884892 -74.265251 -0.28962961 -90.338219
9209687500 -1.1001894 122.72466 -8.4847155 -73.54734 -8.4889202 -74.263855 -0.29056138 -90.319366
9209750000 -1.1089582 122.70548 -8.4965944 -73.579086 -8.479022 -74.293907 -0.28373265 -90.345451
9209812500 -1.1121718 122.67735 -8.4927301 -73.569252 -8.4823942 -74.265968 -0.2827577 -90.291298
9209875000 -1.1064086 122.67944 -8.4888296 -73.531418 -8.4845886 -74.219139 -0.28317812 -90.268166
9209937500 -1.1127255 122.64793 -8.4947166 -73.565529 -8.4844837 -74.308044 -0.28931239 -90.289619
9210000000 -1.1102653 122.66259 -8.488203 -73.537781 -8.4816294 -74.277046 -0.28790316 -90.273109
9210062500 -1.1144501 122.67389 -8.493351 -73.526093 -8.4794598 -74.263451 -0.28625682 -90.236229
9210125000 -1.108066 122.66949 -8.4890089 -73.491089 -8.4726171 -74.28067 -0.28662875 -90.211754
9210187500 -1.1074611 122.68706 -8.4865417 -73.5149 -8.4749308 -74.303566 -0.29435402 -90.199142
9210250000 -1.1115792 122.62526 -8.4884081 -73.516029 -8.4621229 -74.246147 -0.2873264 -90.15332
9210312500 -1.1085302 122.60251 -8.4779596 -73.513931 -8.4781199 -74.235397 -0.29688701 -90.153351
9210375000 -1.109303 122.53474 -8.4803257 -73.559837 -8.4697304 -74.275009 -0.29022855 -90.190636
9210437500 -1.1082255 122.57104 -8.481204 -73.530853 -8.4751425 -74.247391 -0.29054511 -90.127945
9210500000 -1.1084721 122.53993 -8.4793825 -73.481972 -8.4758291 -74.23053 -0.29083437 -90.112221
9210562500 -1.1054374 122.5229 -8.4832745 -73.510307 -8.4751272 -74.269165 -0.29822162 -90.133522
9210625000 -1.1095145 122.43613 -8.4828396 -73.545227 -8.4768019 -74.225456 -0.29977036 -90.093964
9210687500 -1.1054238 122.41232 -8.4718075 -73.549255 -8.4782076 -74.267815 -0.30106667 -90.080605
9210750000 -1.1075078 122.42963 -8.4737597 -73.566414 -8.4693184 -74.255051 -0.29152879 -90.040497
9210812500 -1.1040319 122.42475 -8.4761572 -73.543404 -8.472703 -74.208138 -0.28658745 -89.993988
9210875000 -1.1043389 122.43182 -8.4640837 -73.536133 -8.4519615 -74.188766 -0.28987762 -89.945328
9210937500 -1.1011146 122.40459 -8.4707775 -73.527229 -8.4673843 -74.187668 -0.29325429 -89.934792
9211000000 -1.10672 122.38508 -8.4706535 -73.56057 -8.4605961 -74.224678 -0.29066786 -89.970551
9211062500 -1.1080153 122.36908 -8.4637699 -73.553741 -8.4659376 -74.199799 -0.29513663 -89.940575
9211125000 -1.1044523 122.38306 -8.4758654 -73.505569 -8.4641447 -74.230072 -0.29944479 -89.932281
9211187500 -1.1092778 122.36719 -8.4739494 -73.535179 -8.4595213 -74.224564 -0.29691914 -89.916786
9211250000 -1.1041619 122.33581 -8.4675684 -73.48745 -8.4621744 -74.184013 -0.30018142 -89.847084
9211312500 -1.1138942 122.35578 -8.4848709 -73.472336 -8.457756 -74.222321 -0.30126789 -89.833282
9211375000 -1.1057559 122.32907 -8.4751244 -73.489548 -8.4632635 -74.178864 -0.30140638 -89.847755
9211437500 -1.1048307 122.3163 -8.4678879 -73.5308 -8.463973 -74.231895 -0.30512038 -89.844582
9211500000 -1.1053563 122.31258 -8.4715223 -73.541183 -8.4641371 -74.215279 -0.30058718 -89.827309
9211562500 -1.1025876 122.29664 -8.4699697 -73.514099 -8.460968 -74.194206 -0.29197234 -89.871864
9211625000 -1.1025884 122.31556 -8.4659052 -73.500771 -8.4638958 -74.261665 -0.29655996 -89.870285
9211687500 -1.1013426 122.30353 -8.472146 -73.473915 -8.4673576 -74.1884 -0.29374832 -89.862129
9211750000 -1.096807 122.30474 -8.4636078 -73.501984 -8.4643126 -74.183617 -0.29257646 -89.815262
9211812500 -1.09971 122.27013 -8.4608812 -73.502869 -8.4506969 -74.211769 -0.28868937 -89.826584
9211875000 -1.1027889 122.24487 -8.4651556 -73.487335 -8.4554701 -74.184105 -0.299227 -89.755402
9211937500 -1.1025177 122.24384 -8.4722643 -73.429054 -8.4643135 -74.219933 -0.30045682 -89.75444
9212000000 -1.1010219 122.21513 -8.4616308 -73.460579 -8.4599295 -74.211357 -0.30070841 -89.716469
9212062500 -1.1024913 122.20518 -8.4657335 -73.428734 -8.4600954 -74.199081 -0.2967 -89.650215
9212125000 -1.1012154 122.12417 -8.4582901 -73.465355 -8.4577694 -74.236847 -0.29711446 -89.654663
9212187500 -1.0995156 122.09534 -8.4560308 -73.431252 -8.4493227 -74.157234 -0.30278781 -89.593338
9212250000 -1.1050603 122.05648 -8.4593821 -73.486824 -8.4434614 -74.167847 -0.29345465 -89.641045
9212312500 -1.1027924 122.05514 -8.4486094 -73.487335 -8.44629 -74.221481 -0.29239023 -89.612427
