!Agilent Technologies,N5242A,MY51221714,A.09.90.19
!Agilent N5242A: A.09.90.19
!Date: Saturday, December 30, 2023 10:34:40
!Correction: S11(Full 2 Port(1,2)) 
!S21(Full 2 Port(1,2)) 
!S12(Full 2 Port(1,2)) 
!S22(Full 2 Port(1,2)) 
!S2P File: Measurements: S11, S21, S12, S22:
# Hz S  dB   R 50
9200000000 -1.1402085 124.37268 -8.5582285 -75.029495 -8.5433073 -75.845787 -0.30583847 -94.023117
9200062500 -1.1422901 124.35724 -8.5528002 -75.033318 -8.5367804 -75.762329 -0.30331537 -93.983139
9200125000 -1.1407557 124.34452 -8.554884 -74.975861 -8.5277605 -75.819305 -0.2995213 -93.986313
9200187500 -1.1459796 124.32552 -8.559371 -75.042061 -8.5302868 -75.81086 -0.29804114 -93.998222
9200250000 -1.1489961 124.28167 -8.5601797 -75.04525 -8.5322618 -75.806786 -0.30105245 -93.970871
9200312500 -1.1467208 124.2816 -8.5621271 -75.039803 -8.540266 -75.864159 -0.31023195 -93.976868
9200375000 -1.1440612 124.26283 -8.5638866 -75.08474 -8.5374546 -75.800766 -0.31050083 -93.952148
9200437500 -1.1447086 124.24144 -8.5577211 -75.05275 -8.5400286 -75.808914 -0.30749834 -93.958992
9200500000 -1.1498132 124.24915 -8.5621204 -75.065178 -8.5294504 -75.826981 -0.30385095 -93.939133
9200562500 -1.1428658 124.21043 -8.5598202 -75.069763 -8.5335398 -75.830154 -0.30906412 -93.933601
9200625000 -1.1432741 124.1939 -8.5498247 -75.068787 -8.5266037 -75.837524 -0.30285162 -93.892868
9200687500 -1.1385057 124.17689 -8.5500221 -75.087975 -8.5187902 -75.818375 -0.29899976 -93.85984
9200750000 -1.1403074 124.15258 -8.5467615 -75.061974 -8.5234604 -75.795883 -0.30672568 -93.856995
9200812500 -1.1382897 124.15049 -8.5468302 -75.071854 -8.5183678 -75.785309 -0.301319 -93.824974
9200875000 -1.1369799 124.12952 -8.5398703 -75.032944 -8.5178061 -75.797554 -0.30566138 -93.820602
9200937500 -1.1365001 124.16888 -8.5499039 -75.038567 -8.5212746 -75.813789 -0.30368811 -93.812302
9201000000 -1.1422614 124.15118 -8.5480337 -75.028679 -8.5272799 -75.836792 -0.310426 -93.854301
9201062500 -1.1440709 124.14931 -8.5456285 -75.050446 -8.5331335 -75.810516 -0.31500006 -93.796005
9201125000 -1.1402307 124.17088 -8.5497818 -75.054482 -8.5281286 -75.831337 -0.31088015 -93.830132
9201187500 -1.1422755 124.15885 -8.5559969 -74.99073 -8.5333633 -75.753433 -0.31239152 -93.759743
9201250000 -1.1447458 124.16573 -8.5581636 -75.036667 -8.535285 -75.775436 -0.31509641 -93.747543
9201312500 -1.1463075 124.11909 -8.5516291 -75.053825 -8.5336123 -75.774124 -0.3162168 -93.76062
9201375000 -1.1460491 124.12916 -8.5413074 -74.986176 -8.5218925 -75.807816 -0.30820784 -93.714828
9201437500 -1.1423628 124.11868 -8.5364351 -74.988358 -8.5308075 -75.807709 -0.31068876 -93.640854
9201500000 -1.1478766 124.10201 -8.5330067 -74.945274 -8.5183134 -75.799706 -0.30607525 -93.624939
9201562500 -1.1476622 124.07401 -8.5366926 -75.002129 -8.5224552 -75.788513 -0.30426338 -93.589363
9201625000 -1.1475104 124.03671 -8.5366526 -74.992874 -8.5218868 -75.798683 -0.30738837 -93.584061
9201687500 -1.1453196 124.02187 -8.5294771 -74.963928 -8.51474 -75.823357 -0.30274609 -93.571449
9201750000 -1.1445081 124.0293 -8.5358086 -74.962257 -8.5233974 -75.792473 -0.31385446 -93.569633
9201812500 -1.1430236 123.98428 -8.5367079 -75.003876 -8.5176525 -75.789505 -0.31202576 -93.57103
9201875000 -1.1446645 123.99102 -8.5443754 -74.984497 -8.5250988 -75.740379 -0.31801203 -93.559395
9201937500 -1.1447489 124.00572 -8.5403643 -74.971832 -8.5121346 -75.758606 -0.31774211 -93.55378
9202000000 -1.1417971 124.0061 -8.5388851 -74.942719 -8.5166302 -75.670509 -0.31218684 -93.491798
9202062500 -1.1394058 123.98307 -8.535408 -74.959862 -8.515831 -75.752045 -0.31131169 -93.532639
9202125000 -1.1449558 123.93264 -8.5384464 -74.990601 -8.5082092 -75.73838 -0.30990204 -93.500046
9202187500 -1.1400663 123.90387 -8.5340977 -75.03656 -8.522584 -75.813255 -0.32018623 -93.512093
9202250000 -1.1389064 123.92157 -8.5246716 -74.969505 -8.5184402 -75.799026 -0.32235745 -93.486542
9202312500 -1.1423976 123.85973 -8.5388842 -75.052902 -8.5157776 -75.803001 -0.3178933 -93.481087
9202375000 -1.1388997 123.8164 -8.5264053 -75.04821 -8.5208387 -75.758698 -0.32071871 -93.40493
9202437500 -1.141541 123.84154 -8.52244 -74.953934 -8.5115738 -75.796608 -0.316625 -93.432716
9202500000 -1.1397392 123.82965 -8.523551 -74.945229 -8.5097456 -75.794411 -0.31097478 -93.429611
9202562500 -1.1468986 123.81998 -8.5297489 -75.010452 -8.510293 -75.803062 -0.31861535 -93.407196
9202625000 -1.144807 123.81945 -8.5278482 -74.964836 -8.5067673 -75.77227 -0.31177917 -93.338501
9202687500 -1.1390486 123.78429 -8.5251465 -75.038483 -8.5144825 -75.795929 -0.31560451 -93.372528
9202750000 -1.1395131 123.76389 -8.5260868 -74.992439 -8.5168943 -75.765373 -0.32386792 -93.349632
9202812500 -1.1450973 123.75979 -8.5301933 -74.916344 -8.5001221 -75.780312 -0.3117148 -93.298615
9202875000 -1.1380221 123.76263 -8.522419 -74.950188 -8.4990416 -75.770355 -0.31700394 -93.275589
9202937500 -1.1344723 123.7122 -8.5151987 -75.015816 -8.4960098 -75.796944 -0.3145211 -93.339783
9203000000 -1.1380413 123.69738 -8.5195198 -74.980278 -8.5053883 -75.776527 -0.32052484 -93.276764
9203062500 -1.1389686 123.69149 -8.5246782 -74.948715 -8.4928703 -75.798294 -0.31956026 -93.267006
9203125000 -1.1366166 123.69187 -8.5186892 -74.984093 -8.50278 -75.800911 -0.32344091 -93.272064
9203187500 -1.1368459 123.68743 -8.5179892 -74.929535 -8.4997969 -75.765572 -0.32002762 -93.225105
9203250000 -1.1323607 123.66152 -8.5064583 -74.989174 -8.4998293 -75.770447 -0.31248811 -93.183105
9203312500 -1.1385045 123.64111 -8.5009813 -75.009392 -8.50881 -75.763031 -0.31772125 -93.159935
9203375000 -1.1371764 123.64957 -8.4973183 -75.005356 -8.500906 -75.726906 -0.31059945 -93.152298
9203437500 -1.143116 123.667 -8.5075684 -74.965714 -8.5048666 -75.732307 -0.31400114 -93.118317
9203500000 -1.1413128 123.64331 -8.5017776 -74.965813 -8.5018826 -75.770599 -0.3174828 -93.14785
9203562500 -1.1414117 123.64375 -8.5134678 -74.911194 -8.5039673 -75.764069 -0.31862089 -93.087341
9203625000 -1.1437345 123.57706 -8.5079203 -75.000504 -8.503993 -75.637024 -0.31960914 -93.049652
9203687500 -1.1442168 123.55371 -8.5175333 -74.929581 -8.4967422 -75.703133 -0.31610724 -93.030746
9203750000 -1.1406102 123.56379 -8.5181999 -74.95974 -8.4992666 -75.714828 -0.32301182 -93.069389
9203812500 -1.146139 123.51839 -8.5163012 -75.032623 -8.4918242 -75.735107 -0.32124949 -93.05043
9203875000 -1.1421347 123.50381 -8.5073366 -74.96682 -8.4967508 -75.714043 -0.31975436 -93.020477
9203937500 -1.1440538 123.49303 -8.5078497 -74.974091 -8.4990435 -75.735046 -0.31486392 -93.053604
9204000000 -1.1425695 123.48528 -8.5060406 -74.998688 -8.5027924 -75.759483 -0.31649661 -93.04863
9204062500 -1.1411856 123.5014 -8.5056601 -74.923012 -8.4915562 -75.745705 -0.31491023 -93.01001
9204125000 -1.1408982 123.48939 -8.502717 -74.945656 -8.4867048 -75.757454 -0.3105208 -92.991165
9204187500 -1.1317967 123.44823 -8.4858694 -75.018417 -8.4942846 -75.74099 -0.30929124 -92.982918
9204250000 -1.1386799 123.42738 -8.5000973 -74.977791 -8.4968567 -75.700256 -0.30894595 -92.901543
9204312500 -1.1398284 123.4282 -8.4947243 -74.959404 -8.4912729 -75.696861 -0.31318441 -92.897018
9204375000 -1.136588 123.43808 -8.4926214 -74.939575 -8.4983606 -75.725456 -0.31657049 -92.92572
9204437500 -1.1396877 123.41037 -8.4934177 -74.933647 -8.4875813 -75.714638 -0.31652933 -92.861633
9204500000 -1.1328936 123.40562 -8.4933233 -74.883705 -8.4863758 -75.710365 -0.32246274 -92.871063
9204562500 -1.1306046 123.34534 -8.4886341 -74.935295 -8.4888067 -75.692726 -0.32299638 -92.819801
9204625000 -1.1361554 123.33723 -8.4967842 -74.888145 -8.4742794 -75.688629 -0.31841347 -92.828423
9204687500 -1.138886 123.32337 -8.5002413 -74.892067 -8.4809151 -75.730927 -0.32583281 -92.784737
9204750000 -1.1412632 123.28819 -8.4945955 -74.933754 -8.4769278 -75.719109 -0.32522011 -92.844139
9204812500 -1.1419616 123.25562 -8.495575 -74.976578 -8.486063 -75.695099 -0.32562283 -92.766006
9204875000 -1.1433541 123.2959 -8.4946165 -74.949821 -8.4771118 -75.73745 -0.31983995 -92.757103
9204937500 -1.1442239 123.27162 -8.4926291 -74.959663 -8.4758577 -75.732094 -0.32624707 -92.729767
9205000000 -1.1450586 123.24467 -8.4985189 -74.992928 -8.4833479 -75.702843 -0.3283549 -92.729889
9205062500 -1.1444702 123.21174 -8.4964027 -75.035889 -8.4803486 -75.717758 -0.31517908 -92.730141
9205125000 -1.1421289 123.24587 -8.4972782 -74.973518 -8.4825859 -75.721169 -0.31792074 -92.696365
9205187500 -1.1477906 123.21689 -8.4873056 -74.954872 -8.4778786 -75.752426 -0.31595117 -92.676712
9205250000 -1.1515158 123.24996 -8.4890852 -74.933647 -8.479661 -75.805443 -0.31341749 -92.681236
9205312500 -1.1437684 123.22563 -8.4896097 -74.942192 -8.4840317 -75.770004 -0.31640777 -92.627075
9205375000 -1.1458062 123.21898 -8.482667 -74.930817 -8.4919844 -75.742813 -0.31866556 -92.57058
9205437500 -1.1458766 123.23179 -8.4965591 -74.884384 -8.4807959 -75.712944 -0.3211177 -92.601089
9205500000 -1.14635 123.18451 -8.4966612 -74.889397 -8.4785423 -75.800552 -0.32139662 -92.604858
9205562500 -1.1440089 123.16013 -8.4863234 -74.883453 -8.4667587 -75.707474 -0.31934705 -92.523811
9205625000 -1.1454117 123.1272 -8.4903746 -74.889801 -8.4679108 -75.667114 -0.32358247 -92.496864
9205687500 -1.1485211 123.08028 -8.4929943 -74.917786 -8.4679356 -75.664139 -0.32537189 -92.430763
9205750000 -1.1461191 123.0653 -8.5002766 -74.907455 -8.4674568 -75.641708 -0.32949433 -92.444092
9205812500 -1.1450394 123.07339 -8.4922428 -74.895836 -8.4713392 -75.684036 -0.32680994 -92.43528
9205875000 -1.1466532 123.03841 -8.4874115 -74.86058 -8.4727535 -75.646263 -0.3274031 -92.393242
9205937500 -1.1462687 122.9982 -8.4870844 -74.889046 -8.4668217 -75.659714 -0.32235748 -92.373116
9206000000 -1.1486177 123.03336 -8.4890862 -74.83902 -8.473567 -75.673012 -0.32934231 -92.380753
9206062500 -1.1438445 123.00426 -8.4839373 -74.87104 -8.4624262 -75.696472 -0.32461551 -92.389885
9206125000 -1.1459326 122.95906 -8.4776316 -74.935478 -8.4642601 -75.671974 -0.33105731 -92.369347
9206187500 -1.1484501 122.97256 -8.479991 -74.873558 -8.4655495 -75.67292 -0.32644448 -92.340927
9206250000 -1.1450201 122.98122 -8.4786415 -74.937637 -8.4761324 -75.652313 -0.33953068 -92.303276
9206312500 -1.1482828 122.92754 -8.4728346 -74.877075 -8.4688292 -75.628189 -0.32958952 -92.260902
9206375000 -1.1431261 122.90409 -8.4732933 -74.94799 -8.4610844 -75.647575 -0.3302494 -92.27317
9206437500 -1.1433499 122.87656 -8.4719334 -74.961578 -8.4708252 -75.677666 -0.33556661 -92.268921
9206500000 -1.1451498 122.8714 -8.4711351 -74.915947 -8.4568186 -75.65052 -0.32577986 -92.231918
9206562500 -1.147944 122.88644 -8.4774933 -74.918327 -8.4706831 -75.64222 -0.33854917 -92.225517
9206625000 -1.1489558 122.89122 -8.4735641 -74.909729 -8.461503 -75.658249 -0.32291374 -92.243454
9206687500 -1.1475679 122.90891 -8.4782715 -74.904503 -8.4566193 -75.674759 -0.32012925 -92.221344
9206750000 -1.1459666 122.88803 -8.4744387 -74.947945 -8.4569988 -75.594284 -0.32599884 -92.159538
9206812500 -1.1479428 122.92621 -8.468298 -74.929192 -8.4589834 -75.675201 -0.32203439 -92.211205
9206875000 -1.1438928 122.88662 -8.4631586 -74.936134 -8.4582024 -75.65107 -0.3211084 -92.212059
9206937500 -1.1407884 122.84344 -8.4649591 -74.907501 -8.4536467 -75.677452 -0.3266485 -92.19503
9207000000 -1.1476989 122.83785 -8.4734221 -74.890038 -8.4511347 -75.66275 -0.31744444 -92.167061
9207062500 -1.1452496 122.83624 -8.4738951 -74.958954 -8.4503708 -75.628334 -0.32052842 -92.132202
9207125000 -1.1433442 122.81089 -8.4748335 -74.887772 -8.4583511 -75.682228 -0.32471424 -92.0951
9207187500 -1.1441963 122.73778 -8.472064 -74.875755 -8.4523315 -75.686798 -0.32480407 -92.088692
9207250000 -1.1421419 122.73992 -8.4642839 -74.859047 -8.448905 -75.630707 -0.32677236 -92.026222
9207312500 -1.13942 122.74365 -8.465065 -74.868553 -8.4533348 -75.661469 -0.3375355 -92.025116
9207375000 -1.1428568 122.70641 -8.4598322 -74.907547 -8.4499006 -75.643837 -0.33237606 -92.037704
9207437500 -1.1442157 122.68945 -8.4591465 -74.92292 -8.4502087 -75.68116 -0.33183426 -92.042549
9207500000 -1.1390461 122.68101 -8.4595919 -74.923317 -8.4483671 -75.653511 -0.33097488 -92.008499
9207562500 -1.1513965 122.61925 -8.4620991 -74.989075 -8.4489155 -75.640053 -0.33550665 -91.98909
9207625000 -1.1516722 122.63511 -8.4669018 -74.928429 -8.4497185 -75.718185 -0.33813193 -92.01339
9207687500 -1.1527312 122.6314 -8.4614897 -74.923508 -8.4502563 -75.650711 -0.33007818 -91.969795
9207750000 -1.1488703 122.63409 -8.455986 -74.897156 -8.4556808 -75.710274 -0.33108762 -91.934303
9207812500 -1.154699 122.6368 -8.4528446 -75.007561 -8.4458733 -75.640244 -0.32586434 -91.99826
9207875000 -1.1486889 122.63725 -8.454071 -74.929642 -8.4456997 -75.654488 -0.32330769 -91.966949
9207937500 -1.1590035 122.60126 -8.4579344 -74.994743 -8.4507923 -75.675522 -0.32816848 -91.921059
9208000000 -1.1590452 122.61583 -8.458724 -74.922516 -8.4489336 -75.641983 -0.32190907 -91.882584
9208062500 -1.1534002 122.57171 -8.4473743 -74.926636 -8.4546814 -75.683777 -0.32887518 -91.918236
9208125000 -1.1524245 122.60259 -8.4540873 -74.875259 -8.4415779 -75.613976 -0.32113221 -91.809334
9208187500 -1.1474307 122.59438 -8.4502363 -74.844826 -8.4492016 -75.668846 -0.33100843 -91.809067
9208250000 -1.1457802 122.56277 -8.4461517 -74.907303 -8.4429607 -75.678268 -0.33246866 -91.792763
9208312500 -1.1468176 122.54585 -8.4511423 -74.854546 -8.4391823 -75.603508 -0.32798153 -91.712601
9208375000 -1.1426368 122.51436 -8.4464884 -74.857941 -8.4503307 -75.637642 -0.33414784 -91.713547
9208437500 -1.1505443 122.5204 -8.4524069 -74.881279 -8.4410219 -75.664368 -0.33314478 -91.731804
9208500000 -1.1457927 122.50535 -8.4447527 -74.82618 -8.4417038 -75.672501 -0.32978037 -91.707733
9208562500 -1.1440887 122.50919 -8.4445629 -74.797768 -8.4379368 -75.637794 -0.33070695 -91.726646
9208625000 -1.142309 122.52528 -8.4418936 -74.775223 -8.4331837 -75.634178 -0.33342355 -91.690445
9208687500 -1.1406758 122.45453 -8.4436169 -74.871384 -8.4354687 -75.630447 -0.32688802 -91.731018
9208750000 -1.143374 122.43243 -8.4425306 -74.804024 -8.4339752 -75.607567 -0.33098552 -91.692551
9208812500 -1.1430707 122.41628 -8.4380093 -74.892822 -8.4340115 -75.62011 -0.33464181 -91.671776
9208875000 -1.1400243 122.4233 -8.4461594 -74.848366 -8.4270267 -75.62236 -0.33276662 -91.630524
9208937500 -1.1422697 122.41074 -8.4424772 -74.855202 -8.4278059 -75.593246 -0.33585241 -91.645302
9209000000 -1.1420017 122.39313 -8.4459333 -74.823532 -8.4311609 -75.581627 -0.33894718 -91.597672
9209062500 -1.1441941 122.38556 -8.4385786 -74.830696 -8.4380445 -75.640671 -0.33706373 -91.627533
9209125000 -1.1421493 122.36092 -8.4432182 -74.873695 -8.4283171 -75.577553 -0.33978912 -91.598267
9209187500 -1.1422726 122.35634 -8.443017 -74.816223 -8.4284239 -75.58728 -0.34068608 -91.515747
9209250000 -1.1463429 122.33907 -8.4410629 -74.832794 -8.4243546 -75.602585 -0.3397544 -91.498573
9209312500 -1.1405391 122.31366 -8.4342699 -74.8405 -8.4313421 -75.641731 -0.33968148 -91.532066
9209375000 -1.1432707 122.3162 -8.4432211 -74.847519 -8.4270725 -75.603989 -0.3413671 -91.519455
9209437500 -1.1414526 122.2334 -8.4381781 -74.890945 -8.4289923 -75.600609 -0.34101424 -91.477631
9209500000 -1.1391015 122.25342 -8.4416237 -74.806808 -8.4307022 -75.593948 -0.34317473 -91.483879
9209562500 -1.1468551 122.23148 -8.438343 -74.853424 -8.4263849 -75.621552 -0.33631769 -91.454575
9209625000 -1.1461384 122.23389 -8.4384556 -74.86512 -8.425601 -75.601006 -0.33341372 -91.508827
9209687500 -1.1482052 122.19127 -8.4379864 -74.899025 -8.4247398 -75.594337 -0.32715011 -91.447098
9209750000 -1.150718 122.22212 -8.4338436 -74.859406 -8.428833 -75.590813 -0.33455607 -91.387115
9209812500 -1.1508387 122.19405 -8.4386749 -74.903366 -8.4207134 -75.597 -0.33063135 -91.390312
9209875000 -1.1520131 122.19561 -8.4277296 -74.852615 -8.4141893 -75.629234 -0.32138649 -91.377548
9209937500 -1.1490327 122.16848 -8.4399595 -74.874863 -8.4239788 -75.594902 -0.33079398 -91.346443
9210000000 -1.1510632 122.16468 -8.4285069 -74.922157 -8.4176073 -75.553703 -0.32959801 -91.325645
9210062500 -1.1512685 122.1618 -8.4299631 -74.832977 -8.4165077 -75.615082 -0.33216372 -91.349472
9210125000 -1.1486353 122.15605 -8.4284697 -74.847122 -8.4180584 -75.561043 -0.33998302 -91.321106
9210187500 -1.1480906 122.14033 -8.4267263 -74.773392 -8.4104929 -75.616264 -0.32783756 -91.321846
9210250000 -1.153788 122.11961 -8.4325666 -74.771965 -8.4211197 -75.625854 -0.33919981 -91.270599
9210312500 -1.153735 122.11359 -8.4264793 -74.876335 -8.413825 -75.640015 -0.32847819 -91.308525
9210375000 -1.1548332 122.0677 -8.4252386 -74.834656 -8.4164371 -75.597633 -0.33801186 -91.217178
9210437500 -1.1490594 122.07001 -8.4270277 -74.834167 -8.4132614 -75.612236 -0.34466746 -91.237511
9210500000 -1.1543248 122.05057 -8.4213305 -74.826263 -8.4155846 -75.60321 -0.33980501 -91.218636
9210562500 -1.1503334 122.00671 -8.4193144 -74.858345 -8.4147549 -75.593613 -0.34439594 -91.218597
9210625000 -1.1480563 121.94701 -8.4153509 -74.823463 -8.4111519 -75.597939 -0.33860734 -91.206253
9210687500 -1.1446009 121.91367 -8.41716 -74.8675 -8.4156494 -75.620667 -0.33967358 -91.183235
9210750000 -1.1482019 121.93523 -8.4163027 -74.8591 -8.4110489 -75.549171 -0.33785957 -91.131027
9210812500 -1.1495277 121.91698 -8.4134159 -74.853912 -8.4170885 -75.579872 -0.34050548 -91.081726
9210875000 -1.1485597 121.92423 -8.4137774 -74.777039 -8.4074059 -75.55616 -0.33722675 -91.055199
9210937500 -1.1422243 121.90277 -8.4046783 -74.861588 -8.4012527 -75.548836 -0.33595976 -91.060928
9211000000 -1.1472782 121.90666 -8.4158077 -74.824043 -8.3968868 -75.569656 -0.33516434 -91.047607
9211062500 -1.1525546 121.89202 -8.4122925 -74.843933 -8.4000835 -75.548683 -0.34313479 -91.01236
9211125000 -1.1477543 121.89109 -8.4121361 -74.79673 -8.4042559 -75.493309 -0.34466586 -90.966461
9211187500 -1.1448476 121.86388 -8.4113865 -74.862167 -8.3933706 -75.556816 -0.33724633 -91.002129
9211250000 -1.1502727 121.85815 -8.4059916 -74.828362 -8.4013968 -75.545944 -0.34655979 -90.921364
9211312500 -1.148847 121.82516 -8.3987026 -74.863457 -8.4050274 -75.580215 -0.34126696 -90.982147
9211375000 -1.1512563 121.8448 -8.4140015 -74.802467 -8.4085503 -75.55954 -0.34859085 -90.92054
9211437500 -1.1447738 121.8146 -8.4075375 -74.817947 -8.4036798 -75.535316 -0.34154654 -90.917183
9211500000 -1.140203 121.8122 -8.4047937 -74.816582 -8.3914003 -75.560356 -0.33488181 -90.963676
9211562500 -1.1371602 121.80764 -8.3992929 -74.833893 -8.4056988 -75.578934 -0.34966642 -90.9618
9211625000 -1.1413935 121.81906 -8.3983822 -74.791954 -8.4088326 -75.495338 -0.3416509 -90.92627
9211687500 -1.1424153 121.83231 -8.4016228 -74.797501 -8.4078798 -75.56443 -0.34358945 -90.95652
9211750000 -1.1387663 121.80396 -8.3970795 -74.823868 -8.4017515 -75.57933 -0.33678004 -90.959244
9211812500 -1.137328 121.79195 -8.4050503 -74.821526 -8.3969822 -75.569901 -0.33971965 -90.912407
9211875000 -1.1407229 121.75125 -8.396574 -74.852669 -8.3916245 -75.56826 -0.34202442 -90.907059
9211937500 -1.1401079 121.73226 -8.4012251 -74.788864 -8.3965378 -75.560066 -0.34244567 -90.819061
9212000000 -1.1397992 121.70576 -8.3942423 -74.757256 -8.4006338 -75.538086 -0.34835523 -90.807671
9212062500 -1.1427575 121.67786 -8.3962669 -74.729401 -8.3926077 -75.531639 -0.34414822 -90.728889
9212125000 -1.1470953 121.62683 -8.3982935 -74.805626 -8.3941851 -75.524864 -0.34428355 -90.744026
9212187500 -1.1480825 121.61637 -8.4010115 -74.808838 -8.3896971 -75.533897 -0.34172544 -90.714554
9212250000 -1.1436799 121.60336 -8.3915033 -74.78524 -8.390522 -75.531097 -0.3451418 -90.704071
9212312500 -1.1449404 121.58938 -8.3965216 -74.824287 -8.3846693 -75.627861 -0.34014529 -90.762085
