!Agilent Technologies,N5242A,MY51221714,A.09.90.19
!Agilent N5242A: A.09.90.19
!Date: Saturday, December 30, 2023 10:36:07
!Correction: S11(Full 2 Port(1,2)) 
!S21(Full 2 Port(1,2)) 
!S12(Full 2 Port(1,2)) 
!S22(Full 2 Port(1,2)) 
!S2P File: Measurements: S11, S21, S12, S22:
# Hz S  dB   R 50
9200000000 -2.1776717 121.05022 -7.9974461 -89.796478 -7.9770713 -90.615158 -1.2888601 -97.159599
9200062500 -2.1807935 121.00005 -7.9889026 -89.837029 -7.9725528 -90.601837 -1.2835667 -97.080589
9200125000 -2.1849272 120.98203 -7.9919224 -89.885536 -7.9744844 -90.585129 -1.2926737 -97.043571
9200187500 -2.1818972 120.93197 -7.9922285 -89.858795 -7.9763069 -90.581039 -1.2964609 -97.06321
9200250000 -2.1866353 120.90268 -7.9904642 -89.874397 -7.9753094 -90.560532 -1.2934922 -97.0271
9200312500 -2.1864264 120.93234 -7.9974518 -89.848289 -7.9706082 -90.612106 -1.2933987 -97.039932
9200375000 -2.1919937 120.89848 -8.0022726 -89.876343 -7.9811959 -90.587029 -1.2973737 -97.030731
9200437500 -2.1886528 120.88824 -7.9882998 -89.881844 -7.976572 -90.554359 -1.2919927 -97.015175
9200500000 -2.1868031 120.86237 -7.9910073 -89.891373 -7.9676433 -90.595901 -1.2882706 -96.995155
9200562500 -2.1865523 120.83905 -7.9874167 -89.860207 -7.9640422 -90.62104 -1.2942473 -97.010651
9200625000 -2.1844671 120.81915 -7.981741 -89.921181 -7.9656572 -90.599617 -1.2883199 -96.950043
9200687500 -2.186132 120.83774 -7.9922538 -89.899719 -7.969327 -90.548874 -1.2967384 -96.917389
9200750000 -2.1856275 120.80677 -7.9859519 -89.89212 -7.9683642 -90.565697 -1.2911257 -96.921059
9200812500 -2.1884437 120.75088 -7.9877954 -89.950424 -7.9611311 -90.61293 -1.2931836 -96.937897
9200875000 -2.1880662 120.7797 -7.9846344 -89.910706 -7.9608884 -90.587891 -1.2935429 -96.875351
9200937500 -2.1856632 120.7589 -7.9825778 -89.952332 -7.9674487 -90.592644 -1.3005956 -96.838142
9201000000 -2.1904867 120.81015 -7.9878693 -89.905128 -7.9593287 -90.671951 -1.2950672 -96.897781
9201062500 -2.1810825 120.78803 -7.9809647 -89.900177 -7.9672551 -90.591934 -1.3002481 -96.881378
9201125000 -2.1889489 120.81067 -7.9868622 -89.846626 -7.9743314 -90.565605 -1.3075598 -96.852333
9201187500 -2.1851821 120.82315 -7.9815025 -89.876526 -7.9641786 -90.581757 -1.2942376 -96.848244
9201250000 -2.1898296 120.81311 -7.9783678 -89.824257 -7.972631 -90.612595 -1.3082429 -96.849747
9201312500 -2.1853461 120.80016 -7.9737339 -89.873688 -7.9651108 -90.609055 -1.3054885 -96.777199
9201375000 -2.1949265 120.80676 -7.9801311 -89.836197 -7.9676223 -90.593964 -1.3046616 -96.740227
9201437500 -2.1932416 120.78847 -7.9751997 -89.842178 -7.9666281 -90.607437 -1.3051496 -96.71891
9201500000 -2.19203 120.74545 -7.975112 -89.853065 -7.9591227 -90.621391 -1.3023829 -96.679199
9201562500 -2.1977108 120.69148 -7.979475 -89.867386 -7.9633069 -90.641548 -1.3032495 -96.655319
9201625000 -2.1944201 120.69971 -7.9694042 -89.824318 -7.9560947 -90.608376 -1.3002927 -96.622108
9201687500 -2.1956534 120.65122 -7.9678702 -89.859032 -7.9544106 -90.62104 -1.2968388 -96.642052
9201750000 -2.1974752 120.67946 -7.9796839 -89.864861 -7.958818 -90.606155 -1.3028477 -96.616631
9201812500 -2.1999366 120.6196 -7.9733124 -89.909813 -7.9512768 -90.667862 -1.305449 -96.643616
9201875000 -2.1948624 120.67054 -7.9731035 -89.842148 -7.9499559 -90.58152 -1.3046688 -96.617256
9201937500 -2.1938887 120.64613 -7.9711871 -89.901123 -7.9512968 -90.639839 -1.3116564 -96.609169
9202000000 -2.1949403 120.62831 -7.9695392 -89.869873 -7.9565105 -90.60688 -1.3181646 -96.682083
9202062500 -2.1930149 120.59102 -7.973877 -89.87339 -7.9545026 -90.577499 -1.3139724 -96.573578
9202125000 -2.1913435 120.56113 -7.9708757 -89.917694 -7.950314 -90.616417 -1.3173125 -96.586014
9202187500 -2.1956282 120.55798 -7.9718652 -89.914093 -7.9476767 -90.63179 -1.3128934 -96.583763
9202250000 -2.1944375 120.55632 -7.9664083 -89.930008 -7.9565024 -90.664375 -1.3114462 -96.562721
9202312500 -2.1930816 120.47518 -7.9623761 -89.946259 -7.9519873 -90.671181 -1.3148071 -96.592995
9202375000 -2.1918852 120.49704 -7.9601388 -89.92514 -7.9588618 -90.651802 -1.3141601 -96.510674
9202437500 -2.1960392 120.48119 -7.9664431 -89.946884 -7.9486184 -90.681381 -1.3048534 -96.519943
9202500000 -2.1914356 120.47392 -7.9632549 -89.870972 -7.952889 -90.687241 -1.3171856 -96.490387
9202562500 -2.1968248 120.44274 -7.9571638 -89.922188 -7.9511952 -90.656395 -1.312549 -96.45343
9202625000 -2.1964426 120.45786 -7.9553027 -89.883072 -7.9486437 -90.69902 -1.3153688 -96.452538
9202687500 -2.1981435 120.39972 -7.9657521 -89.966042 -7.9439564 -90.693069 -1.3145304 -96.451271
9202750000 -2.1978898 120.41344 -7.9644451 -89.893524 -7.9444671 -90.654922 -1.3173784 -96.3675
9202812500 -2.1960006 120.41643 -7.9608688 -89.838509 -7.9312406 -90.651443 -1.3117093 -96.38736
9202875000 -2.1921794 120.37822 -7.9559541 -89.906021 -7.9436941 -90.698608 -1.321416 -96.395782
9202937500 -2.1973596 120.38497 -7.9600658 -89.939606 -7.9334431 -90.641579 -1.3132879 -96.354561
9203000000 -2.1947548 120.33033 -7.9548492 -89.895645 -7.9379086 -90.692314 -1.3182606 -96.351318
9203062500 -2.1944447 120.34563 -7.9543414 -89.902496 -7.9356227 -90.662331 -1.3181107 -96.3423
9203125000 -2.1948485 120.33934 -7.9578505 -89.888206 -7.9328218 -90.684845 -1.3167298 -96.316124
9203187500 -2.1908453 120.3279 -7.9393396 -89.916138 -7.9390917 -90.648773 -1.3169258 -96.266029
9203250000 -2.2034848 120.31606 -7.9498019 -89.94445 -7.9318757 -90.647682 -1.313619 -96.260925
9203312500 -2.1983902 120.32024 -7.9404569 -89.903061 -7.9418907 -90.678062 -1.3165042 -96.22789
9203375000 -2.1957567 120.30295 -7.9425244 -89.911606 -7.940763 -90.706734 -1.3154992 -96.202065
9203437500 -2.1964271 120.28119 -7.9324455 -89.917191 -7.9381475 -90.632301 -1.3167162 -96.127777
9203500000 -2.2035036 120.26003 -7.9339519 -89.948883 -7.9376678 -90.638687 -1.3061631 -96.144867
9203562500 -2.2019632 120.25298 -7.939672 -89.926796 -7.940958 -90.646385 -1.3221756 -96.153564
9203625000 -2.2014596 120.23808 -7.9373984 -89.925438 -7.9368787 -90.611557 -1.3178538 -96.135391
9203687500 -2.2047312 120.24701 -7.948647 -89.881317 -7.9359283 -90.669075 -1.321702 -96.13942
9203750000 -2.2042086 120.26785 -7.9548469 -89.917908 -7.9331775 -90.659805 -1.3238837 -96.127663
9203812500 -2.2009022 120.20983 -7.9403996 -89.942017 -7.9249701 -90.70253 -1.3164213 -96.167183
9203875000 -2.2101004 120.16517 -7.9459319 -89.932709 -7.9295406 -90.664627 -1.3280714 -96.103462
9203937500 -2.204438 120.17307 -7.9472008 -89.942047 -7.9277477 -90.670753 -1.3194044 -96.125366
9204000000 -2.2019029 120.13707 -7.9430165 -89.930931 -7.9328585 -90.728737 -1.3153002 -96.073685
9204062500 -2.2064316 120.15134 -7.9466181 -89.903427 -7.9267373 -90.675858 -1.3141133 -96.056145
9204125000 -2.2000904 120.12191 -7.9294138 -89.953804 -7.9260278 -90.703613 -1.3161372 -96.066483
9204187500 -2.2046151 120.10596 -7.9322343 -89.94828 -7.9207911 -90.644806 -1.3146765 -96.001831
9204250000 -2.1997795 120.07945 -7.9322248 -89.945389 -7.93221 -90.668465 -1.3166357 -95.992897
9204312500 -2.2039959 120.07283 -7.9321003 -89.931541 -7.927721 -90.639572 -1.3195878 -95.968735
9204375000 -2.1968353 120.06945 -7.9247994 -89.945702 -7.9260631 -90.674583 -1.3189602 -95.937485
9204437500 -2.1981106 120.0677 -7.9199352 -89.908554 -7.9173098 -90.660263 -1.3168811 -95.970711
9204500000 -2.199501 120.03651 -7.9202242 -89.935669 -7.9216552 -90.6539 -1.3223515 -95.903549
9204562500 -2.1974571 120.01846 -7.9299645 -89.861946 -7.9202061 -90.658569 -1.3250819 -95.90287
9204625000 -2.2031152 119.96554 -7.9222946 -89.944382 -7.915936 -90.678474 -1.3284073 -95.90036
9204687500 -2.2047236 119.96725 -7.9334698 -89.905579 -7.9170094 -90.673332 -1.3296307 -95.853752
9204750000 -2.2067103 119.98024 -7.9301581 -89.946571 -7.9144311 -90.708153 -1.3370696 -95.88488
9204812500 -2.2096963 119.92352 -7.9292364 -89.962517 -7.9121213 -90.669708 -1.3335394 -95.841522
9204875000 -2.2090023 119.93774 -7.9220777 -89.977486 -7.9128551 -90.686562 -1.3309532 -95.806435
9204937500 -2.2084188 119.91687 -7.9260836 -90.06942 -7.9161744 -90.705231 -1.3337756 -95.794327
9205000000 -2.2123783 119.89318 -7.9322248 -90.007706 -7.9173417 -90.645897 -1.3369421 -95.750656
9205062500 -2.2124219 119.91867 -7.9210968 -89.988678 -7.9190841 -90.717712 -1.3354653 -95.773239
9205125000 -2.2122262 119.88997 -7.9294338 -89.98175 -7.9170046 -90.716469 -1.323055 -95.738708
9205187500 -2.2095857 119.92987 -7.9247856 -89.93705 -7.9105124 -90.747551 -1.3223227 -95.735023
9205250000 -2.2061634 119.90324 -7.9116087 -89.971703 -7.9152727 -90.75901 -1.3275956 -95.701439
9205312500 -2.2121155 119.91161 -7.9137378 -89.96962 -7.9088998 -90.752007 -1.3161162 -95.702988
9205375000 -2.2101395 119.89109 -7.9190822 -89.941864 -7.9115682 -90.738083 -1.3173956 -95.662048
9205437500 -2.2110856 119.83363 -7.9202323 -89.961266 -7.9135456 -90.734772 -1.3271593 -95.626488
9205500000 -2.2159331 119.83403 -7.9230494 -89.96386 -7.9137483 -90.742661 -1.3332705 -95.58326
9205562500 -2.2105083 119.77532 -7.9189405 -89.947319 -7.9113665 -90.709198 -1.3354012 -95.577789
9205625000 -2.2142031 119.76124 -7.9288397 -89.992729 -7.9108977 -90.648315 -1.3364296 -95.523216
9205687500 -2.2100463 119.73158 -7.9212747 -89.894005 -7.9077301 -90.661125 -1.3402983 -95.519875
9205750000 -2.2127507 119.70648 -7.9281507 -89.976151 -7.9004917 -90.676086 -1.3440558 -95.495338
9205812500 -2.2148025 119.71676 -7.9246287 -89.938385 -7.9082069 -90.676064 -1.3421274 -95.405632
9205875000 -2.2221379 119.71102 -7.9228606 -89.937477 -7.9018755 -90.668884 -1.3448488 -95.468376
9205937500 -2.218509 119.68139 -7.9225106 -89.977531 -7.9004164 -90.709312 -1.3385437 -95.452881
9206000000 -2.2177408 119.68848 -7.9120636 -89.921524 -7.9024076 -90.698601 -1.3428028 -95.434303
9206062500 -2.2192037 119.68832 -7.9151568 -89.9375 -7.9091883 -90.76844 -1.3444352 -95.475441
9206125000 -2.2209802 119.63467 -7.9146943 -89.969429 -7.9080858 -90.688759 -1.3490107 -95.407677
9206187500 -2.2156296 119.65396 -7.9037781 -89.929359 -7.8982615 -90.690384 -1.3434711 -95.356979
9206250000 -2.223206 119.60384 -7.9069242 -89.935974 -7.9041414 -90.724983 -1.348828 -95.395264
9206312500 -2.2178934 119.56493 -7.9005599 -90.047501 -7.8999858 -90.679977 -1.3455354 -95.350922
9206375000 -2.2179325 119.5706 -7.8931627 -89.988556 -7.8984261 -90.694641 -1.3525807 -95.294151
9206437500 -2.2196853 119.53061 -7.9089293 -90.034981 -7.8988366 -90.711365 -1.3549787 -95.333908
9206500000 -2.2178984 119.52351 -7.8906474 -90.00515 -7.8976159 -90.711456 -1.3493834 -95.286263
9206562500 -2.2202065 119.52696 -7.8988338 -90.037552 -7.8990655 -90.722832 -1.3513356 -95.302467
9206625000 -2.2237837 119.56077 -7.9020462 -90.013855 -7.8955107 -90.687141 -1.346217 -95.284157
9206687500 -2.2210112 119.54362 -7.89639 -90.018654 -7.8909583 -90.690857 -1.3428783 -95.281975
9206750000 -2.22928 119.55788 -7.9035735 -90.03643 -7.8861771 -90.682213 -1.3369578 -95.281471
9206812500 -2.2215371 119.56476 -7.8978338 -90.041092 -7.8957725 -90.671577 -1.3454663 -95.231979
9206875000 -2.2234426 119.55463 -7.8990917 -90.015907 -7.8867216 -90.712715 -1.3377897 -95.255501
9206937500 -2.218925 119.52368 -7.9000926 -90.041687 -7.8784342 -90.720261 -1.330778 -95.262276
9207000000 -2.2215192 119.47711 -7.9085608 -90.030273 -7.8901658 -90.721161 -1.3425314 -95.223488
9207062500 -2.2197535 119.47409 -7.8971057 -90.018723 -7.8773909 -90.757477 -1.3421407 -95.1633
9207125000 -2.2212961 119.45589 -7.8986731 -90.042801 -7.8887658 -90.78656 -1.3435795 -95.200836
9207187500 -2.2244594 119.43195 -7.8952675 -90.041946 -7.876595 -90.754585 -1.3437706 -95.159424
9207250000 -2.2211607 119.42601 -7.9026713 -89.992599 -7.8826404 -90.753014 -1.3457931 -95.119064
9207312500 -2.2244895 119.35868 -7.8992071 -90.043213 -7.8753529 -90.712227 -1.3402746 -95.070374
9207375000 -2.2263231 119.35037 -7.8986468 -90.034164 -7.8825788 -90.689774 -1.3494999 -95.053764
9207437500 -2.2255738 119.33477 -7.8893485 -90.027359 -7.8807449 -90.766113 -1.3533608 -95.107117
9207500000 -2.2262123 119.33226 -7.893589 -90.022285 -7.8871727 -90.773781 -1.3626651 -95.107864
9207562500 -2.2323611 119.32179 -7.8871174 -90.032143 -7.8770332 -90.762856 -1.3521754 -95.05542
9207625000 -2.2230713 119.25117 -7.8855171 -90.110138 -7.8825741 -90.713493 -1.3584276 -95.029411
9207687500 -2.2317488 119.26394 -7.8886018 -90.047012 -7.8851213 -90.763947 -1.3510109 -95.073486
9207750000 -2.2334459 119.29565 -7.888411 -90.014992 -7.8823042 -90.778099 -1.3506436 -95.001694
9207812500 -2.234823 119.28339 -7.8978868 -90.08728 -7.8767786 -90.725853 -1.3505507 -94.976563
9207875000 -2.2401214 119.28004 -7.8955708 -90.079865 -7.8746209 -90.769806 -1.3422043 -94.988647
9207937500 -2.2426968 119.28201 -7.8906665 -90.110878 -7.882731 -90.772987 -1.3512783 -94.990723
9208000000 -2.2371888 119.25095 -7.8827472 -90.090309 -7.8855162 -90.769028 -1.3455385 -94.981766
9208062500 -2.2318175 119.23046 -7.879406 -90.103241 -7.8798175 -90.731339 -1.3484687 -94.895935
9208125000 -2.2387853 119.22508 -7.8860273 -90.027435 -7.8801756 -90.732491 -1.3490869 -94.892166
9208187500 -2.2393982 119.23274 -7.8831925 -90.046097 -7.8775907 -90.809265 -1.3529305 -94.894714
9208250000 -2.2316048 119.21615 -7.8828254 -90.010971 -7.8770013 -90.826469 -1.3584809 -94.799721
9208312500 -2.2337058 119.18844 -7.8716164 -90.030792 -7.8801084 -90.785759 -1.3520513 -94.823112
9208375000 -2.2360296 119.15852 -7.87672 -90.025101 -7.8721328 -90.789833 -1.3513277 -94.77935
9208437500 -2.2354276 119.15652 -7.8731785 -90.031792 -7.8816586 -90.781364 -1.3610771 -94.775894
9208500000 -2.2358949 119.12337 -7.8782244 -90.036255 -7.8730001 -90.761436 -1.3584343 -94.747932
9208562500 -2.2359755 119.14368 -7.8818388 -90.001305 -7.8669043 -90.79377 -1.3549358 -94.767159
9208625000 -2.2285929 119.13725 -7.8674226 -89.962097 -7.8621621 -90.752243 -1.3563151 -94.741035
9208687500 -2.2333641 119.08578 -7.872715 -90.031395 -7.8664122 -90.758766 -1.3543661 -94.774376
9208750000 -2.2301352 119.10065 -7.8646979 -90.032005 -7.863101 -90.779152 -1.3542168 -94.782463
9208812500 -2.2325563 119.07946 -7.8728843 -90.072372 -7.863831 -90.769348 -1.3581461 -94.769905
9208875000 -2.2292223 119.0819 -7.8741875 -90.060577 -7.8648667 -90.779076 -1.3638523 -94.72963
9208937500 -2.2337008 119.08895 -7.8799582 -90.073975 -7.8596058 -90.780067 -1.3601097 -94.703629
9209000000 -2.2319887 119.05672 -7.866097 -90.061172 -7.8683529 -90.716278 -1.3687975 -94.622734
9209062500 -2.2351067 119.06142 -7.874042 -90.025444 -7.8549762 -90.696304 -1.3654469 -94.600525
9209125000 -2.2294657 119.02959 -7.8719573 -90.058235 -7.8614526 -90.686516 -1.3713965 -94.577316
9209187500 -2.2341037 118.98272 -7.8673344 -90.034325 -7.8517785 -90.722031 -1.3624656 -94.604149
9209250000 -2.2312689 118.95885 -7.8704171 -90.079277 -7.8544059 -90.768959 -1.3700083 -94.612381
9209312500 -2.2316418 118.95709 -7.8744411 -90.048447 -7.8575592 -90.760841 -1.3724053 -94.567162
9209375000 -2.2374878 118.88237 -7.8620086 -90.075066 -7.8551989 -90.774139 -1.3698506 -94.553505
9209437500 -2.2311392 118.89642 -7.8579364 -90.01963 -7.8608956 -90.739464 -1.3710936 -94.499489
9209500000 -2.2241147 118.86649 -7.8591037 -90.050858 -7.8558865 -90.783836 -1.3679227 -94.538475
9209562500 -2.2388818 118.86226 -7.8692875 -90.122078 -7.8535004 -90.779625 -1.3665781 -94.521156
9209625000 -2.2332711 118.87024 -7.8650594 -90.116234 -7.8570395 -90.769913 -1.3671843 -94.501068
9209687500 -2.233259 118.8644 -7.8657341 -90.094894 -7.8631248 -90.818336 -1.369916 -94.529808
9209750000 -2.2426438 118.84484 -7.8672867 -90.085953 -7.8573723 -90.782104 -1.3660593 -94.475227
9209812500 -2.2455149 118.86744 -7.858634 -90.122429 -7.8556843 -90.823608 -1.362839 -94.463974
9209875000 -2.243206 118.8211 -7.8565459 -90.175888 -7.8531733 -90.819992 -1.3628173 -94.438492
9209937500 -2.2490385 118.81275 -7.8657155 -90.096565 -7.8481021 -90.793495 -1.3642461 -94.387489
9210000000 -2.2437291 118.84515 -7.8587494 -90.115807 -7.8431044 -90.841118 -1.3663394 -94.424126
9210062500 -2.2445138 118.83155 -7.8580055 -90.073273 -7.8491898 -90.834908 -1.3648001 -94.388763
9210125000 -2.2450964 118.82408 -7.8531156 -90.034241 -7.8438153 -90.835571 -1.3694817 -94.337563
9210187500 -2.2431257 118.80441 -7.8518395 -90.090721 -7.849185 -90.812302 -1.3712332 -94.373047
9210250000 -2.2439682 118.79944 -7.8566995 -90.092033 -7.8452144 -90.753769 -1.3761652 -94.302742
9210312500 -2.2442412 118.7935 -7.8489909 -90.028175 -7.8415031 -90.779572 -1.3734008 -94.3013
9210375000 -2.2505875 118.76863 -7.8589072 -90.101257 -7.8411603 -90.822296 -1.3761448 -94.278328
9210437500 -2.252672 118.70189 -7.8477907 -90.105446 -7.8428349 -90.810966 -1.3736515 -94.297119
9210500000 -2.2491879 118.69469 -7.8561544 -90.074631 -7.8470187 -90.839104 -1.3824649 -94.281387
9210562500 -2.2484703 118.70666 -7.8462081 -90.090408 -7.8387079 -90.838135 -1.3771293 -94.216652
9210625000 -2.249644 118.60419 -7.8517337 -90.097977 -7.8495088 -90.887634 -1.3864684 -94.250069
9210687500 -2.2443237 118.59783 -7.8415437 -90.072258 -7.8451166 -90.876648 -1.3765402 -94.230042
9210750000 -2.2449942 118.57584 -7.8386316 -90.106857 -7.8403096 -90.874619 -1.3847823 -94.2089
9210812500 -2.2517216 118.56909 -7.8459287 -90.136612 -7.8369694 -90.715111 -1.3814232 -94.128281
9210875000 -2.2495918 118.57337 -7.8345451 -90.118416 -7.835053 -90.82122 -1.3775377 -94.157219
9210937500 -2.242758 118.57236 -7.8358889 -90.059959 -7.8345556 -90.745766 -1.3806405 -94.069817
9211000000 -2.2450526 118.56863 -7.8352461 -90.103195 -7.8293834 -90.768959 -1.3781114 -94.050842
9211062500 -2.2457564 118.53748 -7.8324151 -90.148758 -7.8339543 -90.789368 -1.3797859 -94.06749
9211125000 -2.2547925 118.52531 -7.842597 -90.102112 -7.8339529 -90.761917 -1.3847078 -94.005363
9211187500 -2.252547 118.53356 -7.8438826 -90.151924 -7.8308659 -90.777695 -1.3856109 -94.011909
9211250000 -2.2538068 118.51 -7.8418398 -90.114212 -7.8309865 -90.72538 -1.3897731 -93.952904
9211312500 -2.2512167 118.51202 -7.828793 -90.075531 -7.8393373 -90.846718 -1.3936336 -94.001717
9211375000 -2.247149 118.49967 -7.8341312 -90.141151 -7.83706 -90.826263 -1.3917013 -93.996056
9211437500 -2.2494771 118.50983 -7.8386002 -90.127441 -7.829227 -90.867035 -1.3870714 -94.033112
9211500000 -2.2467809 118.47313 -7.8328552 -90.119537 -7.8273206 -90.815056 -1.3907781 -93.995354
9211562500 -2.2422628 118.47612 -7.8339529 -90.143402 -7.8266392 -90.802254 -1.3813642 -93.985718
9211625000 -2.2465653 118.45749 -7.8324051 -90.182014 -7.8354616 -90.81881 -1.3910518 -94.001938
9211687500 -2.2433894 118.46541 -7.8359671 -90.157593 -7.8323145 -90.892311 -1.3826357 -94.022736
9211750000 -2.2449241 118.49034 -7.8318238 -90.143707 -7.8284159 -90.807396 -1.3819897 -94.010071
9211812500 -2.2483902 118.41972 -7.8323164 -90.096672 -7.8245068 -90.781845 -1.3822874 -93.974464
9211875000 -2.2501075 118.41833 -7.8358431 -90.140366 -7.8270388 -90.849174 -1.3913513 -93.946724
9211937500 -2.2491534 118.41634 -7.8329387 -90.201859 -7.8296776 -90.873604 -1.3946193 -93.93206
9212000000 -2.2546098 118.38232 -7.8364682 -90.116234 -7.8204308 -90.843086 -1.3928698 -93.889534
9212062500 -2.2515299 118.34954 -7.8266788 -90.078568 -7.8213449 -90.826836 -1.3902562 -93.816544
9212125000 -2.2531514 118.30663 -7.8289537 -90.107147 -7.8214869 -90.844688 -1.3918451 -93.797516
9212187500 -2.2488194 118.29842 -7.8222799 -90.093086 -7.8217015 -90.881569 -1.3914527 -93.809067
9212250000 -2.2554843 118.26122 -7.8261008 -90.139015 -7.8159318 -90.946129 -1.3867728 -93.81218
9212312500 -2.2500956 118.20524 -7.8258681 -90.155457 -7.81703 -90.903069 -1.3877701 -93.784576
9212375000 -2.2509365 118.19555 -7.8153806 -90.176086 -7.8177733 -90.899673 -1.3885701 -93.753296
9212437500 -2.255434 118.16743 -7.8217697 -90.199509 -7.8171988 -90.921593 -1.386073 -93.753197
