!Agilent Technologies,N5242A,MY51221714,A.09.90.19
!Agilent N5242A: A.09.90.19
!Date: Tuesday, March 26, 2024 17:07:30
!Correction: S11(Full 2 Port(1,2)) 
!S21(Full 2 Port(1,2)) 
!S12(Full 2 Port(1,2)) 
!S22(Full 2 Port(1,2)) 
!S2P File: Measurements: S11, S21, S12, S22:
# Hz S  dB   R 50
9200000000 -4.8935885 100.91946 -2.2468047 -39.200893 -2.2270696 -39.964905 -4.1108766 -5.8596249
9200062500 -4.8995218 100.85249 -2.238354 -39.237732 -2.2331641 -39.94286 -4.1045809 -5.8602934
9200125000 -4.8841395 100.83605 -2.2395351 -39.250973 -2.2334359 -39.926876 -4.1094966 -5.7302413
9200187500 -4.886477 100.8279 -2.2421687 -39.192257 -2.2295747 -39.916233 -4.0921779 -5.8592553
9200250000 -4.8818827 100.8 -2.229243 -39.235451 -2.2399132 -39.918037 -4.1161022 -5.8531494
9200312500 -4.8855243 100.80715 -2.2405872 -39.216621 -2.2339938 -39.925598 -4.1078534 -5.8052731
9200375000 -4.8875389 100.80449 -2.2338979 -39.189667 -2.2338405 -39.988148 -4.0931792 -5.8258519
9200437500 -4.8876953 100.80335 -2.2429681 -39.20789 -2.2291644 -39.981186 -4.0942564 -5.8238182
9200500000 -4.8783536 100.75001 -2.235285 -39.209538 -2.228792 -39.921261 -4.1125751 -5.7466092
9200562500 -4.8779349 100.79221 -2.2338405 -39.20787 -2.2361197 -39.90564 -4.1081152 -5.7284522
9200625000 -4.8896141 100.70963 -2.2457199 -39.243126 -2.2306798 -39.904488 -4.1039252 -5.6816182
9200687500 -4.8755469 100.76624 -2.2329416 -39.185066 -2.2376294 -39.900398 -4.1099138 -5.7015381
9200750000 -4.8803124 100.67801 -2.2313681 -39.286541 -2.2381418 -39.90255 -4.1128683 -5.65206
9200812500 -4.8952112 100.6353 -2.2396426 -39.169201 -2.2355483 -39.974617 -4.1211185 -5.6348252
9200875000 -4.8872476 100.74902 -2.2362018 -39.168613 -2.2336779 -39.907227 -4.1193371 -5.6570916
9200937500 -4.8828697 100.69807 -2.2345848 -39.200867 -2.2312295 -39.887169 -4.0984492 -5.5862737
9201000000 -4.8848796 100.72632 -2.2322888 -39.213341 -2.2254136 -39.947868 -4.1068034 -5.5716286
9201062500 -4.8787451 100.5639 -2.2298989 -39.21246 -2.2308309 -39.988064 -4.1088314 -5.575242
9201125000 -4.8813548 100.62086 -2.2314281 -39.208645 -2.2370687 -39.929966 -4.1036329 -5.5893154
9201187500 -4.8848405 100.52861 -2.2469451 -39.207798 -2.228925 -39.937405 -4.1110291 -5.4806604
9201250000 -4.8834801 100.54092 -2.2301848 -39.156296 -2.2349207 -39.880966 -4.1073461 -5.4754553
9201312500 -4.8916445 100.54167 -2.2399378 -39.190014 -2.2294412 -39.987679 -4.105082 -5.5731053
9201375000 -4.8836684 100.52309 -2.2402 -39.156429 -2.2366424 -39.906456 -4.1253653 -5.4400406
9201437500 -4.8801551 100.55048 -2.2425039 -39.212158 -2.2282538 -39.925739 -4.1161795 -5.5593519
9201500000 -4.8805571 100.55225 -2.2352264 -39.155201 -2.2331886 -39.933578 -4.1168509 -5.557353
9201562500 -4.8775945 100.52444 -2.2406554 -39.162743 -2.2326946 -39.95393 -4.1234603 -5.4672103
9201625000 -4.8815374 100.45652 -2.2363229 -39.156494 -2.2351954 -39.956543 -4.1239557 -5.3762197
9201687500 -4.8846364 100.39113 -2.2406869 -39.200325 -2.2337706 -39.91428 -4.1057243 -5.3442583
9201750000 -4.8860364 100.49718 -2.2406003 -39.203865 -2.2316425 -39.915867 -4.1094708 -5.4073067
9201812500 -4.8765745 100.42752 -2.2357264 -39.218487 -2.2315481 -39.941376 -4.1157122 -5.4370432
9201875000 -4.8852067 100.37238 -2.2347369 -39.189922 -2.2282267 -39.9426 -4.0996675 -5.3474779
9201937500 -4.8811197 100.35703 -2.2383132 -39.152615 -2.2325385 -39.935513 -4.1061525 -5.3667073
9202000000 -4.8863864 100.35249 -2.2371399 -39.220612 -2.2298546 -39.986374 -4.1014876 -5.3502364
9202062500 -4.8868532 100.32743 -2.2292073 -39.18771 -2.2252471 -39.955555 -4.096312 -5.3660321
9202125000 -4.8906312 100.43797 -2.2461839 -39.215008 -2.2334914 -39.866409 -4.121161 -5.2833099
9202187500 -4.8858218 100.33799 -2.228976 -39.234428 -2.2394705 -39.909393 -4.112463 -5.2191639
9202250000 -4.8897691 100.32378 -2.2442539 -39.208172 -2.2278981 -39.889355 -4.1201372 -5.2295523
9202312500 -4.8749285 100.30619 -2.2379529 -39.217976 -2.2306473 -39.88913 -4.1089144 -5.2578487
9202375000 -4.8830404 100.2648 -2.2410352 -39.21653 -2.2258134 -39.91608 -4.1104198 -5.1256862
9202437500 -4.8870049 100.30878 -2.2398877 -39.183109 -2.225445 -39.923988 -4.1090631 -5.2872429
9202500000 -4.8974586 100.28203 -2.2435255 -39.226688 -2.2341404 -39.928268 -4.1128678 -5.2709603
9202562500 -4.8725314 100.22632 -2.2350781 -39.216183 -2.2321355 -39.904243 -4.1219988 -5.1960073
9202625000 -4.8895006 100.26545 -2.239079 -39.17923 -2.2286758 -39.891235 -4.1193047 -5.1444173
9202687500 -4.8930221 100.23057 -2.2394955 -39.207546 -2.235213 -39.900414 -4.1064725 -5.1383653
9202750000 -4.8824983 100.15435 -2.2273583 -39.227734 -2.2297242 -39.936031 -4.1093597 -5.1493969
9202812500 -4.8842282 100.16794 -2.2363927 -39.213024 -2.2208538 -39.947781 -4.0991693 -5.0920739
9202875000 -4.873415 100.17321 -2.232744 -39.159313 -2.2295661 -39.930717 -4.1018538 -5.0838609
9202937500 -4.8818736 100.11885 -2.2295187 -39.242786 -2.2284629 -39.918819 -4.113132 -5.0911756
9203000000 -4.8950148 100.15221 -2.2346942 -39.168324 -2.2319734 -39.930969 -4.1061025 -5.0680938
9203062500 -4.8836741 100.05576 -2.2364917 -39.246716 -2.22697 -39.905472 -4.120162 -5.0484991
9203125000 -4.8849783 100.05829 -2.2368705 -39.242943 -2.2271578 -39.939621 -4.1130013 -4.9954619
9203187500 -4.8852572 100.09107 -2.2428675 -39.238876 -2.226038 -39.926582 -4.1020422 -4.9835978
9203250000 -4.8775806 100.03806 -2.2339916 -39.242706 -2.2364452 -39.876923 -4.1095114 -4.9622555
9203312500 -4.8940029 100.091 -2.2354648 -39.160065 -2.2328854 -39.909279 -4.1068268 -4.9151011
9203375000 -4.8817692 100.02034 -2.2327573 -39.210209 -2.2262325 -39.909573 -4.1073227 -4.9693084
9203437500 -4.8887095 100.06805 -2.2417564 -39.241001 -2.2268379 -39.940319 -4.1025848 -5.0351782
9203500000 -4.8794589 99.982628 -2.218647 -39.232754 -2.2257252 -39.91753 -4.1148949 -4.9288969
9203562500 -4.8871231 99.974403 -2.2409277 -39.258965 -2.239253 -39.944847 -4.1199079 -4.9901271
9203625000 -4.8875294 100.01022 -2.2383726 -39.237064 -2.2227943 -39.924995 -4.1032381 -4.9571924
9203687500 -4.887619 99.99099 -2.238359 -39.217014 -2.2364442 -39.944717 -4.1229172 -4.9032345
9203750000 -4.8846502 99.983498 -2.2366247 -39.201771 -2.2340918 -39.913868 -4.1059976 -4.8946366
9203812500 -4.8872042 99.880493 -2.225563 -39.222206 -2.2321999 -39.93605 -4.1082659 -4.8494821
9203875000 -4.8805394 99.930801 -2.2398643 -39.197437 -2.2286897 -39.8839 -4.114665 -4.7664099
9203937500 -4.8832455 99.886726 -2.2350574 -39.205349 -2.2269211 -39.88316 -4.1024837 -4.8150392
9204000000 -4.8844175 99.909348 -2.2308867 -39.185535 -2.2320564 -39.915051 -4.1096911 -4.7814426
9204062500 -4.8833928 99.85688 -2.2389991 -39.203987 -2.2210019 -39.956539 -4.1125216 -4.7433543
9204125000 -4.8861208 99.807968 -2.2326803 -39.204487 -2.2280283 -39.881119 -4.1185632 -4.7470737
9204187500 -4.884676 99.78334 -2.2353816 -39.213238 -2.2332385 -39.893436 -4.1164069 -4.7412796
9204250000 -4.8856721 99.819344 -2.2333343 -39.185654 -2.2286615 -39.905361 -4.1151266 -4.7141643
9204312500 -4.8863864 99.793427 -2.2295866 -39.188427 -2.2232184 -39.937176 -4.0990405 -4.6864877
9204375000 -4.8745179 99.818787 -2.2373512 -39.209919 -2.223419 -39.896278 -4.1152959 -4.7460103
9204437500 -4.9011235 99.795326 -2.2391734 -39.217197 -2.2288785 -39.8974 -4.1137495 -4.665453
9204500000 -4.8880005 99.798248 -2.2296515 -39.242195 -2.2356842 -39.935818 -4.1026545 -4.6940713
9204562500 -4.8944445 99.757156 -2.2339351 -39.292599 -2.2293651 -39.910397 -4.1081533 -4.7337689
9204625000 -4.8757424 99.74176 -2.2242427 -39.19957 -2.233629 -39.925816 -4.1191268 -4.5785198
9204687500 -4.8853025 99.687553 -2.2364814 -39.211605 -2.2298496 -39.939693 -4.1201053 -4.6334219
9204750000 -4.8843918 99.612679 -2.2371283 -39.202297 -2.227001 -39.91256 -4.1195998 -4.5697055
9204812500 -4.8782473 99.701981 -2.2342858 -39.164471 -2.227134 -39.938705 -4.1103573 -4.678956
9204875000 -4.8819528 99.727669 -2.2325039 -39.206696 -2.2400415 -39.903751 -4.117064 -4.6649637
9204937500 -4.8886867 99.608826 -2.2308161 -39.197037 -2.2267582 -39.933014 -4.106463 -4.5954895
9205000000 -4.8726745 99.574867 -2.2372482 -39.17783 -2.2229269 -39.938 -4.1301808 -4.5541263
9205062500 -4.8838701 99.542259 -2.2344415 -39.236633 -2.2228186 -39.936066 -4.1142035 -4.5131378
9205125000 -4.8896556 99.564964 -2.2350602 -39.170864 -2.2189763 -39.913586 -4.1053438 -4.4829969
9205187500 -4.8839564 99.638954 -2.2385292 -39.195972 -2.2328546 -39.926449 -4.1096144 -4.494997
9205250000 -4.875998 99.580307 -2.2352493 -39.237698 -2.2265651 -39.904984 -4.1250463 -4.5041766
9205312500 -4.8790407 99.572975 -2.2243562 -39.15041 -2.2288492 -39.879875 -4.1219735 -4.4397206
9205375000 -4.8773475 99.541481 -2.2279761 -39.230511 -2.2321844 -39.903145 -4.1093316 -4.43751
9205437500 -4.8718538 99.531311 -2.2278972 -39.186302 -2.2340467 -39.893879 -4.1289701 -4.44836
9205500000 -4.8892083 99.430046 -2.2274196 -39.236671 -2.2265871 -39.965118 -4.0953708 -4.3459258
9205562500 -4.8841434 99.396072 -2.2232609 -39.256325 -2.2276838 -39.952118 -4.098022 -4.4209967
9205625000 -4.8962579 99.441521 -2.2391372 -39.211483 -2.2278035 -39.92289 -4.1152129 -4.2833195
9205687500 -4.8884168 99.439888 -2.2260265 -39.189503 -2.2234254 -39.946621 -4.1049404 -4.2967262
9205750000 -4.8855124 99.386978 -2.2228537 -39.22356 -2.2278121 -39.914204 -4.1046476 -4.2931175
9205812500 -4.8866673 99.352989 -2.225019 -39.209721 -2.2295432 -39.90144 -4.106061 -4.2405453
9205875000 -4.8772349 99.441833 -2.2334466 -39.21035 -2.2291393 -39.912476 -4.1208978 -4.4102712
9205937500 -4.8795137 99.318047 -2.231349 -39.257053 -2.2218497 -39.898731 -4.1178155 -4.260623
9206000000 -4.8876119 99.344475 -2.2298656 -39.146378 -2.2283921 -39.92897 -4.1128769 -4.2610722
9206062500 -4.8852005 99.387367 -2.2267234 -39.231873 -2.2255261 -39.918762 -4.1147952 -4.2652936
9206125000 -4.8775468 99.270439 -2.2306917 -39.237373 -2.2291613 -39.941307 -4.1214099 -4.269237
9206187500 -4.8865242 99.303604 -2.227685 -39.243675 -2.2276607 -39.918995 -4.1064081 -4.240613
9206250000 -4.8832784 99.267448 -2.2416792 -39.255554 -2.225925 -39.858524 -4.118331 -4.2388787
9206312500 -4.8830228 99.263977 -2.2298427 -39.212124 -2.2222445 -40.007969 -4.106133 -4.2721119
9206375000 -4.881309 99.265289 -2.2287941 -39.222481 -2.2218165 -39.895603 -4.114922 -4.205339
9206437500 -4.8834476 99.218956 -2.2305284 -39.22525 -2.22121 -39.949726 -4.1205921 -4.2326612
9206500000 -4.884932 99.186317 -2.2348423 -39.223835 -2.2227228 -39.925331 -4.123981 -4.2039647
9206562500 -4.8888721 99.205154 -2.2318137 -39.319489 -2.2277775 -39.902115 -4.1272535 -4.230876
9206625000 -4.8850007 99.122711 -2.229594 -39.208797 -2.2246008 -39.947376 -4.1128936 -4.1222744
9206687500 -4.8861198 99.21154 -2.2297707 -39.233704 -2.2258565 -39.861153 -4.1139245 -4.0865927
9206750000 -4.8878388 99.112312 -2.2350185 -39.229675 -2.2223804 -39.917068 -4.1212449 -4.1474938
9206812500 -4.8759327 99.202637 -2.222446 -39.225517 -2.2273142 -39.934406 -4.11129 -4.1923532
9206875000 -4.8765864 99.141815 -2.2307756 -39.244244 -2.2225921 -39.87685 -4.0970955 -4.0534968
9206937500 -4.8873353 99.139984 -2.2318332 -39.176056 -2.2337728 -39.925137 -4.1246309 -4.0666876
9207000000 -4.8836312 99.12011 -2.2377222 -39.265614 -2.2278156 -39.926693 -4.1091905 -4.0758567
9207062500 -4.8794217 99.036896 -2.219837 -39.210098 -2.2257776 -39.875797 -4.1113691 -3.9142945
9207125000 -4.8915291 98.929085 -2.2283359 -39.308754 -2.2231269 -39.91367 -4.097528 -3.9218178
9207187500 -4.881145 98.999443 -2.2199671 -39.27137 -2.2266335 -39.917191 -4.1153617 -4.0035515
9207250000 -4.8839517 99.038239 -2.2355118 -39.239166 -2.2218971 -39.892101 -4.1158671 -3.9711578
9207312500 -4.8783565 99.098564 -2.2264555 -39.260723 -2.2246366 -39.89566 -4.110755 -3.9298608
9207375000 -4.892087 98.994186 -2.233062 -39.229118 -2.228919 -39.938641 -4.115344 -3.9131372
9207437500 -4.8719072 99.049171 -2.2248778 -39.219578 -2.2326856 -39.878979 -4.1204576 -3.9595871
9207500000 -4.8888941 99.042709 -2.2363989 -39.198784 -2.2124386 -39.895847 -4.115366 -3.8149564
9207562500 -4.8787742 98.947021 -2.2229116 -39.277443 -2.2198584 -39.90435 -4.1172156 -3.9124489
9207625000 -4.8839612 98.801003 -2.2279007 -39.286949 -2.2210426 -39.909374 -4.1102295 -3.8301828
9207687500 -4.8963542 98.924774 -2.233319 -39.220924 -2.2231417 -39.885399 -4.1232147 -3.84921
9207750000 -4.884151 98.845901 -2.2296205 -39.277374 -2.2261794 -39.896564 -4.1194878 -3.811018
9207812500 -4.8795671 98.890556 -2.2280726 -39.248898 -2.2208085 -39.905815 -4.1146464 -3.7866266
9207875000 -4.8737493 98.898468 -2.2321012 -39.178993 -2.2190726 -39.914883 -4.1100736 -3.8367722
9207937500 -4.8851342 98.838791 -2.2341545 -39.231419 -2.2227027 -39.941982 -4.1119208 -3.7746773
9208000000 -4.8820915 98.839371 -2.2292557 -39.209202 -2.2266943 -39.884102 -4.1139607 -3.7864208
9208062500 -4.890626 98.853851 -2.2335269 -39.243782 -2.2270257 -39.980484 -4.1150784 -3.7202945
9208125000 -4.8976045 98.802765 -2.234854 -39.276325 -2.2247727 -39.910442 -4.1111484 -3.6985137
9208187500 -4.8880286 98.826324 -2.2327771 -39.23114 -2.2208748 -39.904423 -4.1215444 -3.7575476
9208250000 -4.8845558 98.783913 -2.2330019 -39.205688 -2.2185915 -39.914051 -4.1143394 -3.6874309
9208312500 -4.8762622 98.812798 -2.2248886 -39.21619 -2.2169378 -39.884903 -4.1124215 -3.6455507
9208375000 -4.888742 98.768326 -2.2265944 -39.225819 -2.2248707 -39.880314 -4.1102595 -3.5949433
9208437500 -4.8791113 98.696907 -2.2316444 -39.275688 -2.2270689 -39.892776 -4.1282663 -3.6350331
9208500000 -4.8811965 98.629425 -2.2249119 -39.199188 -2.2228487 -39.917549 -4.1139431 -3.6595109
9208562500 -4.8870974 98.684891 -2.2279375 -39.22694 -2.2248187 -39.896275 -4.1163282 -3.6257598
9208625000 -4.8793864 98.59626 -2.2296128 -39.261471 -2.2153676 -39.911434 -4.1240783 -3.566303
9208687500 -4.8703709 98.652359 -2.2158177 -39.246536 -2.2238288 -39.937996 -4.1150694 -3.5666349
9208750000 -4.8752227 98.706383 -2.227875 -39.203648 -2.2195861 -39.881332 -4.1152883 -3.5511172
9208812500 -4.8918657 98.723091 -2.2415698 -39.198536 -2.2236094 -39.884342 -4.1137147 -3.5724213
9208875000 -4.8861241 98.599953 -2.2285383 -39.259415 -2.226697 -39.86121 -4.1139369 -3.4945471
9208937500 -4.8859487 98.561638 -2.2250259 -39.240475 -2.222409 -39.915939 -4.1210046 -3.5475788
9209000000 -4.8751931 98.624237 -2.2327592 -39.270756 -2.219533 -39.90099 -4.1291122 -3.5072675
9209062500 -4.8781629 98.613487 -2.2217138 -39.202122 -2.2267909 -39.913734 -4.1141524 -3.4954855
9209125000 -4.887404 98.514763 -2.2284927 -39.217602 -2.2168236 -39.924995 -4.1115694 -3.4580054
9209187500 -4.8804288 98.531815 -2.2293029 -39.221268 -2.2278318 -39.84716 -4.1290493 -3.4796131
9209250000 -4.883296 98.470848 -2.2280726 -39.290234 -2.21977 -39.959171 -4.108459 -3.4411726
9209312500 -4.8844552 98.426666 -2.2367163 -39.28867 -2.2154777 -39.927437 -4.119555 -3.3724539
9209375000 -4.8749013 98.551659 -2.2287245 -39.247784 -2.2339289 -39.909492 -4.1273608 -3.4222383
9209437500 -4.8950806 98.426781 -2.2346001 -39.202965 -2.2270525 -39.95742 -4.1190581 -3.3204594
9209500000 -4.8803596 98.433647 -2.2252781 -39.275604 -2.2211323 -39.991188 -4.1065211 -3.3990054
9209562500 -4.8872895 98.451401 -2.2297597 -39.212185 -2.2286217 -39.933392 -4.1263871 -3.3230443
9209625000 -4.8840551 98.388741 -2.2240734 -39.250408 -2.2216945 -39.896477 -4.106791 -3.2943795
9209687500 -4.8921957 98.319603 -2.23455 -39.242989 -2.2295988 -39.892326 -4.1287498 -3.3056619
9209750000 -4.8898826 98.351662 -2.2266808 -39.27195 -2.2294636 -39.877037 -4.1242671 -3.3524089
9209812500 -4.8759007 98.307083 -2.2257421 -39.222076 -2.2222505 -39.884159 -4.1200194 -3.3117654
9209875000 -4.8857737 98.334694 -2.2319782 -39.214573 -2.2257767 -39.914337 -4.1308408 -3.2398903
9209937500 -4.8856902 98.486511 -2.2320521 -39.232838 -2.2204421 -39.863457 -4.1166778 -3.2434227
9210000000 -4.8765674 98.322121 -2.228255 -39.201408 -2.2210002 -39.899162 -4.1308885 -3.1378794
9210062500 -4.8931236 98.332413 -2.2261293 -39.173729 -2.2219322 -39.897415 -4.1212668 -3.1273682
9210125000 -4.8801508 98.291161 -2.2299278 -39.296516 -2.2188251 -39.891994 -4.1240873 -3.1898785
9210187500 -4.8904943 98.317299 -2.2318027 -39.184895 -2.2253399 -39.939293 -4.1312413 -3.1426532
9210250000 -4.8841767 98.237572 -2.2330132 -39.304401 -2.2145104 -39.898846 -4.1195555 -3.1818104
9210312500 -4.8777804 98.265694 -2.2236936 -39.169529 -2.2231743 -39.957481 -4.1254249 -3.1621571
9210375000 -4.8831501 98.32457 -2.2299142 -39.228382 -2.2326965 -39.925507 -4.12462 -3.0872412
9210437500 -4.8758283 98.227379 -2.2291279 -39.247345 -2.2198842 -39.965424 -4.1200247 -3.2267582
9210500000 -4.872364 98.211021 -2.2215292 -39.256115 -2.2181578 -39.912022 -4.1084471 -3.1031182
9210562500 -4.877964 98.157478 -2.2289643 -39.263557 -2.2232234 -39.946033 -4.1191549 -3.1079047
9210625000 -4.8745432 98.265419 -2.2307131 -39.200497 -2.2178018 -39.829811 -4.121572 -3.0444763
9210687500 -4.8858151 98.176956 -2.2328904 -39.215042 -2.2209506 -39.91 -4.1163588 -3.0630383
9210750000 -4.8816257 98.147583 -2.2277517 -39.257092 -2.2149289 -39.892803 -4.1165452 -3.0305469
9210812500 -4.8836985 98.111023 -2.2333381 -39.249294 -2.2238519 -39.891651 -4.1311908 -2.9971552
9210875000 -4.8824511 98.118126 -2.2310436 -39.261078 -2.2187719 -39.900215 -4.1353331 -3.0323112
9210937500 -4.8845863 98.133003 -2.2282758 -39.197186 -2.2240436 -39.857185 -4.1374741 -2.9631863
9211000000 -4.8746738 98.147804 -2.2300565 -39.192497 -2.2269583 -39.839394 -4.1224356 -3.0413141
9211062500 -4.8763776 98.100433 -2.2241466 -39.201073 -2.2204175 -39.877304 -4.1257935 -2.9175658
9211125000 -4.88765 97.993095 -2.2273953 -39.244869 -2.2193706 -39.867416 -4.1292801 -2.9287727
9211187500 -4.8788285 98.043106 -2.2253029 -39.242104 -2.2212453 -39.885189 -4.1288714 -2.860553
9211250000 -4.8888173 98.030342 -2.2266009 -39.223007 -2.2270603 -39.848232 -4.1280146 -2.9282079
9211312500 -4.8811293 98.009811 -2.2324178 -39.219482 -2.2233961 -39.901386 -4.1342602 -2.9038813
9211375000 -4.8757191 97.943565 -2.2245865 -39.28405 -2.2230866 -39.963085 -4.1182542 -2.8668211
9211437500 -4.8678818 97.952751 -2.2153652 -39.249168 -2.2219701 -39.911724 -4.1215158 -2.8408244
9211500000 -4.8811636 97.961502 -2.2337775 -39.251289 -2.2213192 -39.916779 -4.1267591 -2.8728504
9211562500 -4.8870287 97.890877 -2.2297766 -39.252865 -2.2155299 -39.878601 -4.1247187 -2.8203917
9211625000 -4.8878112 97.898468 -2.2210088 -39.254925 -2.2205286 -39.928226 -4.120965 -2.8017366
9211687500 -4.8891306 97.94619 -2.2256672 -39.180054 -2.2212479 -39.945591 -4.1259809 -2.7659409
9211750000 -4.8782725 97.867355 -2.2199762 -39.264584 -2.2236488 -39.912281 -4.1209369 -2.7366226
9211812500 -4.8872342 97.905098 -2.2337396 -39.235153 -2.2176082 -39.887985 -4.1299276 -2.7321033
9211875000 -4.892632 97.828659 -2.2314124 -39.260433 -2.2166357 -39.880779 -4.11518 -2.6846888
9211937500 -4.8828754 97.828735 -2.2246692 -39.277191 -2.2155821 -39.920616 -4.1226296 -2.7094631
9212000000 -4.8751855 97.715096 -2.2166343 -39.220409 -2.2113299 -39.881374 -4.1207924 -2.5971193
9212062500 -4.876925 97.736481 -2.2299316 -39.257729 -2.2181802 -39.904907 -4.1401215 -2.7009203
9212125000 -4.8780332 97.709854 -2.2242749 -39.320156 -2.2306461 -39.932491 -4.1301227 -2.7553248
9212187500 -4.8775749 97.682251 -2.2233546 -39.240967 -2.2090216 -39.916672 -4.1364493 -2.5867922
9212250000 -4.8721581 97.750923 -2.2259152 -39.250446 -2.2186751 -39.877666 -4.1195035 -2.6518252
9212312500 -4.8770084 97.710144 -2.2193639 -39.272072 -2.2195556 -39.919609 -4.1297593 -2.6744502
9212375000 -4.8743119 97.773338 -2.2128422 -39.24799 -2.2125077 -39.922695 -4.1265645 -2.6281989
9212437500 -4.8794818 97.658035 -2.2250071 -39.257164 -2.2202435 -39.905071 -4.1316724 -2.5674565
