!Agilent Technologies,N5242A,MY51221714,A.09.90.19
!Agilent N5242A: A.09.90.19
!Date: Tuesday, March 26, 2024 17:08:35
!Correction: S11(Full 2 Port(1,2)) 
!S21(Full 2 Port(1,2)) 
!S12(Full 2 Port(1,2)) 
!S22(Full 2 Port(1,2)) 
!S2P File: Measurements: S11, S21, S12, S22:
# Hz S  dB   R 50
9200000000 -4.8832588 101.54904 -2.237349 -39.192711 -2.2232568 -39.962368 -4.1079001 -6.4971385
9200062500 -4.8996787 101.52036 -2.2354248 -39.240108 -2.2296796 -39.945438 -4.1052814 -6.5227752
9200125000 -4.88027 101.49931 -2.2312598 -39.206173 -2.2256844 -39.913704 -4.1092467 -6.3960199
9200187500 -4.8976026 101.54636 -2.2433779 -39.135376 -2.226053 -39.929588 -4.0954633 -6.4984899
9200250000 -4.8815646 101.47758 -2.227071 -39.181293 -2.2357419 -39.903522 -4.1202068 -6.4594078
9200312500 -4.8919101 101.45966 -2.2370133 -39.222469 -2.2358038 -39.929741 -4.1097746 -6.4723606
9200375000 -4.885982 101.42111 -2.229193 -39.221275 -2.2290735 -39.97699 -4.0962238 -6.4535437
9200437500 -4.8846145 101.49586 -2.2322598 -39.191948 -2.2256417 -39.967537 -4.096139 -6.4486241
9200500000 -4.8881927 101.42953 -2.2392392 -39.21645 -2.2316911 -39.919552 -4.1172438 -6.4013419
9200562500 -4.8836899 101.45695 -2.2338769 -39.182781 -2.234437 -39.952156 -4.1132708 -6.4603543
9200625000 -4.8909421 101.38206 -2.2413566 -39.191826 -2.2253177 -39.934196 -4.103817 -6.3665524
9200687500 -4.8810945 101.42361 -2.2304311 -39.180836 -2.2364445 -39.93391 -4.1091924 -6.3652039
9200750000 -4.8789492 101.33057 -2.2239525 -39.263988 -2.2347856 -39.891476 -4.117691 -6.3051915
9200812500 -4.9050207 101.28464 -2.2423787 -39.166714 -2.2296362 -39.985664 -4.1239562 -6.2987218
9200875000 -4.8848405 101.36771 -2.2234726 -39.183151 -2.2327347 -39.909782 -4.1218805 -6.3042269
9200937500 -4.8952131 101.35667 -2.237078 -39.201828 -2.2278664 -39.9189 -4.1045928 -6.2329884
9201000000 -4.8913302 101.30547 -2.2323816 -39.249737 -2.2209401 -39.983547 -4.1017718 -6.2926941
9201062500 -4.8795233 101.2008 -2.2283092 -39.210537 -2.2232704 -39.967941 -4.1010914 -6.2511702
9201125000 -4.8887925 101.29871 -2.2308969 -39.206894 -2.2332056 -39.935295 -4.1007853 -6.2421112
9201187500 -4.8934216 101.1381 -2.2391665 -39.236061 -2.2315869 -39.956638 -4.1117363 -6.1421824
9201250000 -4.8939681 101.1939 -2.2300518 -39.190189 -2.2403619 -39.935665 -4.1222219 -6.1729994
9201312500 -4.8913298 101.22334 -2.2340465 -39.160473 -2.2314165 -39.933372 -4.1096749 -6.1748981
9201375000 -4.8874741 101.23607 -2.2402742 -39.111435 -2.2283492 -39.883934 -4.1152544 -6.0854998
9201437500 -4.8783593 101.27048 -2.2393005 -39.154602 -2.2327001 -39.900219 -4.1184754 -6.1603289
9201500000 -4.8879118 101.173 -2.2373328 -39.195827 -2.2328107 -39.892349 -4.1168952 -6.1573544
9201562500 -4.8891907 101.15269 -2.2346835 -39.177952 -2.2382097 -39.970074 -4.1289425 -6.134027
9201625000 -4.8913751 101.07228 -2.2354834 -39.191826 -2.231108 -39.92786 -4.1192183 -6.0324039
9201687500 -4.8928728 101.11715 -2.2447679 -39.112823 -2.2307639 -39.904114 -4.1083684 -5.9915581
9201750000 -4.8842745 101.11943 -2.2349522 -39.188828 -2.2298503 -39.908627 -4.1102552 -6.0363989
9201812500 -4.8817115 101.09586 -2.2388709 -39.198719 -2.231113 -39.924786 -4.1202378 -6.0787086
9201875000 -4.8908234 101.04537 -2.2295969 -39.204376 -2.2301753 -39.92165 -4.1016488 -5.973423
9201937500 -4.8984165 100.98252 -2.2462938 -39.202538 -2.2284648 -39.952942 -4.1110549 -6.0277328
9202000000 -4.884912 100.99665 -2.2328339 -39.185085 -2.2313628 -39.942692 -4.1030846 -5.982307
9202062500 -4.8938079 101.02204 -2.2274699 -39.149231 -2.2286675 -39.939373 -4.1011496 -5.9495945
9202125000 -4.8908806 101.09307 -2.2396441 -39.179142 -2.2318802 -39.891651 -4.1198483 -5.9430032
9202187500 -4.8936343 101.00939 -2.2249537 -39.193077 -2.2325075 -39.87672 -4.1066179 -5.865653
9202250000 -4.8927112 100.96699 -2.2394159 -39.219299 -2.2325835 -39.909313 -4.1242552 -5.901052
9202312500 -4.8771663 100.98506 -2.2338719 -39.200634 -2.2233298 -39.956169 -4.1083064 -5.9410071
9202375000 -4.8919196 100.94079 -2.2378941 -39.191113 -2.2259605 -39.917904 -4.1147017 -5.7801881
9202437500 -4.889133 100.95435 -2.2276139 -39.17527 -2.2295868 -39.910851 -4.1107335 -5.9413185
9202500000 -4.8909516 100.96705 -2.2353315 -39.177654 -2.2322052 -39.917439 -4.1146426 -5.9065042
9202562500 -4.8785419 100.91355 -2.2316115 -39.189167 -2.2343185 -39.897255 -4.1219168 -5.8167863
9202625000 -4.8937273 100.91151 -2.2358711 -39.152874 -2.2278879 -39.903908 -4.1159668 -5.7863865
9202687500 -4.8930793 100.87376 -2.2326312 -39.217556 -2.2314992 -39.908028 -4.1127491 -5.8151107
9202750000 -4.887948 100.81487 -2.2318051 -39.212376 -2.2262499 -39.947731 -4.1137037 -5.7989593
9202812500 -4.8880377 100.83435 -2.2335596 -39.183285 -2.2220075 -39.9562 -4.1015763 -5.7613459
9202875000 -4.8851876 100.80589 -2.2327921 -39.15382 -2.2325325 -39.916313 -4.1133256 -5.7365956
9202937500 -4.8925738 100.79449 -2.2336795 -39.22945 -2.2271919 -39.883793 -4.1154866 -5.7420712
9203000000 -4.8974667 100.82527 -2.2310219 -39.141285 -2.2297449 -39.923248 -4.1096973 -5.7181807
9203062500 -4.8805776 100.73219 -2.2313006 -39.197624 -2.2236621 -39.950439 -4.1188583 -5.7187333
9203125000 -4.8856897 100.7278 -2.235285 -39.196838 -2.2208571 -39.921131 -4.1095724 -5.6501646
9203187500 -4.8942142 100.75282 -2.2383564 -39.213646 -2.2262056 -39.967953 -4.1104426 -5.6935234
9203250000 -4.8872843 100.6969 -2.2340677 -39.233612 -2.2320082 -39.916294 -4.1118507 -5.6415658
9203312500 -4.8998904 100.69583 -2.229877 -39.209785 -2.2256157 -39.919178 -4.1060824 -5.5931311
9203375000 -4.8923397 100.68267 -2.2300177 -39.208038 -2.2284935 -39.943913 -4.109406 -5.5934777
9203437500 -4.8942709 100.741 -2.2374799 -39.243778 -2.2263284 -39.928185 -4.0983868 -5.6913953
9203500000 -4.89083 100.63667 -2.2263501 -39.217384 -2.2269108 -39.897373 -4.1103911 -5.5487599
9203562500 -4.8934259 100.64829 -2.2393475 -39.21331 -2.2323818 -39.941296 -4.1184387 -5.6441932
9203625000 -4.8961163 100.65405 -2.2396371 -39.244297 -2.2286742 -39.901608 -4.1106982 -5.5810218
9203687500 -4.8917899 100.6774 -2.2396722 -39.192364 -2.2410908 -39.876663 -4.122076 -5.5073071
9203750000 -4.8886847 100.58153 -2.2335811 -39.227489 -2.2270162 -39.889996 -4.1040745 -5.5418057
9203812500 -4.8998246 100.58174 -2.2345181 -39.188004 -2.2313602 -39.950619 -4.1126466 -5.497057
9203875000 -4.8878937 100.58344 -2.2355092 -39.171589 -2.2288604 -39.936214 -4.1191435 -5.4362717
9203937500 -4.8858194 100.48892 -2.2293324 -39.215435 -2.2236307 -39.889355 -4.1077485 -5.4602485
9204000000 -4.8907056 100.55783 -2.2269368 -39.212708 -2.2347951 -39.911419 -4.1128054 -5.4178066
9204062500 -4.8897705 100.5247 -2.2348449 -39.170383 -2.2202368 -39.958607 -4.1195583 -5.4162869
9204125000 -4.8928809 100.45724 -2.2322004 -39.195248 -2.2211595 -39.915379 -4.1117678 -5.4664302
9204187500 -4.892488 100.47015 -2.2353823 -39.211098 -2.227401 -39.935101 -4.1091928 -5.377233
9204250000 -4.893362 100.45026 -2.2246754 -39.164444 -2.2237232 -39.926449 -4.1112657 -5.3960042
9204312500 -4.8932705 100.41943 -2.234282 -39.202122 -2.2248406 -39.93623 -4.1039767 -5.3241596
9204375000 -4.8772926 100.44592 -2.2288473 -39.210526 -2.2216821 -39.915512 -4.1155052 -5.3922048
9204437500 -4.9018984 100.47273 -2.2387283 -39.216022 -2.232374 -39.867649 -4.1170864 -5.3208075
9204500000 -4.8908339 100.43188 -2.2275796 -39.223301 -2.2381818 -39.91156 -4.107367 -5.3110347
9204562500 -4.8979135 100.3977 -2.2346511 -39.261024 -2.2264175 -39.913982 -4.1045465 -5.361506
9204625000 -4.885201 100.40978 -2.2249708 -39.164066 -2.2244983 -39.942139 -4.1109462 -5.2441449
9204687500 -4.8891621 100.36726 -2.2286751 -39.163868 -2.2274351 -39.878315 -4.1187878 -5.2590938
9204750000 -4.8903279 100.25856 -2.2327769 -39.204586 -2.229135 -39.881569 -4.1182938 -5.1884232
9204812500 -4.8781891 100.3455 -2.227546 -39.180164 -2.2252426 -39.938087 -4.112689 -5.3054543
9204875000 -4.8892431 100.3732 -2.2277639 -39.205326 -2.2397492 -39.908161 -4.1239257 -5.331871
9204937500 -4.8930197 100.30275 -2.2298772 -39.193913 -2.2282274 -39.939693 -4.103179 -5.2245331
9205000000 -4.8677897 100.2023 -2.2249267 -39.154266 -2.2218132 -39.903511 -4.1289258 -5.1737595
9205062500 -4.8902388 100.20454 -2.2393105 -39.271305 -2.2214274 -39.929199 -4.1132784 -5.1734004
9205125000 -4.8862696 100.23836 -2.2250969 -39.144939 -2.228276 -39.915409 -4.1145291 -5.0847044
9205187500 -4.8873777 100.28439 -2.2390687 -39.201221 -2.2281075 -39.897984 -4.1117029 -5.096838
9205250000 -4.8879228 100.20885 -2.2314923 -39.263939 -2.2303109 -39.915394 -4.1306891 -5.1903362
9205312500 -4.8868809 100.22017 -2.2269084 -39.151455 -2.227149 -39.86639 -4.1236696 -5.0886102
9205375000 -4.8820486 100.18344 -2.225502 -39.218441 -2.2324841 -39.92358 -4.116189 -5.0603471
9205437500 -4.8807902 100.10408 -2.2294142 -39.219391 -2.2343476 -39.918736 -4.1291103 -5.1278944
9205500000 -4.8957396 100.07675 -2.226305 -39.226677 -2.2239447 -39.990013 -4.1006694 -5.0286937
9205562500 -4.8870602 100.08096 -2.2227967 -39.232895 -2.2296565 -39.913033 -4.1080337 -5.0365973
9205625000 -4.8985829 100.14487 -2.2356367 -39.180901 -2.2331812 -39.926723 -4.1201296 -4.90625
9205687500 -4.8904319 100.14359 -2.2270031 -39.188683 -2.2243569 -39.952866 -4.1101699 -4.9611993
9205750000 -4.8954144 100.0906 -2.2237093 -39.191765 -2.2202253 -39.94437 -4.1061649 -4.9550939
9205812500 -4.8994737 100.00427 -2.228126 -39.238781 -2.2289922 -39.913586 -4.1038375 -4.9133673
9205875000 -4.8832364 100.10085 -2.234446 -39.19846 -2.2307076 -39.936863 -4.1271949 -5.0584817
9205937500 -4.8843694 99.991264 -2.229346 -39.261539 -2.2188723 -39.887703 -4.1202559 -4.8965845
9206000000 -4.8917437 99.994141 -2.2187371 -39.174847 -2.2282617 -39.915112 -4.1172748 -4.8864775
9206062500 -4.89044 100.04902 -2.2227783 -39.236229 -2.2287731 -39.909931 -4.1147971 -4.9460258
9206125000 -4.8881297 99.921051 -2.2299316 -39.207298 -2.223556 -39.928322 -4.1180725 -4.9248776
9206187500 -4.8830647 100.00822 -2.2246101 -39.176212 -2.2218142 -39.920517 -4.1066189 -4.8934126
9206250000 -4.8794188 99.946884 -2.2315013 -39.229389 -2.2297056 -39.87077 -4.1243873 -4.8606057
9206312500 -4.885808 99.938805 -2.2263536 -39.205898 -2.2302091 -40.040627 -4.1160626 -4.9418902
9206375000 -4.8849945 99.920204 -2.225436 -39.2066 -2.22226 -39.916195 -4.1242447 -4.8691154
9206437500 -4.8861709 99.917145 -2.2297008 -39.154709 -2.2230196 -39.97258 -4.123518 -4.8810673
9206500000 -4.8928194 99.853935 -2.2354391 -39.244267 -2.2226377 -39.918964 -4.1299067 -4.7906394
9206562500 -4.8945088 99.878967 -2.2322249 -39.283005 -2.2282665 -39.850178 -4.1290832 -4.8168511
9206625000 -4.8895917 99.769943 -2.2274578 -39.198013 -2.2287719 -39.982548 -4.1173167 -4.8279481
9206687500 -4.8960276 99.848953 -2.2315547 -39.248913 -2.22667 -39.892502 -4.1163321 -4.7676067
9206750000 -4.9002185 99.779465 -2.2368777 -39.20179 -2.2250388 -39.876244 -4.1261034 -4.7908664
9206812500 -4.8851609 99.843185 -2.2255106 -39.225372 -2.2286675 -39.93618 -4.1164608 -4.8443108
9206875000 -4.8855615 99.787041 -2.2325082 -39.258362 -2.2172351 -39.881817 -4.1008325 -4.6906686
9206937500 -4.8888636 99.77211 -2.2275565 -39.188103 -2.2287285 -39.929249 -4.124094 -4.7453284
9207000000 -4.8844604 99.761612 -2.2275383 -39.251514 -2.230068 -39.94677 -4.1166134 -4.7405276
9207062500 -4.8922691 99.717628 -2.2296512 -39.18668 -2.2280009 -39.867771 -4.1135082 -4.5713587
9207125000 -4.9039006 99.640442 -2.2269266 -39.273075 -2.2238941 -39.922516 -4.1057878 -4.5520964
9207187500 -4.8924489 99.676537 -2.2198725 -39.220474 -2.2229087 -39.934376 -4.1190476 -4.708961
9207250000 -4.8855529 99.741234 -2.2335398 -39.196583 -2.2257006 -39.881596 -4.1192584 -4.6178865
9207312500 -4.88446 99.721306 -2.2234659 -39.267731 -2.2177131 -39.934448 -4.1058254 -4.5990586
9207375000 -4.8993096 99.633591 -2.2320464 -39.229477 -2.2227566 -39.936123 -4.1199384 -4.5305152
9207437500 -4.8840008 99.760651 -2.2303162 -39.171341 -2.2322607 -39.877743 -4.1227908 -4.6390491
9207500000 -4.8936877 99.666214 -2.2290852 -39.177559 -2.2150815 -39.899895 -4.1234474 -4.4708376
9207562500 -4.883678 99.627068 -2.2255054 -39.273819 -2.2224455 -39.908237 -4.1229305 -4.5512428
9207625000 -4.8844233 99.525375 -2.2213836 -39.190449 -2.224231 -39.927589 -4.1119328 -4.4638362
9207687500 -4.8991227 99.54496 -2.2290065 -39.219032 -2.2251234 -39.898762 -4.1209211 -4.5005555
9207750000 -4.8883681 99.576851 -2.226712 -39.217533 -2.2161489 -39.909801 -4.1142063 -4.4742584
9207812500 -4.891489 99.564232 -2.2330368 -39.247223 -2.2228839 -39.927841 -4.1218886 -4.4660668
9207875000 -4.876677 99.574684 -2.2290876 -39.161751 -2.2206244 -39.905666 -4.1128926 -4.4624414
9207937500 -4.8800716 99.531151 -2.2274082 -39.192604 -2.2263129 -39.941227 -4.1252804 -4.4491858
9208000000 -4.8953848 99.474571 -2.2337294 -39.269417 -2.221137 -39.878647 -4.1135974 -4.4449396
9208062500 -4.8894544 99.497147 -2.2242706 -39.227684 -2.2234056 -39.963356 -4.1163449 -4.3656774
9208125000 -4.9051089 99.470428 -2.2328115 -39.251751 -2.2213511 -39.909779 -4.1156955 -4.3550725
9208187500 -4.8889198 99.507225 -2.2267137 -39.208775 -2.2254117 -39.917004 -4.1246133 -4.4287753
9208250000 -4.8846011 99.425575 -2.2307823 -39.183907 -2.2249935 -39.878067 -4.116416 -4.3032408
9208312500 -4.8885174 99.470657 -2.2289312 -39.179142 -2.2095635 -39.928493 -4.1232967 -4.2909846
9208375000 -4.8900976 99.421814 -2.2253318 -39.200966 -2.2278669 -39.881149 -4.1151996 -4.2562122
9208437500 -4.8918953 99.345901 -2.2308955 -39.281151 -2.2204049 -39.910976 -4.1287646 -4.3002715
9208500000 -4.8949351 99.298363 -2.2315712 -39.206985 -2.2238002 -39.941708 -4.1210666 -4.3105011
9208562500 -4.8971229 99.358711 -2.2224975 -39.243301 -2.2274256 -39.910923 -4.1263843 -4.2673111
9208625000 -4.8846407 99.22123 -2.2251477 -39.267914 -2.2167225 -39.91502 -4.1229782 -4.2430611
9208687500 -4.8879223 99.318367 -2.2201881 -39.260956 -2.2262793 -39.948273 -4.1214957 -4.2272863
9208750000 -4.882658 99.337029 -2.2251334 -39.234169 -2.2235124 -39.900906 -4.1250653 -4.2036419
9208812500 -4.8935828 99.354057 -2.2293761 -39.238224 -2.2252104 -39.917004 -4.1198554 -4.248167
9208875000 -4.893733 99.254532 -2.2312295 -39.225204 -2.2226636 -39.884487 -4.1180182 -4.1688113
9208937500 -4.8964357 99.231308 -2.2283394 -39.205437 -2.2219625 -39.862118 -4.1215954 -4.1488557
9209000000 -4.8787427 99.286148 -2.2339473 -39.245548 -2.2167072 -39.877754 -4.1288466 -4.1675158
9209062500 -4.8908415 99.279808 -2.2329314 -39.188141 -2.2268045 -39.880199 -4.1246767 -4.1184072
9209125000 -4.8986602 99.205162 -2.2331429 -39.166412 -2.2166119 -39.897758 -4.1093369 -4.091187
9209187500 -4.8842454 99.206734 -2.2262235 -39.184673 -2.2249212 -39.813419 -4.1304331 -4.1158466
9209250000 -4.8878255 99.145012 -2.2244482 -39.225277 -2.2192535 -39.960041 -4.1105647 -4.0290251
9209312500 -4.8786368 99.149055 -2.22453 -39.218964 -2.2199893 -39.936996 -4.1200619 -4.0478535
9209375000 -4.8773308 99.196503 -2.2232735 -39.248058 -2.2266343 -39.888847 -4.1258268 -4.066855
9209437500 -4.8963504 99.072121 -2.2302637 -39.213871 -2.2231514 -39.975498 -4.1217303 -3.9984362
9209500000 -4.8891282 99.134026 -2.2260914 -39.259403 -2.2276134 -39.892982 -4.1159406 -3.9721935
9209562500 -4.8936324 99.106133 -2.2283175 -39.201279 -2.227648 -39.899075 -4.1260085 -3.9716804
9209625000 -4.8941422 99.066345 -2.2236986 -39.243114 -2.2163913 -39.929657 -4.1140094 -3.9509208
9209687500 -4.8902016 98.958138 -2.2343111 -39.269028 -2.2181454 -39.872757 -4.1215124 -3.9431443
9209750000 -4.8965406 98.964294 -2.2283831 -39.337749 -2.2254071 -39.895416 -4.1255555 -4.0426292
9209812500 -4.8943462 98.948212 -2.2309086 -39.26226 -2.2226987 -39.879677 -4.128161 -3.9387908
9209875000 -4.8817525 99.007339 -2.2223802 -39.195732 -2.2205658 -39.91449 -4.1283073 -3.8946393
9209937500 -4.8955517 99.115547 -2.2294748 -39.235901 -2.2256184 -39.881992 -4.1317425 -3.9038007
9210000000 -4.87744 98.973846 -2.2216325 -39.221394 -2.2206326 -39.93927 -4.1351948 -3.8530896
9210062500 -4.8946009 99.016594 -2.2251177 -39.155506 -2.2202392 -39.873501 -4.126123 -3.7485049
9210125000 -4.8783183 98.993645 -2.2271688 -39.239616 -2.2143099 -39.887211 -4.1244569 -3.8152759
9210187500 -4.891377 98.936996 -2.22646 -39.23111 -2.2215588 -39.883728 -4.1299801 -3.7633135
9210250000 -4.8901324 98.903214 -2.226546 -39.251247 -2.2168076 -39.878242 -4.1239796 -3.8232586
9210312500 -4.8861666 98.942482 -2.227761 -39.13105 -2.223865 -39.921963 -4.1203098 -3.7996719
9210375000 -4.8839316 98.968483 -2.2207308 -39.191978 -2.2302637 -39.931507 -4.1244802 -3.7282865
9210437500 -4.8785915 98.905319 -2.2291648 -39.219761 -2.2183862 -39.915806 -4.1226292 -3.8456769
9210500000 -4.8845506 98.870743 -2.2168732 -39.251484 -2.2191863 -39.920719 -4.1155581 -3.7377553
9210562500 -4.8849835 98.838211 -2.225081 -39.227741 -2.2201047 -39.986217 -4.1157842 -3.830116
9210625000 -4.8836188 98.920555 -2.2235265 -39.225986 -2.22524 -39.87727 -4.1339316 -3.7311044
9210687500 -4.8887315 98.824516 -2.224164 -39.22562 -2.2237945 -39.921173 -4.1224122 -3.7191007
9210750000 -4.8866463 98.808144 -2.2263405 -39.250683 -2.218194 -39.905178 -4.1191826 -3.6894455
9210812500 -4.8859482 98.75087 -2.2239838 -39.258499 -2.2251084 -39.891754 -4.1317544 -3.6690197
9210875000 -4.8853183 98.766838 -2.2324739 -39.252384 -2.2192039 -39.896168 -4.1350522 -3.6668801
9210937500 -4.8876433 98.797371 -2.2210772 -39.232975 -2.2252474 -39.859287 -4.1468439 -3.5601683
9211000000 -4.8806443 98.738686 -2.225189 -39.244267 -2.2264791 -39.887238 -4.1240859 -3.743856
9211062500 -4.8774648 98.74614 -2.2203825 -39.18602 -2.2172079 -39.873028 -4.1256728 -3.5611753
9211125000 -4.8902106 98.648888 -2.218534 -39.261967 -2.2156351 -39.905697 -4.1350064 -3.6168251
9211187500 -4.8850331 98.67598 -2.2257326 -39.2202 -2.2156649 -39.854065 -4.1210423 -3.4973311
9211250000 -4.8939996 98.668541 -2.2216926 -39.222633 -2.2284019 -39.859745 -4.1352625 -3.5796409
9211312500 -4.8837366 98.633804 -2.2212744 -39.205791 -2.2203555 -39.890381 -4.1367345 -3.5600498
9211375000 -4.8762679 98.588829 -2.2212861 -39.264584 -2.2194169 -39.93811 -4.118258 -3.5127962
9211437500 -4.8796539 98.598778 -2.2185712 -39.212025 -2.2216129 -39.933041 -4.1209407 -3.4969709
9211500000 -4.886734 98.596321 -2.2304878 -39.271893 -2.218415 -39.936367 -4.1291041 -3.5500953
9211562500 -4.8919573 98.593849 -2.2304933 -39.236012 -2.2185333 -39.93924 -4.1288676 -3.4996672
9211625000 -4.8942733 98.540573 -2.225311 -39.273426 -2.2130103 -39.917397 -4.1226525 -3.4316084
9211687500 -4.8907924 98.536781 -2.225069 -39.213436 -2.2212014 -39.913948 -4.1307383 -3.4137239
9211750000 -4.8911009 98.551018 -2.2287805 -39.240799 -2.2180514 -39.86549 -4.1216998 -3.3831298
9211812500 -4.8843894 98.521729 -2.2226932 -39.235325 -2.2134638 -39.918312 -4.1246529 -3.4334066
9211875000 -4.8913407 98.495705 -2.2269506 -39.23661 -2.2170653 -39.911072 -4.1212263 -3.3748999
9211937500 -4.8875999 98.479828 -2.2269492 -39.257038 -2.2157915 -39.894505 -4.1235027 -3.3541455
9212000000 -4.8828135 98.395935 -2.2250173 -39.233921 -2.2152228 -39.906002 -4.1259847 -3.272666
9212062500 -4.8808265 98.390701 -2.2328525 -39.291702 -2.2260983 -39.89275 -4.1469593 -3.3131373
9212125000 -4.8791561 98.390572 -2.2171474 -39.252048 -2.2274959 -39.949135 -4.1252069 -3.378782
9212187500 -4.8797445 98.339073 -2.2211204 -39.252033 -2.210326 -39.879246 -4.1350651 -3.1667092
9212250000 -4.8748474 98.391518 -2.2196298 -39.287403 -2.2154434 -39.894012 -4.1214666 -3.3201983
9212312500 -4.8854675 98.391663 -2.2206805 -39.227383 -2.216887 -39.890892 -4.130384 -3.3088067
9212375000 -4.8845162 98.380486 -2.2150044 -39.27364 -2.2150936 -39.895725 -4.1298199 -3.2758183
9212437500 -4.8839102 98.277985 -2.2248092 -39.293888 -2.2156041 -39.880756 -4.1364918 -3.2066762
