!Agilent Technologies,N5242A,MY51221714,A.09.90.19
!Agilent N5242A: A.09.90.19
!Date: Tuesday, March 26, 2024 17:10:03
!Correction: S11(Full 2 Port(1,2)) 
!S21(Full 2 Port(1,2)) 
!S12(Full 2 Port(1,2)) 
!S22(Full 2 Port(1,2)) 
!S2P File: Measurements: S11, S21, S12, S22:
# Hz S  dB   R 50
9200000000 -4.688693 -176.28294 -2.5223408 -41.589195 -2.5103011 -42.231087 -3.5716534 -92.722336
9200062500 -4.6846275 -176.32161 -2.5186031 -41.62077 -2.5143025 -42.291943 -3.5616081 -92.712601
9200125000 -4.6830134 -176.35124 -2.51438 -41.560757 -2.5097711 -42.213909 -3.5693913 -92.697754
9200187500 -4.6997118 -176.27982 -2.5329981 -41.514591 -2.5109315 -42.263878 -3.5610254 -92.618233
9200250000 -4.6806669 -176.35403 -2.5208433 -41.568382 -2.5133195 -42.271999 -3.5580728 -92.712318
9200312500 -4.6933465 -176.39912 -2.524406 -41.629116 -2.5134215 -42.260349 -3.5673838 -92.67672
9200375000 -4.6900001 -176.39049 -2.5230496 -41.557686 -2.5075293 -42.301136 -3.5530505 -92.636154
9200437500 -4.6863713 -176.36891 -2.5213811 -41.552322 -2.4989085 -42.243828 -3.5515418 -92.642204
9200500000 -4.6924295 -176.41504 -2.5307248 -41.596558 -2.5121469 -42.22781 -3.5628512 -92.655724
9200562500 -4.6884532 -176.42896 -2.5237932 -41.566338 -2.5151148 -42.290798 -3.5530803 -92.671005
9200625000 -4.6892786 -176.42043 -2.5210817 -41.594673 -2.5074229 -42.23217 -3.5628247 -92.565407
9200687500 -4.681735 -176.44402 -2.5212357 -41.513855 -2.5145271 -42.270168 -3.5579076 -92.580261
9200750000 -4.6911035 -176.52986 -2.52666 -41.600609 -2.5108492 -42.25124 -3.5642035 -92.589905
9200812500 -4.7000194 -176.49867 -2.5296783 -41.581799 -2.513685 -42.217155 -3.5699348 -92.547104
9200875000 -4.6853409 -176.42351 -2.5188389 -41.530834 -2.5134196 -42.222328 -3.5635448 -92.584564
9200937500 -4.6800871 -176.5071 -2.5190203 -41.540894 -2.5016663 -42.226551 -3.549988 -92.486313
9201000000 -4.6768146 -176.56075 -2.5245357 -41.589832 -2.5067914 -42.255398 -3.555537 -92.501755
9201062500 -4.6977 -176.53793 -2.5238075 -41.52446 -2.5096753 -42.248615 -3.5635269 -92.503868
9201125000 -4.6899776 -176.53761 -2.5277684 -41.526283 -2.5218596 -42.266552 -3.5670681 -92.446877
9201187500 -4.6988072 -176.6068 -2.5293696 -41.565716 -2.5083239 -42.240028 -3.5650451 -92.386848
9201250000 -4.6981144 -176.56891 -2.5162675 -41.560444 -2.5156913 -42.24078 -3.5639126 -92.409966
9201312500 -4.6957111 -176.61401 -2.5236866 -41.596119 -2.5092161 -42.288509 -3.5577855 -92.454514
9201375000 -4.698266 -176.61458 -2.5333347 -41.507721 -2.5130711 -42.199547 -3.5624774 -92.387924
9201437500 -4.694684 -176.66017 -2.5312214 -41.525059 -2.5116796 -42.237953 -3.5621474 -92.423302
9201500000 -4.6954551 -176.62839 -2.5283854 -41.593727 -2.5148873 -42.276127 -3.5604346 -92.466209
9201562500 -4.6915236 -176.73305 -2.5285754 -41.580627 -2.5245316 -42.251877 -3.5763032 -92.41256
9201625000 -4.6945801 -176.65837 -2.5273781 -41.584236 -2.5112536 -42.194786 -3.5734317 -92.3106
9201687500 -4.70434 -176.65848 -2.5228479 -41.480343 -2.5123594 -42.236961 -3.5722504 -92.276398
9201750000 -4.6947703 -176.68988 -2.5303979 -41.526882 -2.503454 -42.240532 -3.5525537 -92.324814
9201812500 -4.6931691 -176.72285 -2.5295453 -41.551701 -2.514405 -42.224529 -3.5659704 -92.375023
9201875000 -4.6898966 -176.75945 -2.5194442 -41.525669 -2.5054882 -42.227314 -3.5571697 -92.233032
9201937500 -4.7064004 -176.832 -2.5305402 -41.558014 -2.5125241 -42.303764 -3.5637705 -92.298157
9202000000 -4.6975904 -176.75851 -2.5247228 -41.553616 -2.5132864 -42.263828 -3.5671701 -92.261658
9202062500 -4.6993527 -176.78128 -2.5244286 -41.599804 -2.5057077 -42.287445 -3.5583506 -92.224014
9202125000 -4.695281 -176.83128 -2.5406611 -41.60342 -2.5112135 -42.208973 -3.5680935 -92.292885
9202187500 -4.6900592 -176.82373 -2.5225523 -41.604549 -2.5143578 -42.23941 -3.5565877 -92.165749
9202250000 -4.6918507 -176.8262 -2.5295274 -41.55954 -2.5142069 -42.225082 -3.569669 -92.179626
9202312500 -4.7041831 -176.80714 -2.5302887 -41.516563 -2.5107856 -42.271683 -3.567122 -92.210922
9202375000 -4.6930399 -176.88553 -2.5288019 -41.56575 -2.5112181 -42.241108 -3.5758042 -92.134483
9202437500 -4.6929235 -176.82607 -2.5240505 -41.528698 -2.5152571 -42.245964 -3.5595934 -92.176788
9202500000 -4.6960621 -176.83446 -2.5283978 -41.56086 -2.5199647 -42.23521 -3.5731685 -92.209175
9202562500 -4.689744 -176.94016 -2.5258937 -41.54583 -2.5208848 -42.24263 -3.571274 -92.234215
9202625000 -4.692904 -176.89474 -2.5244567 -41.613262 -2.5038207 -42.201477 -3.5638404 -92.123581
9202687500 -4.6913061 -176.858 -2.5298307 -41.529156 -2.5123374 -42.255138 -3.5593762 -92.078987
9202750000 -4.6924119 -176.9615 -2.522476 -41.559582 -2.5066807 -42.234417 -3.5610142 -92.070244
9202812500 -4.6924691 -176.95656 -2.5207798 -41.540142 -2.5062985 -42.25396 -3.5572374 -92.050423
9202875000 -4.6951222 -176.96851 -2.5240779 -41.530903 -2.5108414 -42.25325 -3.5594442 -92.024376
9202937500 -4.6900687 -176.99847 -2.5269184 -41.630802 -2.5106263 -42.218685 -3.5646119 -92.034325
9203000000 -4.6929169 -176.93697 -2.5243742 -41.530933 -2.5096416 -42.267704 -3.5688968 -92.023476
9203062500 -4.6999593 -177.05107 -2.5265203 -41.623005 -2.5145593 -42.248005 -3.5699713 -92.111244
9203125000 -4.690773 -177.09027 -2.5226808 -41.574566 -2.5048027 -42.2813 -3.5675957 -92.018112
9203187500 -4.6866183 -177.06677 -2.5324781 -41.557091 -2.5062413 -42.251812 -3.5681486 -91.959251
9203250000 -4.6912079 -177.08356 -2.5239229 -41.525394 -2.5111754 -42.198204 -3.5657992 -91.921333
9203312500 -4.6975389 -177.01843 -2.5340753 -41.555851 -2.5102463 -42.322624 -3.5642273 -92.014282
9203375000 -4.692276 -177.07266 -2.5253923 -41.502949 -2.5127494 -42.23642 -3.5670352 -91.914047
9203437500 -4.693119 -177.05258 -2.5316689 -41.546516 -2.5159583 -42.230366 -3.566148 -91.947189
9203500000 -4.695013 -177.15756 -2.5243936 -41.549335 -2.515661 -42.247768 -3.5637624 -91.964226
9203562500 -4.7013931 -177.14133 -2.5355525 -41.562908 -2.5244586 -42.245544 -3.5773764 -91.935379
9203625000 -4.6930146 -177.14156 -2.5268209 -41.580975 -2.5135701 -42.262535 -3.5692453 -91.964966
9203687500 -4.6969409 -177.16548 -2.5361004 -41.590275 -2.5206826 -42.219013 -3.5708697 -91.822701
9203750000 -4.6942916 -177.20735 -2.5251999 -41.531029 -2.515687 -42.231777 -3.5665436 -91.835564
9203812500 -4.695889 -177.16849 -2.5232153 -41.567837 -2.5144091 -42.217442 -3.5647776 -91.814133
9203875000 -4.6869459 -177.18758 -2.5235803 -41.479946 -2.5156279 -42.223583 -3.5810039 -91.820351
9203937500 -4.7030959 -177.21419 -2.5253773 -41.572693 -2.5169981 -42.192322 -3.5625637 -91.835449
9204000000 -4.6935616 -177.17978 -2.5262904 -41.538818 -2.517695 -42.219383 -3.5733047 -91.775948
9204062500 -4.6919723 -177.18381 -2.5240748 -41.50428 -2.5083444 -42.250355 -3.5747111 -91.814049
9204125000 -4.6931677 -177.21722 -2.5266724 -41.55212 -2.5144265 -42.216743 -3.569129 -91.73983
9204187500 -4.6938186 -177.27969 -2.5291543 -41.520348 -2.5215466 -42.27293 -3.5875404 -91.751022
9204250000 -4.6920233 -177.30962 -2.5178263 -41.591408 -2.513361 -42.285965 -3.5687053 -91.821609
9204312500 -4.6906543 -177.26175 -2.5263236 -41.49263 -2.5127037 -42.207378 -3.5751512 -91.618004
9204375000 -4.6914387 -177.35173 -2.5295467 -41.58474 -2.5103247 -42.230686 -3.5645609 -91.745796
9204437500 -4.6935706 -177.25061 -2.5269916 -41.526989 -2.5072169 -42.183071 -3.5638289 -91.686928
9204500000 -4.699194 -177.33508 -2.5279222 -41.589512 -2.523932 -42.258659 -3.5781944 -91.681831
9204562500 -4.6901379 -177.34827 -2.5319738 -41.563412 -2.5105877 -42.286213 -3.5553792 -91.767601
9204625000 -4.6948681 -177.38445 -2.5296767 -41.486938 -2.5079794 -42.223728 -3.5678704 -91.610954
9204687500 -4.6930346 -177.41811 -2.5260324 -41.524124 -2.5121355 -42.24242 -3.5628059 -91.61412
9204750000 -4.699748 -177.40456 -2.5252545 -41.502968 -2.5143142 -42.240265 -3.5787849 -91.630089
9204812500 -4.6875982 -177.39323 -2.5281837 -41.481373 -2.5119221 -42.285717 -3.5652616 -91.610352
9204875000 -4.6942396 -177.39095 -2.5259728 -41.560272 -2.5244212 -42.252262 -3.5696604 -91.616638
9204937500 -4.6918092 -177.44312 -2.5257225 -41.545929 -2.510659 -42.232361 -3.5596416 -91.553345
9205000000 -4.681613 -177.49127 -2.5269735 -41.543755 -2.5184472 -42.219112 -3.5804336 -91.540573
9205062500 -4.6937675 -177.50911 -2.5297954 -41.595097 -2.5069823 -42.214363 -3.5714324 -91.524559
9205125000 -4.7032962 -177.52933 -2.5343852 -41.533104 -2.5130363 -42.208782 -3.5754213 -91.48877
9205187500 -4.6984687 -177.4832 -2.5332949 -41.495285 -2.512254 -42.250961 -3.5770361 -91.546112
9205250000 -4.691503 -177.54082 -2.5296519 -41.58429 -2.5238369 -42.259258 -3.5734515 -91.572609
9205312500 -4.6896296 -177.50684 -2.5232797 -41.508221 -2.5115914 -42.214222 -3.5685079 -91.509483
9205375000 -4.6996889 -177.58195 -2.5277035 -41.559196 -2.5161324 -42.217072 -3.5700469 -91.434441
9205437500 -4.688623 -177.59566 -2.522927 -41.548584 -2.5163088 -42.209389 -3.5693078 -91.458588
9205500000 -4.7049727 -177.62389 -2.5303972 -41.538986 -2.5096579 -42.229164 -3.5632551 -91.361664
9205562500 -4.7010865 -177.59335 -2.5261588 -41.556767 -2.5147395 -42.249584 -3.5674527 -91.399788
9205625000 -4.697124 -177.61331 -2.5278983 -41.505547 -2.5118358 -42.24757 -3.5723236 -91.354141
9205687500 -4.6886816 -177.55908 -2.5240283 -41.475739 -2.5126417 -42.246437 -3.5682797 -91.364525
9205750000 -4.6868005 -177.69327 -2.519794 -41.567524 -2.5197124 -42.187778 -3.5709684 -91.30706
9205812500 -4.6953483 -177.64093 -2.5198371 -41.530228 -2.519212 -42.229828 -3.5766461 -91.3125
9205875000 -4.6857696 -177.64293 -2.5254302 -41.488995 -2.5178809 -42.225784 -3.5759995 -91.371147
9205937500 -4.6913176 -177.73454 -2.528445 -41.600014 -2.5119245 -42.14455 -3.5726442 -91.290924
9206000000 -4.7026186 -177.68288 -2.5217721 -41.474819 -2.5188894 -42.218517 -3.5712152 -91.296844
9206062500 -4.6905007 -177.74149 -2.5267937 -41.545013 -2.5149145 -42.199825 -3.5754862 -91.308708
9206125000 -4.6924787 -177.71962 -2.5194645 -41.506054 -2.5099287 -42.168842 -3.577358 -91.236794
9206187500 -4.6885009 -177.67213 -2.5250018 -41.526302 -2.5115514 -42.250515 -3.5655298 -91.262054
9206250000 -4.6934819 -177.7854 -2.5261049 -41.587601 -2.5125632 -42.19503 -3.5659089 -91.263306
9206312500 -4.6909695 -177.82497 -2.5231655 -41.562939 -2.5149632 -42.326542 -3.565629 -91.289337
9206375000 -4.6961436 -177.81 -2.5256236 -41.54887 -2.5095434 -42.229439 -3.5661547 -91.30043
9206437500 -4.6832519 -177.8251 -2.5232735 -41.544693 -2.5137751 -42.271454 -3.5691469 -91.282669
9206500000 -4.6930947 -177.82037 -2.5298331 -41.58984 -2.5133686 -42.191746 -3.5795224 -91.251732
9206562500 -4.685729 -177.82111 -2.528321 -41.597622 -2.5222855 -42.242954 -3.577255 -91.268105
9206625000 -4.7054009 -177.89249 -2.5305486 -41.58028 -2.519563 -42.284966 -3.5740528 -91.197235
9206687500 -4.6988778 -177.92813 -2.5327988 -41.609856 -2.5191169 -42.276127 -3.5734763 -91.25045
9206750000 -4.6911669 -177.80437 -2.5248454 -41.542881 -2.5240171 -42.20985 -3.5771904 -91.191872
9206812500 -4.6901054 -177.87218 -2.5253575 -41.559605 -2.511138 -42.277313 -3.5650802 -91.20829
9206875000 -4.6954594 -177.84866 -2.5313921 -41.53849 -2.5063059 -42.196629 -3.5692017 -91.071167
9206937500 -4.6909771 -177.86745 -2.5283246 -41.51017 -2.5220261 -42.214176 -3.5714505 -91.063675
9207000000 -4.6894789 -177.95723 -2.529815 -41.557892 -2.5187452 -42.229156 -3.5756228 -91.074791
9207062500 -4.689075 -177.94145 -2.5217171 -41.495319 -2.507699 -42.192348 -3.5686021 -90.992203
9207125000 -4.7020235 -177.95763 -2.5196779 -41.562672 -2.5081778 -42.262852 -3.580761 -91.035454
9207187500 -4.6904898 -178.00967 -2.5183787 -41.661137 -2.5149705 -42.251259 -3.5660307 -91.090088
9207250000 -4.6937346 -177.99721 -2.5262294 -41.548599 -2.5158038 -42.258942 -3.5695605 -91.118515
9207312500 -4.6850929 -178.06967 -2.5240002 -41.574162 -2.5075262 -42.227509 -3.5635026 -91.039658
9207375000 -4.6984868 -178.0777 -2.5313632 -41.573452 -2.5104647 -42.202343 -3.5669007 -90.974808
9207437500 -4.6920156 -178.01788 -2.5290651 -41.528767 -2.521759 -42.241394 -3.5670896 -90.985649
9207500000 -4.6974669 -177.99248 -2.5388885 -41.50779 -2.5113418 -42.16053 -3.5815828 -90.983704
9207562500 -4.6906104 -178.06178 -2.5278754 -41.563213 -2.5134363 -42.212975 -3.5840354 -91.044144
9207625000 -4.700913 -178.09778 -2.5299447 -41.548092 -2.5091894 -42.258778 -3.565403 -90.932922
9207687500 -4.6887317 -178.02545 -2.529422 -41.499279 -2.5187514 -42.241154 -3.5740762 -90.978149
9207750000 -4.6955686 -178.06876 -2.5284588 -41.508553 -2.5101526 -42.259281 -3.5671988 -90.933411
9207812500 -4.6888261 -178.11171 -2.5355058 -41.507195 -2.5150588 -42.199871 -3.5803492 -90.889107
9207875000 -4.6978951 -178.14714 -2.5439732 -41.51173 -2.5129018 -42.207802 -3.5749388 -90.841217
9207937500 -4.7006121 -178.16966 -2.5385385 -41.52269 -2.5221121 -42.266579 -3.5784912 -90.913223
9208000000 -4.7033949 -178.19475 -2.527595 -41.562031 -2.5161612 -42.189568 -3.5726385 -90.830254
9208062500 -4.6988935 -178.17778 -2.5351038 -41.518444 -2.5132911 -42.223179 -3.5753469 -90.852608
9208125000 -4.6943336 -178.1978 -2.5349877 -41.552551 -2.5194428 -42.222622 -3.5781083 -90.788071
9208187500 -4.6901422 -178.17442 -2.5306439 -41.549213 -2.5198581 -42.242748 -3.5693228 -90.864357
9208250000 -4.7058296 -178.22386 -2.5379937 -41.482704 -2.5140963 -42.236446 -3.5719075 -90.796059
9208312500 -4.6868482 -178.26151 -2.5328608 -41.558239 -2.5041561 -42.257927 -3.572753 -90.838921
9208375000 -4.6989269 -178.30518 -2.5320556 -41.583931 -2.5169513 -42.195732 -3.5715995 -90.764374
9208437500 -4.6979485 -178.29764 -2.5256503 -41.557217 -2.5171993 -42.18457 -3.5810294 -90.761757
9208500000 -4.6935949 -178.29817 -2.5328898 -41.553917 -2.5183272 -42.238411 -3.5732276 -90.739548
9208562500 -4.7018485 -178.2406 -2.5275931 -41.493801 -2.5194621 -42.218517 -3.5767217 -90.738144
9208625000 -4.6954846 -178.36061 -2.5274746 -41.501556 -2.5206819 -42.170391 -3.5814998 -90.752159
9208687500 -4.6853065 -178.33565 -2.5211217 -41.512688 -2.5144806 -42.232487 -3.5765729 -90.75457
9208750000 -4.688961 -178.33211 -2.5256999 -41.541611 -2.5118909 -42.201561 -3.5718229 -90.691856
9208812500 -4.6951866 -178.31648 -2.5395722 -41.525906 -2.5155144 -42.207836 -3.5730193 -90.654762
9208875000 -4.6976037 -178.43837 -2.5311062 -41.592777 -2.5223634 -42.225441 -3.5830753 -90.614342
9208937500 -4.7006555 -178.35201 -2.5300055 -41.547729 -2.5151863 -42.19537 -3.5819216 -90.609138
9209000000 -4.6906633 -178.42969 -2.5369713 -41.549286 -2.5096099 -42.188328 -3.5763097 -90.690758
9209062500 -4.6952434 -178.42641 -2.5360563 -41.539532 -2.5271735 -42.256897 -3.5851438 -90.603981
9209125000 -4.6957712 -178.3933 -2.5280666 -41.531784 -2.5144565 -42.222881 -3.5766466 -90.571861
9209187500 -4.6945462 -178.35995 -2.5258946 -41.49646 -2.5184131 -42.215038 -3.5745089 -90.574722
9209250000 -4.6900296 -178.42667 -2.5252647 -41.516739 -2.5162234 -42.275242 -3.5796664 -90.530319
9209312500 -4.6977463 -178.5321 -2.5388725 -41.550316 -2.5147328 -42.217068 -3.5817463 -90.562744
9209375000 -4.689013 -178.51082 -2.5318446 -41.528584 -2.5222387 -42.178204 -3.5842786 -90.57325
9209437500 -4.7022824 -178.53754 -2.5373137 -41.518726 -2.5157442 -42.236294 -3.5768147 -90.435013
9209500000 -4.6871519 -178.53571 -2.5264852 -41.521835 -2.5175629 -42.246616 -3.5791779 -90.507629
9209562500 -4.6968522 -178.50296 -2.539016 -41.539085 -2.5237298 -42.185452 -3.5840876 -90.471001
9209625000 -4.6977868 -178.58803 -2.5313122 -41.550972 -2.5194871 -42.204342 -3.5772259 -90.443771
9209687500 -4.6976271 -178.5941 -2.5314708 -41.521442 -2.5193145 -42.212322 -3.5777752 -90.461403
9209750000 -4.6918306 -178.56911 -2.5266006 -41.585258 -2.5199306 -42.215027 -3.5722718 -90.469849
9209812500 -4.6968222 -178.62447 -2.53228 -41.534702 -2.521301 -42.246864 -3.5827572 -90.426033
9209875000 -4.6917176 -178.59874 -2.5236347 -41.499672 -2.5157466 -42.238098 -3.5793717 -90.446831
9209937500 -4.6859694 -178.56976 -2.5374234 -41.478241 -2.5213737 -42.158627 -3.5802534 -90.386803
9210000000 -4.689085 -178.61693 -2.5301325 -41.506798 -2.5205708 -42.230541 -3.5956132 -90.39402
9210062500 -4.6919818 -178.63397 -2.527036 -41.516693 -2.5134909 -42.23806 -3.5839663 -90.36969
9210125000 -4.6916914 -178.69861 -2.5325663 -41.505642 -2.5108597 -42.203236 -3.5779622 -90.398132
9210187500 -4.6875105 -178.61263 -2.5322897 -41.49699 -2.5173175 -42.211666 -3.5868709 -90.347397
9210250000 -4.6967258 -178.63873 -2.5300546 -41.489124 -2.5187259 -42.144299 -3.5828903 -90.299805
9210312500 -4.7019691 -178.70715 -2.5292554 -41.469303 -2.5207098 -42.206779 -3.5841479 -90.261726
9210375000 -4.6927123 -178.70677 -2.5342607 -41.509483 -2.5220864 -42.208061 -3.5831149 -90.240631
9210437500 -4.681931 -178.78549 -2.5304837 -41.565784 -2.5165265 -42.292179 -3.5771875 -90.314476
9210500000 -4.6915474 -178.76044 -2.5271597 -41.54195 -2.516535 -42.2253 -3.5780532 -90.284317
9210562500 -4.7026358 -178.74792 -2.5371768 -41.439518 -2.5157084 -42.209328 -3.5772893 -90.229439
9210625000 -4.6921186 -178.80847 -2.5354509 -41.494678 -2.5180676 -42.123337 -3.5768888 -90.248627
9210687500 -4.6968746 -178.79153 -2.5335703 -41.513245 -2.5246661 -42.18475 -3.5858715 -90.210022
9210750000 -4.6911473 -178.80386 -2.5287023 -41.534981 -2.5090683 -42.177448 -3.5738864 -90.170113
9210812500 -4.6933365 -178.83121 -2.5318213 -41.548569 -2.5233793 -42.200676 -3.5948431 -90.174583
9210875000 -4.6829309 -178.83585 -2.5343592 -41.552505 -2.5224938 -42.183296 -3.5873837 -90.194054
9210937500 -4.688282 -178.83473 -2.534725 -41.51527 -2.5262663 -42.181492 -3.5920875 -90.164566
9211000000 -4.6900358 -178.81152 -2.5316994 -41.480404 -2.5202634 -42.222115 -3.5720143 -90.140831
9211062500 -4.695137 -178.89003 -2.5350716 -41.496422 -2.524267 -42.140381 -3.5857911 -90.138596
9211125000 -4.6922584 -178.90454 -2.5352063 -41.531376 -2.5217912 -42.147251 -3.5776746 -90.103844
9211187500 -4.7053828 -178.89465 -2.5367706 -41.48745 -2.5178545 -42.152 -3.5838363 -90.088799
9211250000 -4.6965933 -178.89449 -2.5278473 -41.539089 -2.5200555 -42.196903 -3.5738256 -90.080101
9211312500 -4.6910439 -178.90315 -2.5278473 -41.466656 -2.519345 -42.20525 -3.5789185 -90.068047
9211375000 -4.6893258 -179.00742 -2.5280731 -41.488121 -2.5154166 -42.245758 -3.5875845 -90.044121
9211437500 -4.6886482 -178.96797 -2.5237818 -41.513683 -2.523293 -42.21386 -3.585963 -90.020157
9211500000 -4.692759 -179.04312 -2.5361013 -41.524059 -2.5191839 -42.224579 -3.5784359 -90.087631
9211562500 -4.6998119 -178.95363 -2.5389147 -41.541153 -2.5140281 -42.235538 -3.5884161 -90.095314
9211625000 -4.6911702 -178.98584 -2.5254428 -41.497524 -2.5130081 -42.239861 -3.5784259 -90.023521
9211687500 -4.6898856 -178.98105 -2.5360668 -41.531883 -2.5180366 -42.169872 -3.5835257 -89.91774
9211750000 -4.682745 -179.03578 -2.5250363 -41.479336 -2.5250487 -42.183693 -3.5849862 -89.911774
9211812500 -4.6953526 -179.05675 -2.5418868 -41.5145 -2.5245986 -42.2239 -3.5930769 -89.997437
9211875000 -4.6912956 -179.03899 -2.5279777 -41.49403 -2.5126154 -42.155472 -3.5822325 -89.842278
9211937500 -4.6953998 -179.05151 -2.5386999 -41.541912 -2.5197511 -42.17934 -3.5927315 -89.914078
9212000000 -4.6917152 -179.13579 -2.5254118 -41.54184 -2.5169764 -42.214779 -3.5817657 -89.912178
9212062500 -4.6950622 -179.17346 -2.5358989 -41.488316 -2.5195701 -42.166821 -3.5882905 -89.923523
9212125000 -4.696166 -179.18016 -2.5341513 -41.514881 -2.5247395 -42.229481 -3.5803163 -89.876701
9212187500 -4.6861315 -179.1337 -2.5271633 -41.467327 -2.5131021 -42.188484 -3.5896924 -89.88427
9212250000 -4.6977072 -179.1868 -2.5324783 -41.519524 -2.508117 -42.226669 -3.5721052 -89.905121
9212312500 -4.6906886 -179.1606 -2.5334761 -41.48473 -2.5182853 -42.161228 -3.5817592 -89.786186
