!Agilent Technologies,N5242A,MY51221714,A.09.90.19
!Agilent N5242A: A.09.90.19
!Date: Tuesday, March 26, 2024 17:11:14
!Correction: S11(Full 2 Port(1,2)) 
!S21(Full 2 Port(1,2)) 
!S12(Full 2 Port(1,2)) 
!S22(Full 2 Port(1,2)) 
!S2P File: Measurements: S11, S21, S12, S22:
# Hz S  dB   R 50
9200000000 -4.5458994 -173.96147 -3.0817738 -43.333752 -3.0686567 -44.072361 -3.2796376 -103.64099
9200062500 -4.5435519 -173.95724 -3.0892665 -43.44875 -3.0792315 -44.098339 -3.2775006 -103.59202
9200125000 -4.5436726 -173.9736 -3.0787082 -43.354874 -3.0787272 -44.029243 -3.2898383 -103.60822
9200187500 -4.5597901 -173.95543 -3.0898175 -43.277462 -3.0723951 -44.034168 -3.2642298 -103.51327
9200250000 -4.542356 -174.01752 -3.0834744 -43.344059 -3.0759125 -44.031532 -3.2743821 -103.56388
9200312500 -4.5570211 -174.03627 -3.1029575 -43.40778 -3.0780504 -44.061863 -3.2803853 -103.53976
9200375000 -4.5497212 -174.09839 -3.0922019 -43.413334 -3.0752995 -44.114876 -3.2684207 -103.47224
9200437500 -4.5503631 -174.04915 -3.0889914 -43.363087 -3.0700078 -44.069214 -3.2716846 -103.47215
9200500000 -4.5483766 -174.10652 -3.0944963 -43.376087 -3.0718188 -44.022354 -3.2772324 -103.47001
9200562500 -4.5417228 -174.08089 -3.0828471 -43.354424 -3.0856023 -44.084484 -3.2841461 -103.55518
9200625000 -4.5495548 -174.0591 -3.0826793 -43.389336 -3.0664337 -44.060814 -3.2771823 -103.4564
9200687500 -4.5422306 -174.12251 -3.083668 -43.297726 -3.08132 -44.044323 -3.2731531 -103.4291
9200750000 -4.5445523 -174.20544 -3.0882807 -43.4203 -3.0779834 -44.030758 -3.2723331 -103.46266
9200812500 -4.5580597 -174.14302 -3.0991216 -43.354034 -3.0833399 -44.067165 -3.2872908 -103.45271
9200875000 -4.5407124 -174.10397 -3.0844865 -43.350647 -3.0784664 -44.111202 -3.282243 -103.55945
9200937500 -4.5372748 -174.14816 -3.0897772 -43.354816 -3.0758357 -44.060658 -3.2843647 -103.37792
9201000000 -4.5321689 -174.25462 -3.0814869 -43.460758 -3.0758667 -44.046837 -3.2719319 -103.39345
9201062500 -4.5479999 -174.24574 -3.0797327 -43.344215 -3.0731184 -44.054733 -3.2792888 -103.35718
9201125000 -4.5509753 -174.18901 -3.0853767 -43.342636 -3.0810475 -44.095776 -3.2809668 -103.37906
9201187500 -4.5525517 -174.25719 -3.0851479 -43.313999 -3.0745316 -44.05611 -3.2813606 -103.27213
9201250000 -4.5514593 -174.22412 -3.0876987 -43.344269 -3.0842431 -44.053303 -3.2832017 -103.31796
9201312500 -4.5530386 -174.25401 -3.0848808 -43.330727 -3.0803468 -44.099903 -3.2695041 -103.31449
9201375000 -4.549521 -174.30687 -3.0858314 -43.350914 -3.0782704 -44.003719 -3.287801 -103.28046
9201437500 -4.5503907 -174.29759 -3.0900061 -43.35146 -3.0796776 -44.042221 -3.2747247 -103.32687
9201500000 -4.5489516 -174.256 -3.0891736 -43.361549 -3.0861969 -44.045185 -3.282006 -103.29187
9201562500 -4.5444665 -174.32425 -3.0894806 -43.367573 -3.0903318 -44.047802 -3.2861376 -103.31364
9201625000 -4.5518289 -174.31589 -3.0923624 -43.316113 -3.077481 -44.047436 -3.295017 -103.24459
9201687500 -4.5572724 -174.32074 -3.0875275 -43.275925 -3.0822654 -43.991974 -3.2883854 -103.12152
9201750000 -4.5529819 -174.40756 -3.0956953 -43.393612 -3.073144 -44.079754 -3.2795215 -103.23347
9201812500 -4.5496373 -174.41818 -3.0892072 -43.351494 -3.0804729 -44.019375 -3.288136 -103.2494
9201875000 -4.543582 -174.4231 -3.083432 -43.383972 -3.0756657 -44.061543 -3.2762442 -103.12656
9201937500 -4.563355 -174.46577 -3.0913973 -43.365192 -3.0759733 -44.151165 -3.2744849 -103.26217
9202000000 -4.5614715 -174.45673 -3.0929077 -43.378899 -3.0774989 -44.024612 -3.2760608 -103.093
9202062500 -4.553719 -174.40309 -3.0826044 -43.342377 -3.0785401 -44.041775 -3.2818382 -103.0995
9202125000 -4.5443554 -174.47414 -3.0954335 -43.38195 -3.0783355 -43.989815 -3.2798162 -103.11976
9202187500 -4.5398154 -174.47539 -3.0874305 -43.364162 -3.0797763 -44.017689 -3.2769346 -103.03441
9202250000 -4.5429006 -174.4767 -3.0910306 -43.384846 -3.0818002 -44.072689 -3.2866673 -103.13206
9202312500 -4.546978 -174.47604 -3.087635 -43.321705 -3.0698471 -44.064339 -3.2785592 -103.09184
9202375000 -4.5436649 -174.57408 -3.1001062 -43.38047 -3.0732064 -44.04348 -3.2906263 -103.04191
9202437500 -4.5448165 -174.53656 -3.0805104 -43.373829 -3.0743444 -44.064808 -3.2756543 -103.12654
9202500000 -4.556345 -174.50496 -3.0946019 -43.356892 -3.0888984 -44.062187 -3.289046 -103.05457
9202562500 -4.5480132 -174.59515 -3.0888193 -43.312569 -3.0827744 -44.040451 -3.2892349 -103.07885
9202625000 -4.5462928 -174.53636 -3.0922709 -43.368591 -3.0786581 -44.028244 -3.2889998 -102.97515
9202687500 -4.549346 -174.58714 -3.0912123 -43.341732 -3.0820601 -44.077549 -3.2772188 -102.991
9202750000 -4.5448117 -174.6324 -3.0835693 -43.344566 -3.077332 -44.101391 -3.2813058 -103.00491
9202812500 -4.5439878 -174.6048 -3.0813656 -43.318245 -3.0663249 -44.064617 -3.2775767 -102.9361
9202875000 -4.5540266 -174.63083 -3.0927448 -43.291374 -3.0809193 -44.058159 -3.2875295 -102.87533
9202937500 -4.5378814 -174.68375 -3.0866146 -43.463699 -3.0759192 -44.00618 -3.2777836 -102.89198
9203000000 -4.5465407 -174.61957 -3.0948865 -43.335033 -3.0746818 -44.03204 -3.2757099 -102.86195
9203062500 -4.5450354 -174.72354 -3.0830221 -43.390511 -3.0815744 -44.024113 -3.2947962 -102.94425
9203125000 -4.5495081 -174.72017 -3.0911958 -43.34684 -3.0757101 -44.061321 -3.2839684 -102.89367
9203187500 -4.5404506 -174.74771 -3.0932074 -43.378883 -3.0721982 -44.080658 -3.2805715 -102.87264
9203250000 -4.5513077 -174.76315 -3.0942855 -43.314503 -3.0808811 -44.037334 -3.2858405 -102.86446
9203312500 -4.5494494 -174.75081 -3.0886481 -43.385761 -3.0713563 -44.039021 -3.275188 -102.81538
9203375000 -4.549921 -174.75575 -3.0893233 -43.341949 -3.0654013 -44.044998 -3.275521 -102.80907
9203437500 -4.5504379 -174.79478 -3.0928535 -43.4202 -3.0775459 -44.048222 -3.277642 -102.86828
9203500000 -4.5459504 -174.79636 -3.0857325 -43.33073 -3.0789146 -44.025787 -3.2858458 -102.7952
9203562500 -4.55303 -174.82526 -3.0960281 -43.412655 -3.0841749 -44.113533 -3.2897508 -102.88112
9203625000 -4.5427699 -174.83472 -3.0846341 -43.415379 -3.0808101 -44.061684 -3.2886155 -102.85386
9203687500 -4.5493445 -174.86456 -3.0952406 -43.371395 -3.0868831 -44.03384 -3.2861953 -102.76643
9203750000 -4.5540404 -174.8477 -3.0963709 -43.354862 -3.0774174 -44.013992 -3.2728 -102.73143
9203812500 -4.5550361 -174.83475 -3.0928824 -43.373699 -3.0832012 -44.040001 -3.2863352 -102.72678
9203875000 -4.5484071 -174.86984 -3.0912046 -43.329155 -3.0837929 -44.05072 -3.2940691 -102.7494
9203937500 -4.5537028 -174.90401 -3.0902095 -43.392639 -3.0808911 -44.008266 -3.2849429 -102.72252
9204000000 -4.5518956 -174.89529 -3.0870645 -43.339142 -3.0834312 -44.044487 -3.2786999 -102.69908
9204062500 -4.5502434 -174.8936 -3.0927081 -43.291916 -3.0744729 -44.039192 -3.2883375 -102.63057
9204125000 -4.5534735 -174.88358 -3.0941195 -43.314316 -3.0765851 -44.014008 -3.2830448 -102.57838
9204187500 -4.5558324 -174.95998 -3.0933485 -43.360821 -3.081598 -44.044758 -3.2948101 -102.60645
9204250000 -4.5456553 -174.92867 -3.0821152 -43.381264 -3.0824022 -44.063183 -3.2830002 -102.63808
9204312500 -4.5494885 -174.94781 -3.0896406 -43.334385 -3.0766823 -44.023193 -3.2919912 -102.514
9204375000 -4.5464377 -174.99931 -3.0952547 -43.349724 -3.0776603 -44.022621 -3.2865748 -102.59244
9204437500 -4.5575042 -174.95596 -3.0960805 -43.361382 -3.0764077 -43.96455 -3.2772424 -102.55508
9204500000 -4.5544467 -175.01208 -3.0906844 -43.379513 -3.0936699 -44.042068 -3.2888861 -102.57227
9204562500 -4.5424919 -175.0797 -3.0899711 -43.463398 -3.0786376 -44.090012 -3.2753005 -102.61275
9204625000 -4.5425663 -175.04396 -3.093914 -43.303356 -3.0755441 -44.039436 -3.2881215 -102.4641
9204687500 -4.5463219 -175.10071 -3.0940883 -43.351563 -3.0856524 -44.014568 -3.2831781 -102.45305
9204750000 -4.55863 -175.04364 -3.0899804 -43.336578 -3.0859849 -44.046196 -3.2957158 -102.53223
9204812500 -4.5396862 -175.09262 -3.0811446 -43.305843 -3.0786507 -44.068195 -3.278827 -102.48014
9204875000 -4.5513649 -175.06682 -3.0926237 -43.3554 -3.0938473 -44.041653 -3.2916045 -102.47247
9204937500 -4.5509706 -175.10321 -3.0874677 -43.367226 -3.0783989 -44.063866 -3.2806308 -102.47129
9205000000 -4.5450811 -175.157 -3.0899689 -43.291893 -3.0788004 -44.037479 -3.2904949 -102.44399
9205062500 -4.5439878 -175.15257 -3.0885828 -43.359543 -3.0683477 -44.02718 -3.2901733 -102.42111
9205125000 -4.5543699 -175.16171 -3.0950921 -43.335533 -3.0834868 -44.040871 -3.2885787 -102.42414
9205187500 -4.5549469 -175.14557 -3.0991757 -43.337029 -3.0844553 -44.023701 -3.2972085 -102.42715
9205250000 -4.5518146 -175.20135 -3.0915358 -43.384781 -3.0890467 -44.034122 -3.2925334 -102.46705
9205312500 -4.5467348 -175.0966 -3.0860023 -43.284668 -3.0767748 -44.020157 -3.2853184 -102.4314
9205375000 -4.5550227 -175.27753 -3.0862017 -43.382385 -3.0789056 -44.009548 -3.2775297 -102.36239
9205437500 -4.548697 -175.2104 -3.0980134 -43.318398 -3.078167 -44.01413 -3.2843292 -102.35139
9205500000 -4.5624533 -175.32411 -3.0882986 -43.352528 -3.0801218 -44.037582 -3.2787187 -102.2451
9205562500 -4.5565429 -175.22832 -3.086236 -43.338516 -3.0843019 -44.01429 -3.2889643 -102.26997
9205625000 -4.5520191 -175.27327 -3.1022658 -43.308388 -3.0833838 -44.0299 -3.2966166 -102.27587
9205687500 -4.5486975 -175.21901 -3.0894625 -43.29649 -3.0797904 -44.088875 -3.2908521 -102.28882
9205750000 -4.5493379 -175.34108 -3.0850408 -43.374306 -3.0861313 -44.057484 -3.2859662 -102.27292
9205812500 -4.553822 -175.30873 -3.0925028 -43.312069 -3.0870278 -44.021069 -3.2959843 -102.20894
9205875000 -4.5430093 -175.36937 -3.0924578 -43.340652 -3.0769868 -43.999279 -3.2841244 -102.25517
9205937500 -4.5485749 -175.37428 -3.0948775 -43.358074 -3.0720472 -43.990925 -3.285424 -102.24757
9206000000 -4.5541291 -175.41014 -3.0873632 -43.334797 -3.0816913 -44.002922 -3.2827828 -102.19136
9206062500 -4.5518785 -175.38724 -3.0988295 -43.390137 -3.0830863 -44.038723 -3.2917027 -102.23701
9206125000 -4.5527592 -175.36139 -3.0865507 -43.319534 -3.0781777 -43.989258 -3.289109 -102.18204
9206187500 -4.5490899 -175.36461 -3.0910983 -43.326672 -3.0738668 -43.99791 -3.2796636 -102.11271
9206250000 -4.5529299 -175.44327 -3.0969336 -43.370247 -3.081301 -43.975048 -3.2866004 -102.14415
9206312500 -4.5490384 -175.49811 -3.0897593 -43.336575 -3.0801008 -44.097042 -3.2886395 -102.15095
9206375000 -4.547905 -175.49005 -3.0980136 -43.329144 -3.0771976 -43.995853 -3.2773609 -102.15121
9206437500 -4.5452485 -175.49742 -3.0961623 -43.338348 -3.0789905 -44.051601 -3.2895834 -102.17825
9206500000 -4.5481682 -175.48946 -3.1017246 -43.366737 -3.080852 -44.005848 -3.2947617 -102.10316
9206562500 -4.5459714 -175.49696 -3.0984499 -43.406403 -3.082855 -44.053577 -3.285928 -102.16384
9206625000 -4.5582833 -175.5061 -3.0924056 -43.331036 -3.0780287 -44.101215 -3.291923 -102.09576
9206687500 -4.557456 -175.5488 -3.1024234 -43.41293 -3.0812924 -44.053474 -3.2822943 -102.11916
9206750000 -4.5534282 -175.46614 -3.0969558 -43.324623 -3.0872815 -44.00798 -3.2879591 -102.10041
9206812500 -4.5414886 -175.49335 -3.0931926 -43.309994 -3.0909843 -44.097546 -3.2873807 -102.06387
9206875000 -4.551475 -175.58916 -3.100075 -43.338409 -3.0775318 -43.964008 -3.2889805 -101.94615
9206937500 -4.5454884 -175.56894 -3.0986345 -43.321171 -3.083919 -44.027477 -3.2882171 -101.97742
9207000000 -4.5473413 -175.60289 -3.0960941 -43.328045 -3.0841062 -44.033405 -3.2938278 -101.94938
9207062500 -4.5505066 -175.63783 -3.0958471 -43.31752 -3.0863876 -43.995998 -3.2941973 -101.84917
9207125000 -4.5591068 -175.6131 -3.0945916 -43.35186 -3.077739 -44.039726 -3.2967472 -101.92034
9207187500 -4.539021 -175.65271 -3.0795784 -43.37402 -3.0796771 -44.054043 -3.2814982 -101.96828
9207250000 -4.5463853 -175.67523 -3.0798671 -43.325462 -3.083981 -44.035839 -3.2852294 -101.92866
9207312500 -4.5466542 -175.70398 -3.0937159 -43.355896 -3.0782294 -43.992275 -3.2809474 -101.93507
9207375000 -4.5519462 -175.72762 -3.0889232 -43.374619 -3.0865722 -44.047211 -3.2978134 -101.86957
9207437500 -4.5414877 -175.65674 -3.0982738 -43.295467 -3.0918643 -44.052586 -3.2854006 -101.90929
9207500000 -4.556468 -175.65965 -3.1083126 -43.307533 -3.0804741 -43.968781 -3.3025117 -101.86777
9207562500 -4.5433393 -175.72829 -3.0851405 -43.351643 -3.0738552 -44.021473 -3.2868049 -101.9093
9207625000 -4.555007 -175.7767 -3.0927746 -43.334679 -3.0792048 -44.068398 -3.287652 -101.79436
9207687500 -4.5487447 -175.72357 -3.0889201 -43.327187 -3.0799015 -43.99173 -3.285634 -101.77809
9207750000 -4.5550256 -175.80539 -3.0998209 -43.347321 -3.0794079 -44.012295 -3.285548 -101.80223
9207812500 -4.5521173 -175.78812 -3.1023297 -43.313217 -3.0888453 -44.001652 -3.3040249 -101.78701
9207875000 -4.5541515 -175.79968 -3.1022897 -43.3018 -3.0786903 -44.073029 -3.285383 -101.76501
9207937500 -4.5552492 -175.87907 -3.0984697 -43.349178 -3.0902236 -44.03083 -3.3002594 -101.82207
9208000000 -4.5551887 -175.83891 -3.0980802 -43.381104 -3.0879672 -44.00116 -3.2936869 -101.73567
9208062500 -4.5577888 -175.82211 -3.0963538 -43.269268 -3.0785537 -44.017021 -3.2869682 -101.74911
9208125000 -4.5541563 -175.84958 -3.0986636 -43.344135 -3.0854375 -44.043022 -3.2936783 -101.70439
9208187500 -4.5453148 -175.87555 -3.0927906 -43.323051 -3.0891962 -44.031975 -3.2962024 -101.69987
9208250000 -4.5630484 -175.93668 -3.101743 -43.323116 -3.0739977 -44.044296 -3.2820418 -101.70217
9208312500 -4.5505385 -175.9704 -3.10409 -43.35014 -3.0838194 -44.026058 -3.2968266 -101.72272
9208375000 -4.5596566 -175.93037 -3.0957711 -43.368832 -3.082736 -43.971813 -3.2859552 -101.62366
9208437500 -4.5523639 -175.9724 -3.0991986 -43.342804 -3.0845873 -43.969498 -3.2952571 -101.62948
9208500000 -4.5586195 -175.99854 -3.1016405 -43.361889 -3.0837488 -44.060966 -3.2999399 -101.62131
9208562500 -4.5582018 -175.92107 -3.0930026 -43.304203 -3.0842106 -44.03582 -3.296175 -101.58716
9208625000 -4.5504608 -175.94716 -3.0869572 -43.262207 -3.0838878 -44.026852 -3.3005636 -101.63469
9208687500 -4.5499187 -176.00439 -3.0871687 -43.336742 -3.0832789 -44.011444 -3.2893803 -101.58828
9208750000 -4.5505528 -176.02022 -3.0973358 -43.325401 -3.079839 -44.021347 -3.2927189 -101.59451
9208812500 -4.5540714 -175.96854 -3.1018701 -43.294041 -3.0848877 -43.987465 -3.2923682 -101.53494
9208875000 -4.5519843 -176.07115 -3.09794 -43.331741 -3.0832882 -43.980438 -3.2920632 -101.46513
9208937500 -4.55231 -176.01578 -3.0959849 -43.324505 -3.0735519 -43.985195 -3.282717 -101.50701
9209000000 -4.5452719 -176.08203 -3.103492 -43.335674 -3.0782857 -43.993439 -3.2973056 -101.5777
9209062500 -4.5527911 -176.10281 -3.0980132 -43.302227 -3.0861988 -44.009163 -3.2928228 -101.4575
9209125000 -4.5539308 -176.09807 -3.0940423 -43.349277 -3.0752609 -44.023376 -3.2855713 -101.42631
9209187500 -4.5486641 -176.05328 -3.0938232 -43.302414 -3.0890834 -44.003765 -3.2920806 -101.40477
9209250000 -4.5539503 -176.16965 -3.0989873 -43.325581 -3.0809772 -44.015633 -3.2931457 -101.40565
9209312500 -4.553534 -176.2343 -3.1069403 -43.370392 -3.084959 -44.067551 -3.3036351 -101.48323
9209375000 -4.5419378 -176.18024 -3.0941815 -43.290012 -3.0955904 -43.937588 -3.3052683 -101.38584
9209437500 -4.5534792 -176.21339 -3.0971327 -43.316746 -3.0845835 -44.086838 -3.2988567 -101.39373
9209500000 -4.5497489 -176.20987 -3.0919178 -43.31057 -3.0811296 -44.024376 -3.2932382 -101.36043
9209562500 -4.5565124 -176.16986 -3.1068859 -43.276508 -3.0923381 -43.987473 -3.3129392 -101.3509
9209625000 -4.5555658 -176.23964 -3.0944691 -43.302704 -3.0771487 -43.998554 -3.2923777 -101.31261
9209687500 -4.5539389 -176.23872 -3.0967455 -43.301682 -3.0832272 -44.034954 -3.2900698 -101.34858
9209750000 -4.54632 -176.20587 -3.0888801 -43.356075 -3.0828352 -44.007 -3.2834196 -101.35764
9209812500 -4.5510287 -176.23033 -3.0964046 -43.300072 -3.0862966 -44.00024 -3.2978637 -101.2197
9209875000 -4.5583701 -176.24928 -3.0956068 -43.300289 -3.082963 -43.986282 -3.3033581 -101.29098
9209937500 -4.541512 -176.25777 -3.1032031 -43.284771 -3.0930085 -44.007557 -3.3052914 -101.32581
9210000000 -4.5463419 -176.31682 -3.0967224 -43.317924 -3.0806632 -44.009155 -3.3065145 -101.29121
9210062500 -4.5512562 -176.27779 -3.0992198 -43.307125 -3.0828438 -44.032948 -3.3024797 -101.29625
9210125000 -4.551229 -176.36542 -3.1011088 -43.340382 -3.0818641 -43.982681 -3.2998428 -101.24221
9210187500 -4.5500507 -176.3295 -3.1004565 -43.360912 -3.0864725 -44.005779 -3.2982614 -101.22713
9210250000 -4.5551171 -176.30655 -3.0921235 -43.313915 -3.0804696 -43.9347 -3.2999842 -101.21585
9210312500 -4.559279 -176.34868 -3.0993145 -43.259274 -3.0790687 -44.010143 -3.2906921 -101.2021
9210375000 -4.54317 -176.40192 -3.1042821 -43.357212 -3.0872838 -43.997234 -3.3044918 -101.11017
9210437500 -4.5534139 -176.41411 -3.1028345 -43.310612 -3.0789394 -44.048466 -3.2884295 -101.1816
9210500000 -4.5474348 -176.4548 -3.0958929 -43.336063 -3.0767241 -44.029137 -3.2900407 -101.17989
9210562500 -4.5567489 -176.47192 -3.1000531 -43.296879 -3.0878234 -44.021275 -3.305963 -101.16529
9210625000 -4.548471 -176.49094 -3.0980136 -43.328888 -3.0900249 -43.972317 -3.2986271 -101.14774
9210687500 -4.5563393 -176.43802 -3.1058886 -43.328041 -3.0868185 -44.005238 -3.308239 -101.06284
9210750000 -4.5510712 -176.48648 -3.0998702 -43.323696 -3.074266 -44.013683 -3.2874606 -101.1011
9210812500 -4.5527897 -176.47194 -3.1043425 -43.300171 -3.0827608 -43.985981 -3.3019912 -101.10791
9210875000 -4.5512042 -176.4915 -3.1027064 -43.304386 -3.0883191 -43.976547 -3.3053854 -101.09819
9210937500 -4.5454345 -176.49422 -3.1008584 -43.28516 -3.0857806 -43.946152 -3.3035257 -101.01707
9211000000 -4.5459805 -176.50278 -3.0944569 -43.301552 -3.0876853 -44.025318 -3.2939792 -101.05836
9211062500 -4.5513134 -176.56572 -3.0978172 -43.239574 -3.0864427 -43.953148 -3.3003957 -100.99159
9211125000 -4.545115 -176.56303 -3.1013436 -43.351639 -3.084708 -43.998287 -3.2931147 -101.00278
9211187500 -4.5556788 -176.59164 -3.0960052 -43.315098 -3.0855651 -43.927681 -3.3016465 -100.9406
9211250000 -4.5419636 -176.57341 -3.0905163 -43.33202 -3.0904257 -43.975769 -3.2873306 -100.94691
9211312500 -4.5524273 -176.5799 -3.1065698 -43.322678 -3.0866289 -44.032421 -3.2977095 -100.97978
9211375000 -4.5543356 -176.67935 -3.1006961 -43.304581 -3.0889318 -43.98848 -3.3063006 -100.88911
9211437500 -4.5560684 -176.61877 -3.0963192 -43.242981 -3.0844555 -43.997051 -3.3049226 -100.93388
9211500000 -4.5573678 -176.66954 -3.1014423 -43.339172 -3.0824308 -44.063087 -3.2917995 -101.01373
9211562500 -4.5514064 -176.64394 -3.1016662 -43.369911 -3.0746696 -43.99332 -3.2917571 -100.97346
9211625000 -4.5510273 -176.66197 -3.0910816 -43.328259 -3.0777893 -44.069477 -3.2969575 -100.96734
9211687500 -4.5493231 -176.67422 -3.1039224 -43.288883 -3.0834858 -43.978416 -3.3084037 -100.8374
9211750000 -4.5500069 -176.72813 -3.094347 -43.289543 -3.0826781 -43.990185 -3.2901621 -100.83434
9211812500 -4.5527101 -176.74434 -3.1076329 -43.331394 -3.0873296 -43.990341 -3.3097351 -100.82437
9211875000 -4.5494285 -176.75252 -3.0993259 -43.328007 -3.0817771 -43.925411 -3.2967725 -100.71162
9211937500 -4.5472236 -176.70258 -3.10006 -43.33276 -3.0863597 -44.006966 -3.3065999 -100.79988
9212000000 -4.5463676 -176.81853 -3.0907745 -43.293732 -3.0817151 -44.034649 -3.303436 -100.85847
9212062500 -4.5505509 -176.80217 -3.0985913 -43.263359 -3.0893788 -43.987137 -3.3055875 -100.78903
9212125000 -4.5527725 -176.84297 -3.0988541 -43.319637 -3.0922871 -44.014652 -3.2987621 -100.72392
9212187500 -4.549931 -176.81908 -3.0983679 -43.264347 -3.0837758 -44.005909 -3.3110039 -100.78952
9212250000 -4.5541811 -176.82202 -3.0958154 -43.28867 -3.0787418 -43.969131 -3.2946351 -100.76799
9212312500 -4.5485749 -176.8532 -3.1058533 -43.344231 -3.0895545 -43.992851 -3.2998507 -100.78855
9212375000 -4.5387459 -176.84596 -3.0937564 -43.265717 -3.0856018 -44.005753 -3.2960973 -100.74792
