!Agilent Technologies,N5242A,MY51221714,A.09.90.19
!Agilent N5242A: A.09.90.19
!Date: Tuesday, March 26, 2024 17:12:55
!Correction: S11(Full 2 Port(1,2)) 
!S21(Full 2 Port(1,2)) 
!S12(Full 2 Port(1,2)) 
!S22(Full 2 Port(1,2)) 
!S2P File: Measurements: S11, S21, S12, S22:
# Hz S  dB   R 50
9200000000 -4.7579222 -175.22057 -2.4463637 -41.070656 -2.4287431 -41.76889 -3.6222641 -92.742554
9200062500 -4.7702146 -175.17166 -2.4468985 -41.115784 -2.4432852 -41.781441 -3.6209948 -92.682655
9200125000 -4.7706866 -175.22636 -2.4498813 -41.052216 -2.4387479 -41.683895 -3.6304686 -92.631592
9200187500 -4.7754498 -175.19849 -2.44557 -40.999748 -2.4275179 -41.78793 -3.6043494 -92.582558
9200250000 -4.7648883 -175.27803 -2.4422164 -41.073708 -2.4317298 -41.761436 -3.6143069 -92.653534
9200312500 -4.7688756 -175.26479 -2.4477673 -41.095913 -2.4413593 -41.769943 -3.6229651 -92.648514
9200375000 -4.7726316 -175.27049 -2.4506042 -41.046322 -2.4352627 -41.780159 -3.6132984 -92.552483
9200437500 -4.769423 -175.26028 -2.4469504 -41.061691 -2.4310973 -41.81004 -3.6160679 -92.605087
9200500000 -4.7636681 -175.34047 -2.4541342 -41.115154 -2.4349194 -41.73003 -3.6245127 -92.586609
9200562500 -4.7666864 -175.32498 -2.4474664 -41.055183 -2.4429235 -41.748417 -3.6162772 -92.584
9200625000 -4.7754083 -175.33527 -2.4549479 -41.078396 -2.4341674 -41.749683 -3.6251953 -92.558205
9200687500 -4.7631607 -175.34662 -2.4474351 -41.056324 -2.4385862 -41.73407 -3.6163011 -92.488098
9200750000 -4.7627077 -175.40408 -2.4434917 -41.107639 -2.4333055 -41.767879 -3.6150177 -92.571663
9200812500 -4.7761302 -175.32037 -2.4518468 -41.021896 -2.4447689 -41.763275 -3.6334577 -92.544907
9200875000 -4.7627559 -175.37161 -2.4449513 -41.055733 -2.4422102 -41.719078 -3.6195784 -92.511536
9200937500 -4.7634726 -175.37167 -2.4485734 -41.061409 -2.4316216 -41.776443 -3.6154435 -92.497696
9201000000 -4.7564988 -175.45142 -2.4483905 -41.138943 -2.4282217 -41.766876 -3.6162591 -92.522293
9201062500 -4.7679286 -175.47505 -2.4391279 -41.06414 -2.4298441 -41.767487 -3.6234238 -92.48497
9201125000 -4.777142 -175.42787 -2.4551866 -41.017605 -2.4409914 -41.733673 -3.6207037 -92.401871
9201187500 -4.779263 -175.51003 -2.4482253 -41.059715 -2.429996 -41.757248 -3.6248581 -92.395027
9201250000 -4.7734551 -175.46382 -2.4458437 -41.035145 -2.440244 -41.749435 -3.6291718 -92.406372
9201312500 -4.7770391 -175.50168 -2.4465516 -41.047424 -2.4363549 -41.768303 -3.6163476 -92.416824
9201375000 -4.7773051 -175.54393 -2.453577 -41.058182 -2.4416511 -41.738029 -3.6292427 -92.359863
9201437500 -4.7772627 -175.56018 -2.4572215 -41.040268 -2.4373691 -41.786072 -3.6197202 -92.446068
9201500000 -4.7690134 -175.4955 -2.4485695 -41.089661 -2.441349 -41.774269 -3.6180787 -92.447334
9201562500 -4.7740908 -175.60027 -2.4580581 -41.059158 -2.4454267 -41.762794 -3.6329324 -92.400604
9201625000 -4.7784448 -175.56425 -2.4577241 -41.044781 -2.4387782 -41.745888 -3.6297045 -92.272766
9201687500 -4.7802334 -175.56479 -2.4502666 -40.99836 -2.4366086 -41.708214 -3.6209517 -92.240891
9201750000 -4.7708659 -175.64778 -2.4554174 -41.085926 -2.4271605 -41.768612 -3.606843 -92.31279
9201812500 -4.7686062 -175.60805 -2.4482608 -41.080666 -2.4381886 -41.731762 -3.6302502 -92.289635
9201875000 -4.7685561 -175.63116 -2.4448657 -41.040882 -2.4295895 -41.740345 -3.6123178 -92.179916
9201937500 -4.7823091 -175.69839 -2.4512486 -41.029011 -2.4323158 -41.784012 -3.6147087 -92.258774
9202000000 -4.7738914 -175.70981 -2.4448462 -41.067036 -2.4347625 -41.771996 -3.6187828 -92.238556
9202062500 -4.7738075 -175.62706 -2.4461079 -41.04538 -2.4402881 -41.803341 -3.6215124 -92.19976
9202125000 -4.7689414 -175.70685 -2.4589727 -41.078484 -2.4373255 -41.752197 -3.6277025 -92.222824
9202187500 -4.7713327 -175.69156 -2.4532063 -41.070465 -2.4381919 -41.732426 -3.6219354 -92.151466
9202250000 -4.7713637 -175.71167 -2.4551644 -41.042873 -2.4382446 -41.728325 -3.6306949 -92.174698
9202312500 -4.7742658 -175.72177 -2.4523966 -41.016022 -2.4316001 -41.761982 -3.6280198 -92.186813
9202375000 -4.7661324 -175.83224 -2.4565039 -41.068913 -2.4341588 -41.74818 -3.6326077 -92.115868
9202437500 -4.768981 -175.77437 -2.4477918 -41.107899 -2.4411714 -41.792797 -3.6219327 -92.16169
9202500000 -4.7743754 -175.73209 -2.4506671 -41.048901 -2.4401646 -41.742085 -3.6253674 -92.177811
9202562500 -4.7648125 -175.85501 -2.4463191 -41.084229 -2.4509451 -41.704514 -3.6313899 -92.100975
9202625000 -4.7713814 -175.75914 -2.4478354 -41.054333 -2.4300356 -41.718884 -3.6156645 -92.06987
9202687500 -4.7785373 -175.84804 -2.4566643 -41.087608 -2.4438698 -41.704613 -3.6242716 -91.991798
9202750000 -4.7640886 -175.83115 -2.4486127 -41.021809 -2.4328334 -41.787384 -3.6247079 -92.076668
9202812500 -4.7688103 -175.84053 -2.4476702 -41.042557 -2.4335222 -41.743462 -3.6221318 -91.992203
9202875000 -4.7731252 -175.92744 -2.4516072 -41.099998 -2.4413023 -41.737225 -3.6281767 -92.004349
9202937500 -4.7657042 -175.89209 -2.4446666 -41.107117 -2.4327528 -41.683659 -3.6217155 -91.990669
9203000000 -4.7723899 -175.817 -2.4615135 -41.042141 -2.4383364 -41.70966 -3.6296847 -91.921089
9203062500 -4.7682028 -175.96536 -2.4406226 -41.088421 -2.4413459 -41.691624 -3.6324172 -91.987473
9203125000 -4.7732162 -175.91457 -2.4566147 -41.032021 -2.4360213 -41.762062 -3.6267011 -92.002289
9203187500 -4.7705369 -175.98248 -2.45755 -41.058826 -2.4325888 -41.731506 -3.6258721 -91.948166
9203250000 -4.7656956 -175.99667 -2.448349 -41.052589 -2.4370248 -41.747734 -3.6216407 -91.922066
9203312500 -4.77775 -175.96826 -2.4571426 -41.070244 -2.4291384 -41.763836 -3.6202121 -91.97641
9203375000 -4.7674632 -175.98961 -2.4501238 -41.066776 -2.4327655 -41.739887 -3.6203544 -91.872231
9203437500 -4.7724066 -175.98277 -2.4539022 -41.071724 -2.437048 -41.773972 -3.6199129 -91.954147
9203500000 -4.7734423 -176.03745 -2.4511442 -41.050816 -2.4319499 -41.740498 -3.6143076 -91.896523
9203562500 -4.7757163 -176.03856 -2.4579279 -41.070087 -2.4551482 -41.74094 -3.6405866 -91.847885
9203625000 -4.7653837 -176.07259 -2.4523723 -41.108879 -2.4415925 -41.743729 -3.6252861 -91.918076
9203687500 -4.7738032 -176.08354 -2.4563363 -41.065063 -2.4502623 -41.730042 -3.6369681 -91.850563
9203750000 -4.7699013 -176.11023 -2.4489508 -41.053909 -2.4389868 -41.727074 -3.6163003 -91.790894
9203812500 -4.7739992 -176.07925 -2.4434865 -41.081844 -2.437964 -41.742874 -3.6243412 -91.740379
9203875000 -4.7766609 -176.14125 -2.4538319 -41.07399 -2.4385746 -41.728619 -3.6376593 -91.790115
9203937500 -4.7808614 -176.11993 -2.4499223 -41.074745 -2.4393816 -41.703472 -3.6226606 -91.764236
9204000000 -4.7725229 -176.15752 -2.4421461 -41.042347 -2.4390821 -41.690269 -3.6215196 -91.748985
9204062500 -4.770587 -176.11942 -2.4549661 -41.034996 -2.435745 -41.762154 -3.6320472 -91.779442
9204125000 -4.7791519 -176.14462 -2.4597132 -41.001694 -2.4304633 -41.715557 -3.627099 -91.731384
9204187500 -4.7758541 -176.19868 -2.4523234 -41.050346 -2.4464922 -41.716537 -3.6403368 -91.688721
9204250000 -4.7709055 -176.17934 -2.4403069 -41.049564 -2.445502 -41.742065 -3.6271451 -91.707832
9204312500 -4.7727065 -176.18796 -2.446322 -41.039894 -2.4355578 -41.742092 -3.6295795 -91.627914
9204375000 -4.7643647 -176.30194 -2.4526036 -41.057224 -2.4364376 -41.722042 -3.6251578 -91.687187
9204437500 -4.7738891 -176.17166 -2.4499106 -41.089069 -2.446878 -41.705975 -3.6323464 -91.657776
9204500000 -4.7754736 -176.24019 -2.4523866 -41.065403 -2.4478908 -41.73954 -3.631747 -91.644798
9204562500 -4.7685103 -176.26663 -2.4538226 -41.094143 -2.4321496 -41.793964 -3.6132267 -91.671654
9204625000 -4.7668352 -176.28065 -2.4448657 -41.001587 -2.4368098 -41.754776 -3.6349416 -91.598099
9204687500 -4.7734151 -176.25322 -2.4541435 -41.000385 -2.4361634 -41.741955 -3.624712 -91.538391
9204750000 -4.7851596 -176.33295 -2.4513283 -41.047409 -2.4468873 -41.712784 -3.6374331 -91.54335
9204812500 -4.7685127 -176.37466 -2.4470363 -41.021832 -2.4374378 -41.731419 -3.6218343 -91.552689
9204875000 -4.7680135 -176.30641 -2.4467001 -41.079342 -2.4557416 -41.725063 -3.6289217 -91.581512
9204937500 -4.7701311 -176.29791 -2.4454985 -41.040291 -2.4338946 -41.780823 -3.6229153 -91.554298
9205000000 -4.7619038 -176.39224 -2.4488456 -40.998814 -2.4343505 -41.701752 -3.6356351 -91.484612
9205062500 -4.775785 -176.36241 -2.4535615 -40.99778 -2.4249697 -41.715816 -3.6287308 -91.469818
9205125000 -4.7773352 -176.40639 -2.4587758 -41.043755 -2.4366767 -41.729401 -3.6277628 -91.461685
9205187500 -4.7691712 -176.39052 -2.4553819 -41.006569 -2.4370663 -41.708717 -3.6348557 -91.453491
9205250000 -4.7657156 -176.45203 -2.449249 -41.087658 -2.444037 -41.717598 -3.63345 -91.536316
9205312500 -4.7746429 -176.392 -2.4519427 -41.020756 -2.4440248 -41.689445 -3.6341629 -91.455643
9205375000 -4.7799697 -176.46359 -2.4522104 -41.012928 -2.4408996 -41.720848 -3.6207249 -91.404861
9205437500 -4.7652235 -176.42709 -2.4484963 -40.992306 -2.4391437 -41.715 -3.625715 -91.42955
9205500000 -4.7812338 -176.51566 -2.4477682 -41.04974 -2.4432976 -41.736164 -3.6279495 -91.312531
9205562500 -4.7811122 -176.48759 -2.4560525 -41.046032 -2.4404676 -41.729721 -3.629513 -91.35482
9205625000 -4.7748895 -176.54979 -2.4543643 -41.056229 -2.4401445 -41.730221 -3.6303108 -91.311989
9205687500 -4.766705 -176.47203 -2.4438536 -41.003075 -2.4335337 -41.779419 -3.6333127 -91.409203
9205750000 -4.7638164 -176.55727 -2.4407086 -41.050114 -2.4444118 -41.717331 -3.62799 -91.256432
9205812500 -4.7700758 -176.52602 -2.4415116 -41.027794 -2.4439578 -41.707947 -3.6328752 -91.233963
9205875000 -4.7673693 -176.55556 -2.4598765 -41.04221 -2.4460349 -41.714024 -3.6334739 -91.320351
9205937500 -4.7746258 -176.64474 -2.4519119 -41.095737 -2.4339867 -41.706379 -3.6311035 -91.309509
9206000000 -4.7763705 -176.56683 -2.4449039 -41.012985 -2.4449964 -41.74131 -3.6238692 -91.256874
9206062500 -4.7660775 -176.58829 -2.4544699 -41.052639 -2.4426327 -41.741558 -3.6364837 -91.289459
9206125000 -4.7742028 -176.64325 -2.4492695 -41.013371 -2.439564 -41.704266 -3.6400805 -91.240395
9206187500 -4.7745724 -176.63037 -2.4514918 -41.021137 -2.4297273 -41.699383 -3.6265452 -91.203644
9206250000 -4.7743254 -176.69762 -2.4548504 -41.098591 -2.4419723 -41.702641 -3.6312137 -91.241188
9206312500 -4.769321 -176.71661 -2.4491436 -41.020168 -2.4425883 -41.82375 -3.6339169 -91.23111
9206375000 -4.7728901 -176.66637 -2.4526711 -41.015335 -2.4435606 -41.701023 -3.6302087 -91.249252
9206437500 -4.7646122 -176.73792 -2.4521358 -41.060398 -2.4426553 -41.804909 -3.6324377 -91.261147
9206500000 -4.7701168 -176.74069 -2.4633658 -41.090073 -2.4452128 -41.717163 -3.6404769 -91.217522
9206562500 -4.7684574 -176.74944 -2.4563904 -41.114964 -2.4394341 -41.687595 -3.6259131 -91.173393
9206625000 -4.7812886 -176.79559 -2.4512234 -41.063049 -2.4445009 -41.79385 -3.6369698 -91.155006
9206687500 -4.7716117 -176.77664 -2.4552717 -41.067398 -2.4352136 -41.757347 -3.6229939 -91.152802
9206750000 -4.7741833 -176.69644 -2.4472976 -41.019558 -2.4468687 -41.726425 -3.6327877 -91.182838
9206812500 -4.7625442 -176.73662 -2.44262 -41.009853 -2.4396207 -41.78336 -3.6265604 -91.141777
9206875000 -4.7786465 -176.83015 -2.4618266 -41.090569 -2.4325168 -41.689068 -3.6259506 -91.004967
9206937500 -4.7803993 -176.82957 -2.4537876 -41.080921 -2.4402018 -41.784473 -3.6265504 -91.085968
9207000000 -4.7739577 -176.89336 -2.4571345 -41.122261 -2.4435391 -41.711407 -3.6366889 -90.997078
9207062500 -4.7816973 -176.85417 -2.4567404 -41.007874 -2.440902 -41.716766 -3.6370058 -90.975533
9207125000 -4.7813816 -176.84993 -2.4461007 -41.040813 -2.4367421 -41.722878 -3.6366489 -90.974449
9207187500 -4.7700009 -176.91255 -2.4497583 -41.133797 -2.4437175 -41.776211 -3.6330993 -91.084221
9207250000 -4.762742 -176.8764 -2.4435694 -41.030796 -2.4405389 -41.749622 -3.6274526 -91.055809
9207312500 -4.7680283 -176.93159 -2.4541399 -41.049519 -2.4406381 -41.693928 -3.6305542 -90.989479
9207375000 -4.7704945 -176.96973 -2.4520001 -41.070381 -2.4320455 -41.741669 -3.6252131 -90.93071
9207437500 -4.7593765 -176.84499 -2.4501822 -40.985271 -2.4481239 -41.715717 -3.6300581 -90.965439
9207500000 -4.7737293 -176.95425 -2.4614646 -41.066845 -2.4380643 -41.728424 -3.6389918 -91.023468
9207562500 -4.7725801 -176.9592 -2.4561875 -41.062855 -2.4376495 -41.672787 -3.6291685 -90.926826
9207625000 -4.776989 -177.07137 -2.4521444 -41.058735 -2.4420834 -41.749458 -3.6348374 -90.821449
9207687500 -4.7747703 -176.98804 -2.4525151 -41.064396 -2.4399505 -41.766834 -3.6237488 -90.956963
9207750000 -4.7733622 -177.01361 -2.4545069 -41.038563 -2.4415896 -41.730293 -3.633271 -90.886162
9207812500 -4.7740479 -177.0437 -2.4557359 -41.05275 -2.4432175 -41.707558 -3.6399403 -90.885384
9207875000 -4.775938 -177.05035 -2.4630351 -41.012554 -2.4347799 -41.710976 -3.6278193 -90.813072
9207937500 -4.7809515 -177.11591 -2.4578571 -41.031715 -2.4431424 -41.741226 -3.639766 -90.860291
9208000000 -4.7738261 -177.13023 -2.4463253 -41.070095 -2.4368334 -41.688801 -3.6315088 -90.796112
9208062500 -4.7753906 -177.07817 -2.4600694 -41.035309 -2.4484019 -41.743885 -3.6451399 -90.848869
9208125000 -4.7720561 -177.1115 -2.4562945 -41.105034 -2.446146 -41.775696 -3.6386464 -90.823265
9208187500 -4.770133 -177.08186 -2.4556339 -41.030766 -2.4395924 -41.713818 -3.632268 -90.775314
9208250000 -4.7875247 -177.20522 -2.4611068 -41.067081 -2.4350746 -41.757824 -3.6301746 -90.785049
9208312500 -4.7685013 -177.18677 -2.4578826 -41.042423 -2.4332545 -41.700714 -3.6371062 -90.755722
9208375000 -4.781126 -177.16431 -2.4541113 -41.052818 -2.4380574 -41.697273 -3.6305523 -90.703926
9208437500 -4.7699313 -177.20277 -2.4525588 -41.03941 -2.4487157 -41.728931 -3.6413708 -90.739784
9208500000 -4.7719889 -177.23459 -2.4520171 -41.049641 -2.4428608 -41.77776 -3.6377559 -90.697067
9208562500 -4.779592 -177.14206 -2.4558275 -41.014259 -2.4409819 -41.721092 -3.6355159 -90.699646
9208625000 -4.7735171 -177.24304 -2.4513838 -41.013336 -2.4442 -41.722878 -3.6441927 -90.71508
9208687500 -4.764647 -177.25862 -2.4439485 -41.022614 -2.4395583 -41.714317 -3.6337678 -90.651711
9208750000 -4.775342 -177.25241 -2.4523065 -41.027206 -2.4376485 -41.694389 -3.635036 -90.645737
9208812500 -4.7746038 -177.239 -2.4652617 -41.069393 -2.4422958 -41.72765 -3.6333981 -90.610268
9208875000 -4.7697372 -177.29115 -2.4507346 -41.038944 -2.4408119 -41.710255 -3.6362011 -90.575737
9208937500 -4.7710547 -177.26471 -2.450413 -41.063259 -2.4391644 -41.71637 -3.6315596 -90.577225
9209000000 -4.7637463 -177.28053 -2.4594154 -41.023087 -2.4368925 -41.736435 -3.6392918 -90.620064
9209062500 -4.770679 -177.31923 -2.4565403 -41.019802 -2.4493706 -41.729282 -3.6473069 -90.543724
9209125000 -4.7747645 -177.3181 -2.4495707 -41.042301 -2.4329691 -41.740135 -3.6300106 -90.526466
9209187500 -4.770761 -177.27985 -2.4501204 -40.99485 -2.4468682 -41.708645 -3.631371 -90.528183
9209250000 -4.7682099 -177.42168 -2.4563382 -41.050587 -2.4415176 -41.703297 -3.6422162 -90.432838
9209312500 -4.7693677 -177.49684 -2.4557614 -41.083786 -2.4474146 -41.728275 -3.6524909 -90.494789
9209375000 -4.7662973 -177.40001 -2.4511962 -41.035416 -2.4498088 -41.658646 -3.6405282 -90.51503
9209437500 -4.7763109 -177.4541 -2.4568658 -41.029644 -2.4400663 -41.748642 -3.6342199 -90.404701
9209500000 -4.7631593 -177.42035 -2.4462984 -41.013134 -2.4379778 -41.76326 -3.6381092 -90.452202
9209562500 -4.7814775 -177.4082 -2.4576466 -41.035645 -2.4460406 -41.728539 -3.641391 -90.430733
9209625000 -4.7709069 -177.46623 -2.4513235 -41.030373 -2.4421563 -41.736965 -3.6379602 -90.447891
9209687500 -4.7796502 -177.51089 -2.4492054 -41.057518 -2.4429312 -41.687832 -3.6382303 -90.388626
9209750000 -4.7720666 -177.47942 -2.4497726 -41.086056 -2.4443474 -41.704704 -3.6291695 -90.396248
9209812500 -4.774014 -177.50183 -2.459723 -41.002041 -2.4475129 -41.745426 -3.6457994 -90.379753
9209875000 -4.7781878 -177.51253 -2.4538002 -41.05761 -2.4381287 -41.775635 -3.6365244 -90.444
9209937500 -4.7674651 -177.50352 -2.4649744 -41.013176 -2.450978 -41.75399 -3.6487148 -90.45327
9210000000 -4.7741423 -177.56995 -2.4648399 -41.047455 -2.4424284 -41.729836 -3.6490979 -90.415367
9210062500 -4.769619 -177.56938 -2.462297 -41.038391 -2.4388049 -41.701523 -3.6395071 -90.301628
9210125000 -4.7720785 -177.62021 -2.4597926 -41.063725 -2.4412746 -41.719242 -3.6370428 -90.346603
9210187500 -4.7682738 -177.57593 -2.4531724 -41.05212 -2.4385591 -41.718796 -3.6428349 -90.305725
9210250000 -4.7693024 -177.52652 -2.4523158 -40.986099 -2.4400408 -41.623688 -3.6512351 -90.264915
9210312500 -4.7774835 -177.56868 -2.4565492 -40.975666 -2.4438591 -41.751179 -3.6404707 -90.26001
9210375000 -4.7705526 -177.65428 -2.4550953 -41.0285 -2.4420693 -41.690758 -3.6347022 -90.203377
9210437500 -4.7660518 -177.6774 -2.4589105 -41.043037 -2.4382238 -41.777168 -3.6310596 -90.276138
9210500000 -4.7726398 -177.66682 -2.4563255 -41.030487 -2.4394424 -41.724331 -3.6372113 -90.228203
9210562500 -4.7782059 -177.69125 -2.4649649 -41.0061 -2.4433153 -41.705967 -3.650322 -90.188156
9210625000 -4.7723012 -177.66273 -2.4641755 -40.981781 -2.453522 -41.69619 -3.6509972 -90.220901
9210687500 -4.7745295 -177.66655 -2.4624805 -40.996864 -2.4408963 -41.72578 -3.6445997 -90.16748
9210750000 -4.7794433 -177.73785 -2.459595 -41.04253 -2.4344902 -41.680042 -3.6339753 -90.130257
9210812500 -4.7772465 -177.73618 -2.4555485 -41.060677 -2.4354661 -41.684868 -3.6398036 -90.159843
9210875000 -4.7710667 -177.69582 -2.463454 -41.030991 -2.4421186 -41.678837 -3.6441295 -90.180923
9210937500 -4.7670927 -177.72646 -2.4542427 -41.037083 -2.4481761 -41.683418 -3.6436381 -90.146645
9211000000 -4.7662416 -177.74155 -2.4535284 -41.016701 -2.4475112 -41.719971 -3.6394565 -90.10347
9211062500 -4.7713985 -177.82146 -2.4614236 -40.981075 -2.4552302 -41.681641 -3.6514587 -90.091599
9211125000 -4.7625408 -177.76704 -2.4528606 -40.985806 -2.4380941 -41.713734 -3.6344111 -90.11277
9211187500 -4.7735057 -177.84811 -2.4521112 -41.026699 -2.4376438 -41.696571 -3.6370599 -90.049187
9211250000 -4.7690101 -177.82384 -2.4548397 -41.034286 -2.4526892 -41.6591 -3.6371541 -90.044388
9211312500 -4.7745757 -177.83286 -2.4626203 -41.002998 -2.4475718 -41.692028 -3.6498859 -90.031387
9211375000 -4.7696118 -177.8862 -2.4544005 -40.980087 -2.4390199 -41.729317 -3.6478903 -90.00946
9211437500 -4.7781744 -177.916 -2.4537494 -41.036381 -2.4461613 -41.717205 -3.6499114 -90.011749
9211500000 -4.7697258 -177.8504 -2.4594972 -41.03569 -2.4505713 -41.752876 -3.6458468 -90.041458
9211562500 -4.7700987 -177.84439 -2.4552932 -41.02948 -2.4378181 -41.746048 -3.6405454 -90.072701
9211625000 -4.7757211 -177.91495 -2.4563856 -41.032669 -2.4420593 -41.75246 -3.6407533 -90.022423
9211687500 -4.7729349 -177.87453 -2.4703512 -41.000484 -2.4412317 -41.715305 -3.6481259 -89.895882
9211750000 -4.7733622 -177.94362 -2.4599352 -40.958195 -2.4461601 -41.679779 -3.6418865 -89.886765
9211812500 -4.7742052 -177.96605 -2.4634924 -41.02013 -2.4479647 -41.699512 -3.6487846 -89.940239
9211875000 -4.7741752 -178.01154 -2.4564278 -41.065441 -2.4421432 -41.661289 -3.6415565 -89.865211
9211937500 -4.7705946 -177.93791 -2.4575932 -41.038261 -2.4447095 -41.697392 -3.6549957 -89.880188
9212000000 -4.7733951 -178.0591 -2.4587967 -41.005547 -2.4450369 -41.700863 -3.6469145 -89.852287
9212062500 -4.7722569 -178.07339 -2.4586623 -41.016621 -2.4490266 -41.71978 -3.6503065 -89.904762
9212125000 -4.7751036 -178.09293 -2.4609289 -41.053589 -2.4508302 -41.713078 -3.6403329 -89.810211
9212187500 -4.7687497 -178.05611 -2.4556463 -40.95599 -2.4386532 -41.692745 -3.6478109 -89.840134
9212250000 -4.7745852 -178.09334 -2.456682 -41.01469 -2.4374788 -41.721409 -3.6397262 -89.832191
9212312500 -4.7679586 -178.08931 -2.4548283 -41.050312 -2.4445863 -41.702412 -3.6447344 -89.86824
