!Agilent Technologies,N5242A,MY51221714,A.09.90.19
!Agilent N5242A: A.09.90.19
!Date: Tuesday, March 26, 2024 17:05:59
!Correction: S11(Full 2 Port(1,2)) 
!S21(Full 2 Port(1,2)) 
!S12(Full 2 Port(1,2)) 
!S22(Full 2 Port(1,2)) 
!S2P File: Measurements: S11, S21, S12, S22:
# Hz S  dB   R 50
9200000000 -8.0134296 -153.71739 -0.97304302 -27.279112 -0.95052129 -27.974527 -7.0067148 -80.188065
9200062500 -8.0143709 -153.7003 -0.96759611 -27.330414 -0.96117532 -27.956066 -7.0012102 -80.156555
9200125000 -8.0145378 -153.74033 -0.97065341 -27.279953 -0.9591186 -27.921934 -7.0221882 -80.092735
9200187500 -8.0241041 -153.73979 -0.97545904 -27.244247 -0.95976633 -27.961422 -6.9902468 -79.978279
9200250000 -8.0127535 -153.75923 -0.96107316 -27.279593 -0.95660597 -27.984081 -7.0002503 -80.090622
9200312500 -8.0224686 -153.75694 -0.97255069 -27.308214 -0.95991486 -27.966825 -7.007422 -80.049782
9200375000 -8.0234556 -153.81169 -0.97324026 -27.276505 -0.95897996 -28.036263 -6.9988737 -80.039749
9200437500 -8.0174475 -153.81004 -0.9701913 -27.286871 -0.95214516 -27.946808 -6.9896274 -79.995895
9200500000 -8.0149794 -153.8385 -0.97431427 -27.333336 -0.95630294 -27.958687 -7.0050449 -80.041504
9200562500 -8.0165071 -153.88405 -0.97058964 -27.27457 -0.95954227 -27.94586 -6.9957356 -80.050423
9200625000 -8.0294752 -153.86322 -0.97420734 -27.318979 -0.95294952 -27.971455 -7.0106025 -80.041359
9200687500 -7.9986105 -153.86823 -0.96097678 -27.259647 -0.96176702 -27.939333 -7.0003943 -79.927185
9200750000 -8.00525 -153.92493 -0.96554077 -27.313362 -0.96607351 -27.922371 -7.0077252 -79.972328
9200812500 -8.034482 -153.84601 -0.97794342 -27.279163 -0.96811604 -27.975767 -7.0136142 -80.003807
9200875000 -8.0029783 -153.84607 -0.96758389 -27.227676 -0.96147805 -27.973246 -7.0035911 -80.044945
9200937500 -8.0095301 -153.88022 -0.97284979 -27.260401 -0.95977902 -27.93453 -7.0079889 -79.891449
9201000000 -7.9977145 -153.98108 -0.96571392 -27.32972 -0.95352489 -27.987226 -6.9981937 -79.942924
9201062500 -8.0236788 -153.96841 -0.96414965 -27.289421 -0.95577091 -27.98118 -7.0045552 -79.898247
9201125000 -8.025651 -153.94415 -0.96902698 -27.271156 -0.96574044 -28.001032 -7.010541 -79.906929
9201187500 -8.0118923 -154.04262 -0.9733063 -27.26668 -0.95653647 -27.951408 -7.0171046 -79.742134
9201250000 -8.0177269 -153.97144 -0.96416885 -27.256655 -0.96338105 -27.940046 -7.0099425 -79.778336
9201312500 -8.0244503 -153.9995 -0.96647829 -27.278973 -0.95645934 -28.006638 -6.9932513 -79.851128
9201375000 -8.0165148 -154.07658 -0.96957487 -27.248238 -0.96314037 -27.905855 -7.0115519 -79.749969
9201437500 -8.0116692 -154.10031 -0.97478443 -27.25584 -0.9645173 -27.958015 -7.0067925 -79.789032
9201500000 -8.0118828 -154.02057 -0.96877843 -27.271229 -0.9570992 -27.945202 -6.9971032 -79.869225
9201562500 -8.0161934 -154.1476 -0.97414345 -27.332888 -0.96495134 -27.982681 -7.0131621 -79.8172
9201625000 -8.0256968 -154.06961 -0.97578871 -27.24791 -0.95619321 -27.922533 -7.0073538 -79.720825
9201687500 -8.0213842 -154.07602 -0.96978706 -27.200117 -0.96054399 -27.920906 -7.0178018 -79.61393
9201750000 -8.0088205 -154.17293 -0.96732056 -27.313288 -0.95166636 -27.969265 -7.001555 -79.754608
9201812500 -8.0095291 -154.13942 -0.97227538 -27.28973 -0.96223217 -27.961744 -7.0137944 -79.765877
9201875000 -8.0200853 -154.14598 -0.96877348 -27.244349 -0.95377576 -27.979263 -6.9965677 -79.622963
9201937500 -8.0348253 -154.20393 -0.98203564 -27.25819 -0.95717311 -28.002331 -7.0040054 -79.717781
9202000000 -8.0258026 -154.20418 -0.96586436 -27.309778 -0.95792276 -27.949566 -7.0045824 -79.614937
9202062500 -8.0229521 -154.14505 -0.96342874 -27.278872 -0.96211845 -27.978565 -7.0005622 -79.668282
9202125000 -8.0163727 -154.20563 -0.98225498 -27.274807 -0.96087074 -27.902905 -7.0138135 -79.613022
9202187500 -8.0077143 -154.25644 -0.96487063 -27.322502 -0.96136153 -27.922194 -6.9970303 -79.536194
9202250000 -8.0150738 -154.27472 -0.97633505 -27.311731 -0.95780444 -27.944056 -7.009047 -79.593124
9202312500 -8.0166445 -154.27602 -0.96879625 -27.278624 -0.9537009 -27.932508 -6.996316 -79.574974
9202375000 -8.0049324 -154.30728 -0.9773556 -27.335524 -0.96038282 -27.972349 -7.008503 -79.567024
9202437500 -8.0109053 -154.22791 -0.96745646 -27.26169 -0.96015191 -27.990995 -7.003406 -79.599808
9202500000 -8.0177155 -154.19362 -0.9733566 -27.256538 -0.96903306 -27.945324 -7.0085316 -79.517914
9202562500 -8.0148048 -154.36562 -0.96922725 -27.285055 -0.96304941 -27.955023 -7.0126314 -79.579987
9202625000 -8.0079193 -154.29608 -0.97167003 -27.311039 -0.95540106 -27.920124 -7.0013595 -79.546806
9202687500 -8.0140285 -154.41605 -0.97654504 -27.317751 -0.96031004 -27.919037 -6.9989295 -79.436668
9202750000 -8.0115738 -154.36635 -0.96977502 -27.261391 -0.96340543 -27.991861 -7.0107827 -79.501556
9202812500 -8.0272598 -154.36575 -0.97723073 -27.270782 -0.95164251 -27.967579 -7.0024981 -79.462296
9202875000 -8.0250902 -154.4216 -0.96599609 -27.281527 -0.95519561 -27.983049 -7.0093775 -79.415665
9202937500 -8.0048399 -154.37476 -0.96070296 -27.316971 -0.95596927 -27.930685 -7.005394 -79.455643
9203000000 -8.0092258 -154.32753 -0.97563207 -27.272032 -0.95631838 -27.953022 -7.007998 -79.392914
9203062500 -8.0193567 -154.38991 -0.97012991 -27.251535 -0.96766567 -27.908375 -7.0217223 -79.473572
9203125000 -8.0213757 -154.49567 -0.97550374 -27.313381 -0.95227242 -27.960257 -7.0041232 -79.45591
9203187500 -8.0132551 -154.49623 -0.97885388 -27.310801 -0.9575699 -27.960598 -7.0138073 -79.332283
9203250000 -8.0171461 -154.53998 -0.97000349 -27.298225 -0.96125442 -27.962782 -7.0120301 -79.37645
9203312500 -8.018796 -154.49542 -0.98330301 -27.276678 -0.96076757 -27.964029 -7.0067673 -79.293617
9203375000 -8.0155115 -154.51375 -0.97155315 -27.314564 -0.96266788 -27.926123 -7.0077467 -79.299782
9203437500 -8.0156298 -154.48889 -0.97529751 -27.341589 -0.96797359 -27.907698 -7.0019631 -79.315231
9203500000 -8.0206041 -154.60139 -0.97284144 -27.296637 -0.95976019 -27.969997 -7.0017853 -79.331917
9203562500 -8.0158854 -154.55769 -0.9703697 -27.342497 -0.96844184 -27.973179 -7.0140228 -79.293571
9203625000 -8.0095568 -154.55417 -0.96884203 -27.338598 -0.96425301 -27.953281 -7.01476 -79.326241
9203687500 -8.0112028 -154.58455 -0.97946864 -27.243238 -0.96746719 -27.946417 -7.010334 -79.284042
9203750000 -8.0159855 -154.58185 -0.97354537 -27.298735 -0.96096879 -27.937128 -6.9988241 -79.214516
9203812500 -8.0116873 -154.57335 -0.97173601 -27.259415 -0.96446121 -27.941965 -7.0124097 -79.199348
9203875000 -8.0156288 -154.60138 -0.97825927 -27.272011 -0.96130365 -27.964586 -7.025672 -79.214897
9203937500 -8.0218086 -154.64006 -0.97222978 -27.317766 -0.96281284 -27.958412 -7.0005097 -79.232002
9204000000 -8.0142307 -154.66042 -0.96897662 -27.277451 -0.96968651 -27.938576 -7.0043759 -79.174362
9204062500 -8.0199537 -154.67175 -0.97633821 -27.262201 -0.95552945 -27.937523 -7.0131946 -79.197983
9204125000 -8.0212317 -154.64247 -0.9753328 -27.268465 -0.95642555 -27.964025 -6.9982729 -79.172913
9204187500 -8.0238161 -154.67511 -0.98103201 -27.283876 -0.96528292 -27.963737 -7.0260558 -79.108322
9204250000 -8.0165825 -154.72307 -0.96563786 -27.31431 -0.96759939 -27.960491 -7.0079293 -79.102264
9204312500 -8.0167894 -154.67072 -0.96997374 -27.273851 -0.96337265 -27.938662 -7.0145721 -79.027763
9204375000 -8.0174675 -154.76526 -0.97533005 -27.286058 -0.95435464 -27.946911 -7.0004053 -79.114899
9204437500 -8.0106173 -154.63441 -0.9733513 -27.250834 -0.95981115 -27.900658 -7.0135536 -79.098923
9204500000 -8.0139923 -154.70883 -0.9694773 -27.252062 -0.96792024 -27.93565 -7.0062828 -79.035179
9204562500 -8.0059061 -154.74837 -0.97213733 -27.342712 -0.95967144 -27.956158 -6.9934573 -79.118805
9204625000 -8.0097227 -154.79539 -0.97481871 -27.198891 -0.9602294 -27.959343 -7.0133972 -79.05722
9204687500 -8.0188046 -154.8246 -0.97656232 -27.263872 -0.95576221 -27.972843 -6.999228 -79.035248
9204750000 -8.0251207 -154.76617 -0.9702484 -27.265493 -0.96237135 -27.946302 -7.0102916 -79.008133
9204812500 -8.01472 -154.80511 -0.97885388 -27.231731 -0.95673519 -27.949947 -6.9967866 -78.928833
9204875000 -8.0158405 -154.8268 -0.96829271 -27.258585 -0.96648818 -27.928732 -7.0030951 -78.988014
9204937500 -8.0121326 -154.86446 -0.9671284 -27.27437 -0.95925474 -27.971771 -7.0066004 -78.942917
9205000000 -8.0072489 -154.91463 -0.97373521 -27.247726 -0.96078151 -27.964922 -7.0164571 -78.912682
9205062500 -8.0146847 -154.89929 -0.97636861 -27.285971 -0.95825315 -27.938721 -7.0207825 -78.906342
9205125000 -8.0242977 -154.87234 -0.97707099 -27.29372 -0.9674949 -27.930378 -7.0117636 -78.833694
9205187500 -8.0136623 -154.94427 -0.97863287 -27.284002 -0.96282184 -27.918625 -7.0118513 -78.852699
9205250000 -8.0117464 -154.9377 -0.97341537 -27.294756 -0.96747649 -27.96398 -7.0108452 -78.990456
9205312500 -8.0158768 -154.88008 -0.97396266 -27.238045 -0.96224356 -27.926409 -7.0070786 -78.936028
9205375000 -8.0118895 -155.00949 -0.97297287 -27.286276 -0.9652645 -27.867962 -7.00457 -78.78334
9205437500 -8.0141983 -154.94658 -0.97726154 -27.23177 -0.95846224 -27.962353 -7.0058441 -78.89502
9205500000 -8.0255175 -155.09117 -0.97576791 -27.270536 -0.96362454 -27.941051 -7.0040193 -78.709915
9205562500 -8.0193424 -155.00787 -0.97613919 -27.271923 -0.97100526 -27.951815 -7.0031366 -78.729279
9205625000 -8.0216875 -155.02541 -0.98414302 -27.27108 -0.9635244 -27.963598 -7.0139318 -78.777
9205687500 -8.0055122 -154.98076 -0.96983945 -27.247791 -0.95853817 -27.964643 -7.0093656 -78.731712
9205750000 -8.0047073 -155.09308 -0.97054625 -27.2752 -0.96204096 -27.961657 -7.0025835 -78.708817
9205812500 -8.0171309 -155.0807 -0.96863806 -27.266817 -0.96052319 -27.936426 -7.009088 -78.683456
9205875000 -8.0046978 -155.08643 -0.97467452 -27.252975 -0.96513087 -27.945625 -7.0105 -78.738396
9205937500 -8.0104198 -155.12453 -0.97572058 -27.268389 -0.95829391 -27.929316 -7.0091205 -78.785454
9206000000 -8.0161667 -155.08339 -0.97067606 -27.207979 -0.96427411 -27.920593 -7.0033722 -78.664032
9206062500 -8.0144854 -155.13632 -0.97705448 -27.333775 -0.96417439 -27.971666 -7.0112939 -78.767654
9206125000 -8.0206108 -155.14493 -0.96931916 -27.268625 -0.96318156 -27.889301 -7.0173221 -78.667137
9206187500 -8.0213747 -155.13109 -0.97791344 -27.292435 -0.95629948 -27.950182 -7.0023584 -78.682549
9206250000 -8.0200357 -155.15817 -0.9745962 -27.297016 -0.9614771 -27.920362 -7.0052395 -78.636948
9206312500 -8.004879 -155.23157 -0.97099763 -27.266857 -0.96484518 -28.058937 -7.0109191 -78.675194
9206375000 -8.010849 -155.21022 -0.97676682 -27.249779 -0.96267283 -27.942928 -7.0044503 -78.696411
9206437500 -8.0140066 -155.28358 -0.97762781 -27.272991 -0.95875072 -28.005331 -7.0074615 -78.69075
9206500000 -8.0195866 -155.25111 -0.98537749 -27.337074 -0.95618749 -27.956446 -7.0112257 -78.651306
9206562500 -7.9986715 -155.18192 -0.97256255 -27.320705 -0.96927083 -27.9541 -7.0083122 -78.651436
9206625000 -8.0255003 -155.25102 -0.97112602 -27.276907 -0.9611569 -27.974062 -7.014215 -78.556145
9206687500 -8.009449 -155.32338 -0.97436345 -27.308443 -0.96579003 -27.967848 -7.0086846 -78.602592
9206750000 -8.0173149 -155.19334 -0.97232032 -27.227299 -0.96368134 -27.960199 -7.0045614 -78.609528
9206812500 -8.0043116 -155.2392 -0.97553986 -27.248936 -0.96634418 -27.957853 -6.9981394 -78.551857
9206875000 -8.016819 -155.38142 -0.98363334 -27.304377 -0.95459247 -27.917629 -6.991076 -78.430855
9206937500 -8.0178223 -155.26797 -0.97627735 -27.271738 -0.97439539 -27.957645 -7.011837 -78.481697
9207000000 -8.0119381 -155.38933 -0.98298776 -27.309357 -0.96210939 -27.922602 -7.0091758 -78.433266
9207062500 -8.0031471 -155.33063 -0.97335476 -27.246201 -0.96776277 -27.940477 -7.0153236 -78.336884
9207125000 -8.0264645 -155.30016 -0.96808261 -27.293198 -0.96698654 -27.966982 -7.0177655 -78.438141
9207187500 -8.0102301 -155.36024 -0.96782231 -27.348249 -0.9697783 -27.979362 -7.0149436 -78.422653
9207250000 -8.0127678 -155.39415 -0.97670972 -27.219923 -0.9652313 -27.962858 -7.0095649 -78.490845
9207312500 -8.0071526 -155.47794 -0.97290909 -27.314783 -0.95980209 -27.912464 -7.0024943 -78.393494
9207375000 -8.0148516 -155.48193 -0.98209697 -27.294146 -0.95855391 -27.970167 -7.0069065 -78.393341
9207437500 -8.0054092 -155.41107 -0.97500247 -27.223598 -0.9726721 -27.952679 -7.0143733 -78.409966
9207500000 -8.0085926 -155.44652 -0.9804852 -27.285498 -0.96288288 -27.92782 -7.0159321 -78.414902
9207562500 -8.0073223 -155.47499 -0.97573155 -27.317572 -0.96311277 -27.910812 -7.0216117 -78.426003
9207625000 -8.024251 -155.47588 -0.97874945 -27.266094 -0.96034241 -27.985638 -7.010076 -78.266678
9207687500 -8.0129223 -155.4854 -0.97378653 -27.2955 -0.962264 -27.960253 -7.004149 -78.351753
9207750000 -8.0163155 -155.53688 -0.9793815 -27.250166 -0.95874631 -27.959757 -7.0016284 -78.309029
9207812500 -8.0135765 -155.51236 -0.98320168 -27.291204 -0.97198498 -27.936405 -7.0171947 -78.349678
9207875000 -8.0133038 -155.53476 -0.98436922 -27.27058 -0.95823228 -27.953701 -7.0088296 -78.244354
9207937500 -8.0216904 -155.62607 -0.98604476 -27.26425 -0.970604 -28.01568 -7.0210323 -78.300865
9208000000 -8.0215521 -155.61108 -0.97835588 -27.315502 -0.96270573 -27.897873 -7.0038624 -78.159866
9208062500 -8.0163355 -155.57234 -0.98381323 -27.260506 -0.9640643 -27.962009 -7.0089045 -78.241859
9208125000 -8.0080957 -155.58698 -0.98103625 -27.263388 -0.96834868 -27.949997 -7.0213995 -78.196411
9208187500 -8.0060682 -155.57018 -0.97570801 -27.221834 -0.96640515 -27.960863 -7.0051188 -78.221535
9208250000 -8.0290289 -155.65749 -0.98611999 -27.264023 -0.96108967 -27.935291 -7.0007124 -78.150955
9208312500 -8.0132675 -155.71271 -0.98695725 -27.270084 -0.9605788 -27.945618 -7.0124488 -78.158447
9208375000 -8.0176878 -155.63036 -0.97940582 -27.25589 -0.96248978 -27.914316 -7.0073833 -78.111557
9208437500 -8.0100937 -155.66635 -0.98001742 -27.287552 -0.97147197 -27.931078 -7.0179005 -78.202774
9208500000 -8.0176926 -155.68661 -0.98315907 -27.252165 -0.96119469 -27.965702 -7.0132241 -78.11116
9208562500 -8.0284157 -155.63869 -0.98131603 -27.292412 -0.96740067 -27.91674 -7.011847 -78.07019
9208625000 -8.0229654 -155.81444 -0.97733051 -27.293169 -0.95980728 -27.916986 -7.0072136 -78.148857
9208687500 -8.0128756 -155.73149 -0.97401947 -27.228325 -0.96472919 -27.943169 -7.0115733 -78.153358
9208750000 -8.0124664 -155.69272 -0.97823703 -27.269217 -0.96342236 -27.908792 -7.0037189 -78.015167
9208812500 -8.0132837 -155.72914 -0.9929989 -27.294195 -0.96857148 -27.925116 -7.0104041 -78.017944
9208875000 -8.0105858 -155.78685 -0.976439 -27.294607 -0.96755326 -27.953018 -7.0139632 -77.966652
9208937500 -8.0179462 -155.73256 -0.97897303 -27.291685 -0.95876193 -27.940075 -7.0002627 -78.016243
9209000000 -8.0069456 -155.86646 -0.98677516 -27.321068 -0.96378416 -27.898357 -7.0157175 -78.019913
9209062500 -8.0031958 -155.83308 -0.97227222 -27.258928 -0.97177184 -27.931244 -7.0117164 -77.948006
9209125000 -8.0168619 -155.7513 -0.98100132 -27.195498 -0.95963633 -27.913786 -7.007411 -77.92054
9209187500 -8.0069399 -155.7812 -0.97205365 -27.236334 -0.96942639 -27.909222 -7.0124483 -77.905342
9209250000 -8.0105982 -155.82204 -0.98374164 -27.265356 -0.96363199 -27.976704 -7.0164356 -77.944824
9209312500 -8.0125465 -155.93578 -0.98634368 -27.246239 -0.96303219 -27.931175 -7.0093808 -77.936028
9209375000 -8.0042706 -155.9229 -0.98156524 -27.235819 -0.96614325 -27.911808 -7.0147038 -77.953514
9209437500 -8.0147943 -155.89389 -0.98045129 -27.257271 -0.96576053 -27.957983 -7.0143209 -77.830223
9209500000 -8.006217 -155.97108 -0.97502226 -27.274498 -0.96578622 -27.944277 -7.0216379 -77.822777
9209562500 -8.0148754 -155.88466 -0.98701739 -27.24827 -0.96819353 -27.92104 -7.0167637 -77.833176
9209625000 -8.0054073 -155.92081 -0.97676122 -27.247906 -0.96415436 -27.934175 -7.0095434 -77.844093
9209687500 -8.0214195 -155.95514 -0.97866595 -27.228092 -0.96426803 -27.93202 -7.012465 -77.830757
9209750000 -8.0097103 -155.94087 -0.98186862 -27.314718 -0.96852493 -27.926838 -7.0025635 -77.8452
9209812500 -8.0112896 -155.92348 -0.98264849 -27.212526 -0.96433145 -27.977055 -7.0061336 -77.779259
9209875000 -8.014225 -155.98846 -0.97582984 -27.244495 -0.96230954 -27.927843 -7.0136108 -77.789337
9209937500 -8.0046444 -155.94757 -0.98928398 -27.279802 -0.97602731 -27.94507 -7.0177941 -77.834625
9210000000 -8.0100784 -156.08025 -0.9794181 -27.236786 -0.96554965 -27.924047 -7.0231433 -77.758743
9210062500 -8.0032101 -156.01721 -0.97663915 -27.250305 -0.9635123 -27.919613 -7.0144248 -77.687546
9210125000 -8.0113764 -156.13838 -0.98108828 -27.265434 -0.96007007 -27.907742 -7.0037422 -77.777855
9210187500 -8.0045843 -156.09354 -0.97689533 -27.226206 -0.96909225 -27.913441 -7.01859 -77.736946
9210250000 -8.0104437 -156.01639 -0.97740811 -27.256323 -0.96255136 -27.91548 -7.0151138 -77.759529
9210312500 -8.0149574 -156.05972 -0.97886807 -27.174606 -0.96646762 -27.937447 -7.0097141 -77.662018
9210375000 -8.0028477 -156.13229 -0.98425674 -27.27364 -0.97117162 -27.863995 -7.0149193 -77.521881
9210437500 -8.0015717 -156.19859 -0.98279357 -27.283686 -0.95887905 -27.956512 -6.9969845 -77.666069
9210500000 -8.0062809 -156.19203 -0.97279036 -27.281319 -0.96899873 -27.965168 -7.0151515 -77.621742
9210562500 -8.0283308 -156.18871 -0.99130148 -27.292309 -0.96457809 -27.969524 -7.0124583 -77.670776
9210625000 -8.0020342 -156.20737 -0.98508346 -27.227816 -0.96924978 -27.906675 -7.0145369 -77.632217
9210687500 -8.0116558 -156.14354 -0.99176323 -27.266758 -0.9720698 -27.950279 -7.0184298 -77.626823
9210750000 -8.0087614 -156.24631 -0.98690319 -27.293386 -0.96311325 -27.919836 -7.0066643 -77.567169
9210812500 -8.0156326 -156.19966 -0.98491764 -27.257574 -0.96628904 -27.907497 -7.0150824 -77.557716
9210875000 -8.0171089 -156.20802 -0.99340904 -27.243835 -0.96582896 -27.904867 -7.0119352 -77.615883
9210937500 -8.0006037 -156.17238 -0.98166996 -27.200285 -0.96940225 -27.890394 -7.0199046 -77.501549
9211000000 -8.0134726 -156.17998 -0.98086494 -27.235872 -0.9670409 -27.923607 -6.9981136 -77.501419
9211062500 -8.0186853 -156.31088 -0.98515671 -27.209883 -0.96788186 -27.917852 -7.0095406 -77.522545
9211125000 -8.003932 -156.28279 -0.97885674 -27.24893 -0.9588784 -27.925804 -6.9980373 -77.544983
9211187500 -8.0220385 -156.35109 -0.9839226 -27.253452 -0.96957248 -27.896673 -7.0187812 -77.517227
9211250000 -8.0064716 -156.33305 -0.97714764 -27.260658 -0.97049809 -27.896273 -7.0028582 -77.435654
9211312500 -8.0078077 -156.37154 -0.9838891 -27.283916 -0.96543747 -27.923513 -7.0067039 -77.484428
9211375000 -8.0109797 -156.42815 -0.98499346 -27.293472 -0.96391016 -27.943125 -7.0164957 -77.429482
9211437500 -8.0065355 -156.38129 -0.97751802 -27.214378 -0.97317052 -27.921816 -7.014647 -77.384468
9211500000 -8.0055141 -156.43008 -0.98487329 -27.256882 -0.97121626 -27.974482 -7.0143681 -77.470932
9211562500 -8.0149508 -156.31297 -0.98663664 -27.282467 -0.96873713 -27.912716 -7.0219121 -77.392899
9211625000 -8.0060053 -156.40723 -0.97774982 -27.281021 -0.95942014 -27.953382 -7.009479 -77.494186
9211687500 -8.0080423 -156.37868 -0.98704797 -27.198105 -0.96503103 -27.917431 -7.0209064 -77.320587
9211750000 -8.0120831 -156.45171 -0.98342532 -27.212172 -0.96039599 -27.915394 -7.0051727 -77.316475
9211812500 -8.0084991 -156.49146 -0.99557096 -27.279171 -0.97002959 -27.936909 -7.0135527 -77.36277
9211875000 -8.0069885 -156.47794 -0.97880709 -27.276028 -0.96133304 -27.927664 -7.0057068 -77.2957
9211937500 -8.0086145 -156.42276 -0.98600703 -27.251719 -0.96794707 -27.899544 -7.0262556 -77.316833
9212000000 -8.0153255 -156.52103 -0.97927511 -27.247606 -0.96576941 -27.949322 -7.005733 -77.285759
9212062500 -8.0170116 -156.59567 -0.9856742 -27.214771 -0.9670006 -27.937344 -7.0125828 -77.37133
