!Agilent Technologies,N5242A,MY51221714,A.09.90.19
!Agilent N5242A: A.09.90.19
!Date: Tuesday, March 26, 2024 15:29:01
!Correction: S11(Full 2 Port(1,2)) 
!S21(Full 2 Port(1,2)) 
!S12(Full 2 Port(1,2)) 
!S22(Full 2 Port(1,2)) 
!S2P File: Measurements: S11, S21, S12, S22:
# Hz S  dB   R 50
9200000000 -0.96853554 133.38029 -9.1979437 -72.938248 -9.1826792 -73.495209 0.0071809376 -99.633286
9200062500 -0.96576059 133.39722 -9.1886864 -72.933624 -9.1889029 -73.506744 0.012233871 -99.612534
9200125000 -0.96740466 133.39072 -9.1886826 -72.898682 -9.1859846 -73.507866 0.0060126483 -99.528473
9200187500 -0.96934491 133.43637 -9.1867342 -72.821938 -9.1855049 -73.561218 0.021610385 -99.55423
9200250000 -0.96348202 133.32701 -9.1748762 -72.932915 -9.1923132 -73.451546 0.013483883 -99.55014
9200312500 -0.97716951 133.38779 -9.195076 -72.840752 -9.1857176 -73.430573 0.011023987 -99.504593
9200375000 -0.96873492 133.31851 -9.1909742 -72.860405 -9.1844883 -73.544304 0.016319532 -99.489761
9200437500 -0.96758586 133.39183 -9.1896152 -72.852219 -9.1749306 -73.542709 0.02037785 -99.548264
9200500000 -0.96750396 133.31812 -9.1848822 -72.881149 -9.1796646 -73.470695 0.006856733 -99.447456
9200562500 -0.96743143 133.29506 -9.1892023 -72.839233 -9.1836367 -73.497261 0.018077686 -99.487946
9200625000 -0.97111809 133.30867 -9.1817379 -72.88678 -9.179657 -73.444229 0.014538222 -99.418892
9200687500 -0.95898622 133.2953 -9.1829052 -72.840027 -9.1807117 -73.477982 0.0099257408 -99.396088
9200750000 -0.96655506 133.25618 -9.1735678 -72.85849 -9.1756058 -73.443222 0.013203627 -99.403038
9200812500 -0.97991383 133.24774 -9.1984119 -72.855255 -9.1885681 -73.515144 -0.0053426642 -99.418274
9200875000 -0.96466827 133.29829 -9.1858721 -72.799599 -9.1820145 -73.436203 0.0024304506 -99.44062
9200937500 -0.97237819 133.22382 -9.1833134 -72.8479 -9.1774006 -73.470406 0.013920535 -99.337593
9201000000 -0.96497399 133.22169 -9.1839724 -72.88166 -9.1874628 -73.515396 0.0092559978 -99.353455
9201062500 -0.96802956 133.19331 -9.1718874 -72.833527 -9.1707258 -73.454399 0.0099182092 -99.319275
9201125000 -0.96629697 133.21172 -9.1851864 -72.81633 -9.1756344 -73.493591 0.012278308 -99.313759
9201187500 -0.97135895 133.09961 -9.177844 -72.803413 -9.1727924 -73.408379 0.0049277418 -99.214355
9201250000 -0.96988219 133.18965 -9.1730919 -72.836273 -9.1766443 -73.47377 0.010466534 -99.233604
9201312500 -0.97388142 133.13464 -9.1824741 -72.815155 -9.1854858 -73.491112 0.01244689 -99.25296
9201375000 -0.98061955 133.14113 -9.2030964 -72.795433 -9.1840601 -73.376877 -0.004032582 -99.168343
9201437500 -0.97163206 133.12238 -9.1830111 -72.81041 -9.17591 -73.417915 0.0067055933 -99.289696
9201500000 -0.97353417 133.13153 -9.1792097 -72.83065 -9.1792469 -73.428192 0.0050647235 -99.232056
9201562500 -0.96848202 133.05795 -9.1828489 -72.829483 -9.1813288 -73.410622 -0.0043554474 -99.182304
9201625000 -0.97027516 133.08252 -9.1769085 -72.789467 -9.1744041 -73.385757 -0.0070450092 -99.115021
9201687500 -0.97565246 133.0677 -9.1793194 -72.758041 -9.169179 -73.455383 0.0014673795 -99.096428
9201750000 -0.97247529 133.04346 -9.1897402 -72.843712 -9.1595116 -73.440826 0.017782936 -99.09922
9201812500 -0.9694941 133.03651 -9.1822968 -72.848099 -9.1746473 -73.47892 -0.0026532901 -99.179298
9201875000 -0.96759981 133.01552 -9.1611509 -72.793541 -9.1662731 -73.559425 0.021632439 -99.093544
9201937500 -0.98070121 132.95454 -9.1795883 -72.813095 -9.1674213 -73.483749 0.0097913388 -99.077797
9202000000 -0.976843 133.00003 -9.1729612 -72.76432 -9.1714668 -73.449089 0.0085408147 -99.062416
9202062500 -0.9730128 133.00714 -9.1639776 -72.757805 -9.1633224 -73.441971 0.010945395 -99.001968
9202125000 -0.9773283 133.02817 -9.179657 -72.79673 -9.1794472 -73.429077 -0.0084380917 -99.053482
9202187500 -0.96916038 132.98166 -9.1803064 -72.857803 -9.1711426 -73.42569 0.0060284198 -98.974098
9202250000 -0.97659987 132.95924 -9.1770306 -72.817856 -9.1663933 -73.335472 -0.0040108208 -98.949379
9202312500 -0.97280562 132.95708 -9.1779213 -72.743088 -9.1689415 -73.422997 0.0029246772 -98.958755
9202375000 -0.97309792 132.90726 -9.167943 -72.773651 -9.1536818 -73.410728 0.0076301806 -98.881325
9202437500 -0.97313619 132.93132 -9.1735649 -72.794151 -9.1611385 -73.432213 0.0081636654 -98.974983
9202500000 -0.97911274 132.89691 -9.1737833 -72.790154 -9.1690283 -73.40107 0.0047395942 -98.973457
9202562500 -0.96208322 132.86598 -9.1623955 -72.754807 -9.1731291 -73.361427 -0.0037422937 -98.881615
9202625000 -0.97095466 132.90968 -9.1766672 -72.773621 -9.1675844 -73.453079 -0.0011008511 -98.912872
9202687500 -0.97499979 132.86739 -9.1670694 -72.801422 -9.1643476 -73.408691 0.007576209 -98.848557
9202750000 -0.96787387 132.79704 -9.1655951 -72.821083 -9.1646156 -73.410751 -0.0024395089 -98.875557
9202812500 -0.97578239 132.83678 -9.1705904 -72.807625 -9.1527376 -73.397255 0.0066026403 -98.762444
9202875000 -0.96314144 132.81406 -9.1590948 -72.715431 -9.1659002 -73.462227 -0.0022767407 -98.81086
9202937500 -0.97010928 132.78812 -9.1628428 -72.849213 -9.1621752 -73.324257 -0.00068170344 -98.73745
9203000000 -0.9751814 132.82205 -9.1720247 -72.742355 -9.1626892 -73.4226 0.0014226398 -98.732986
9203062500 -0.97757143 132.75374 -9.1648102 -72.798538 -9.1624727 -73.364426 -0.0060400646 -98.736572
9203125000 -0.97122228 132.75711 -9.1711798 -72.751572 -9.1525297 -73.43969 0.0056988928 -98.761536
9203187500 -0.97423178 132.74907 -9.1745834 -72.83477 -9.1539583 -73.413582 0.0038000729 -98.746086
9203250000 -0.97527933 132.7112 -9.1596613 -72.811348 -9.161994 -73.41674 -0.00051853794 -98.711197
9203312500 -0.97533721 132.72328 -9.1597977 -72.784546 -9.1543913 -73.500412 0.010834286 -98.709724
9203375000 -0.96714163 132.71838 -9.1534557 -72.723694 -9.1611547 -73.410973 0.0011192203 -98.681931
9203437500 -0.97774905 132.72661 -9.1722403 -72.767029 -9.1521292 -73.372314 0.0077809184 -98.64682
9203500000 -0.97216755 132.66051 -9.1584091 -72.777588 -9.1592264 -73.397758 0.0054703979 -98.674088
9203562500 -0.98196489 132.6689 -9.1641951 -72.734306 -9.1650543 -73.442909 -0.014034556 -98.692078
9203625000 -0.97530842 132.66724 -9.1615753 -72.799622 -9.1577654 -73.362923 -0.0036992433 -98.677452
9203687500 -0.97620392 132.63805 -9.1678963 -72.812065 -9.1562529 -73.42028 -0.0055550644 -98.600563
9203750000 -0.9747135 132.60757 -9.1561308 -72.73333 -9.1599016 -73.423531 0.0024793283 -98.551376
9203812500 -0.97231388 132.61407 -9.1468277 -72.803963 -9.1474657 -73.479248 -0.00069534814 -98.579773
9203875000 -0.96795446 132.61145 -9.1600552 -72.698685 -9.1605215 -73.424545 -0.013684418 -98.540787
9203937500 -0.97862083 132.58629 -9.1519794 -72.775505 -9.1490002 -73.35598 0.0052579301 -98.580856
9204000000 -0.97489363 132.59508 -9.1472797 -72.742371 -9.1509962 -73.319176 0.00058799458 -98.443512
9204062500 -0.96861106 132.56996 -9.155139 -72.741592 -9.1427679 -73.461868 -0.0090068365 -98.521454
9204125000 -0.97864419 132.55061 -9.1478825 -72.772911 -9.1458578 -73.367264 0.0058047036 -98.458076
9204187500 -0.97754061 132.49194 -9.153841 -72.768753 -9.1502056 -73.393959 -0.006264376 -98.458931
9204250000 -0.98101825 132.50604 -9.1461191 -72.730118 -9.1462717 -73.369736 0.0042249388 -98.457397
9204312500 -0.97644752 132.52408 -9.1554966 -72.722893 -9.1412191 -73.407089 -0.0018623349 -98.336899
9204375000 -0.96671808 132.45122 -9.1519136 -72.781548 -9.143239 -73.343887 0.0071978504 -98.435089
9204437500 -0.98788089 132.51125 -9.1467896 -72.72863 -9.1353931 -73.304504 0.0067680082 -98.382721
9204500000 -0.98208439 132.46394 -9.1440964 -72.821808 -9.1551962 -73.38102 -0.0045330962 -98.378128
9204562500 -0.97595119 132.44276 -9.1587324 -72.845474 -9.1451025 -73.362778 0.0051669143 -98.406464
9204625000 -0.96802694 132.43799 -9.1433754 -72.697479 -9.1445103 -73.412788 -0.0041257585 -98.320595
9204687500 -0.97624397 132.41296 -9.1539812 -72.726326 -9.1403761 -73.344986 -0.0021387998 -98.294075
9204750000 -0.98103356 132.43983 -9.1570559 -72.654175 -9.1497602 -73.370049 -0.018620005 -98.269753
9204812500 -0.96238673 132.38879 -9.144805 -72.638817 -9.1452217 -73.427429 0.0022239462 -98.296692
9204875000 -0.97835213 132.43906 -9.1431704 -72.716408 -9.1545486 -73.316368 -0.0097216135 -98.290436
9204937500 -0.9721297 132.35826 -9.1398582 -72.781693 -9.1414375 -73.442146 0.0042679957 -98.277756
9205000000 -0.966793 132.31738 -9.1507483 -72.639488 -9.137888 -73.294113 -0.0088725183 -98.200546
9205062500 -0.97279543 132.30956 -9.1466999 -72.807167 -9.1344004 -73.390633 -0.0044184094 -98.195297
9205125000 -0.97265965 132.31778 -9.1443548 -72.736847 -9.1405621 -73.298653 -0.0064248857 -98.139008
9205187500 -0.97990143 132.342 -9.1417484 -72.695419 -9.1438799 -73.411499 -0.010393729 -98.199738
9205250000 -0.96789098 132.32323 -9.1405916 -72.758484 -9.1504755 -73.327034 -0.013999067 -98.210808
9205312500 -0.97475994 132.35855 -9.1439953 -72.702095 -9.140913 -73.341194 -0.009389963 -98.168556
9205375000 -0.97438812 132.27397 -9.1373816 -72.715378 -9.1425858 -73.316444 0.0011196368 -98.132866
9205437500 -0.96532786 132.28922 -9.1314554 -72.659584 -9.1329708 -73.285576 -0.0048160795 -98.098778
9205500000 -0.97792864 132.20499 -9.1317892 -72.716995 -9.1427879 -73.391602 -0.00019013401 -98.069237
9205562500 -0.97646874 132.25693 -9.1362 -72.710442 -9.1347027 -73.403793 -0.0031492824 -98.102676
9205625000 -0.98457646 132.26965 -9.1453295 -72.639153 -9.1350718 -73.396095 -0.007284849 -98.042213
9205687500 -0.97330832 132.22636 -9.1351757 -72.657349 -9.132 -73.346428 -0.0045873076 -97.983788
9205750000 -0.97789663 132.18027 -9.1465979 -72.695511 -9.1342077 -73.385193 -0.0027538629 -97.998695
9205812500 -0.97913748 132.11771 -9.1236124 -72.756897 -9.1340446 -73.323235 -0.0027315037 -97.957603
9205875000 -0.96834242 132.17734 -9.1375008 -72.664749 -9.1325235 -73.300583 -0.0031723727 -98.066826
9205937500 -0.98054343 132.12112 -9.1400709 -72.735313 -9.1232414 -73.316734 -0.0058515687 -97.992767
9206000000 -0.98458391 132.12257 -9.1391582 -72.721001 -9.1379852 -73.322495 -0.0062144767 -97.945786
9206062500 -0.97260511 132.19246 -9.1374779 -72.691505 -9.1345158 -73.319847 -0.0083797714 -97.923485
9206125000 -0.97599387 132.08519 -9.1300392 -72.664024 -9.1344137 -73.293091 -0.013822055 -97.871544
9206187500 -0.97217315 132.14658 -9.1295376 -72.660667 -9.1285019 -73.345749 0.0028911512 -97.891068
9206250000 -0.97328973 132.04582 -9.1381626 -72.747169 -9.1316309 -73.266373 -0.0094948215 -97.864342
9206312500 -0.97104311 131.99873 -9.1252222 -72.766426 -9.1277723 -73.447952 -7.7027609e-005 -97.930275
9206375000 -0.97749805 132.06169 -9.133997 -72.681572 -9.1296082 -73.259254 -0.008486473 -97.849045
9206437500 -0.97633457 132.00793 -9.1256161 -72.721443 -9.1215792 -73.365257 -0.0068281461 -97.921471
9206500000 -0.97903454 132.02409 -9.1329679 -72.676338 -9.123251 -73.322769 -0.0078492826 -97.860275
9206562500 -0.98227698 132.00871 -9.1368027 -72.751793 -9.1260033 -73.222946 -0.0054570581 -97.824303
9206625000 -0.97945225 131.93671 -9.1229553 -72.706245 -9.1287956 -73.310501 -0.005351231 -97.797462
9206687500 -0.98055404 131.98677 -9.1359224 -72.762871 -9.1228476 -73.324142 -0.002509549 -97.818802
9206750000 -0.97246009 131.96204 -9.1274405 -72.710686 -9.1277952 -73.306953 -0.0082344897 -97.756729
9206812500 -0.97629333 132.00258 -9.1331825 -72.656548 -9.1221085 -73.37056 -0.0040098536 -97.806786
9206875000 -0.97376955 131.93198 -9.1171379 -72.724838 -9.1182289 -73.32151 -0.00027746183 -97.691872
9206937500 -0.9760235 131.95622 -9.1225224 -72.663483 -9.1255627 -73.287613 -0.0079212934 -97.683144
9207000000 -0.97868252 131.89137 -9.1320448 -72.738533 -9.1207972 -73.306511 -0.0067986031 -97.656021
9207062500 -0.97457111 131.94922 -9.1187363 -72.668076 -9.1205091 -73.265907 -0.010410423 -97.575989
9207125000 -0.98744601 131.87367 -9.1175966 -72.714569 -9.1189175 -73.343033 -0.0057173693 -97.605286
9207187500 -0.97020781 131.83954 -9.113061 -72.745728 -9.1246796 -73.284828 -0.0079938481 -97.68647
9207250000 -0.97626877 131.8719 -9.1264772 -72.654579 -9.1262121 -73.327888 -0.006169647 -97.666588
9207312500 -0.97307819 131.83971 -9.122695 -72.728279 -9.1139879 -73.233849 -0.0047149295 -97.559319
9207375000 -0.98616236 131.83815 -9.1247654 -72.726349 -9.1068716 -73.338432 -0.01024276 -97.573463
9207437500 -0.97544986 131.88722 -9.129571 -72.647873 -9.1301079 -73.214569 -0.010774518 -97.571312
9207500000 -0.97904992 131.83929 -9.1286345 -72.668793 -9.1072063 -73.26915 -0.014393948 -97.556519
9207562500 -0.96877062 131.83813 -9.1161852 -72.651726 -9.1162882 -73.1959 -0.017127842 -97.503693
9207625000 -0.97443551 131.7471 -9.1160498 -72.613136 -9.1230354 -73.295685 -0.0093607325 -97.483856
9207687500 -0.9799636 131.7879 -9.1240292 -72.726936 -9.1147766 -73.240547 -0.0042813537 -97.484612
9207750000 -0.98250973 131.77139 -9.1130276 -72.618317 -9.1077528 -73.269318 -0.0051141526 -97.457993
9207812500 -0.98119485 131.74869 -9.1265039 -72.679123 -9.1091719 -73.217659 -0.0095124217 -97.433495
9207875000 -0.9748565 131.72868 -9.1206245 -72.645348 -9.1197605 -73.247467 -0.014337221 -97.444054
9207937500 -0.98211586 131.67397 -9.1183538 -72.649864 -9.1212234 -73.281143 -0.019736379 -97.454308
9208000000 -0.98207438 131.67238 -9.1096134 -72.734428 -9.1031857 -73.231552 -0.0025826818 -97.423309
9208062500 -0.97826725 131.7101 -9.124773 -72.642441 -9.1216183 -73.31044 -0.015888151 -97.364403
9208125000 -0.98650205 131.66612 -9.1258316 -72.677902 -9.1052675 -73.309082 -0.010893525 -97.368423
9208187500 -0.96858484 131.6974 -9.1135406 -72.638336 -9.1137104 -73.17421 -0.01758093 -97.332764
9208250000 -0.98466843 131.65962 -9.1137867 -72.578682 -9.1096802 -73.319916 -0.017394938 -97.350777
9208312500 -0.97911417 131.6933 -9.1260452 -72.579956 -9.0934553 -73.218498 -0.008897718 -97.335052
9208375000 -0.98160297 131.65439 -9.1092901 -72.604523 -9.1027899 -73.255035 -0.010915516 -97.260567
9208437500 -0.98824072 131.53352 -9.1164522 -72.747559 -9.1102171 -73.234383 -0.020344775 -97.307152
9208500000 -0.9828459 131.57056 -9.114275 -72.639107 -9.1046791 -73.238121 -0.015586942 -97.265999
9208562500 -0.98148888 131.60759 -9.1067944 -72.616692 -9.1083975 -73.2659 -0.014179076 -97.27681
9208625000 -0.97431636 131.50648 -9.1057911 -72.589943 -9.10779 -73.175232 -0.024506308 -97.271591
9208687500 -0.96604872 131.50667 -9.1009369 -72.684433 -9.1054173 -73.283325 -0.013805534 -97.224136
9208750000 -0.97763896 131.58006 -9.1242208 -72.618446 -9.1072006 -73.242035 -0.01905749 -97.206673
9208812500 -0.98525709 131.58435 -9.1266222 -72.612701 -9.1067667 -73.264687 -0.016992925 -97.172913
9208875000 -0.98140323 131.49428 -9.1055527 -72.711105 -9.1088371 -73.187737 -0.013536138 -97.112839
9208937500 -0.98057812 131.52701 -9.1045742 -72.64991 -9.0970182 -73.21022 -0.013815351 -97.112297
9209000000 -0.96974105 131.53064 -9.1134014 -72.617058 -9.0965462 -73.250046 -0.020214258 -97.137512
9209062500 -0.98782343 131.47591 -9.1149263 -72.651123 -9.1070471 -73.216949 -0.018458765 -97.117767
9209125000 -0.9838506 131.46144 -9.1052275 -72.577545 -9.1045532 -73.237778 -0.012769712 -97.058403
9209187500 -0.98072714 131.47076 -9.1116848 -72.542519 -9.1008768 -73.163765 -0.018581908 -97.051956
9209250000 -0.97499794 131.42624 -9.0932665 -72.585762 -9.1026468 -73.309357 -0.019730151 -97.007477
9209312500 -0.98092484 131.34891 -9.1035643 -72.621277 -9.0986967 -73.235779 -0.017675489 -97.048607
9209375000 -0.9698956 131.40511 -9.0988646 -72.620125 -9.106904 -73.132103 -0.025941981 -97.021881
9209437500 -0.99000484 131.36462 -9.1052818 -72.590668 -9.1047583 -73.238968 -0.019421272 -96.942963
9209500000 -0.97797745 131.38893 -9.0986261 -72.642113 -9.0969925 -73.185524 -0.019946059 -96.940239
9209562500 -0.98948038 131.39699 -9.1120358 -72.549347 -9.0990419 -73.208191 -0.022495758 -96.922424
9209625000 -0.98042208 131.28064 -9.0982628 -72.670509 -9.0898666 -73.230873 -0.0092931753 -96.940285
9209687500 -0.98208201 131.2515 -9.0940495 -72.613533 -9.0883627 -73.180397 -0.0099469675 -96.913948
9209750000 -0.97775263 131.31236 -9.08255 -72.613213 -9.0908079 -73.154984 -0.003138578 -96.880608
9209812500 -0.97758889 131.27882 -9.0972776 -72.583038 -9.0994644 -73.223053 -0.025404407 -96.846458
9209875000 -0.98056281 131.30185 -9.1033716 -72.577972 -9.0874424 -73.216026 -0.020554859 -96.881935
9209937500 -0.98156333 131.37105 -9.1099739 -72.57547 -9.094595 -73.24369 -0.020175323 -96.934219
9210000000 -0.97360605 131.29984 -9.0962477 -72.592079 -9.0896044 -73.184486 -0.028295172 -96.844109
9210062500 -0.98494273 131.29176 -9.1025476 -72.575523 -9.0836744 -73.187683 -0.017072748 -96.814903
9210125000 -0.9773528 131.20229 -9.1070127 -72.595947 -9.0870905 -73.146812 -0.018404137 -96.792213
9210187500 -0.97987294 131.2766 -9.0914593 -72.584946 -9.0827513 -73.194923 -0.014993098 -96.777527
9210250000 -0.98213756 131.26723 -9.0939369 -72.586533 -9.0851068 -73.134216 -0.026015861 -96.760368
9210312500 -0.98545784 131.22415 -9.1047544 -72.524574 -9.0925341 -73.238068 -0.025538854 -96.782082
9210375000 -0.97632772 131.23416 -9.0898294 -72.587029 -9.0958796 -73.194572 -0.023552939 -96.698204
9210437500 -0.97324765 131.16852 -9.0898952 -72.576927 -9.0859489 -73.24295 -0.0158452 -96.787476
9210500000 -0.97403258 131.14149 -9.0863209 -72.633698 -9.0866194 -73.154381 -0.011180481 -96.701912
9210562500 -0.98266762 131.1633 -9.0986109 -72.540459 -9.0843124 -73.227287 -0.022621684 -96.695023
9210625000 -0.98366779 131.12758 -9.1062098 -72.604851 -9.0933065 -73.105804 -0.026301753 -96.6903
9210687500 -0.97651398 131.16602 -9.093399 -72.479912 -9.0869513 -73.212921 -0.02698922 -96.647079
9210750000 -0.98137611 131.10986 -9.0952959 -72.586319 -9.0784521 -73.167664 -0.021090243 -96.656639
9210812500 -0.98562163 131.07193 -9.092824 -72.594345 -9.086854 -73.120659 -0.024120612 -96.552704
9210875000 -0.97698474 131.07722 -9.0784025 -72.54731 -9.0785971 -73.156303 -0.021979747 -96.647346
9210937500 -0.98167986 131.09132 -9.0958509 -72.581284 -9.0808706 -73.100624 -0.02801729 -96.582329
9211000000 -0.97453892 131.0862 -9.0892 -72.555618 -9.0870352 -73.140213 -0.011135188 -96.579872
9211062500 -0.97680628 131.07309 -9.0816565 -72.463356 -9.0838814 -73.114166 -0.031418491 -96.535103
9211125000 -0.97899133 131.02187 -9.0875521 -72.595749 -9.0745153 -73.161011 -0.012969437 -96.524948
9211187500 -0.97902381 130.99814 -9.0770645 -72.528564 -9.0782518 -73.194511 -0.027019851 -96.508186
9211250000 -0.98580837 131.02219 -9.0843754 -72.56459 -9.0829897 -73.095352 -0.016090591 -96.439125
9211312500 -0.97941577 131.03531 -9.092432 -72.469543 -9.0862656 -73.165039 -0.024765536 -96.532806
9211375000 -0.98021406 130.9191 -9.0788813 -72.58786 -9.0781298 -73.215324 -0.024609834 -96.443245
9211437500 -0.98123187 130.98607 -9.0761099 -72.547668 -9.0822945 -73.182709 -0.027917564 -96.433533
9211500000 -0.9853099 130.955 -9.0867691 -72.494438 -9.0783672 -73.132828 -0.022000335 -96.453575
9211562500 -0.98324448 131.00569 -9.0900736 -72.53669 -9.0812197 -73.157501 -0.028724909 -96.429611
9211625000 -0.9837507 130.92686 -9.0834694 -72.576859 -9.0761995 -73.17585 -0.020814445 -96.382149
9211687500 -0.99081182 130.92242 -9.0870991 -72.595184 -9.0867119 -73.097733 -0.029917914 -96.283478
9211750000 -0.9830789 130.84274 -9.0781879 -72.508827 -9.0728226 -73.137772 -0.019903773 -96.321968
9211812500 -0.98685241 130.8802 -9.0909271 -72.495529 -9.0779905 -73.169357 -0.029523704 -96.407501
9211875000 -0.99490273 130.84676 -9.0880346 -72.53051 -9.0743809 -73.131233 -0.022312427 -96.282295
9211937500 -0.98004299 130.86148 -9.0763416 -72.54274 -9.0794048 -73.195137 -0.032714527 -96.324158
9212000000 -0.98231071 130.78395 -9.0700035 -72.520073 -9.0705099 -73.181648 -0.01991185 -96.292007
9212062500 -0.98323905 130.8013 -9.0768776 -72.511353 -9.0759573 -73.039932 -0.032480903 -96.276421
