!Agilent Technologies,N5242A,MY51221714,A.09.90.19
!Agilent N5242A: A.09.90.19
!Date: Tuesday, March 26, 2024 15:39:55
!Correction: S11(Full 2 Port(1,2)) 
!S21(Full 2 Port(1,2)) 
!S12(Full 2 Port(1,2)) 
!S22(Full 2 Port(1,2)) 
!S2P File: Measurements: S11, S21, S12, S22:
# Hz S  dB   R 50
9200000000 -0.97634369 133.49252 -9.2060022 -72.768204 -9.1877594 -73.451859 -0.00045636308 -99.535446
9200062500 -0.97239661 133.46712 -9.194519 -72.851471 -9.1981783 -73.465881 0.0088661006 -99.533318
9200125000 -0.97592694 133.50117 -9.2023497 -72.720589 -9.1871862 -73.436516 0.0051101781 -99.470398
9200187500 -0.97996026 133.44966 -9.1902122 -72.700485 -9.1846933 -73.489273 0.010135815 -99.475769
9200250000 -0.97135347 133.39532 -9.1926231 -72.815346 -9.1912575 -73.360138 0.0052246996 -99.479507
9200312500 -0.98298514 133.424 -9.206852 -72.802605 -9.1927271 -73.405525 0.00047609236 -99.450478
9200375000 -0.97460693 133.3938 -9.1924343 -72.816162 -9.1872005 -73.538483 0.0090051675 -99.463615
9200437500 -0.97275132 133.40524 -9.1885071 -72.736786 -9.1772261 -73.440506 0.011235178 -99.433647
9200500000 -0.97092944 133.38701 -9.1985121 -72.718597 -9.1924953 -73.407684 0.0014320477 -99.37352
9200562500 -0.97005153 133.35175 -9.1876116 -72.802834 -9.1938353 -73.392776 0.0064115599 -99.392639
9200625000 -0.98035079 133.35999 -9.1888485 -72.748825 -9.1877499 -73.380165 0.0012888173 -99.38488
9200687500 -0.97119808 133.36679 -9.1974754 -72.687683 -9.2004089 -73.380074 0.0047333823 -99.302109
9200750000 -0.97426969 133.27267 -9.191081 -72.853004 -9.187603 -73.423859 0.0030940443 -99.345093
9200812500 -0.98730361 133.3159 -9.1937485 -72.723709 -9.1914415 -73.363708 -0.0078237578 -99.260872
9200875000 -0.96631861 133.37929 -9.18927 -72.670952 -9.1842966 -73.41098 -0.0033596097 -99.340477
9200937500 -0.97468567 133.30246 -9.1992769 -72.747856 -9.1750774 -73.415085 0.0095742885 -99.258278
9201000000 -0.96803957 133.2758 -9.1786509 -72.796646 -9.1742544 -73.432869 0.012915686 -99.276321
9201062500 -0.97163099 133.22145 -9.1798525 -72.766243 -9.1783829 -73.392509 0.0025181409 -99.220215
9201125000 -0.9766075 133.28014 -9.1841936 -72.750931 -9.1884661 -73.415565 -0.0036044971 -99.2229
9201187500 -0.97925448 133.17668 -9.1885548 -72.722336 -9.1795597 -73.401924 -0.0062768194 -99.105759
9201250000 -0.9767012 133.26817 -9.1830349 -72.63945 -9.1854849 -73.357811 0.0020031505 -99.163971
9201312500 -0.97994858 133.20779 -9.1784906 -72.683052 -9.1803589 -73.495621 0.0043095369 -99.242378
9201375000 -0.98246551 133.18475 -9.1882973 -72.635887 -9.1853504 -73.36084 -0.0071206768 -99.137024
9201437500 -0.97053713 133.20381 -9.1894741 -72.725639 -9.182003 -73.410095 0.0037145182 -99.226318
9201500000 -0.97322011 133.19058 -9.1856947 -72.720825 -9.1805 -73.353798 0.00058369653 -99.123093
9201562500 -0.98398954 133.13927 -9.1981182 -72.612679 -9.1792784 -73.330765 -0.0091584269 -99.087036
9201625000 -0.97311878 133.11842 -9.1870584 -72.712479 -9.1730824 -73.343239 -0.0074504879 -99.041939
9201687500 -0.98117357 133.11069 -9.1724863 -72.674507 -9.1753702 -73.372696 0.0010137911 -99.022011
9201750000 -0.97864139 133.11351 -9.1869707 -72.745216 -9.1701708 -73.395981 0.010059923 -99.031647
9201812500 -0.96801633 133.12291 -9.1801929 -72.638245 -9.1871481 -73.366837 -0.011290319 -99.066803
9201875000 -0.97533697 133.0726 -9.1798277 -72.752556 -9.1737452 -73.374527 0.0092140473 -98.951462
9201937500 -0.98007977 133.01775 -9.1868191 -72.65097 -9.1789103 -73.413963 0.0021401697 -99.001877
9202000000 -0.97549999 133.05269 -9.1722221 -72.666267 -9.1718578 -73.381477 0.00085768942 -98.975739
9202062500 -0.98494077 133.05782 -9.1755352 -72.744797 -9.1650448 -73.34211 0.0063459631 -98.956039
9202125000 -0.98536855 133.09265 -9.188899 -72.710915 -9.1789885 -73.316628 -0.0079046767 -98.958084
9202187500 -0.97322494 133.02084 -9.1813097 -72.719627 -9.180625 -73.326912 -0.00069110864 -98.899544
9202250000 -0.98240614 132.97855 -9.1850224 -72.726921 -9.1749449 -73.319496 -0.010082787 -98.901955
9202312500 -0.97502255 132.98532 -9.1836166 -72.651192 -9.1660557 -73.350456 0.0056439131 -98.866714
9202375000 -0.97069132 132.95444 -9.1725664 -72.675102 -9.163456 -73.385315 -0.0053836489 -98.861809
9202437500 -0.97987115 132.96524 -9.1838999 -72.702316 -9.1709518 -73.353905 0.0038768044 -98.887451
9202500000 -0.98714018 132.939 -9.1818981 -72.774467 -9.1845341 -73.361382 -0.0076726414 -98.919579
9202562500 -0.96815747 132.91188 -9.1690092 -72.672462 -9.1723919 -73.299675 -0.0095315417 -98.837509
9202625000 -0.97908354 133.00827 -9.1785603 -72.69545 -9.1678572 -73.335014 -0.0077408152 -98.769852
9202687500 -0.97960275 132.94243 -9.1741791 -72.620659 -9.1679754 -73.337471 0.0036354521 -98.707626
9202750000 -0.97055453 132.84531 -9.1706247 -72.70591 -9.1652241 -73.279556 -0.0011120342 -98.770493
9202812500 -0.9813267 132.85986 -9.1790667 -72.672066 -9.1574287 -73.355011 0.00079463539 -98.746002
9202875000 -0.96683192 132.85532 -9.1678553 -72.673164 -9.1642952 -73.359909 -0.0030754027 -98.697693
9202937500 -0.97138029 132.85739 -9.1626902 -72.707527 -9.1588087 -73.286049 -0.001602594 -98.682564
9203000000 -0.9814046 132.87921 -9.171052 -72.684494 -9.164156 -73.305099 -0.0034475611 -98.636421
9203062500 -0.97300792 132.80885 -9.1576042 -72.713989 -9.1681213 -73.323975 -0.0065143057 -98.701019
9203125000 -0.97413749 132.78987 -9.1643124 -72.69191 -9.1628895 -73.354156 -0.0090955356 -98.627068
9203187500 -0.97943407 132.83353 -9.1846647 -72.71772 -9.1524887 -73.375145 -0.002528636 -98.653038
9203250000 -0.97825849 132.80542 -9.1636562 -72.659294 -9.1747952 -73.287491 -0.0060850154 -98.580528
9203312500 -0.98530012 132.77557 -9.1731062 -72.693039 -9.1611319 -73.401543 -0.00079274562 -98.629333
9203375000 -0.97484189 132.73444 -9.159379 -72.693542 -9.1574745 -73.347397 0.001263911 -98.578125
9203437500 -0.98295814 132.79187 -9.1737652 -72.665474 -9.1661272 -73.323853 -0.0037658622 -98.599632
9203500000 -0.97681761 132.71718 -9.15944 -72.702682 -9.1595545 -73.330017 0.0036315413 -98.584015
9203562500 -0.98494047 132.67857 -9.1686087 -72.705994 -9.1677675 -73.35099 -0.014782074 -98.622322
9203625000 -0.97971225 132.73737 -9.1674395 -72.664146 -9.1670704 -73.318459 -0.0064380183 -98.58876
9203687500 -0.98311359 132.72638 -9.1754045 -72.697899 -9.1662388 -73.319527 -0.01131202 -98.530067
9203750000 -0.97892302 132.67868 -9.1720848 -72.695961 -9.1620312 -73.309746 -5.3257958e-005 -98.479919
9203812500 -0.97906369 132.67474 -9.1603565 -72.679214 -9.1659393 -73.331429 -0.015970996 -98.513229
9203875000 -0.98237282 132.66196 -9.1646938 -72.620583 -9.1659336 -73.336716 -0.01990973 -98.48037
9203937500 -0.98340726 132.63809 -9.1651192 -72.646423 -9.1540403 -73.294411 -0.0064011966 -98.475937
9204000000 -0.9799189 132.63191 -9.1491156 -72.663078 -9.1623182 -73.263794 -0.0074802488 -98.39917
9204062500 -0.96968353 132.63573 -9.1530561 -72.650879 -9.14855 -73.327675 -0.0084503684 -98.409996
9204125000 -0.98030758 132.64417 -9.168601 -72.599289 -9.1559076 -73.329155 -0.0085915551 -98.35714
9204187500 -0.98413676 132.54143 -9.1573372 -72.724365 -9.1560726 -73.375244 -0.019889444 -98.406746
9204250000 -0.98055017 132.61217 -9.1591845 -72.60569 -9.1566029 -73.35025 -0.005847021 -98.43119
9204312500 -0.9794181 132.58495 -9.1504154 -72.62323 -9.149209 -73.345695 -0.012557962 -98.285278
9204375000 -0.97246915 132.59146 -9.1583405 -72.622536 -9.1567774 -73.356728 -0.014457521 -98.401474
9204437500 -0.9875024 132.56128 -9.1534138 -72.674103 -9.1577177 -73.292305 -0.0038515737 -98.279381
9204500000 -0.9872945 132.5565 -9.155777 -72.692673 -9.1554174 -73.319458 -0.010935342 -98.284447
9204562500 -0.97758615 132.49628 -9.1581879 -72.695526 -9.1456385 -73.358063 1.8343429e-005 -98.311653
9204625000 -0.9692108 132.48897 -9.1436214 -72.648369 -9.14783 -73.361336 -0.0066600814 -98.239677
9204687500 -0.97794318 132.4984 -9.1467619 -72.613747 -9.1487131 -73.319687 -0.0062860311 -98.268539
9204750000 -0.98355973 132.45134 -9.1434412 -72.632553 -9.1559591 -73.336739 -0.018777272 -98.260277
9204812500 -0.97547364 132.48158 -9.1481743 -72.577637 -9.1416721 -73.362267 -0.010279258 -98.245384
9204875000 -0.9788174 132.48154 -9.1559086 -72.631371 -9.1663065 -73.278374 -0.017587274 -98.224846
9204937500 -0.97533894 132.43802 -9.1528902 -72.66465 -9.1456003 -73.336021 -0.0029749314 -98.200218
9205000000 -0.96920824 132.36893 -9.1504602 -72.579262 -9.1399622 -73.229317 -0.020527523 -98.134903
9205062500 -0.98250747 132.38588 -9.1525927 -72.631378 -9.1405373 -73.316628 -0.012130133 -98.140572
9205125000 -0.97665429 132.4109 -9.1415606 -72.617409 -9.1442566 -73.302086 -0.010546376 -98.072983
9205187500 -0.97729951 132.41843 -9.1539135 -72.512848 -9.1500864 -73.258026 -0.01201959 -98.054855
9205250000 -0.97031236 132.35834 -9.1445293 -72.651375 -9.1496611 -73.288551 -0.01070734 -98.168312
9205312500 -0.98168403 132.41756 -9.1359835 -72.564293 -9.1446638 -73.233482 -0.014999777 -98.081856
9205375000 -0.97871864 132.32947 -9.1443682 -72.621307 -9.1519976 -73.29129 -0.0062865205 -98.040688
9205437500 -0.96973121 132.34164 -9.1305799 -72.533768 -9.1504869 -73.242889 -0.0099659143 -98.041702
9205500000 -0.98592001 132.23492 -9.1534567 -72.608704 -9.1370783 -73.330879 -0.0016806386 -98.00174
9205562500 -0.98149174 132.26166 -9.1385546 -72.634285 -9.1399136 -73.29216 -0.0085979896 -98.000626
9205625000 -0.98944837 132.31856 -9.1482525 -72.617844 -9.1403437 -73.355423 -0.01595767 -98.000916
9205687500 -0.9775871 132.32573 -9.1389046 -72.527733 -9.1318502 -73.275597 -0.0098415464 -97.907356
9205750000 -0.97713447 132.22244 -9.1321096 -72.634155 -9.1424751 -73.301437 -0.0051369178 -97.926483
9205812500 -0.98230916 132.19781 -9.1279182 -72.617668 -9.1423645 -73.294327 -0.0072410088 -97.878845
9205875000 -0.97470891 132.22191 -9.1364737 -72.62027 -9.1473732 -73.188789 -0.010638824 -97.949982
9205937500 -0.98010755 132.20732 -9.1373463 -72.627174 -9.1315155 -73.263237 -0.014139306 -97.89003
9206000000 -0.97899681 132.21664 -9.1301222 -72.546066 -9.138586 -73.233734 -0.0073789307 -97.837173
9206062500 -0.98321337 132.24681 -9.1444759 -72.610504 -9.1356325 -73.267914 -0.016708214 -97.927948
9206125000 -0.98047417 132.14899 -9.1352882 -72.574036 -9.1351061 -73.143257 -0.011325226 -97.76725
9206187500 -0.97796285 132.17239 -9.1327152 -72.561455 -9.1307726 -73.309616 -0.0052512377 -97.825729
9206250000 -0.98784661 132.12906 -9.154829 -72.606468 -9.1299667 -73.194572 -0.0096906601 -97.776787
9206312500 -0.97555333 132.075 -9.1369448 -72.631386 -9.1326208 -73.369804 -0.0061036786 -97.827728
9206375000 -0.9761588 132.14355 -9.1340837 -72.563538 -9.1364899 -73.199257 -0.014780666 -97.782715
9206437500 -0.97849935 132.12585 -9.1437798 -72.531601 -9.1395416 -73.248642 -0.021913329 -97.81015
9206500000 -0.9874199 132.08344 -9.1383133 -72.643982 -9.1319075 -73.180679 -0.023114607 -97.76519
9206562500 -0.9826389 132.05301 -9.1430254 -72.668388 -9.1350145 -73.184029 -0.015451509 -97.767403
9206625000 -0.97729826 132.02283 -9.1271572 -72.588699 -9.141386 -73.324936 -0.015552218 -97.727623
9206687500 -0.98696119 132.04477 -9.1355085 -72.672272 -9.1309862 -73.322975 -0.0117893 -97.829575
9206750000 -0.97916615 132.0569 -9.1346455 -72.574432 -9.1265869 -73.22831 -0.013819147 -97.713737
9206812500 -0.97850394 132.07623 -9.1293268 -72.581902 -9.1420527 -73.225243 -0.0097198756 -97.721489
9206875000 -0.98267233 132.00198 -9.1426725 -72.609711 -9.1258135 -73.178375 -0.014364623 -97.562325
9206937500 -0.98062599 131.99359 -9.1222925 -72.533012 -9.1401138 -73.281281 -0.01725848 -97.611382
9207000000 -0.98013514 131.94907 -9.1411266 -72.677383 -9.1337099 -73.268021 -0.018542064 -97.657387
9207062500 -0.97479683 131.95091 -9.1141052 -72.573624 -9.1228619 -73.206665 -0.009186985 -97.52034
9207125000 -0.99011797 131.91151 -9.1287022 -72.637527 -9.1248579 -73.309639 -0.016980443 -97.547653
9207187500 -0.98043156 131.85809 -9.1207495 -72.647011 -9.1261806 -73.227959 -0.015860369 -97.592056
9207250000 -0.97935814 131.92778 -9.1178665 -72.56308 -9.1279669 -73.200554 -0.012467124 -97.566101
9207312500 -0.97438592 131.89659 -9.126545 -72.605034 -9.1138144 -73.254738 -0.0086493045 -97.555946
9207375000 -0.98472017 131.88556 -9.1239367 -72.561028 -9.1243925 -73.235748 -0.022635976 -97.486313
9207437500 -0.97862428 131.95085 -9.1251688 -72.552834 -9.136487 -73.213676 -0.022316175 -97.507011
9207500000 -0.98614496 131.91676 -9.1423845 -72.564781 -9.1137171 -73.118477 -0.020805385 -97.464737
9207562500 -0.97437549 131.86194 -9.1211014 -72.629219 -9.1223621 -73.192291 -0.017070446 -97.470566
9207625000 -0.98204148 131.7813 -9.1282625 -72.56218 -9.1190567 -73.180878 -0.0099719344 -97.37278
9207687500 -0.98149055 131.83971 -9.1136503 -72.522652 -9.1232605 -73.196297 -0.014267457 -97.422516
9207750000 -0.98555726 131.81946 -9.1213684 -72.642761 -9.1169128 -73.25605 -0.013784857 -97.442581
9207812500 -0.97883844 131.80145 -9.1309853 -72.541031 -9.1244068 -73.14521 -0.024946254 -97.347626
9207875000 -0.98541903 131.8096 -9.1299219 -72.52845 -9.1229391 -73.192375 -0.01933361 -97.354141
9207937500 -0.98312008 131.75523 -9.1264486 -72.525658 -9.125823 -73.225464 -0.023103183 -97.381767
9208000000 -0.98597318 131.76372 -9.1222906 -72.584961 -9.124362 -73.179131 -0.021818314 -97.301323
9208062500 -0.98394954 131.77295 -9.1183586 -72.472961 -9.1198034 -73.149536 -0.026372617 -97.311821
9208125000 -0.98710102 131.72223 -9.1275101 -72.627602 -9.1210232 -73.174355 -0.020939784 -97.317123
9208187500 -0.98085868 131.74947 -9.1207228 -72.57563 -9.1285105 -73.165489 -0.023636308 -97.291809
9208250000 -0.98600626 131.72101 -9.1194601 -72.486229 -9.1189022 -73.178741 -0.017807839 -97.256226
9208312500 -0.97962338 131.68401 -9.127183 -72.596161 -9.1049204 -73.187851 -0.021175051 -97.268372
9208375000 -0.98498404 131.71057 -9.1169968 -72.56765 -9.114502 -73.216454 -0.014510166 -97.173256
9208437500 -0.98380738 131.62175 -9.1183281 -72.571129 -9.111331 -73.135887 -0.028032418 -97.181419
9208500000 -0.98308831 131.63148 -9.1238165 -72.491852 -9.1116705 -73.234436 -0.021088775 -97.198799
9208562500 -0.98983192 131.67268 -9.1166153 -72.563385 -9.1049232 -73.232208 -0.015593053 -97.220505
9208625000 -0.98131579 131.61906 -9.1001463 -72.507027 -9.0988274 -73.186432 -0.024733594 -97.19838
9208687500 -0.97656363 131.57756 -9.1136742 -72.558929 -9.1191425 -73.189873 -0.019416705 -97.150909
9208750000 -0.9809854 131.65424 -9.1166916 -72.462341 -9.107687 -73.169128 -0.024509035 -97.154739
9208812500 -0.98496097 131.66405 -9.1170607 -72.494568 -9.1053391 -73.191238 -0.0088848509 -97.108543
9208875000 -0.98426962 131.58633 -9.104372 -72.516624 -9.1156006 -73.135056 -0.015606328 -97.06971
9208937500 -0.9855262 131.59366 -9.1047087 -72.547478 -9.1100826 -73.135178 -0.01677916 -97.043999
9209000000 -0.97870678 131.5923 -9.1174393 -72.491997 -9.1098948 -73.181099 -0.033612009 -97.113365
9209062500 -0.98605841 131.53026 -9.1158152 -72.495331 -9.1164083 -73.169907 -0.029325547 -97.037285
9209125000 -0.98895365 131.52348 -9.116766 -72.535789 -9.1053858 -73.203392 -0.01116519 -96.989738
9209187500 -0.98361999 131.55003 -9.1069565 -72.48455 -9.1130028 -73.112526 -0.025392577 -96.998512
9209250000 -0.97625887 131.4693 -9.0997066 -72.50058 -9.0968618 -73.25058 -0.018097665 -96.966263
9209312500 -0.98139286 131.39301 -9.117507 -72.530746 -9.1118908 -73.159912 -0.032657403 -96.968445
9209375000 -0.98242331 131.48677 -9.1093597 -72.505409 -9.1097307 -73.117722 -0.028283056 -96.968994
9209437500 -0.99025506 131.44243 -9.1115351 -72.449196 -9.1038408 -73.173798 -0.026115334 -96.863289
9209500000 -0.98147643 131.4288 -9.1126232 -72.450829 -9.1040268 -73.177124 -0.028218966 -96.908371
9209562500 -0.99663752 131.41541 -9.1187143 -72.513451 -9.1144609 -73.135239 -0.036864925 -96.790993
9209625000 -0.99043101 131.37508 -9.1138201 -72.587723 -9.0988131 -73.096756 -0.017285148 -96.822235
9209687500 -0.98772877 131.33022 -9.10394 -72.493584 -9.0982981 -73.067055 -0.021041291 -96.804749
9209750000 -0.98706257 131.35762 -9.0983562 -72.57061 -9.1019468 -73.136742 -0.015068077 -96.874428
9209812500 -0.98101526 131.38072 -9.1107025 -72.425949 -9.1068945 -73.176933 -0.025067592 -96.817551
9209875000 -0.97933805 131.37502 -9.1005497 -72.453934 -9.1063881 -73.137032 -0.037628043 -96.821915
9209937500 -0.98636162 131.42398 -9.1123238 -72.423447 -9.106391 -73.142136 -0.028632009 -96.83329
9210000000 -0.97208059 131.34694 -9.1023455 -72.422455 -9.0923128 -73.124557 -0.04024579 -96.746635
9210062500 -0.99113107 131.35007 -9.1088448 -72.545273 -9.0993919 -73.189972 -0.035051513 -96.793213
9210125000 -0.98127329 131.33249 -9.1015787 -72.488892 -9.0928249 -73.090881 -0.028330311 -96.701569
9210187500 -0.98680162 131.29962 -9.0986519 -72.480446 -9.0960178 -73.157562 -0.023859235 -96.702194
9210250000 -0.98704332 131.28569 -9.0989504 -72.515198 -9.0924902 -73.103821 -0.034614667 -96.702652
9210312500 -0.98773742 131.30989 -9.0997782 -72.460777 -9.0922232 -73.172165 -0.0242588 -96.723251
9210375000 -0.985008 131.27585 -9.1049309 -72.462181 -9.1054258 -73.087097 -0.028491084 -96.596802
9210437500 -0.98320788 131.2153 -9.1081762 -72.504822 -9.0960655 -73.125557 -0.022845263 -96.686272
9210500000 -0.97765028 131.19443 -9.0994492 -72.53952 -9.1006575 -73.18988 -0.022480512 -96.682976
9210562500 -0.98637116 131.20638 -9.1043148 -72.38987 -9.0978622 -73.201767 -0.025018016 -96.593956
9210625000 -0.97847772 131.20596 -9.0979433 -72.506294 -9.1017141 -73.127098 -0.032798093 -96.682404
9210687500 -0.98179466 131.21233 -9.0889101 -72.462212 -9.0974932 -73.170425 -0.026349304 -96.614273
9210750000 -0.98653793 131.16856 -9.1003208 -72.569489 -9.094203 -73.107483 -0.022886714 -96.547523
9210812500 -0.99087346 131.14786 -9.1021528 -72.505562 -9.0913162 -73.059525 -0.037347462 -96.551628
9210875000 -0.98848981 131.13358 -9.0961113 -72.475189 -9.0901146 -73.09742 -0.0290145 -96.573502
9210937500 -0.98430198 131.18652 -9.0983963 -72.44976 -9.0983124 -73.055145 -0.042273276 -96.54007
9211000000 -0.9826833 131.15338 -9.1074772 -72.426933 -9.0936661 -73.11998 -0.032290198 -96.525589
9211062500 -0.98263741 131.11519 -9.095644 -72.372841 -9.0860529 -73.072281 -0.037299141 -96.474419
9211125000 -0.97563267 131.07774 -9.0843658 -72.469254 -9.0872746 -73.064667 -0.025954874 -96.45047
9211187500 -0.99158049 131.10982 -9.0941706 -72.38166 -9.0844612 -73.115417 -0.033947248 -96.426094
9211250000 -0.9928478 131.064 -9.0853539 -72.517067 -9.0869389 -73.073944 -0.021430213 -96.437576
9211312500 -0.98535508 131.06252 -9.0994253 -72.438782 -9.0847101 -73.051796 -0.03138515 -96.435951
9211375000 -0.98269576 130.99193 -9.0838623 -72.482925 -9.0898352 -73.163033 -0.031767279 -96.391319
9211437500 -0.98794508 131.02438 -9.0795851 -72.428116 -9.0846786 -73.127899 -0.034976125 -96.370369
9211500000 -0.9847309 130.99551 -9.092783 -72.472282 -9.0811644 -73.042465 -0.028150678 -96.379288
9211562500 -0.98715252 131.10211 -9.0872984 -72.388573 -9.0881739 -73.10807 -0.046440374 -96.343201
9211625000 -0.98330402 130.95265 -9.0746679 -72.469002 -9.0788727 -73.124878 -0.023896091 -96.360191
9211687500 -0.99036288 131.03252 -9.0971775 -72.422859 -9.0820055 -73.107719 -0.036308754 -96.326805
9211750000 -0.98767877 130.9135 -9.0860415 -72.420792 -9.0795383 -73.108704 -0.026070455 -96.258835
9211812500 -0.99022341 130.91893 -9.0979328 -72.48008 -9.0825491 -73.029076 -0.042663056 -96.292191
9211875000 -0.99012893 130.91827 -9.0842085 -72.476326 -9.0782604 -73.047562 -0.027383242 -96.194847
9211937500 -0.98398024 130.95049 -9.0928411 -72.432205 -9.0880375 -73.083466 -0.03938619 -96.213783
9212000000 -0.98637849 130.83658 -9.078475 -72.469223 -9.0785398 -73.078018 -0.031571213 -96.204666
9212062500 -0.98323518 130.8463 -9.0794258 -72.4049 -9.085741 -73.059021 -0.04404499 -96.198006
