!Agilent Technologies,N5242A,MY51221714,A.09.90.19
!Agilent N5242A: A.09.90.19
!Date: Tuesday, March 26, 2024 15:41:09
!Correction: S11(Full 2 Port(1,2)) 
!S21(Full 2 Port(1,2)) 
!S12(Full 2 Port(1,2)) 
!S22(Full 2 Port(1,2)) 
!S2P File: Measurements: S11, S21, S12, S22:
# Hz S  dB   R 50
9200000000 -0.96466023 133.60791 -9.3091516 -72.642349 -9.2906857 -73.281273 0.026184771 -99.435654
9200062500 -0.95985532 133.59508 -9.2934847 -72.716011 -9.2945414 -73.2668 0.033613134 -99.366676
9200125000 -0.957784 133.54034 -9.2889633 -72.621712 -9.293664 -73.188583 0.02475773 -99.321678
9200187500 -0.96207654 133.59821 -9.2956038 -72.520447 -9.3025732 -73.325279 0.029301221 -99.304771
9200250000 -0.9562875 133.52559 -9.2876892 -72.597672 -9.2901239 -73.194183 0.033221208 -99.308914
9200312500 -0.97076762 133.51933 -9.3058634 -72.673531 -9.2988625 -73.275543 0.02903137 -99.29847
9200375000 -0.9626587 133.51509 -9.3038464 -72.607346 -9.2945576 -73.309174 0.03541109 -99.281807
9200437500 -0.95843601 133.52377 -9.2979012 -72.579247 -9.2849989 -73.323708 0.037518844 -99.277061
9200500000 -0.95577711 133.46881 -9.2950306 -72.674637 -9.2948732 -73.181007 0.025530599 -99.233681
9200562500 -0.95558083 133.46516 -9.2955761 -72.608444 -9.2961159 -73.272026 0.032860793 -99.269028
9200625000 -0.96818441 133.44614 -9.2991724 -72.699608 -9.2843866 -73.289833 0.02519574 -99.229347
9200687500 -0.95399165 133.40964 -9.2926054 -72.619049 -9.2966127 -73.212555 0.032469187 -99.191933
9200750000 -0.96151096 133.40579 -9.2919359 -72.653786 -9.2878151 -73.251022 0.025552388 -99.199631
9200812500 -0.97155523 133.44624 -9.2922583 -72.538849 -9.2896042 -73.234558 0.020164218 -99.1539
9200875000 -0.95312417 133.51411 -9.2861443 -72.500435 -9.2887802 -73.240089 0.024009733 -99.233681
9200937500 -0.96217561 133.41003 -9.2945986 -72.598885 -9.2871943 -73.231331 0.032114208 -99.114761
9201000000 -0.9576661 133.34404 -9.2816362 -72.67308 -9.2826166 -73.272865 0.03494709 -99.149895
9201062500 -0.95082533 133.3768 -9.2705307 -72.586166 -9.2819452 -73.29837 0.029509451 -99.095978
9201125000 -0.96071303 133.3627 -9.284936 -72.573112 -9.2919922 -73.236443 0.026544265 -99.057137
9201187500 -0.96906549 133.28088 -9.2922001 -72.50383 -9.2758741 -73.183609 0.023300808 -98.952126
9201250000 -0.96900177 133.35216 -9.2818556 -72.545036 -9.2830181 -73.145531 0.031293377 -99.012947
9201312500 -0.97557849 133.3159 -9.2900629 -72.570602 -9.2760401 -73.295921 0.035688356 -99.064041
9201375000 -0.96794212 133.33708 -9.2869444 -72.520699 -9.2933302 -73.192741 0.01532734 -98.987823
9201437500 -0.96064574 133.28726 -9.2903528 -72.531982 -9.287323 -73.231995 0.020071056 -99.052399
9201500000 -0.96583122 133.26352 -9.2904282 -72.595985 -9.2782536 -73.204475 0.025024956 -99.018341
9201562500 -0.96472484 133.27351 -9.298708 -72.536362 -9.2908688 -73.251381 0.011444226 -98.979568
9201625000 -0.96216291 133.22662 -9.2826567 -72.511353 -9.2760382 -73.227844 0.018065244 -98.869522
9201687500 -0.96875489 133.24626 -9.278244 -72.480934 -9.2748499 -73.199219 0.025010312 -98.870827
9201750000 -0.96470243 133.24168 -9.2847996 -72.56398 -9.2688341 -73.229881 0.038037661 -98.920441
9201812500 -0.96278989 133.23444 -9.288703 -72.562798 -9.2812605 -73.165764 0.018769789 -98.953674
9201875000 -0.95711708 133.17506 -9.2729406 -72.571838 -9.2699165 -73.271912 0.034241203 -98.828194
9201937500 -0.97620112 133.16348 -9.2879162 -72.565071 -9.2829285 -73.240669 0.027311219 -98.874985
9202000000 -0.96523803 133.20122 -9.271574 -72.536926 -9.2854338 -73.225449 0.024712857 -98.794647
9202062500 -0.97465718 133.14349 -9.2717648 -72.581711 -9.2721472 -73.233757 0.034900583 -98.79615
9202125000 -0.97147286 133.19562 -9.2952976 -72.513924 -9.2881441 -73.155121 0.011852109 -98.825775
9202187500 -0.96510082 133.13948 -9.2774391 -72.573341 -9.2696075 -73.121262 0.032196548 -98.678719
9202250000 -0.96411157 133.1429 -9.2886543 -72.547829 -9.2761316 -73.160843 0.018350115 -98.745461
9202312500 -0.96228278 133.10786 -9.2825499 -72.500877 -9.2721491 -73.184723 0.02505026 -98.734947
9202375000 -0.96890754 133.08168 -9.2915554 -72.544815 -9.2694674 -73.206932 0.017782588 -98.67498
9202437500 -0.96627885 133.1263 -9.2843561 -72.502106 -9.2759066 -73.160835 0.024307758 -98.726639
9202500000 -0.96946013 133.10556 -9.2833815 -72.591934 -9.2791119 -73.210556 0.020440897 -98.77562
9202562500 -0.95922524 133.03372 -9.2801647 -72.518616 -9.281354 -73.113388 0.011956111 -98.65892
9202625000 -0.97021395 133.08943 -9.2779913 -72.551056 -9.2715473 -73.18885 0.019142285 -98.637123
9202687500 -0.96624976 133.06754 -9.2802048 -72.548073 -9.2789326 -73.221863 0.023403505 -98.620323
9202750000 -0.9602344 132.99103 -9.2714853 -72.521339 -9.2697868 -73.156937 0.019069223 -98.587326
9202812500 -0.97166312 132.97392 -9.2832165 -72.542221 -9.2572174 -73.204361 0.028933723 -98.57531
9202875000 -0.95935082 132.97098 -9.2660923 -72.483238 -9.2570896 -73.233673 0.026383696 -98.542465
9202937500 -0.96453798 132.97252 -9.2681475 -72.579903 -9.2648907 -73.142555 0.022744391 -98.554146
9203000000 -0.97126031 133.03415 -9.2688456 -72.507454 -9.2677822 -73.206505 0.023286665 -98.485924
9203062500 -0.96304297 132.88452 -9.268424 -72.647217 -9.2689562 -73.133087 0.015618221 -98.56945
9203125000 -0.96528596 132.91231 -9.2728243 -72.505737 -9.2588425 -73.192177 0.020567255 -98.479729
9203187500 -0.96110076 132.94835 -9.2716122 -72.526306 -9.2680302 -73.209106 0.013858197 -98.533562
9203250000 -0.96669847 132.89711 -9.2704887 -72.499626 -9.2641439 -73.140823 0.024324609 -98.483139
9203312500 -0.9697147 132.90761 -9.2706327 -72.541527 -9.2642603 -73.179901 0.026944671 -98.439095
9203375000 -0.9672243 132.91382 -9.2658939 -72.465729 -9.2517967 -73.12574 0.031081157 -98.406395
9203437500 -0.96931159 132.87807 -9.2758121 -72.614021 -9.2614002 -73.122559 0.023689432 -98.438843
9203500000 -0.9638297 132.81998 -9.265727 -72.529938 -9.2663565 -73.153015 0.01993723 -98.443275
9203562500 -0.96885061 132.87257 -9.2653265 -72.472649 -9.2706032 -73.102989 0.013822234 -98.400856
9203625000 -0.96696651 132.83791 -9.2721977 -72.518623 -9.259696 -73.155655 0.018986918 -98.415169
9203687500 -0.96770269 132.80458 -9.2785778 -72.518623 -9.2675314 -73.096176 0.015335102 -98.369026
9203750000 -0.96385521 132.8248 -9.2541666 -72.48336 -9.2553768 -73.134132 0.031995539 -98.315292
9203812500 -0.96967793 132.81557 -9.2577753 -72.519188 -9.2639456 -73.183304 0.01341012 -98.342239
9203875000 -0.96668249 132.77211 -9.2683277 -72.450172 -9.2594728 -73.17482 -0.0006014976 -98.333603
9203937500 -0.97331613 132.74699 -9.2715197 -72.539871 -9.2632465 -73.100136 0.018355545 -98.284454
9204000000 -0.96148247 132.77179 -9.2597046 -72.424446 -9.2609987 -73.10067 0.016022081 -98.231888
9204062500 -0.96086109 132.76089 -9.2618399 -72.444244 -9.2538481 -73.131874 0.012823013 -98.205635
9204125000 -0.9670375 132.74188 -9.2677755 -72.439835 -9.2591772 -73.151276 0.01490483 -98.226257
9204187500 -0.97627228 132.68845 -9.2744684 -72.517761 -9.2733555 -73.176682 0.0047042146 -98.231018
9204250000 -0.96936834 132.72768 -9.2548952 -72.455223 -9.2657433 -73.184044 0.01415423 -98.246307
9204312500 -0.9642328 132.7005 -9.2525644 -72.431892 -9.2498131 -73.166855 0.013895079 -98.124031
9204375000 -0.96144122 132.66858 -9.2608318 -72.493118 -9.2531748 -73.105675 0.015477336 -98.216347
9204437500 -0.97366565 132.69186 -9.2604504 -72.517326 -9.2511158 -73.080238 0.025299503 -98.201019
9204500000 -0.97504163 132.66121 -9.269371 -72.501144 -9.2608719 -73.176018 0.012792467 -98.200005
9204562500 -0.97184426 132.603 -9.2599392 -72.654503 -9.2489195 -73.179039 0.031270947 -98.242439
9204625000 -0.96382821 132.62473 -9.2583399 -72.4142 -9.2443733 -73.156876 0.013286879 -98.062973
9204687500 -0.96227026 132.60388 -9.2547474 -72.387718 -9.2558746 -73.116013 0.016506117 -98.036987
9204750000 -0.97463918 132.60484 -9.2580042 -72.401138 -9.2501841 -73.130104 0.0088509023 -98.069817
9204812500 -0.95281494 132.56531 -9.2443953 -72.423073 -9.2575054 -73.13343 0.024858603 -98.043671
9204875000 -0.96872145 132.59592 -9.2579947 -72.446281 -9.2648611 -73.141357 0.0091930674 -98.10498
9204937500 -0.97194362 132.55241 -9.2515888 -72.47747 -9.2482796 -73.1679 0.020919379 -98.073738
9205000000 -0.95734674 132.47925 -9.250596 -72.455704 -9.2353153 -73.042618 0.0099672824 -97.958427
9205062500 -0.96886915 132.52591 -9.2644796 -72.499603 -9.2418308 -73.101479 0.012585419 -97.94928
9205125000 -0.96823663 132.4854 -9.254755 -72.502403 -9.2437143 -73.12426 0.010611309 -97.912483
9205187500 -0.9689396 132.51842 -9.2576532 -72.421646 -9.2464504 -73.080986 0.010629649 -97.938583
9205250000 -0.96507394 132.47675 -9.2506065 -72.502083 -9.2580786 -73.099716 0.0073577431 -98.008202
9205312500 -0.97048688 132.51097 -9.2555504 -72.402229 -9.2452831 -73.090836 0.013725858 -97.958122
9205375000 -0.96860111 132.42253 -9.2482643 -72.488419 -9.2447824 -73.132713 0.018709866 -97.898132
9205437500 -0.96121836 132.47237 -9.2485962 -72.348312 -9.2503233 -72.99736 0.013533501 -97.852425
9205500000 -0.97192478 132.37228 -9.250021 -72.479332 -9.2475204 -73.143158 0.020004936 -97.784988
9205562500 -0.9737981 132.43028 -9.2436905 -72.417496 -9.23631 -73.15876 0.020127209 -97.853798
9205625000 -0.97643399 132.42325 -9.2589293 -72.37114 -9.2378635 -73.118347 0.013753327 -97.785484
9205687500 -0.96418399 132.43852 -9.2392559 -72.422699 -9.2332735 -73.090164 0.011952021 -97.78598
9205750000 -0.96647 132.35609 -9.2445154 -72.43515 -9.2476482 -73.091743 0.012852836 -97.723976
9205812500 -0.96925414 132.31371 -9.2367477 -72.500793 -9.2516003 -73.080727 0.009959612 -97.738907
9205875000 -0.95964181 132.38443 -9.2435989 -72.42495 -9.2493277 -73.120964 0.0094402954 -97.798317
9205937500 -0.96641737 132.33479 -9.2354527 -72.430786 -9.2270794 -73.05867 0.014358689 -97.715286
9206000000 -0.97176242 132.34784 -9.2359056 -72.402512 -9.2347841 -73.078529 0.013913574 -97.667488
9206062500 -0.96565378 132.30499 -9.2338781 -72.469589 -9.2481956 -73.080002 0.0071710176 -97.714149
9206125000 -0.97031033 132.31183 -9.2378139 -72.454521 -9.2336302 -73.016884 0.011321742 -97.636887
9206187500 -0.96782964 132.3114 -9.238657 -72.468719 -9.2354174 -73.117912 0.022028856 -97.690941
9206250000 -0.97004843 132.23962 -9.2456551 -72.510132 -9.2296047 -73.07666 0.010797273 -97.691811
9206312500 -0.96540213 132.19374 -9.2367907 -72.500877 -9.2396746 -73.179344 0.011631699 -97.658722
9206375000 -0.97092098 132.269 -9.2355337 -72.446053 -9.2350445 -73.065742 0.013910729 -97.647263
9206437500 -0.96168172 132.2049 -9.2417669 -72.416901 -9.2335997 -73.019615 0.011386105 -97.613892
9206500000 -0.97307545 132.20999 -9.2401524 -72.484917 -9.2338943 -73.071281 0.0017497913 -97.597824
9206562500 -0.96890086 132.19455 -9.2394886 -72.481232 -9.2380667 -73.081192 0.013182785 -97.648422
9206625000 -0.96921682 132.1329 -9.2275925 -72.396149 -9.2469025 -73.11013 0.0053366818 -97.625633
9206687500 -0.97149724 132.14447 -9.2371922 -72.466377 -9.2251577 -73.069641 0.019449625 -97.577187
9206750000 -0.96365392 132.1622 -9.2249432 -72.392067 -9.2367144 -72.999908 0.0098382523 -97.496964
9206812500 -0.96761894 132.16145 -9.2308035 -72.436668 -9.2361031 -73.069321 0.010048886 -97.56105
9206875000 -0.96933389 132.13055 -9.2356215 -72.407539 -9.2294703 -72.999413 0.014557077 -97.400223
9206937500 -0.96733886 132.15131 -9.2304411 -72.370735 -9.2324104 -73.037506 0.014670555 -97.447891
9207000000 -0.96733755 132.10704 -9.2344532 -72.429703 -9.2303734 -73.064636 0.013184142 -97.453163
9207062500 -0.9686867 132.08299 -9.2335081 -72.406807 -9.2269058 -73.018501 0.015513422 -97.323891
9207125000 -0.97284806 132.04497 -9.2250214 -72.450172 -9.2278099 -73.068771 0.012531738 -97.36544
9207187500 -0.9675492 132.03304 -9.2257147 -72.430161 -9.2348404 -73.015785 0.0068807169 -97.435188
9207250000 -0.96662867 132.05183 -9.2252541 -72.380905 -9.2330675 -73.022232 0.01694485 -97.429115
9207312500 -0.96850479 131.98441 -9.2233677 -72.483162 -9.218503 -73.019737 0.016673613 -97.372894
9207375000 -0.9704892 132.03494 -9.2304363 -72.376495 -9.2246571 -73.065109 0.0053190906 -97.290436
9207437500 -0.95971501 132.06445 -9.2307711 -72.260979 -9.241333 -72.980286 0.0044972291 -97.322739
9207500000 -0.97058386 132.04797 -9.2365227 -72.359505 -9.2148314 -72.938423 0.00069280667 -97.2752
9207562500 -0.96389377 132.00815 -9.2218943 -72.430717 -9.2217426 -73.0345 0.0031427864 -97.329025
9207625000 -0.96760756 131.90587 -9.2168007 -72.376366 -9.2239399 -73.014679 0.0084086871 -97.19799
9207687500 -0.97016251 131.9361 -9.2153034 -72.447006 -9.2227316 -73.071724 0.015034497 -97.290512
9207750000 -0.97271234 131.93987 -9.2227364 -72.402145 -9.2202597 -72.99678 0.023069808 -97.229279
9207812500 -0.97289836 131.92203 -9.226285 -72.410698 -9.2179337 -73.020355 0.0031267805 -97.241982
9207875000 -0.9637332 131.94304 -9.2353477 -72.322433 -9.2153816 -73.054565 0.009356834 -97.17762
9207937500 -0.9703716 131.87988 -9.2295046 -72.347656 -9.2301235 -73.026367 0.0025470725 -97.235794
9208000000 -0.97885025 131.87019 -9.2292633 -72.45417 -9.2212715 -72.947777 0.011193486 -97.136169
9208062500 -0.97065061 131.85271 -9.2214537 -72.417747 -9.2184944 -73.040771 0.010061727 -97.160873
9208125000 -0.97058558 131.88132 -9.2208118 -72.362968 -9.2294455 -73.070053 -0.00037147591 -97.139297
9208187500 -0.96177053 131.86206 -9.215394 -72.405403 -9.2231092 -72.997597 0.012472934 -97.109261
9208250000 -0.97493404 131.81392 -9.2229195 -72.359344 -9.2128658 -73.006615 0.009245947 -97.116371
9208312500 -0.96410131 131.84222 -9.2236309 -72.366356 -9.2093973 -72.967628 0.0081637437 -97.044258
9208375000 -0.97595978 131.82286 -9.2198782 -72.310989 -9.2120733 -72.991768 0.013871699 -96.999344
9208437500 -0.97176975 131.74207 -9.2230902 -72.415298 -9.2137775 -72.952515 -0.0045645521 -97.046989
9208500000 -0.97839743 131.75383 -9.2368908 -72.351387 -9.2189827 -73.017525 -0.0046602427 -97.015495
9208562500 -0.97005618 131.79941 -9.2246294 -72.388115 -9.2168093 -73.009163 0.0058170552 -97.031693
9208625000 -0.96489972 131.75261 -9.2143898 -72.296883 -9.2126026 -72.985664 -0.00072493328 -97.023682
9208687500 -0.95933002 131.70697 -9.2048407 -72.338699 -9.2124348 -72.948799 0.0057857782 -96.95697
9208750000 -0.96315736 131.75287 -9.2165003 -72.33683 -9.2118387 -73.014946 0.0047297254 -96.986465
9208812500 -0.97302938 131.77995 -9.2167549 -72.383087 -9.223012 -73.006393 0.002744911 -96.943954
9208875000 -0.97108048 131.68452 -9.2145348 -72.374588 -9.2168169 -73.002968 0.0059737521 -96.947914
9208937500 -0.96937305 131.70506 -9.1975918 -72.403999 -9.2066307 -73.026581 0.0076458314 -96.93103
9209000000 -0.96973014 131.68506 -9.228158 -72.412529 -9.207015 -72.999939 0.00044102682 -96.947205
9209062500 -0.9661448 131.68225 -9.2129889 -72.297874 -9.2149868 -72.980125 0.0032025608 -96.885513
9209125000 -0.9757278 131.6559 -9.2107334 -72.339249 -9.2038813 -72.935844 0.0082492409 -96.819275
9209187500 -0.9767071 131.62939 -9.2165785 -72.327789 -9.2232027 -72.933693 -0.0045215376 -96.855499
9209250000 -0.9660579 131.57228 -9.2123957 -72.392555 -9.2117949 -73.053009 -0.00075658719 -96.78833
9209312500 -0.96946436 131.53435 -9.2165413 -72.354546 -9.2073812 -72.989151 -0.0017875158 -96.807083
9209375000 -0.96127778 131.6219 -9.2107954 -72.290779 -9.2225609 -72.929138 -0.0096303504 -96.806648
9209437500 -0.97581774 131.57364 -9.2080679 -72.32428 -9.2017374 -72.963341 0.0054057376 -96.688408
9209500000 -0.97053397 131.54697 -9.214118 -72.376984 -9.1994963 -72.978378 0.0081530549 -96.714622
9209562500 -0.98182368 131.5728 -9.2100544 -72.347099 -9.2149239 -72.950897 -0.0068061892 -96.703804
9209625000 -0.97297448 131.50734 -9.2053146 -72.340172 -9.2055998 -73.08139 0.0040951069 -96.749275
9209687500 -0.97147584 131.48145 -9.2030725 -72.366074 -9.2043829 -72.921921 -0.0019357053 -96.694099
9209750000 -0.97120309 131.49591 -9.2019005 -72.402458 -9.2069492 -72.95359 0.010083196 -96.673576
9209812500 -0.96956611 131.4467 -9.2011967 -72.272713 -9.2020741 -72.990799 0.0065710107 -96.665039
9209875000 -0.96507221 131.4678 -9.1992331 -72.355995 -9.1972647 -72.955345 -0.00036195441 -96.635292
9209937500 -0.97429949 131.5412 -9.2161341 -72.326942 -9.2115383 -72.93512 -0.0068843509 -96.699539
9210000000 -0.96408087 131.46774 -9.2034512 -72.278938 -9.1972027 -72.955864 -0.011428867 -96.579254
9210062500 -0.97520828 131.48988 -9.2079887 -72.356621 -9.2066059 -72.934143 -0.001806577 -96.60984
9210125000 -0.96761256 131.44905 -9.2091789 -72.277954 -9.1927185 -72.916565 -0.00035413774 -96.574722
9210187500 -0.9691028 131.41031 -9.1871185 -72.316467 -9.199831 -72.930573 -0.0025922069 -96.543633
9210250000 -0.96838349 131.41092 -9.1979475 -72.331688 -9.1958675 -72.891235 -0.0026685281 -96.568962
9210312500 -0.97895044 131.41888 -9.2005434 -72.24868 -9.2033091 -72.928055 -0.0059366687 -96.521797
9210375000 -0.97156549 131.43791 -9.2051659 -72.333229 -9.201169 -72.918991 0.00027985877 -96.467941
9210437500 -0.96380895 131.3692 -9.207551 -72.283646 -9.1977482 -73.029556 0.0038965053 -96.54882
9210500000 -0.97011304 131.31595 -9.1940708 -72.323059 -9.1948462 -72.93734 0.010892066 -96.520126
9210562500 -0.9692778 131.36465 -9.1997423 -72.224983 -9.1888008 -72.932808 0.0067017986 -96.429665
9210625000 -0.9691754 131.353 -9.2089729 -72.222618 -9.1972418 -72.916649 0.0025235119 -96.461082
9210687500 -0.97259599 131.34322 -9.193821 -72.348305 -9.2006655 -72.914238 -0.0085539035 -96.398552
9210750000 -0.97236013 131.30284 -9.2050982 -72.285957 -9.2016363 -72.858124 -0.007151599 -96.418739
9210812500 -0.9722957 131.2628 -9.1931782 -72.377914 -9.1941595 -72.92424 -0.0085402466 -96.39595
9210875000 -0.97417951 131.25977 -9.2077494 -72.315536 -9.1890574 -72.869995 0.00064948137 -96.374268
9210937500 -0.96846545 131.28111 -9.19765 -72.313316 -9.1920862 -72.861649 -0.007547643 -96.323799
9211000000 -0.97362924 131.31429 -9.1925068 -72.22068 -9.2003937 -72.966148 -0.0030937002 -96.354004
9211062500 -0.96941072 131.27179 -9.1885624 -72.238625 -9.1936646 -72.914253 -0.010754734 -96.308769
9211125000 -0.96840721 131.18282 -9.1973858 -72.342339 -9.1911793 -72.843498 -0.0011793911 -96.249107
9211187500 -0.97541475 131.1937 -9.1971884 -72.339294 -9.1829681 -72.888039 -0.0054947142 -96.260193
9211250000 -0.97504961 131.19574 -9.1901522 -72.306969 -9.1988783 -72.846474 -0.0062711923 -96.260323
9211312500 -0.97444433 131.19756 -9.1979694 -72.251678 -9.1912918 -72.798996 -0.011772195 -96.201019
9211375000 -0.96865886 131.13805 -9.1988144 -72.265358 -9.1883831 -72.939827 -0.0046722614 -96.205193
9211437500 -0.96779394 131.11879 -9.1807623 -72.324547 -9.1937952 -72.907043 -0.0061729332 -96.223724
9211500000 -0.97398752 131.10312 -9.1981688 -72.330048 -9.1948824 -72.902184 -0.0044392301 -96.243454
9211562500 -0.97718132 131.16821 -9.1876621 -72.335991 -9.1763039 -72.884514 -0.0024570173 -96.183601
9211625000 -0.9704628 131.10638 -9.1781664 -72.356339 -9.1813126 -72.921768 0.0013232039 -96.207321
9211687500 -0.98023486 131.12376 -9.1905479 -72.297783 -9.1977758 -72.927582 -0.014119166 -96.096909
9211750000 -0.975079 131.07582 -9.19561 -72.280907 -9.1794405 -72.876877 0.0023878294 -96.089684
9211812500 -0.97751164 131.0788 -9.2063694 -72.202087 -9.1895742 -72.919746 -0.017021237 -96.16066
9211875000 -0.97614181 131.03058 -9.1933346 -72.315773 -9.1854734 -72.861122 -0.0043857452 -96.065216
9211937500 -0.96722132 131.04155 -9.1788197 -72.292168 -9.1857729 -72.931976 -0.0084092328 -96.12207
9212000000 -0.97369534 130.96236 -9.178422 -72.204033 -9.1876183 -72.886131 -0.015381883 -96.026932
9212062500 -0.9701156 131.03584 -9.1841145 -72.168732 -9.1786766 -72.923203 -0.015099618 -96.044991
9212125000 -0.96875447 130.96016 -9.1821842 -72.278152 -9.1912174 -72.91481 -0.013292584 -95.998421
