!Agilent Technologies,N5242A,MY51221714,A.09.90.19
!Agilent N5242A: A.09.90.19
!Date: Tuesday, March 26, 2024 15:32:24
!Correction: S11(Full 2 Port(1,2)) 
!S21(Full 2 Port(1,2)) 
!S12(Full 2 Port(1,2)) 
!S22(Full 2 Port(1,2)) 
!S2P File: Measurements: S11, S21, S12, S22:
# Hz S  dB   R 50
9200000000 -0.95825136 133.71725 -9.3043909 -72.738983 -9.2893248 -73.357277 0.015081132 -99.585236
9200062500 -0.95574492 133.70767 -9.2988949 -72.810242 -9.2984943 -73.377724 0.022411983 -99.558983
9200125000 -0.95590091 133.66588 -9.2964792 -72.764641 -9.2938337 -73.350616 0.016544463 -99.512199
9200187500 -0.96302533 133.73283 -9.2942791 -72.70842 -9.2859707 -73.500381 0.03109503 -99.564232
9200250000 -0.953538 133.646 -9.2931309 -72.725349 -9.2868128 -73.319443 0.024044245 -99.508453
9200312500 -0.95644391 133.63591 -9.2881508 -72.730721 -9.2933922 -73.343033 0.019604357 -99.475632
9200375000 -0.95820707 133.61806 -9.288826 -72.753128 -9.2887783 -73.431229 0.025887433 -99.46537
9200437500 -0.95713508 133.65952 -9.2934875 -72.72525 -9.2835369 -73.289597 0.030055922 -99.420097
9200500000 -0.95897871 133.61597 -9.3046618 -72.763916 -9.2821903 -73.350273 0.020990029 -99.470627
9200562500 -0.9505716 133.59135 -9.2889071 -72.747314 -9.2991266 -73.371544 0.025524085 -99.4879
9200625000 -0.95799011 133.5988 -9.2931395 -72.727501 -9.2890139 -73.33271 0.018348454 -99.40966
9200687500 -0.94722819 133.59044 -9.2863379 -72.705467 -9.3058052 -73.356918 0.021271739 -99.341827
9200750000 -0.95337451 133.51907 -9.2888899 -72.756767 -9.2846985 -73.352371 0.02071183 -99.407784
9200812500 -0.96987182 133.52882 -9.2990541 -72.68531 -9.2950258 -73.328598 0.0043788566 -99.349724
9200875000 -0.95425153 133.58792 -9.294982 -72.662849 -9.2895002 -73.269943 0.018714761 -99.353882
9200937500 -0.96219665 133.51472 -9.295598 -72.7257 -9.2840872 -73.379501 0.026372006 -99.355583
9201000000 -0.95356017 133.50766 -9.295619 -72.814812 -9.2810278 -73.375427 0.026701897 -99.364098
9201062500 -0.95207232 133.51546 -9.2773733 -72.72818 -9.2894287 -73.402657 0.019476922 -99.311974
9201125000 -0.95973092 133.49828 -9.2877779 -72.684059 -9.2799025 -73.356483 0.021741359 -99.268433
9201187500 -0.95573634 133.41003 -9.2713957 -72.683327 -9.2796803 -73.333443 0.01270932 -99.201447
9201250000 -0.95870179 133.48114 -9.2801762 -72.67662 -9.2851534 -73.34478 0.016183024 -99.185265
9201312500 -0.96059006 133.45033 -9.2801723 -72.704613 -9.2846889 -73.381523 0.01839577 -99.247284
9201375000 -0.96484262 133.44225 -9.2927923 -72.638031 -9.2864399 -73.218254 0.012152344 -99.159004
9201437500 -0.95666689 133.42978 -9.2941666 -72.684967 -9.2869339 -73.34848 0.011508175 -99.253571
9201500000 -0.96190751 133.40468 -9.2895832 -72.779099 -9.284091 -73.303543 0.013719823 -99.197685
9201562500 -0.95916378 133.36093 -9.2916899 -72.729233 -9.2954874 -73.314796 0.0045919791 -99.190544
9201625000 -0.95372099 133.38295 -9.2811317 -72.640244 -9.2672577 -73.274391 0.017108427 -99.045761
9201687500 -0.96494323 133.38147 -9.2828693 -72.595215 -9.2835054 -73.263725 0.011104173 -99.023743
9201750000 -0.96449894 133.34981 -9.2946758 -72.735481 -9.2731256 -73.349449 0.025955683 -99.073257
9201812500 -0.95698011 133.34894 -9.2864113 -72.674408 -9.2830954 -73.273979 0.0013109557 -99.127083
9201875000 -0.95619071 133.29556 -9.2773762 -72.746819 -9.2847242 -73.334572 0.019506866 -99.072899
9201937500 -0.96778303 133.27252 -9.2910957 -72.626785 -9.2670469 -73.309738 0.020451358 -99.05619
9202000000 -0.96158904 133.28743 -9.2769375 -72.678459 -9.2792892 -73.316628 0.015618126 -99.032547
9202062500 -0.96454102 133.31264 -9.2681236 -72.63044 -9.2735252 -73.366379 0.024786778 -99.040344
9202125000 -0.96009964 133.31187 -9.2970352 -72.739746 -9.2761126 -73.255989 0.0069006905 -98.975426
9202187500 -0.95816737 133.27753 -9.2808132 -72.641151 -9.2798309 -73.23613 0.012798583 -98.90699
9202250000 -0.95630765 133.23964 -9.278738 -72.647423 -9.2733393 -73.244865 0.0092179254 -98.930092
9202312500 -0.95361638 133.26465 -9.2802162 -72.626587 -9.2732258 -73.307793 0.016837705 -98.904198
9202375000 -0.95967162 133.19446 -9.2920332 -72.691475 -9.2712755 -73.311325 0.0065470585 -98.892754
9202437500 -0.95736194 133.26407 -9.2723789 -72.628899 -9.2763605 -73.217087 0.018110747 -98.926682
9202500000 -0.96761161 133.18198 -9.2780495 -72.704964 -9.2720833 -73.284035 0.019626826 -98.933533
9202562500 -0.95511162 133.17154 -9.2769928 -72.681602 -9.2771807 -73.225388 0.0026919311 -98.873543
9202625000 -0.95990211 133.21429 -9.2728548 -72.686348 -9.2731085 -73.258492 0.0093015935 -98.790665
9202687500 -0.95664477 133.18958 -9.2675953 -72.631111 -9.2675514 -73.242439 0.017459856 -98.783051
9202750000 -0.94972527 133.09764 -9.2710133 -72.686874 -9.2703924 -73.303688 0.0078827795 -98.858391
9202812500 -0.96170902 133.11365 -9.2809315 -72.657471 -9.2612686 -73.296425 0.020010246 -98.769165
9202875000 -0.95409089 133.07942 -9.2647848 -72.672958 -9.2685261 -73.260818 0.013966347 -98.722023
9202937500 -0.95474863 133.1107 -9.2690201 -72.705414 -9.2581396 -73.223572 0.013395928 -98.732857
9203000000 -0.96437466 133.12532 -9.2647562 -72.635399 -9.2664366 -73.27491 0.016734783 -98.722313
9203062500 -0.9600125 133.03793 -9.2655172 -72.696968 -9.2620239 -73.238968 0.0084065367 -98.747017
9203125000 -0.95702893 133.03973 -9.2697668 -72.673744 -9.2502651 -73.340897 0.022819048 -98.75193
9203187500 -0.95831674 133.03152 -9.2697039 -72.682831 -9.259119 -73.31221 0.010615101 -98.719856
9203250000 -0.95737499 133.01811 -9.2652512 -72.617836 -9.2623215 -73.303001 0.0095761148 -98.71833
9203312500 -0.96891308 133.02888 -9.2708883 -72.62796 -9.2566624 -73.268723 0.021983538 -98.679291
9203375000 -0.95555162 133.00189 -9.2578678 -72.604034 -9.2591324 -73.262901 0.017871415 -98.611526
9203437500 -0.9664737 133.01526 -9.2824574 -72.671257 -9.2703152 -73.267853 0.014025018 -98.677528
9203500000 -0.95818096 132.97176 -9.2630196 -72.661385 -9.2594023 -73.225143 0.012522745 -98.622574
9203562500 -0.96732098 132.95699 -9.2714615 -72.669189 -9.2685585 -73.307091 0.00069891429 -98.644791
9203625000 -0.96143866 132.95572 -9.2722073 -72.680611 -9.2665606 -73.250847 0.0063136718 -98.67926
9203687500 -0.96913898 132.94644 -9.2771025 -72.697975 -9.2668562 -73.251686 0.010301949 -98.587334
9203750000 -0.95916331 132.94403 -9.2609968 -72.670044 -9.2558222 -73.227654 0.023332087 -98.509575
9203812500 -0.96375042 132.90335 -9.2641468 -72.701775 -9.2623196 -73.243713 0.0091922721 -98.51841
9203875000 -0.96018815 132.92018 -9.2693386 -72.578201 -9.2585812 -73.243607 0.0034378238 -98.529732
9203937500 -0.96853507 132.8689 -9.2604847 -72.672104 -9.2547731 -73.229713 0.012449351 -98.531372
9204000000 -0.96120363 132.88509 -9.2567015 -72.607887 -9.2637444 -73.232887 0.014996313 -98.472054
9204062500 -0.954445 132.87909 -9.2586699 -72.658936 -9.2508373 -73.34156 0.0085618757 -98.505333
9204125000 -0.9663958 132.83406 -9.2643852 -72.621155 -9.2532778 -73.215858 0.011732583 -98.412827
9204187500 -0.95995176 132.7925 -9.2573652 -72.588699 -9.2600746 -73.26297 0.0019169422 -98.39537
9204250000 -0.96380872 132.83209 -9.2508945 -72.629242 -9.2490129 -73.227043 0.0095970239 -98.420662
9204312500 -0.95437407 132.86679 -9.2530823 -72.537033 -9.2491255 -73.247406 0.0094574988 -98.336952
9204375000 -0.95466495 132.77078 -9.2607441 -72.613228 -9.2533121 -73.232544 0.0073220856 -98.472839
9204437500 -0.97030079 132.82819 -9.2532072 -72.616753 -9.250968 -73.156174 0.017412225 -98.347969
9204500000 -0.96838474 132.8015 -9.2581911 -72.602776 -9.2567482 -73.31237 0.0095437383 -98.397552
9204562500 -0.96727359 132.74007 -9.2693624 -72.710022 -9.2579298 -73.27626 0.0094486978 -98.403862
9204625000 -0.95605201 132.72569 -9.248517 -72.554825 -9.2391958 -73.280754 0.01469938 -98.288963
9204687500 -0.95798296 132.74628 -9.2578392 -72.500259 -9.2483921 -73.212006 0.0077200066 -98.242409
9204750000 -0.97223306 132.71581 -9.251811 -72.578941 -9.2500963 -73.205811 0.00053883024 -98.250267
9204812500 -0.95691639 132.70488 -9.2538738 -72.601906 -9.2459154 -73.240921 0.0098464713 -98.273354
9204875000 -0.96324611 132.78502 -9.2473497 -72.549835 -9.2555408 -73.188797 0.010921516 -98.246918
9204937500 -0.95826036 132.66982 -9.2494068 -72.652489 -9.2452812 -73.290833 0.012576584 -98.280823
9205000000 -0.95126277 132.65576 -9.2520199 -72.516884 -9.2533302 -73.130203 -0.0052245259 -98.193398
9205062500 -0.96219295 132.61162 -9.2563524 -72.603149 -9.2360191 -73.231392 0.0029470834 -98.183578
9205125000 -0.96602762 132.62926 -9.2552986 -72.573502 -9.2410498 -73.175102 0.011876679 -98.133598
9205187500 -0.96806145 132.68842 -9.2579527 -72.520531 -9.2467537 -73.204781 0.0048610396 -98.126587
9205250000 -0.95730674 132.60545 -9.2524023 -72.629066 -9.2535 -73.191116 -0.0033212176 -98.200752
9205312500 -0.96281195 132.6609 -9.243742 -72.577835 -9.2452908 -73.19548 0.0040538069 -98.134125
9205375000 -0.96100581 132.54691 -9.2371483 -72.622543 -9.2515078 -73.14933 0.0053360499 -98.093651
9205437500 -0.95575625 132.57779 -9.2381964 -72.558777 -9.2360849 -73.183807 0.01081787 -98.089401
9205500000 -0.96223778 132.4881 -9.2391815 -72.546356 -9.2381992 -73.231644 0.02236237 -97.992607
9205562500 -0.9650684 132.53456 -9.244276 -72.625076 -9.2419758 -73.20105 0.0059040398 -98.026665
9205625000 -0.96982443 132.51822 -9.251524 -72.546196 -9.2379208 -73.193634 0.0028532289 -97.966446
9205687500 -0.95927346 132.55138 -9.2392168 -72.53862 -9.241415 -73.249237 0.0050060367 -97.993729
9205750000 -0.95804119 132.48668 -9.2411423 -72.626396 -9.2485256 -73.245544 0.004402007 -98.007591
9205812500 -0.97260594 132.44106 -9.2423744 -72.64341 -9.24259 -73.173874 0.0075472705 -97.915581
9205875000 -0.9605521 132.49802 -9.2504168 -72.566589 -9.2478418 -73.161377 -0.00015265281 -98.001869
9205937500 -0.959472 132.41154 -9.2403231 -72.609833 -9.2332239 -73.160957 0.0024277538 -97.936897
9206000000 -0.96651381 132.41382 -9.2284555 -72.575203 -9.2395802 -73.213844 0.0056863804 -97.906357
9206062500 -0.96201473 132.46069 -9.2358742 -72.588043 -9.2422571 -73.140648 0.0012245061 -97.9002
9206125000 -0.95992547 132.37259 -9.237421 -72.583527 -9.2372112 -73.072563 -0.0016959008 -97.830811
9206187500 -0.96381497 132.39143 -9.232481 -72.577477 -9.2328844 -73.161209 0.014066796 -97.830704
9206250000 -0.962735 132.3441 -9.2544575 -72.562576 -9.2312632 -73.091331 0.004613278 -97.808578
9206312500 -0.96057796 132.30882 -9.2444487 -72.580307 -9.241168 -73.259254 0.0039114049 -97.871124
9206375000 -0.96438748 132.38557 -9.2360554 -72.548775 -9.2340345 -73.133041 0.0043264534 -97.834358
9206437500 -0.96389067 132.30878 -9.2451334 -72.590317 -9.2379055 -73.194046 0.0035305058 -97.86396
9206500000 -0.96289372 132.3324 -9.2469196 -72.620758 -9.2297621 -73.129951 -0.0066225659 -97.806641
9206562500 -0.96757376 132.28961 -9.2477913 -72.670593 -9.2328463 -73.179184 0.0040127882 -97.826927
9206625000 -0.96470106 132.22406 -9.2282648 -72.626869 -9.2358208 -73.200783 0.0017783373 -97.752106
9206687500 -0.9626435 132.31131 -9.2364826 -72.568596 -9.2273741 -73.242104 0.015680406 -97.836304
9206750000 -0.96771282 132.27322 -9.2319336 -72.621353 -9.233676 -73.138573 0.0012986473 -97.740906
9206812500 -0.96001303 132.32864 -9.2325945 -72.528694 -9.2385664 -73.194908 0.006556279 -97.756828
9206875000 -0.9659099 132.31058 -9.2405663 -72.503838 -9.2215214 -73.15786 0.011469721 -97.619614
9206937500 -0.96340537 132.26653 -9.2336426 -72.527542 -9.2392559 -73.189949 -0.000725399 -97.670883
9207000000 -0.96230233 132.23402 -9.2358503 -72.524338 -9.2253456 -73.168282 0.0084845684 -97.637459
9207062500 -0.96082449 132.22675 -9.2293673 -72.522499 -9.2253075 -73.091255 0.0025414228 -97.508476
9207125000 -0.97238135 132.15504 -9.2357092 -72.528458 -9.2275457 -73.192589 0.0035567493 -97.582466
9207187500 -0.96413726 132.16667 -9.2294817 -72.588219 -9.2300186 -73.167549 -0.0030857134 -97.621193
9207250000 -0.96432686 132.21402 -9.2311249 -72.516891 -9.2318907 -73.150803 0.0020071762 -97.630699
9207312500 -0.9589119 132.14287 -9.2240219 -72.562889 -9.2214851 -73.141365 0.0087117171 -97.576668
9207375000 -0.96800351 132.15508 -9.2319441 -72.567612 -9.2141819 -73.149658 0.0068897265 -97.499138
9207437500 -0.96062034 132.2057 -9.2410412 -72.50119 -9.2473412 -73.163597 -0.0042491597 -97.572769
9207500000 -0.96759665 132.16701 -9.2272806 -72.551155 -9.2115211 -73.06633 -0.0017550401 -97.473915
9207562500 -0.96152604 132.1073 -9.2243824 -72.549248 -9.2078199 -73.068153 0.0068011694 -97.502724
9207625000 -0.96601439 132.05208 -9.2240047 -72.503624 -9.2214165 -73.105423 0.0021417313 -97.382622
9207687500 -0.96695668 132.06813 -9.2258921 -72.522202 -9.2183428 -73.113556 0.0087371096 -97.456429
9207750000 -0.96742928 132.05437 -9.2235889 -72.532585 -9.2195463 -73.165771 0.0085266298 -97.464844
9207812500 -0.96152568 132.05391 -9.2254953 -72.536888 -9.2184 -73.145935 -0.0003323105 -97.429558
9207875000 -0.95923311 132.04294 -9.2253675 -72.538132 -9.214138 -73.139641 0.0020687894 -97.414787
9207937500 -0.96554512 131.97943 -9.2288771 -72.547455 -9.2228603 -73.166885 -0.0043974267 -97.413635
9208000000 -0.97142059 132.01813 -9.2250223 -72.556793 -9.2176256 -73.060463 0.0019574633 -97.354507
9208062500 -0.96753764 132.00345 -9.224699 -72.518875 -9.218379 -73.117996 -0.0027323023 -97.309013
9208125000 -0.966874 131.97572 -9.2214279 -72.487045 -9.2227535 -73.115501 -0.0016738526 -97.307861
9208187500 -0.95989972 131.98914 -9.2128019 -72.512222 -9.222909 -73.118416 -0.0049860552 -97.325508
9208250000 -0.96670049 131.96686 -9.2153492 -72.461655 -9.2163391 -73.113785 0.0020625726 -97.309814
9208312500 -0.9649688 131.94397 -9.2426634 -72.546066 -9.2094908 -73.056931 -0.0073934784 -97.29174
9208375000 -0.96938401 131.93448 -9.2128382 -72.484474 -9.2117786 -73.079025 -0.0027347142 -97.222176
9208437500 -0.96150565 131.88365 -9.218524 -72.507294 -9.2218456 -73.050781 -0.0084886355 -97.250732
9208500000 -0.97087115 131.86906 -9.2192001 -72.53286 -9.2152767 -73.109886 -0.0030711011 -97.234146
9208562500 -0.96335113 131.90085 -9.2108831 -72.519379 -9.213665 -73.108788 -0.0036498373 -97.215683
9208625000 -0.96889663 131.85794 -9.2220049 -72.51696 -9.2133226 -73.019188 -0.0098660821 -97.208588
9208687500 -0.95945752 131.83644 -9.2012691 -72.54496 -9.2108784 -73.095314 0.0022344375 -97.24633
9208750000 -0.95997596 131.8873 -9.2072763 -72.430565 -9.213191 -73.094482 -0.003887519 -97.18766
9208812500 -0.96575654 131.93642 -9.2205935 -72.433907 -9.2102985 -73.112595 -0.0027894569 -97.140526
9208875000 -0.96228194 131.8051 -9.2089128 -72.513817 -9.2184792 -73.08709 -7.8329969e-005 -97.12001
9208937500 -0.96428472 131.80548 -9.2106695 -72.504929 -9.2136393 -73.039284 -0.0041540707 -97.061752
9209000000 -0.96084511 131.8018 -9.2206097 -72.495338 -9.2145195 -73.068802 -0.010441408 -97.130417
9209062500 -0.96343535 131.77823 -9.2190733 -72.45314 -9.2116442 -73.074768 -0.0005151275 -97.058044
9209125000 -0.96770668 131.79048 -9.2094727 -72.502869 -9.2026682 -73.077271 0.002653993 -97.024025
9209187500 -0.96493828 131.77129 -9.2089386 -72.501595 -9.2137947 -73.050865 -0.0019517627 -97.076744
9209250000 -0.96271312 131.70761 -9.2140074 -72.511093 -9.2085991 -73.143723 -0.0028879421 -96.979973
9209312500 -0.96553862 131.66592 -9.2135763 -72.482948 -9.211134 -73.0877 -0.018579613 -97.033401
9209375000 -0.95169884 131.67389 -9.2055254 -72.459694 -9.2176514 -73.004196 -0.017509403 -96.970253
9209437500 -0.971443 131.66292 -9.2159252 -72.46949 -9.2079153 -73.092529 -0.0055358279 -96.930244
9209500000 -0.96247768 131.64703 -9.217617 -72.531837 -9.2097025 -73.042259 -0.0084402999 -96.923309
9209562500 -0.97348565 131.70262 -9.2169237 -72.415306 -9.2088594 -73.049187 -0.014230769 -96.862984
9209625000 -0.96922499 131.60324 -9.2044706 -72.539093 -9.1995201 -73.096375 -0.004354557 -96.89856
9209687500 -0.96520257 131.59167 -9.1987429 -72.50106 -9.1994686 -72.999214 -0.0058919308 -96.869873
9209750000 -0.96257085 131.64655 -9.1933432 -72.483414 -9.2073221 -73.028053 -0.005226329 -96.880135
9209812500 -0.96663302 131.58011 -9.2052259 -72.452911 -9.2111197 -73.04245 -0.0086869374 -96.817505
9209875000 -0.96597934 131.58293 -9.2044497 -72.438393 -9.2019253 -73.062691 -0.0074475068 -96.83757
9209937500 -0.97017229 131.67371 -9.220994 -72.492531 -9.2084236 -73.01165 -0.0086566648 -96.859825
9210000000 -0.95856804 131.56746 -9.2014961 -72.430908 -9.2024288 -73.018837 -0.020687608 -96.75766
9210062500 -0.97510743 131.63737 -9.2158937 -72.412682 -9.1899128 -73.016212 -0.0043891068 -96.764702
9210125000 -0.96312189 131.5137 -9.2040005 -72.485146 -9.1936913 -73.081223 -0.0089731701 -96.797592
9210187500 -0.96825075 131.55856 -9.2088528 -72.414322 -9.1938972 -73.034668 -0.010219462 -96.74762
9210250000 -0.9690026 131.54822 -9.1997118 -72.455498 -9.1967831 -73.01561 -0.016815318 -96.702896
9210312500 -0.97686708 131.52779 -9.2001066 -72.398018 -9.200202 -73.047218 -0.013923376 -96.753555
9210375000 -0.96332282 131.54291 -9.2018261 -72.403893 -9.2025852 -73.06794 -0.008710498 -96.674583
9210437500 -0.96352768 131.48776 -9.204772 -72.455933 -9.1920614 -73.154335 -0.00041054291 -96.748795
9210500000 -0.96668553 131.46754 -9.1995249 -72.506935 -9.1964626 -73.087395 -0.0030572675 -96.700256
9210562500 -0.97322124 131.48131 -9.2094707 -72.361519 -9.1957912 -73.049873 -0.0083798636 -96.625038
9210625000 -0.96127808 131.46945 -9.2056332 -72.454338 -9.2036018 -73.038216 -0.013426967 -96.68541
9210687500 -0.96252352 131.44058 -9.197566 -72.488075 -9.2028675 -73.077057 -0.017650671 -96.62175
9210750000 -0.97068143 131.39487 -9.205163 -72.506569 -9.1870584 -73.018616 -0.008003884 -96.581841
9210812500 -0.96788961 131.42317 -9.2040405 -72.456467 -9.1891022 -72.972191 -0.0097277826 -96.589188
9210875000 -0.96966022 131.39796 -9.2079573 -72.433701 -9.1928759 -72.988266 -0.015364502 -96.594849
9210937500 -0.96598637 131.4194 -9.1871595 -72.429268 -9.1940928 -72.971153 -0.01725162 -96.574905
9211000000 -0.96282583 131.40517 -9.1981325 -72.400093 -9.194643 -72.991722 -0.0047821607 -96.535812
9211062500 -0.96835357 131.39569 -9.2033739 -72.28331 -9.1971483 -72.972267 -0.021161748 -96.502686
9211125000 -0.96593767 131.28456 -9.1928673 -72.486221 -9.1791153 -72.986565 -0.0028430277 -96.478706
9211187500 -0.97507632 131.37421 -9.2021494 -72.395798 -9.1846247 -73.026726 -0.0095807603 -96.476677
9211250000 -0.97163755 131.34026 -9.1834097 -72.38868 -9.187541 -72.923157 -0.0008390696 -96.416237
9211312500 -0.96438384 131.34964 -9.1979017 -72.401756 -9.189888 -72.975227 -0.018751383 -96.473045
9211375000 -0.96137744 131.24472 -9.1901865 -72.383118 -9.1870556 -73.123543 -0.013163925 -96.401283
9211437500 -0.96984833 131.27187 -9.1817112 -72.406143 -9.1911201 -73.040627 -0.013141079 -96.42321
9211500000 -0.96964449 131.24382 -9.1939144 -72.421875 -9.1884384 -73.020515 -0.0074058273 -96.452301
9211562500 -0.97182339 131.29539 -9.1978636 -72.431236 -9.1823168 -73.000198 -0.014925353 -96.403046
9211625000 -0.96983773 131.16805 -9.1838751 -72.503014 -9.1770601 -73.054688 -0.0056170998 -96.372391
9211687500 -0.97329015 131.26619 -9.1910295 -72.392685 -9.1807661 -72.999489 -0.015666159 -96.330711
9211750000 -0.97121418 131.18826 -9.184948 -72.352608 -9.1831408 -73.009041 -0.0054386645 -96.290878
9211812500 -0.96510375 131.22006 -9.1978474 -72.389015 -9.1952124 -72.998138 -0.027647391 -96.310242
9211875000 -0.97290617 131.1452 -9.1930008 -72.421593 -9.1785507 -72.934937 -0.0092711821 -96.197845
9211937500 -0.96155053 131.2092 -9.1817532 -72.37941 -9.1861801 -73.008118 -0.01625878 -96.288857
9212000000 -0.97093612 131.09465 -9.1838627 -72.439041 -9.1754656 -73.024918 -0.017077144 -96.289597
9212062500 -0.96878392 131.11858 -9.1891041 -72.312294 -9.1794786 -72.986832 -0.01377805 -96.257919
