!Agilent Technologies,N5242A,MY51221714,A.09.90.19
!Agilent N5242A: A.09.90.19
!Date: Tuesday, March 26, 2024 15:33:43
!Correction: S11(Full 2 Port(1,2)) 
!S21(Full 2 Port(1,2)) 
!S12(Full 2 Port(1,2)) 
!S22(Full 2 Port(1,2)) 
!S2P File: Measurements: S11, S21, S12, S22:
# Hz S  dB   R 50
9200000000 -0.95330578 133.5867 -9.3293867 -72.734436 -9.3201275 -73.361404 0.026542461 -99.495499
9200062500 -0.95581007 133.59262 -9.3237658 -72.770424 -9.3298311 -73.373573 0.037319735 -99.496819
9200125000 -0.95186067 133.56184 -9.3257685 -72.691551 -9.3235779 -73.341896 0.026162026 -99.453156
9200187500 -0.96441346 133.59619 -9.3336325 -72.674423 -9.3152037 -73.414352 0.044011805 -99.458832
9200250000 -0.94897264 133.58522 -9.3200626 -72.704155 -9.3255434 -73.328865 0.037490647 -99.472427
9200312500 -0.95789808 133.51756 -9.3237667 -72.767204 -9.329546 -73.355072 0.034626044 -99.434982
9200375000 -0.9503985 133.49547 -9.3189573 -72.742798 -9.3143826 -73.466537 0.041378938 -99.434219
9200437500 -0.951792 133.5162 -9.3125572 -72.737953 -9.3132639 -73.388214 0.044851337 -99.442993
9200500000 -0.95576179 133.4985 -9.3390036 -72.745712 -9.3254795 -73.288101 0.030427102 -99.342804
9200562500 -0.95627147 133.48669 -9.3274364 -72.751785 -9.3258324 -73.335312 0.037126813 -99.39946
9200625000 -0.96035862 133.44814 -9.3293085 -72.763824 -9.3107815 -73.371193 0.034338292 -99.36351
9200687500 -0.94538987 133.48018 -9.3134289 -72.68885 -9.3236685 -73.331085 0.034844086 -99.31044
9200750000 -0.95831215 133.39876 -9.3197393 -72.724274 -9.3198156 -73.341209 0.036993794 -99.283997
9200812500 -0.96187359 133.43657 -9.3277512 -72.635742 -9.3222914 -73.364677 0.018008467 -99.321297
9200875000 -0.95087987 133.48781 -9.3197927 -72.646591 -9.3208189 -73.30188 0.027056023 -99.297958
9200937500 -0.9536891 133.40671 -9.325552 -72.730217 -9.3126602 -73.268532 0.04040058 -99.183563
9201000000 -0.95049018 133.40468 -9.3179226 -72.704903 -9.3161831 -73.357262 0.036797699 -99.232895
9201062500 -0.9498446 133.3665 -9.307785 -72.703362 -9.3049088 -73.33654 0.037521545 -99.207283
9201125000 -0.95165324 133.37289 -9.3192511 -72.688805 -9.3252678 -73.330811 0.026878068 -99.154961
9201187500 -0.9588002 133.29904 -9.3157282 -72.672157 -9.3097248 -73.34211 0.026980801 -99.119125
9201250000 -0.95444983 133.37924 -9.307682 -72.692276 -9.3266697 -73.346809 0.025604751 -99.150734
9201312500 -0.96442485 133.33125 -9.3218575 -72.609871 -9.3181067 -73.400902 0.03999453 -99.183975
9201375000 -0.96392149 133.35628 -9.3239202 -72.633873 -9.3157644 -73.28437 0.024167946 -99.12619
9201437500 -0.9552027 133.31841 -9.3138704 -72.660957 -9.3185949 -73.315353 0.025087476 -99.168205
9201500000 -0.95653063 133.29224 -9.3127909 -72.713501 -9.3196383 -73.342506 0.02695938 -99.154335
9201562500 -0.9630003 133.27414 -9.3159142 -72.681038 -9.3179531 -73.26223 0.025659775 -99.082428
9201625000 -0.95607018 133.2679 -9.3124161 -72.660431 -9.302124 -73.275497 0.03061365 -99.002274
9201687500 -0.96021765 133.22318 -9.3119726 -72.653648 -9.3092623 -73.255943 0.026015269 -98.961418
9201750000 -0.96165258 133.23045 -9.319766 -72.731293 -9.3034048 -73.356888 0.03534954 -99.016266
9201812500 -0.95131779 133.25533 -9.3172007 -72.696991 -9.3110037 -73.275002 0.02059757 -99.098534
9201875000 -0.95552069 133.20088 -9.3079262 -72.661301 -9.3049965 -73.295769 0.039226007 -98.91658
9201937500 -0.96594483 133.12283 -9.3114109 -72.669067 -9.3037443 -73.332039 0.039382119 -99.004997
9202000000 -0.9586702 133.22011 -9.2988253 -72.637085 -9.3021526 -73.322395 0.02847922 -98.949059
9202062500 -0.96081442 133.15018 -9.3084621 -72.656189 -9.309206 -73.359138 0.030849531 -98.926895
9202125000 -0.95893472 133.16023 -9.3215485 -72.641212 -9.3100748 -73.270203 0.022971408 -98.935822
9202187500 -0.95456505 133.14485 -9.304122 -72.679092 -9.2982903 -73.200775 0.039352216 -98.795715
9202250000 -0.96015555 133.11365 -9.3104563 -72.663254 -9.296195 -73.239174 0.031595625 -98.884384
9202312500 -0.95859665 133.13301 -9.3038101 -72.635765 -9.305665 -73.286842 0.024886135 -98.854218
9202375000 -0.95437849 133.06839 -9.3015547 -72.672661 -9.2994823 -73.295998 0.020562315 -98.818695
9202437500 -0.95412457 133.12677 -9.3078938 -72.635414 -9.309577 -73.354698 0.027061753 -98.906273
9202500000 -0.96336967 133.0675 -9.311389 -72.670334 -9.3153591 -73.276108 0.024510438 -98.883369
9202562500 -0.94975823 133.05057 -9.3081894 -72.638832 -9.3088474 -73.236275 0.016468173 -98.792992
9202625000 -0.96048617 133.0993 -9.3036089 -72.717796 -9.297452 -73.255646 0.023152778 -98.79464
9202687500 -0.95251858 133.08012 -9.3021221 -72.625809 -9.2945967 -73.285248 0.031243363 -98.765121
9202750000 -0.94992894 132.99989 -9.2949438 -72.661209 -9.3000641 -73.304176 0.024042446 -98.762238
9202812500 -0.96310961 132.96574 -9.3063812 -72.633461 -9.2878027 -73.320175 0.035417043 -98.708679
9202875000 -0.94983685 132.98067 -9.2975922 -72.647385 -9.3040485 -73.268669 0.022639275 -98.685165
9202937500 -0.95297354 132.9883 -9.2947435 -72.681725 -9.2982416 -73.206345 0.022525674 -98.696899
9203000000 -0.95886755 133.015 -9.2973585 -72.588287 -9.2968111 -73.308846 0.029444242 -98.587692
9203062500 -0.95073301 132.96733 -9.2869987 -72.564064 -9.2911844 -73.263176 0.027341265 -98.700829
9203125000 -0.95017201 132.8651 -9.3021927 -72.708878 -9.2892523 -73.271278 0.023879427 -98.665794
9203187500 -0.95510495 132.91814 -9.3178129 -72.670616 -9.2914352 -73.316978 0.022378763 -98.667351
9203250000 -0.95737815 132.88986 -9.2929239 -72.614601 -9.3014107 -73.251183 0.027517004 -98.624245
9203312500 -0.96138567 132.93066 -9.2933168 -72.631416 -9.2865658 -73.283379 0.034323487 -98.564445
9203375000 -0.95155853 132.86115 -9.2924929 -72.64164 -9.2842875 -73.236954 0.029389605 -98.526505
9203437500 -0.9609639 132.85938 -9.2982979 -72.644341 -9.3018732 -73.245605 0.02281994 -98.537636
9203500000 -0.95522541 132.84216 -9.286005 -72.630371 -9.2896194 -73.240463 0.032284994 -98.532867
9203562500 -0.96416432 132.86363 -9.3031979 -72.615311 -9.3094807 -73.224113 0.0081523508 -98.53772
9203625000 -0.95501685 132.84389 -9.2914476 -72.70118 -9.2961311 -73.235107 0.020207167 -98.597328
9203687500 -0.96473378 132.82526 -9.3008986 -72.649826 -9.2970753 -73.274246 0.019936798 -98.520599
9203750000 -0.95976424 132.79318 -9.2874298 -72.627892 -9.2915878 -73.28968 0.031042175 -98.477699
9203812500 -0.96099752 132.82097 -9.2862749 -72.571358 -9.2932005 -73.191917 0.027187552 -98.436386
9203875000 -0.95576489 132.77423 -9.2939482 -72.578087 -9.2900791 -73.23632 0.0084266597 -98.448036
9203937500 -0.95840681 132.77679 -9.2886581 -72.612701 -9.288208 -73.180328 0.024214521 -98.429764
9204000000 -0.95478809 132.76491 -9.279439 -72.569031 -9.299921 -73.233673 0.022175705 -98.392387
9204062500 -0.94920033 132.75385 -9.2917252 -72.562851 -9.2790623 -73.281876 0.017184142 -98.402031
9204125000 -0.9594481 132.74602 -9.2869015 -72.572632 -9.2855024 -73.230309 0.026343543 -98.289665
9204187500 -0.96392524 132.67926 -9.2895794 -72.609634 -9.2842398 -73.224449 0.020423565 -98.324905
9204250000 -0.95820284 132.72794 -9.2752981 -72.571266 -9.2848063 -73.248543 0.029829036 -98.329948
9204312500 -0.95898134 132.69075 -9.2809114 -72.60041 -9.2778635 -73.248245 0.024017271 -98.2808
9204375000 -0.94934696 132.68785 -9.2918921 -72.620514 -9.2810631 -73.199966 0.021059178 -98.322403
9204437500 -0.96164185 132.70091 -9.2890234 -72.573318 -9.2907782 -73.207169 0.021685567 -98.29435
9204500000 -0.9684785 132.70488 -9.2911243 -72.588638 -9.2891932 -73.282433 0.026105314 -98.304565
9204562500 -0.95467734 132.62968 -9.2812748 -72.6847 -9.2892904 -73.263268 0.026862387 -98.317741
9204625000 -0.947483 132.61664 -9.2821865 -72.52681 -9.2838421 -73.283485 0.021380704 -98.235245
9204687500 -0.95774561 132.6088 -9.2845163 -72.508247 -9.2745361 -73.192459 0.030094689 -98.150764
9204750000 -0.96481979 132.57338 -9.2852726 -72.541565 -9.2935638 -73.253838 0.0063464371 -98.197975
9204812500 -0.95192701 132.56627 -9.2809076 -72.519539 -9.2794256 -73.301453 0.031381618 -98.255157
9204875000 -0.95699632 132.59221 -9.2829437 -72.574013 -9.3048515 -73.225914 0.012221747 -98.203506
9204937500 -0.95712095 132.53661 -9.2791815 -72.56662 -9.2721844 -73.172714 0.038391165 -98.158157
9205000000 -0.95371586 132.48039 -9.287508 -72.596817 -9.2776585 -73.201828 0.0060573709 -98.111328
9205062500 -0.96628457 132.49304 -9.2894402 -72.567329 -9.2690258 -73.16069 0.016848559 -98.082184
9205125000 -0.96208686 132.51399 -9.2805462 -72.545044 -9.2841768 -73.213402 0.0089019379 -98.033226
9205187500 -0.96384805 132.49083 -9.2899895 -72.560867 -9.2853508 -73.140717 0.009907688 -98.073708
9205250000 -0.95448786 132.44402 -9.2914238 -72.602623 -9.2806644 -73.204155 0.014190134 -98.132202
9205312500 -0.95665681 132.54927 -9.2753286 -72.482933 -9.2787323 -73.187424 0.017203618 -98.093475
9205375000 -0.95979148 132.45146 -9.2785711 -72.539207 -9.2729454 -73.224617 0.02221667 -98.026848
9205437500 -0.95402259 132.44519 -9.2784681 -72.568153 -9.2733068 -73.172112 0.01946876 -97.983406
9205500000 -0.96205682 132.37782 -9.2766113 -72.508827 -9.2693472 -73.244713 0.022939006 -97.948906
9205562500 -0.96619797 132.40092 -9.2714176 -72.584396 -9.2728863 -73.229523 0.021764942 -97.985359
9205625000 -0.96302962 132.42418 -9.2846699 -72.527161 -9.2794123 -73.206245 0.012359939 -97.943382
9205687500 -0.9585287 132.42979 -9.2650623 -72.506165 -9.269783 -73.25222 0.021010121 -97.892113
9205750000 -0.96215612 132.34329 -9.2734718 -72.600388 -9.2733831 -73.167664 0.021748096 -97.823524
9205812500 -0.96562034 132.30879 -9.2714643 -72.589088 -9.2776785 -73.191978 0.016732577 -97.879921
9205875000 -0.95256644 132.3374 -9.2770653 -72.565933 -9.2750502 -73.186493 0.018905221 -97.940887
9205937500 -0.96443254 132.32204 -9.2706308 -72.589806 -9.2658377 -73.123322 0.016402882 -97.818336
9206000000 -0.96625561 132.33009 -9.2623119 -72.529152 -9.262578 -73.148155 0.023912616 -97.826973
9206062500 -0.9612664 132.33571 -9.2721605 -72.544205 -9.2761869 -73.203918 0.015629215 -97.881088
9206125000 -0.95800829 132.2572 -9.2636385 -72.5168 -9.2673712 -73.145729 0.017369164 -97.763573
9206187500 -0.95962065 132.28619 -9.2695379 -72.516266 -9.2571545 -73.187317 0.03160549 -97.781433
9206250000 -0.9609881 132.2536 -9.2835436 -72.538857 -9.2684555 -73.188225 0.020919083 -97.795738
9206312500 -0.95898819 132.19896 -9.2677889 -72.579453 -9.2677259 -73.263451 0.024526566 -97.797585
9206375000 -0.96538985 132.2542 -9.2600069 -72.480186 -9.256382 -73.104507 0.027193395 -97.753342
9206437500 -0.95815402 132.18799 -9.272563 -72.549889 -9.2698755 -73.164658 0.010834438 -97.74041
9206500000 -0.96479416 132.20117 -9.2768011 -72.531517 -9.2631607 -73.128189 0.010568762 -97.7155
9206562500 -0.96307749 132.19336 -9.2653437 -72.59996 -9.2680044 -73.108154 0.014281974 -97.750404
9206625000 -0.96140933 132.14999 -9.2575827 -72.481651 -9.2676973 -73.238281 0.014994279 -97.660744
9206687500 -0.97068763 132.18436 -9.2755308 -72.558151 -9.2580748 -73.185005 0.024046481 -97.745163
9206750000 -0.96390063 132.16469 -9.2663031 -72.537071 -9.2677031 -73.129456 0.014691223 -97.653656
9206812500 -0.96020734 132.17096 -9.2717323 -72.52655 -9.2618685 -73.153938 0.022739805 -97.69429
9206875000 -0.96393633 132.10487 -9.2697144 -72.590225 -9.253417 -73.209808 0.021098753 -97.612167
9206937500 -0.96229452 132.16844 -9.2698374 -72.498215 -9.2644043 -73.216919 0.017125435 -97.611809
9207000000 -0.96110982 132.10757 -9.2710934 -72.560051 -9.2636662 -73.123901 0.016563041 -97.552605
9207062500 -0.96052974 132.11209 -9.2589912 -72.454254 -9.2498798 -73.117348 0.014105028 -97.483711
9207125000 -0.97165245 132.04649 -9.2619009 -72.595421 -9.2551622 -73.204483 0.017471669 -97.52372
9207187500 -0.95923638 132.02097 -9.2529736 -72.550461 -9.2626095 -73.150558 0.0106642 -97.567734
9207250000 -0.96056497 132.01387 -9.2619267 -72.555748 -9.2633343 -73.118553 0.016676893 -97.547607
9207312500 -0.95907122 132.03712 -9.2502184 -72.5233 -9.2567692 -73.093422 0.01975272 -97.467079
9207375000 -0.96795523 131.98552 -9.2555265 -72.540207 -9.2542686 -73.151848 0.019433843 -97.442047
9207437500 -0.95764381 132.04668 -9.2584496 -72.493401 -9.2710915 -73.162971 0.0096813533 -97.503426
9207500000 -0.96312177 132.03125 -9.2666378 -72.531723 -9.2596455 -73.093109 0.0037260489 -97.419746
9207562500 -0.96013099 132.02861 -9.2559853 -72.533722 -9.2453432 -73.086418 0.014169717 -97.394333
9207625000 -0.9615472 131.91652 -9.2582207 -72.478981 -9.2630968 -73.168716 0.015438812 -97.383865
9207687500 -0.96188891 131.95607 -9.2546854 -72.55854 -9.2576466 -73.141045 0.014991963 -97.388573
9207750000 -0.96041805 131.93407 -9.25072 -72.504921 -9.2525921 -73.1698 0.020158857 -97.402214
9207812500 -0.96400702 131.95879 -9.2698669 -72.519791 -9.2600555 -73.132866 0.0058321524 -97.348259
9207875000 -0.96418631 131.93582 -9.2621517 -72.509285 -9.2498474 -73.0895 0.013243863 -97.322868
9207937500 -0.96929157 131.86279 -9.2645254 -72.512054 -9.2540512 -73.13752 0.0082806339 -97.351181
9208000000 -0.97089303 131.90764 -9.252347 -72.537971 -9.248702 -73.132408 0.018623782 -97.300018
9208062500 -0.96559024 131.91008 -9.2561207 -72.468491 -9.2501707 -73.124374 0.012737317 -97.314224
9208125000 -0.96619278 131.85437 -9.2530966 -72.556961 -9.2528152 -73.116707 0.01490382 -97.257645
9208187500 -0.96054208 131.87561 -9.2484083 -72.517616 -9.250699 -73.084946 0.012664747 -97.262741
9208250000 -0.97132468 131.87714 -9.2546167 -72.401459 -9.2492485 -73.165276 0.014071516 -97.253746
9208312500 -0.96332997 131.84027 -9.2626524 -72.483978 -9.2384987 -73.123894 0.011820255 -97.215752
9208375000 -0.96496141 131.79233 -9.246788 -72.464439 -9.2422361 -73.059685 0.016125673 -97.157211
9208437500 -0.96444565 131.69673 -9.2451134 -72.571823 -9.2480059 -73.044853 0.00050921721 -97.201187
9208500000 -0.96232682 131.74486 -9.246727 -72.42865 -9.2464943 -73.096458 0.0089718318 -97.132378
9208562500 -0.96789593 131.79207 -9.2539587 -72.486031 -9.2566271 -73.057327 0.0067084418 -97.129662
9208625000 -0.95898366 131.71027 -9.2425098 -72.455368 -9.2444611 -73.042336 0.0095978798 -97.164108
9208687500 -0.95545125 131.73073 -9.2339907 -72.532089 -9.2414627 -73.08123 0.019068182 -97.10199
9208750000 -0.95904315 131.77704 -9.2466526 -72.487648 -9.237999 -73.078896 0.012782177 -97.079178
9208812500 -0.96272862 131.78342 -9.2558517 -72.451241 -9.2430639 -73.102898 0.014629459 -97.070724
9208875000 -0.96579325 131.67039 -9.2399702 -72.502747 -9.2494287 -73.078102 0.0092512025 -97.01503
9208937500 -0.96220958 131.70216 -9.2463388 -72.47155 -9.2370348 -73.028671 0.01046787 -96.987587
9209000000 -0.96092004 131.66904 -9.2499304 -72.492958 -9.2495556 -73.043365 0.0037480858 -97.029671
9209062500 -0.96314484 131.6801 -9.2526655 -72.38398 -9.2458544 -73.036957 0.0089696134 -96.968468
9209125000 -0.96790934 131.63239 -9.2448311 -72.476601 -9.2378902 -73.042725 0.016192555 -96.923042
9209187500 -0.96334386 131.6687 -9.2335052 -72.452354 -9.2431173 -73.063156 0.011612858 -96.95118
9209250000 -0.95947528 131.55838 -9.2395287 -72.528961 -9.2314854 -73.127617 0.0098699052 -96.888756
9209312500 -0.96830767 131.56485 -9.2537403 -72.487381 -9.2277975 -73.087418 0.0046193404 -96.93174
9209375000 -0.95847923 131.60342 -9.2365026 -72.479851 -9.2382603 -72.994041 -0.0026381111 -96.938408
9209437500 -0.97402781 131.56712 -9.2478371 -72.43071 -9.2401266 -73.103355 0.0051399618 -96.888245
9209500000 -0.96507931 131.56032 -9.2427225 -72.420921 -9.2325954 -73.1222 0.014037468 -96.845116
9209562500 -0.97046202 131.5585 -9.2569275 -72.414581 -9.2393866 -73.049141 -0.0014973264 -96.842056
9209625000 -0.96482301 131.50777 -9.2339706 -72.474648 -9.2422438 -73.052773 0.0033029171 -96.813858
9209687500 -0.96697831 131.42581 -9.2390184 -72.509552 -9.231843 -72.9506 0.014005145 -96.788208
9209750000 -0.96582037 131.47366 -9.2330389 -72.54406 -9.2424507 -73.054535 0.01147526 -96.786407
9209812500 -0.96165276 131.50336 -9.2337856 -72.3871 -9.2445621 -73.109131 0.0006984637 -96.771782
9209875000 -0.96659714 131.48853 -9.2357321 -72.377876 -9.2313385 -73.104088 0.0072491989 -96.835449
9209937500 -0.96573824 131.56071 -9.2498341 -72.405983 -9.2426748 -73.018341 0.0011405202 -96.795601
9210000000 -0.96150857 131.46843 -9.2415838 -72.424751 -9.2262287 -73.01902 -0.0057058395 -96.710487
9210062500 -0.96809125 131.48843 -9.2349854 -72.403793 -9.2284994 -73.057938 0.0067160265 -96.704742
9210125000 -0.96335298 131.38574 -9.2394581 -72.43071 -9.2285624 -72.961929 0.0047894684 -96.678291
9210187500 -0.96384126 131.4086 -9.2349577 -72.449303 -9.2291145 -73.053726 0.00049581728 -96.657829
9210250000 -0.96324182 131.43646 -9.2274866 -72.486557 -9.2340183 -72.984558 -4.3036402e-005 -96.674103
9210312500 -0.9663772 131.41064 -9.2283916 -72.349792 -9.2365294 -73.077377 0.0046290895 -96.68222
9210375000 -0.96236616 131.43785 -9.2243004 -72.383415 -9.2349854 -72.979301 -0.0027640827 -96.548584
9210437500 -0.96245551 131.39539 -9.2368784 -72.432487 -9.2282286 -73.072495 0.0084372191 -96.649872
9210500000 -0.96333808 131.35313 -9.2287121 -72.449699 -9.2237129 -73.049911 0.010712851 -96.61972
9210562500 -0.96770108 131.32787 -9.2275057 -72.446869 -9.2176666 -73.034569 0.0044737952 -96.540359
9210625000 -0.96599853 131.35149 -9.2344198 -72.386581 -9.2251987 -72.931961 0.001176105 -96.580818
9210687500 -0.96402574 131.29932 -9.2269812 -72.399406 -9.2349911 -73.047104 0.0010825902 -96.490143
9210750000 -0.96929073 131.32736 -9.2304726 -72.417648 -9.2199888 -73.070564 0.0048242509 -96.516762
9210812500 -0.9707548 131.25322 -9.2336283 -72.463593 -9.2249432 -72.950485 0.00054823549 -96.482536
9210875000 -0.96527177 131.27777 -9.2417154 -72.448769 -9.2265043 -72.973282 -0.0005701523 -96.542953
9210937500 -0.96089011 131.29501 -9.2308435 -72.365952 -9.2282305 -72.998093 -0.0085786358 -96.508583
9211000000 -0.95959294 131.32501 -9.2237959 -72.400482 -9.2287025 -73.062172 0.0062591699 -96.518555
9211062500 -0.96358627 131.2755 -9.2230377 -72.323898 -9.2221012 -72.962395 -0.0038024106 -96.423103
9211125000 -0.96023369 131.19061 -9.2188673 -72.467674 -9.2143383 -73.030968 0.012575108 -96.432976
9211187500 -0.97466666 131.23413 -9.226491 -72.376396 -9.2166882 -73.023781 0.0028215905 -96.447571
9211250000 -0.97231847 131.21825 -9.2181816 -72.389687 -9.2234612 -72.923645 0.0090992805 -96.405212
9211312500 -0.97072822 131.22998 -9.2277842 -72.340416 -9.2179947 -73.036278 -0.00044039552 -96.391617
9211375000 -0.96794283 131.11752 -9.2345448 -72.430817 -9.2229195 -73.050766 0.00099352945 -96.324051
9211437500 -0.96365976 131.15417 -9.212842 -72.367172 -9.2229614 -72.995995 -0.0056532868 -96.305283
9211500000 -0.97134525 131.14957 -9.2199736 -72.37957 -9.2149782 -73.012154 0.0025780587 -96.308861
9211562500 -0.97101039 131.17429 -9.2209759 -72.415466 -9.2138815 -72.990334 0.0014009544 -96.34034
9211625000 -0.96310174 131.08467 -9.2135839 -72.454292 -9.2047386 -73.042061 0.0035340497 -96.310974
9211687500 -0.97353071 131.17079 -9.228632 -72.328735 -9.2143402 -72.996117 -0.0029294132 -96.252419
9211750000 -0.96559525 131.07971 -9.2137289 -72.360863 -9.2135534 -72.971069 0.0012099358 -96.203545
9211812500 -0.9742527 131.07631 -9.233058 -72.336967 -9.2153883 -72.9711 -0.0081283096 -96.241653
9211875000 -0.97475928 131.05489 -9.2280798 -72.306458 -9.2044582 -72.972794 0.0032166943 -96.148819
9211937500 -0.96557826 131.08562 -9.2180281 -72.344818 -9.2141628 -72.984489 -0.0054530525 -96.183762
9212000000 -0.97054768 130.99626 -9.2091913 -72.382355 -9.2071857 -72.972038 0.00045751838 -96.123901
9212062500 -0.97132969 130.99139 -9.2213411 -72.36615 -9.2114563 -73.011513 -0.008006474 -96.177269
9212125000 -0.97235972 130.91893 -9.2075253 -72.461121 -9.2187042 -73.001534 -0.0015719311 -96.183609
