!Agilent Technologies,N5242A,MY51221714,A.09.90.19
!Agilent N5242A: A.09.90.19
!Date: Tuesday, March 26, 2024 15:42:13
!Correction: S11(Full 2 Port(1,2)) 
!S21(Full 2 Port(1,2)) 
!S12(Full 2 Port(1,2)) 
!S22(Full 2 Port(1,2)) 
!S2P File: Measurements: S11, S21, S12, S22:
# Hz S  dB   R 50
9200000000 -0.98006892 133.31676 -9.2361383 -73.078079 -9.2323561 -73.694847 -0.019300504 -99.566582
9200062500 -0.98728955 133.3293 -9.2463551 -73.058372 -9.2362661 -73.668655 -0.013700381 -99.532257
9200125000 -0.98336643 133.30743 -9.2300653 -73.018196 -9.2261553 -73.634491 -0.012952584 -99.477669
9200187500 -0.98955119 133.31903 -9.2356367 -73.003899 -9.2284174 -73.722046 0.001598059 -99.505257
9200250000 -0.97692198 133.26233 -9.222476 -72.975883 -9.2332344 -73.567093 -0.012105155 -99.483757
9200312500 -0.98861063 133.2793 -9.2338791 -73.038445 -9.2291641 -73.678406 -0.01459803 -99.484955
9200375000 -0.98698974 133.24585 -9.2375898 -73.043587 -9.2196598 -73.746735 -0.0067112683 -99.482948
9200437500 -0.97855568 133.24184 -9.2320614 -72.994576 -9.2160912 -73.717216 -0.002371948 -99.475082
9200500000 -0.97701192 133.21204 -9.2358952 -73.023178 -9.2225571 -73.654449 -0.014263558 -99.426933
9200562500 -0.98156852 133.20309 -9.2309389 -72.982178 -9.2440033 -73.652092 -0.014561445 -99.439522
9200625000 -0.98606431 133.22638 -9.2393198 -73.027824 -9.2201538 -73.626694 -0.014454219 -99.417595
9200687500 -0.9706983 133.18083 -9.2302465 -72.937538 -9.2353516 -73.648201 -0.015399243 -99.328987
9200750000 -0.98049933 133.1342 -9.2260838 -73.088516 -9.2258024 -73.639816 -0.012047545 -99.326393
9200812500 -0.99793595 133.1675 -9.2380791 -73.015701 -9.2340155 -73.713928 -0.029233264 -99.369087
9200875000 -0.97748309 133.22818 -9.2289352 -72.985527 -9.2314196 -73.603081 -0.026369061 -99.35392
9200937500 -0.987198 133.14627 -9.2439976 -72.986214 -9.2190552 -73.638153 -0.0080067236 -99.293663
9201000000 -0.98485172 133.12498 -9.2382212 -73.092583 -9.2198467 -73.717751 -0.012630345 -99.322227
9201062500 -0.98020381 133.13979 -9.2189035 -72.950676 -9.2204447 -73.699371 -0.014584414 -99.293091
9201125000 -0.97718656 133.10027 -9.226347 -72.980957 -9.2291498 -73.652863 -0.021510584 -99.248413
9201187500 -0.99317318 133.02942 -9.2386894 -73.008926 -9.2186918 -73.617989 -0.013737618 -99.146049
9201250000 -0.98719931 133.12584 -9.2216864 -72.958199 -9.2303696 -73.676773 -0.019758811 -99.228729
9201312500 -0.9924354 133.09145 -9.2306738 -72.922562 -9.224679 -73.679588 -0.011422412 -99.218987
9201375000 -0.99454802 133.02852 -9.236268 -72.961563 -9.2230825 -73.612015 -0.02687249 -99.185303
9201437500 -0.98070329 133.04955 -9.2340937 -72.969933 -9.2331018 -73.632904 -0.022558121 -99.245964
9201500000 -0.99157834 133.02676 -9.2258539 -72.963165 -9.2215414 -73.616898 -0.014408656 -99.15847
9201562500 -0.98282248 132.99448 -9.2310257 -72.937279 -9.2258387 -73.630402 -0.032171819 -99.166664
9201625000 -0.98324203 133.02522 -9.2246761 -72.898483 -9.2196684 -73.606781 -0.026445599 -99.080193
9201687500 -0.99614072 132.96921 -9.2236891 -72.923279 -9.2258797 -73.5952 -0.026635973 -98.994621
9201750000 -0.98884028 132.99802 -9.2287636 -72.960251 -9.2079115 -73.625771 -0.0076796827 -99.062607
9201812500 -0.98622477 132.96811 -9.2290154 -72.941635 -9.2197208 -73.572678 -0.026737032 -99.124214
9201875000 -0.98905462 132.90268 -9.2122231 -72.977394 -9.2175322 -73.626793 -0.013032448 -98.989685
9201937500 -0.99257791 132.87178 -9.2275391 -73.011574 -9.2090015 -73.701561 -0.01215584 -99.081291
9202000000 -0.98932874 132.89935 -9.2172203 -72.97451 -9.214612 -73.704308 -0.014867448 -99.03521
9202062500 -0.99274218 132.91589 -9.2143545 -72.963631 -9.211195 -73.693474 -0.015549801 -98.976822
9202125000 -0.98858911 132.91434 -9.2290678 -73.075577 -9.2240019 -73.60775 -0.032851521 -99.027397
9202187500 -0.98430735 132.86624 -9.2180443 -72.994423 -9.2198315 -73.639038 -0.024491886 -98.89283
9202250000 -0.98405808 132.86258 -9.223259 -72.992165 -9.2166939 -73.600853 -0.029853649 -98.924339
9202312500 -0.98946452 132.83626 -9.2182102 -72.943161 -9.1998901 -73.656052 -0.021656323 -98.954231
9202375000 -0.98913783 132.8042 -9.2145872 -72.913223 -9.2106562 -73.625519 -0.025769368 -98.862831
9202437500 -0.99015301 132.883 -9.2242374 -72.89872 -9.2115259 -73.566582 -0.018470677 -98.900208
9202500000 -0.99015468 132.78329 -9.2210331 -73.03891 -9.2075796 -73.634621 -0.021460395 -98.940269
9202562500 -0.98186207 132.74515 -9.2096539 -72.948845 -9.2113562 -73.550766 -0.028847437 -98.882042
9202625000 -0.98876822 132.86845 -9.2132702 -72.904831 -9.2101507 -73.5634 -0.021005943 -98.799713
9202687500 -0.98670149 132.80142 -9.212759 -72.917076 -9.2105484 -73.581215 -0.020081967 -98.771355
9202750000 -0.98081958 132.71849 -9.2093334 -72.94384 -9.2054157 -73.65699 -0.022858765 -98.852341
9202812500 -0.99269319 132.71666 -9.2173176 -72.960213 -9.1966772 -73.637703 -0.016441047 -98.782021
9202875000 -0.97995651 132.71738 -9.2042522 -72.916328 -9.2084761 -73.556297 -0.023478311 -98.685982
9202937500 -0.98572505 132.71333 -9.2133684 -72.982773 -9.1984291 -73.521873 -0.019697631 -98.755173
9203000000 -0.98832703 132.73508 -9.2150249 -72.908577 -9.2049246 -73.627785 -0.02271289 -98.68457
9203062500 -0.98476708 132.67633 -9.2053232 -72.913345 -9.2046919 -73.586815 -0.028728651 -98.687096
9203125000 -0.97962087 132.63364 -9.1924601 -72.954926 -9.2044497 -73.564354 -0.022603694 -98.686928
9203187500 -0.98703629 132.68468 -9.2196093 -72.949867 -9.2021112 -73.647156 -0.025109457 -98.701469
9203250000 -0.99069345 132.63567 -9.2122822 -73.010262 -9.1991806 -73.548843 -0.019824462 -98.645935
9203312500 -0.99150962 132.65605 -9.2040138 -72.9972 -9.2054195 -73.635185 -0.019405117 -98.630264
9203375000 -0.98404223 132.64037 -9.2033968 -72.953583 -9.2005253 -73.534203 -0.018164746 -98.581787
9203437500 -0.99294406 132.6442 -9.2113638 -72.9524 -9.2073507 -73.586044 -0.026092699 -98.626953
9203500000 -0.98440504 132.60995 -9.1986637 -72.882835 -9.2031727 -73.585655 -0.02410556 -98.606537
9203562500 -0.99041021 132.63077 -9.2060003 -72.886147 -9.2106619 -73.585854 -0.030750226 -98.619217
9203625000 -0.99332452 132.5845 -9.2116318 -72.945 -9.207736 -73.504539 -0.029431589 -98.5802
9203687500 -0.98996711 132.58511 -9.2092342 -72.923454 -9.2092018 -73.536919 -0.034151655 -98.506165
9203750000 -0.99395776 132.53922 -9.2143621 -72.88736 -9.1993103 -73.521706 -0.020755246 -98.496269
9203812500 -0.99567991 132.52985 -9.1973553 -72.932518 -9.2002697 -73.614792 -0.030161839 -98.516693
9203875000 -0.98980665 132.51756 -9.2071266 -72.876617 -9.1988316 -73.5774 -0.040598854 -98.522171
9203937500 -0.98992562 132.52197 -9.1944132 -72.91571 -9.1925449 -73.546303 -0.021639308 -98.510559
9204000000 -0.99291009 132.51717 -9.1978064 -72.882599 -9.1927633 -73.49073 -0.020611756 -98.373474
9204062500 -0.98477465 132.51068 -9.2021618 -72.866852 -9.1762676 -73.583038 -0.020964304 -98.445877
9204125000 -0.99491507 132.48334 -9.2099342 -72.913261 -9.1894684 -73.583542 -0.015939314 -98.443596
9204187500 -0.9910565 132.44878 -9.2022572 -72.850105 -9.202424 -73.609558 -0.035082109 -98.428795
9204250000 -0.9929294 132.42995 -9.1905842 -72.889633 -9.1932383 -73.560181 -0.024152581 -98.414597
9204312500 -0.98511314 132.48508 -9.1899328 -72.868057 -9.193696 -73.596519 -0.024637638 -98.298851
9204375000 -0.97907472 132.42247 -9.1976414 -72.854683 -9.1886911 -73.575958 -0.024111619 -98.405464
9204437500 -0.99350858 132.42084 -9.1979189 -72.980957 -9.192276 -73.546379 -0.019944187 -98.342979
9204500000 -0.99539453 132.38484 -9.2024746 -72.904434 -9.1995039 -73.572617 -0.03228147 -98.296135
9204562500 -0.98625243 132.36763 -9.1958456 -72.955742 -9.1943455 -73.579216 -0.023638528 -98.388199
9204625000 -0.97955483 132.35158 -9.1892147 -72.869995 -9.1903343 -73.586205 -0.023452727 -98.242195
9204687500 -0.98930269 132.35913 -9.1980209 -72.862167 -9.1981058 -73.563843 -0.030271497 -98.249168
9204750000 -0.99347079 132.33713 -9.1890917 -72.829567 -9.1979198 -73.597267 -0.039772745 -98.269867
9204812500 -0.98332065 132.29654 -9.1933432 -72.909409 -9.1917591 -73.56295 -0.023797888 -98.258423
9204875000 -0.99070579 132.34825 -9.1918497 -72.897003 -9.2092304 -73.509132 -0.029810263 -98.212776
9204937500 -0.98714447 132.28841 -9.1913567 -72.939888 -9.1897955 -73.526901 -0.028187778 -98.219376
9205000000 -0.97634423 132.25725 -9.1955404 -72.906624 -9.1795177 -73.560944 -0.042249523 -98.213013
9205062500 -0.99167329 132.24435 -9.1984606 -72.887512 -9.1728945 -73.616356 -0.027975673 -98.167091
9205125000 -0.98847479 132.27696 -9.1955786 -72.83567 -9.1885252 -73.527313 -0.03127598 -98.078636
9205187500 -0.99252129 132.25156 -9.1832619 -72.849472 -9.1889067 -73.577766 -0.033739965 -98.130569
9205250000 -0.98288012 132.23003 -9.1848555 -72.912567 -9.1968508 -73.521652 -0.034599978 -98.19442
9205312500 -0.98850292 132.26659 -9.1867046 -72.87468 -9.1884947 -73.51207 -0.032209083 -98.104309
9205375000 -0.99080396 132.18408 -9.1892729 -72.854713 -9.1855001 -73.493446 -0.02397581 -98.083687
9205437500 -0.98568362 132.19247 -9.1822166 -72.823685 -9.1886654 -73.461624 -0.029195046 -98.062202
9205500000 -0.99258012 132.12431 -9.1828194 -72.860344 -9.1769972 -73.552727 -0.020695947 -97.962555
9205562500 -0.99228734 132.14183 -9.1889029 -72.900467 -9.1783867 -73.501434 -0.023688167 -97.969124
9205625000 -0.9990465 132.1588 -9.1899309 -72.787926 -9.1889372 -73.547562 -0.039530758 -97.995399
9205687500 -0.98426998 132.15973 -9.1770039 -72.833778 -9.1700821 -73.535889 -0.028770626 -97.976707
9205750000 -0.99201232 132.11813 -9.1852093 -72.828125 -9.1783848 -73.5 -0.032296941 -97.945007
9205812500 -0.99554944 132.10822 -9.1826229 -72.828201 -9.1786871 -73.540421 -0.025847111 -97.8965
9205875000 -0.98381764 132.10027 -9.1848068 -72.856873 -9.1758575 -73.486145 -0.031095222 -97.99015
9205937500 -0.98814064 132.06265 -9.1861734 -72.84523 -9.170413 -73.42173 -0.03094757 -97.858253
9206000000 -0.99225825 132.07014 -9.169343 -72.847496 -9.1831245 -73.493637 -0.026643567 -97.857376
9206062500 -0.98523432 132.06842 -9.1802616 -72.889427 -9.1898928 -73.542511 -0.034351178 -97.909721
9206125000 -0.98921663 132.02028 -9.1813183 -72.841583 -9.1731863 -73.458755 -0.033987533 -97.819389
9206187500 -0.99378037 132.03215 -9.1772413 -72.91021 -9.175334 -73.462929 -0.021986863 -97.80825
9206250000 -0.99458712 131.99998 -9.1813984 -72.861595 -9.1731806 -73.454933 -0.034313105 -97.842026
9206312500 -0.98971808 131.95053 -9.1738272 -72.909706 -9.1795273 -73.637199 -0.034200318 -97.86145
9206375000 -0.99537414 131.98891 -9.1907501 -72.834206 -9.17342 -73.495255 -0.031039396 -97.808464
9206437500 -0.98716682 131.93597 -9.1779308 -72.884224 -9.1757708 -73.498497 -0.038251523 -97.853661
9206500000 -0.99248666 131.95004 -9.182929 -72.834747 -9.1692047 -73.418427 -0.038493045 -97.776161
9206562500 -0.9924252 131.94397 -9.1813965 -72.859344 -9.1809635 -73.473984 -0.036212347 -97.810349
9206625000 -0.99527931 131.87325 -9.1716776 -72.884567 -9.1643839 -73.560074 -0.028513754 -97.782562
9206687500 -0.99218899 131.91301 -9.1826448 -72.906502 -9.1691933 -73.467148 -0.021419803 -97.746712
9206750000 -0.98984522 131.91771 -9.170764 -72.777443 -9.1794825 -73.474564 -0.037136439 -97.7425
9206812500 -0.98687464 131.91518 -9.1743431 -72.855827 -9.1762981 -73.482224 -0.030481683 -97.747063
9206875000 -0.99442333 131.87419 -9.1784773 -72.855499 -9.1581697 -73.405823 -0.030377267 -97.595497
9206937500 -0.99264395 131.88156 -9.1769657 -72.794685 -9.1677732 -73.477097 -0.035361074 -97.625816
9207000000 -0.98907357 131.84056 -9.1821089 -72.868042 -9.1657324 -73.508507 -0.032110143 -97.659904
9207062500 -0.98825866 131.81064 -9.1592722 -72.808014 -9.1642179 -73.438545 -0.037289962 -97.491257
9207125000 -1.0045644 131.8009 -9.1650028 -72.820999 -9.1588535 -73.512764 -0.031092104 -97.552208
9207187500 -0.98696327 131.77527 -9.1691589 -72.906738 -9.1726456 -73.503891 -0.043159835 -97.601929
9207250000 -0.98747253 131.80399 -9.1641989 -72.796944 -9.1671734 -73.515007 -0.03517868 -97.651985
9207312500 -0.98650807 131.78653 -9.1675997 -72.81041 -9.1553946 -73.418152 -0.024178803 -97.524498
9207375000 -1.0010918 131.74138 -9.1786985 -72.86232 -9.1593504 -73.440224 -0.036935851 -97.478493
9207437500 -0.99014753 131.77657 -9.1751394 -72.779808 -9.1749535 -73.36055 -0.038462218 -97.447632
9207500000 -0.99667042 131.7684 -9.1830101 -72.814316 -9.1623487 -73.452133 -0.046937343 -97.486176
9207562500 -0.98799229 131.77968 -9.1746035 -72.778122 -9.1623087 -73.393608 -0.037322376 -97.466255
9207625000 -0.99369013 131.65372 -9.1661997 -72.825851 -9.1551657 -73.484306 -0.034189019 -97.413971
9207687500 -0.99672753 131.70436 -9.1615276 -72.851013 -9.1530008 -73.412407 -0.031848233 -97.472801
9207750000 -0.99889821 131.68515 -9.1679039 -72.755043 -9.1567669 -73.472954 -0.03131846 -97.401726
9207812500 -0.99245089 131.66444 -9.16329 -72.809723 -9.1501703 -73.411476 -0.037005339 -97.42482
9207875000 -0.99141866 131.6468 -9.1700878 -72.791595 -9.1554575 -73.503502 -0.033261541 -97.422272
9207937500 -0.99443269 131.62535 -9.1661463 -72.729858 -9.1590557 -73.432495 -0.041453123 -97.383934
9208000000 -1.0033267 131.61827 -9.1709538 -72.863533 -9.1562271 -73.432617 -0.032974344 -97.364174
9208062500 -0.9937619 131.6234 -9.1682129 -72.827766 -9.1603556 -73.446533 -0.041423589 -97.322304
9208125000 -0.99483198 131.57698 -9.1619539 -72.851479 -9.1585464 -73.434685 -0.040070768 -97.339447
9208187500 -0.98913985 131.58734 -9.1622562 -72.796112 -9.1541843 -73.443146 -0.042766877 -97.323189
9208250000 -0.99682063 131.58334 -9.1615686 -72.739204 -9.1474514 -73.421074 -0.037346262 -97.257271
9208312500 -0.99096292 131.57199 -9.165802 -72.781639 -9.1569853 -73.456833 -0.044260003 -97.288666
9208375000 -0.99980187 131.59207 -9.1629295 -72.776817 -9.1556358 -73.390884 -0.036019333 -97.2005
9208437500 -0.99844861 131.46593 -9.1692085 -72.862457 -9.1576548 -73.416809 -0.04793914 -97.216751
9208500000 -1.0007162 131.46881 -9.1604404 -72.841438 -9.1512451 -73.463417 -0.038743235 -97.217461
9208562500 -0.9961766 131.51314 -9.1569338 -72.825424 -9.1545277 -73.421089 -0.037358254 -97.183159
9208625000 -0.9916265 131.48341 -9.1493092 -72.778816 -9.1533232 -73.34082 -0.045397561 -97.15448
9208687500 -0.98237121 131.43039 -9.1377039 -72.797325 -9.1626253 -73.379227 -0.04280623 -97.172791
9208750000 -0.99182916 131.48822 -9.1495543 -72.769775 -9.1551123 -73.385132 -0.0402776 -97.130486
9208812500 -0.99174035 131.48761 -9.1614161 -72.784782 -9.1569109 -73.373795 -0.045351353 -97.078224
9208875000 -0.99153191 131.44749 -9.1502514 -72.748215 -9.1554499 -73.38324 -0.040696204 -97.059906
9208937500 -1.0008118 131.44925 -9.1531134 -72.75663 -9.1426001 -73.417259 -0.03493778 -97.062599
9209000000 -0.99124157 131.44229 -9.1660595 -72.796234 -9.1525373 -73.366928 -0.052027132 -97.116882
9209062500 -0.99544448 131.392 -9.1518784 -72.819 -9.154767 -73.352531 -0.03781531 -97.056656
9209125000 -0.99626243 131.39287 -9.1379633 -72.801483 -9.152216 -73.437943 -0.037713524 -97.00972
9209187500 -0.99591321 131.41463 -9.1540136 -72.751381 -9.149291 -73.372505 -0.041254912 -97.038292
9209250000 -0.98553181 131.37529 -9.1433277 -72.76226 -9.1509075 -73.443146 -0.044260658 -96.94857
9209312500 -0.99309599 131.28015 -9.1555023 -72.799454 -9.1484861 -73.445663 -0.05040149 -97.036232
9209375000 -0.9832955 131.34322 -9.1500435 -72.766197 -9.1580982 -73.387962 -0.058830868 -96.98745
9209437500 -0.99621385 131.27203 -9.1508217 -72.791656 -9.1452274 -73.451752 -0.040435415 -96.911194
9209500000 -1.0000542 131.31053 -9.1450844 -72.783035 -9.1429911 -73.406548 -0.040672384 -96.900543
9209562500 -0.99940103 131.31575 -9.1513472 -72.784683 -9.1577358 -73.395653 -0.049964745 -96.884232
9209625000 -0.99495202 131.24588 -9.1491737 -72.797653 -9.1375608 -73.467613 -0.040190954 -96.915771
9209687500 -0.99573499 131.20929 -9.1496305 -72.773918 -9.1397333 -73.389236 -0.038582712 -96.869492
9209750000 -0.99709898 131.2142 -9.1403437 -72.866951 -9.1475286 -73.382965 -0.043266464 -96.894302
9209812500 -0.99225795 131.19926 -9.144372 -72.759544 -9.1424036 -73.444244 -0.046076186 -96.831429
9209875000 -0.99082834 131.20222 -9.1416817 -72.737663 -9.12994 -73.397186 -0.04406799 -96.847412
9209937500 -0.99324846 131.27501 -9.1521587 -72.733856 -9.1544046 -73.401276 -0.053360347 -96.86644
9210000000 -0.9876461 131.20813 -9.1460752 -72.705376 -9.142704 -73.357681 -0.058887135 -96.764267
9210062500 -0.99329591 131.20386 -9.14464 -72.810867 -9.1339712 -73.412514 -0.045961447 -96.771393
9210125000 -0.9894765 131.13385 -9.1455879 -72.823959 -9.1394777 -73.401718 -0.053471342 -96.790909
9210187500 -1.0018942 131.16273 -9.1445923 -72.775528 -9.1338034 -73.411163 -0.050821286 -96.755646
9210250000 -0.99793977 131.17653 -9.1421394 -72.763062 -9.1302071 -73.323364 -0.049791604 -96.750755
9210312500 -1.001596 131.147 -9.1493893 -72.651894 -9.1368504 -73.402161 -0.048707802 -96.743721
9210375000 -0.99605018 131.13971 -9.1496248 -72.738449 -9.1377144 -73.41333 -0.043147024 -96.645935
9210437500 -0.99333239 131.103 -9.1539459 -72.75 -9.1322613 -73.391815 -0.043522492 -96.736603
9210500000 -0.99181479 131.07849 -9.1447668 -72.780426 -9.132596 -73.37294 -0.033535756 -96.701385
9210562500 -0.99742121 131.08176 -9.1402597 -72.673958 -9.1365824 -73.42067 -0.046430044 -96.636391
9210625000 -0.99180377 131.06442 -9.1441784 -72.719414 -9.1388674 -73.31311 -0.05221295 -96.657455
9210687500 -0.99584973 131.06746 -9.1368694 -72.753036 -9.1328421 -73.404778 -0.053551268 -96.563705
9210750000 -0.98944062 131.05699 -9.1309452 -72.706032 -9.1262188 -73.411476 -0.045982853 -96.613945
9210812500 -0.99799967 131.02704 -9.1396675 -72.736771 -9.1361713 -73.21344 -0.058146421 -96.541382
9210875000 -1.0007271 131.00247 -9.1465693 -72.731323 -9.1337204 -73.295296 -0.058815796 -96.539207
9210937500 -0.99566507 131.02563 -9.134264 -72.700821 -9.1300144 -73.310303 -0.057064861 -96.537865
9211000000 -0.99228036 130.99117 -9.1342487 -72.710762 -9.1371851 -73.344246 -0.047901887 -96.539726
9211062500 -0.98816627 131.00682 -9.1243763 -72.653229 -9.1322908 -73.313652 -0.057643406 -96.53923
9211125000 -0.99052274 130.91776 -9.1308146 -72.770439 -9.1290598 -73.299133 -0.044860113 -96.478683
9211187500 -1.0005531 130.94691 -9.1328859 -72.728035 -9.1207485 -73.324753 -0.046028435 -96.442566
9211250000 -1.0025929 130.94682 -9.1367006 -72.774696 -9.131876 -73.343559 -0.047433726 -96.446098
9211312500 -0.99867445 130.92418 -9.1334505 -72.738785 -9.1230726 -73.299675 -0.050855782 -96.459267
9211375000 -0.99530679 130.8582 -9.1344252 -72.732918 -9.1255732 -73.395187 -0.054720715 -96.413925
9211437500 -0.98898917 130.87605 -9.1182432 -72.751244 -9.1171579 -73.307503 -0.046366438 -96.37841
9211500000 -0.99742353 130.86977 -9.1355381 -72.762306 -9.1209221 -73.341209 -0.051031359 -96.423134
9211562500 -1.0005379 130.91982 -9.1403151 -72.70993 -9.1208591 -73.281174 -0.044694651 -96.347206
9211625000 -0.9985441 130.81168 -9.1324997 -72.75296 -9.1168337 -73.394875 -0.045057543 -96.406143
9211687500 -0.99859917 130.88232 -9.123621 -72.674759 -9.122838 -73.350563 -0.058820236 -96.326523
9211750000 -0.9965831 130.80051 -9.1309719 -72.744408 -9.1262894 -73.391068 -0.050827492 -96.258759
9211812500 -0.99690306 130.84117 -9.1406431 -72.670769 -9.1348896 -73.290886 -0.065829158 -96.312531
9211875000 -1.0005429 130.78879 -9.1202641 -72.745049 -9.1130724 -73.32119 -0.047374524 -96.25798
9211937500 -0.99454308 130.80103 -9.1176662 -72.704147 -9.1135578 -73.280479 -0.057591014 -96.255203
9212000000 -0.99843889 130.7374 -9.1221867 -72.676468 -9.1166725 -73.35247 -0.055616755 -96.226662
9212062500 -0.99659413 130.70291 -9.1234617 -72.676277 -9.1143456 -73.294861 -0.055582561 -96.251938
9212125000 -0.99586624 130.66548 -9.1179991 -72.683716 -9.1356649 -73.326897 -0.057377331 -96.20842
