!Agilent Technologies,N5242A,MY51221714,A.09.90.19
!Agilent N5242A: A.09.90.19
!Date: Tuesday, March 26, 2024 15:34:56
!Correction: S11(Full 2 Port(1,2)) 
!S21(Full 2 Port(1,2)) 
!S12(Full 2 Port(1,2)) 
!S22(Full 2 Port(1,2)) 
!S2P File: Measurements: S11, S21, S12, S22:
# Hz S  dB   R 50
9200000000 -0.9643293 133.47409 -9.2881718 -72.789299 -9.2609453 -73.4347 0.020261379 -99.525124
9200062500 -0.9630875 133.49083 -9.2711897 -72.75885 -9.2742405 -73.478394 0.026609257 -99.476471
9200125000 -0.96396297 133.47783 -9.2721691 -72.752777 -9.2681828 -73.428093 0.01875598 -99.470398
9200187500 -0.97202373 133.46861 -9.2718248 -72.712906 -9.2549791 -73.494286 0.039168123 -99.438744
9200250000 -0.96069193 133.43681 -9.2605696 -72.79248 -9.2675867 -73.378548 0.028243836 -99.444366
9200312500 -0.97021413 133.45555 -9.276371 -72.751312 -9.2683477 -73.416061 0.023777505 -99.43692
9200375000 -0.96624267 133.41663 -9.2715387 -72.790436 -9.2682858 -73.498039 0.030824199 -99.382912
9200437500 -0.95965099 133.43544 -9.2620916 -72.826057 -9.2522259 -73.439842 0.038175978 -99.416328
9200500000 -0.96254939 133.38203 -9.2679787 -72.747665 -9.2700167 -73.343102 0.020633096 -99.317154
9200562500 -0.9655391 133.35051 -9.2685041 -72.743378 -9.2777128 -73.42363 0.025121061 -99.369713
9200625000 -0.97241056 133.37967 -9.2749195 -72.818321 -9.2539835 -73.382774 0.028513145 -99.313522
9200687500 -0.9612518 133.3643 -9.2686167 -72.693748 -9.2609367 -73.389725 0.027378779 -99.314278
9200750000 -0.97037506 133.31223 -9.2710505 -72.769058 -9.2605581 -73.353821 0.022572199 -99.270714
9200812500 -0.97651869 133.33702 -9.2751198 -72.789543 -9.2681112 -73.359085 0.0060676257 -99.253433
9200875000 -0.9600544 133.4068 -9.2673607 -72.743423 -9.256813 -73.36911 0.018727846 -99.308884
9200937500 -0.96702331 133.30472 -9.2738304 -72.795639 -9.2555752 -73.367081 0.028312607 -99.226746
9201000000 -0.95696646 133.29504 -9.2573891 -72.805176 -9.2584209 -73.400681 0.02881995 -99.239128
9201062500 -0.96041995 133.26646 -9.2602158 -72.699226 -9.2616205 -73.420967 0.019191636 -99.213814
9201125000 -0.96863157 133.28767 -9.2653551 -72.737473 -9.2668028 -73.416084 0.024487769 -99.20179
9201187500 -0.96714318 133.18178 -9.2591505 -72.766144 -9.262723 -73.38504 0.01745501 -99.089157
9201250000 -0.96512914 133.23462 -9.2506618 -72.771103 -9.2701101 -73.392754 0.015805334 -99.12986
9201312500 -0.97896916 133.20209 -9.2691946 -72.742386 -9.2593985 -73.392654 0.028052758 -99.1129
9201375000 -0.97442275 133.22839 -9.2567778 -72.626938 -9.261095 -73.345596 0.016782919 -99.089081
9201437500 -0.96505082 133.19183 -9.2612343 -72.688171 -9.2650337 -73.380981 0.01947999 -99.181816
9201500000 -0.96637142 133.2144 -9.2571507 -72.680115 -9.2564001 -73.303787 0.025982874 -99.120544
9201562500 -0.96368819 133.14828 -9.270339 -72.74054 -9.2751923 -73.359665 0.0039547929 -99.079063
9201625000 -0.95836866 133.16815 -9.2590714 -72.662796 -9.2508488 -73.344803 0.015050185 -99.000099
9201687500 -0.97108305 133.09795 -9.251977 -72.732819 -9.2550144 -73.338997 0.019888574 -98.937599
9201750000 -0.96975017 133.1368 -9.262826 -72.774086 -9.2465763 -73.380592 0.026779601 -98.982613
9201812500 -0.96167612 133.12521 -9.2533445 -72.698975 -9.2614174 -73.333649 0.014083294 -99.039238
9201875000 -0.96344161 133.08267 -9.2519712 -72.73243 -9.253767 -73.330399 0.017415367 -98.93869
9201937500 -0.97449499 133.04489 -9.2544746 -72.66275 -9.249115 -73.375046 0.027329702 -98.983147
9202000000 -0.9687624 133.08342 -9.2494383 -72.659286 -9.253314 -73.424675 0.022808392 -98.92865
9202062500 -0.96986097 133.06131 -9.252512 -72.673218 -9.2434578 -73.377426 0.02963719 -98.930313
9202125000 -0.97084409 133.07744 -9.269249 -72.745857 -9.2524128 -73.308975 0.013597741 -98.976891
9202187500 -0.96317405 133.06664 -9.2424459 -72.763321 -9.246583 -73.313339 0.024384771 -98.860863
9202250000 -0.97176093 133.02975 -9.2593536 -72.734444 -9.2512732 -73.29892 0.013875974 -98.835297
9202312500 -0.96506757 132.99603 -9.2633295 -72.717903 -9.2462873 -73.317978 0.015256406 -98.834366
9202375000 -0.9632237 132.97359 -9.2548132 -72.724792 -9.2495241 -73.337471 0.013627265 -98.795769
9202437500 -0.96417874 133.00932 -9.2581244 -72.673126 -9.2505217 -73.311607 0.018461168 -98.840126
9202500000 -0.97631419 132.95114 -9.2525005 -72.769844 -9.2546234 -73.324982 0.013190855 -98.879944
9202562500 -0.96232611 132.9601 -9.249301 -72.659454 -9.2582254 -73.311371 0.0056908233 -98.831825
9202625000 -0.96782649 133.00204 -9.2497482 -72.705414 -9.2387419 -73.361145 0.02110434 -98.763565
9202687500 -0.96920019 132.94965 -9.2509975 -72.734436 -9.2454901 -73.355492 0.019599844 -98.705566
9202750000 -0.95520598 132.88896 -9.2362041 -72.664902 -9.2452602 -73.334953 0.020322181 -98.730659
9202812500 -0.96836072 132.88832 -9.248497 -72.683075 -9.2352638 -73.384239 0.027701087 -98.697983
9202875000 -0.9653706 132.89709 -9.2476015 -72.679726 -9.2428799 -73.344482 0.018463036 -98.671768
9202937500 -0.96770084 132.89717 -9.2485819 -72.727654 -9.2390862 -73.343338 0.015066137 -98.698929
9203000000 -0.96506035 132.90056 -9.2513514 -72.645241 -9.2483931 -73.29924 0.013505378 -98.605095
9203062500 -0.96644145 132.85426 -9.2385654 -72.707512 -9.2427797 -73.287056 0.011199433 -98.663269
9203125000 -0.96561062 132.81537 -9.2549706 -72.706139 -9.2396584 -73.349541 0.015485923 -98.673401
9203187500 -0.96947831 132.825 -9.2511387 -72.698486 -9.2325029 -73.358177 0.019301701 -98.630447
9203250000 -0.96972424 132.78749 -9.2533016 -72.70343 -9.238883 -73.337875 0.016682664 -98.614304
9203312500 -0.9738484 132.82635 -9.2492399 -72.72654 -9.236762 -73.398201 0.020906182 -98.585541
9203375000 -0.96496487 132.76947 -9.2368536 -72.656273 -9.2394848 -73.300583 0.01663113 -98.504242
9203437500 -0.97726196 132.81671 -9.2615681 -72.747375 -9.2418604 -73.274651 0.010693877 -98.565109
9203500000 -0.96467954 132.71211 -9.2281113 -72.695274 -9.2360554 -73.290138 0.019426297 -98.536301
9203562500 -0.97717524 132.76471 -9.2531834 -72.679619 -9.2495947 -73.294189 0.0034121801 -98.572823
9203625000 -0.97303843 132.73209 -9.2428827 -72.713654 -9.243288 -73.248558 0.014194323 -98.516037
9203687500 -0.97898144 132.71916 -9.2507877 -72.639725 -9.2438068 -73.317673 0.0070655541 -98.482475
9203750000 -0.96908599 132.68823 -9.2359705 -72.702568 -9.2389145 -73.302414 0.019465726 -98.466454
9203812500 -0.96979338 132.68555 -9.2369604 -72.747734 -9.2353449 -73.287704 0.016291646 -98.407524
9203875000 -0.96589077 132.6851 -9.2395315 -72.680756 -9.2430782 -73.314163 -0.0078474013 -98.446404
9203937500 -0.97251368 132.65091 -9.2312689 -72.692757 -9.2361746 -73.283005 0.019848369 -98.423195
9204000000 -0.97305161 132.65419 -9.2316608 -72.591087 -9.2398958 -73.224419 0.01167399 -98.347626
9204062500 -0.95934981 132.68718 -9.2365084 -72.621635 -9.2303257 -73.347305 0.0085565401 -98.423058
9204125000 -0.9743017 132.6198 -9.2318277 -72.656975 -9.2268953 -73.275795 0.018659726 -98.358948
9204187500 -0.97687489 132.57051 -9.2456751 -72.657051 -9.2366562 -73.298782 0.0045464914 -98.34243
9204250000 -0.97518361 132.63942 -9.2334757 -72.67601 -9.2292538 -73.305145 0.010588921 -98.329651
9204312500 -0.97039574 132.62752 -9.2283936 -72.609306 -9.2273407 -73.317833 0.011860873 -98.247772
9204375000 -0.96091121 132.56778 -9.2333164 -72.603874 -9.2342653 -73.319351 0.014645134 -98.343491
9204437500 -0.98360234 132.60956 -9.2408333 -72.645676 -9.2346239 -73.253647 0.011736759 -98.250687
9204500000 -0.980093 132.56734 -9.2369595 -72.633942 -9.230402 -73.250771 0.013083702 -98.258171
9204562500 -0.97442275 132.53011 -9.2384796 -72.731873 -9.2401171 -73.287277 0.010826987 -98.307785
9204625000 -0.96507823 132.52292 -9.2281847 -72.638306 -9.2175446 -73.31485 0.015165202 -98.169922
9204687500 -0.96769923 132.48915 -9.2294874 -72.638084 -9.2197714 -73.242615 0.017020553 -98.131073
9204750000 -0.98094624 132.4679 -9.2371664 -72.591515 -9.2388172 -73.294449 -0.0007277251 -98.161751
9204812500 -0.96273506 132.49814 -9.2284613 -72.557541 -9.2302265 -73.333801 0.014999378 -98.182755
9204875000 -0.97024804 132.52519 -9.225091 -72.625053 -9.2464647 -73.27935 0.0018217639 -98.229408
9204937500 -0.9693169 132.42009 -9.2328043 -72.719482 -9.2217655 -73.323006 0.014989205 -98.186455
9205000000 -0.96289772 132.40437 -9.2263479 -72.609573 -9.2205954 -73.189301 -0.0049483147 -98.094879
9205062500 -0.97160465 132.40163 -9.2393122 -72.651695 -9.2203274 -73.276115 0.0092080459 -98.083992
9205125000 -0.9710266 132.40659 -9.2220507 -72.558441 -9.2264729 -73.23098 0.0059602791 -98.022499
9205187500 -0.97581381 132.42471 -9.2330618 -72.623512 -9.2271357 -73.228149 0.0016806753 -98.022476
9205250000 -0.97087353 132.36882 -9.2368145 -72.662292 -9.2272615 -73.272942 0.00031423825 -98.116676
9205312500 -0.96684724 132.41298 -9.2214136 -72.633331 -9.2231741 -73.230194 0.0063797669 -98.023277
9205375000 -0.97186881 132.34128 -9.2200146 -72.553696 -9.2247829 -73.252922 0.01107092 -97.993713
9205437500 -0.96736252 132.3412 -9.2242432 -72.573364 -9.2263927 -73.247368 0.0095996866 -98.02861
9205500000 -0.97663069 132.28622 -9.2219334 -72.647461 -9.225915 -73.331734 0.010368216 -97.956009
9205562500 -0.97361487 132.27461 -9.2162485 -72.670952 -9.2158012 -73.293663 0.015369205 -97.961441
9205625000 -0.98072851 132.29591 -9.2286072 -72.597786 -9.2243385 -73.257225 0.0023279334 -97.89592
9205687500 -0.97036856 132.33682 -9.2167149 -72.526962 -9.2181292 -73.273048 0.0057536634 -97.929688
9205750000 -0.97169286 132.29263 -9.2168665 -72.582756 -9.2240562 -73.222992 0.015736641 -97.864983
9205812500 -0.97341043 132.23419 -9.2122297 -72.672058 -9.2206306 -73.279007 0.0054100351 -97.857971
9205875000 -0.96421677 132.27971 -9.2300863 -72.564217 -9.226594 -73.276558 0.0015308636 -97.929764
9205937500 -0.97111708 132.19852 -9.2216768 -72.588531 -9.2068176 -73.22261 0.0088694412 -97.8144
9206000000 -0.97793525 132.21515 -9.2172165 -72.625877 -9.2139549 -73.217499 0.010046122 -97.83448
9206062500 -0.97283989 132.23576 -9.2119656 -72.641068 -9.2121658 -73.240082 0.0097993556 -97.863106
9206125000 -0.97218621 132.19208 -9.2156506 -72.631729 -9.2117949 -73.194771 0.0049782065 -97.746552
9206187500 -0.97343028 132.17462 -9.217618 -72.588737 -9.2206287 -73.202652 0.010302369 -97.743866
9206250000 -0.97747421 132.11667 -9.2178717 -72.663651 -9.2228508 -73.210426 0.0025652617 -97.792755
9206312500 -0.96960264 132.1067 -9.2224998 -72.597755 -9.2144985 -73.308678 0.0034977207 -97.781876
9206375000 -0.9706465 132.13902 -9.2083168 -72.577713 -9.2096272 -73.205208 0.0069891242 -97.754883
9206437500 -0.96644461 132.09401 -9.2234402 -72.616188 -9.2246599 -73.238136 -0.0021141409 -97.768532
9206500000 -0.97298604 132.12419 -9.2222185 -72.55442 -9.2074661 -73.154602 0.0012724091 -97.714844
9206562500 -0.97756517 132.10614 -9.2167997 -72.625351 -9.2099724 -73.229561 0.0038331749 -97.754135
9206625000 -0.97879136 132.04689 -9.2057161 -72.662758 -9.2088661 -73.269554 0.0061113471 -97.684402
9206687500 -0.97529352 132.05199 -9.2196255 -72.595428 -9.2086277 -73.183174 0.0069431034 -97.709381
9206750000 -0.97249222 132.09869 -9.2070131 -72.580032 -9.2149391 -73.243515 0.0050163995 -97.657906
9206812500 -0.97124666 132.05058 -9.2059469 -72.626846 -9.2142925 -73.248924 0.0092671858 -97.720222
9206875000 -0.97553068 132.04953 -9.2152615 -72.617851 -9.2046442 -73.180954 0.0039075729 -97.584351
9206937500 -0.97903967 132.02582 -9.214817 -72.567574 -9.2092953 -73.190758 0.0059341867 -97.570618
9207000000 -0.97530454 132.01486 -9.2096357 -72.574539 -9.2132282 -73.255188 -0.0013354042 -97.574875
9207062500 -0.96883392 132.01329 -9.1983509 -72.563568 -9.2076912 -73.179131 0.0047510392 -97.439888
9207125000 -0.9765448 131.94691 -9.1961336 -72.565369 -9.1984205 -73.231888 0.0089680972 -97.468948
9207187500 -0.97563833 131.92148 -9.2029638 -72.6017 -9.2115049 -73.159912 0.00050119369 -97.547867
9207250000 -0.97324932 131.91791 -9.2088785 -72.558968 -9.2157927 -73.204155 0.0035855777 -97.57206
9207312500 -0.9652043 131.88535 -9.1961393 -72.607277 -9.192481 -73.140793 0.0099164099 -97.487076
9207375000 -0.98197931 131.905 -9.2204752 -72.609222 -9.1955118 -73.128952 0.0040625189 -97.381104
9207437500 -0.96753526 131.96498 -9.2124901 -72.571915 -9.2289896 -73.167137 -0.0062463791 -97.43029
9207500000 -0.97811002 131.93968 -9.2140017 -72.511612 -9.1864023 -73.150978 -0.0011550905 -97.3918
9207562500 -0.97038907 131.9189 -9.2110329 -72.586876 -9.2063656 -73.18573 -0.0050368393 -97.430031
9207625000 -0.97760147 131.81683 -9.2049446 -72.586052 -9.2001362 -73.202782 0.0014345795 -97.325111
9207687500 -0.98227304 131.89432 -9.2035713 -72.635262 -9.1939697 -73.151306 0.0074618929 -97.40168
9207750000 -0.98096234 131.86758 -9.2083511 -72.594612 -9.1940622 -73.166679 0.0063213231 -97.348198
9207812500 -0.97849882 131.82095 -9.2083073 -72.640312 -9.1931553 -73.17115 0.001442257 -97.344467
9207875000 -0.96988261 131.84361 -9.2119961 -72.530037 -9.1927748 -73.182365 0.0024918318 -97.32412
9207937500 -0.9780193 131.73787 -9.208025 -72.604134 -9.2053967 -73.213921 -0.0050034076 -97.355087
9208000000 -0.97415805 131.76987 -9.1977768 -72.605309 -9.1957369 -73.173935 0.0038384884 -97.258652
9208062500 -0.97499675 131.78522 -9.1965055 -72.56929 -9.1996613 -73.208435 -0.0044097807 -97.265686
9208125000 -0.97750545 131.76236 -9.1965265 -72.584663 -9.1965332 -73.164772 0.0023044297 -97.240593
9208187500 -0.96441984 131.80998 -9.194356 -72.556992 -9.1996679 -73.149803 0.00137311 -97.252213
9208250000 -0.97813535 131.75761 -9.1978455 -72.517204 -9.1956749 -73.220596 0.0035706719 -97.219032
9208312500 -0.97453713 131.74304 -9.2068424 -72.544136 -9.1761217 -73.16391 0.0029542744 -97.180367
9208375000 -0.98332673 131.70956 -9.1978512 -72.572968 -9.1864729 -73.140312 0.0033648242 -97.152367
9208437500 -0.97707427 131.66385 -9.1959505 -72.579926 -9.1915798 -73.10984 -0.0064925598 -97.156609
9208500000 -0.97677898 131.65533 -9.1990004 -72.542145 -9.1957159 -73.17337 -0.0022642415 -97.164711
9208562500 -0.9772895 131.67682 -9.19063 -72.53495 -9.1893225 -73.191063 0.0027683473 -97.177971
9208625000 -0.97034103 131.62532 -9.188921 -72.468147 -9.1792545 -73.148552 -0.0044443738 -97.124527
9208687500 -0.97024465 131.6031 -9.1866217 -72.547989 -9.1938982 -73.197113 0.0010502827 -97.140762
9208750000 -0.97331768 131.63506 -9.190114 -72.530022 -9.183609 -73.13501 0.0026152013 -97.086449
9208812500 -0.97679722 131.69327 -9.1987238 -72.50322 -9.1852016 -73.223999 -0.0015614738 -97.070892
9208875000 -0.9753266 131.57939 -9.1907587 -72.524696 -9.1965618 -73.128708 0.0043573128 -97.036652
9208937500 -0.97618574 131.58459 -9.1863823 -72.513084 -9.1778564 -73.117844 0.00034147818 -97.000557
9209000000 -0.97426122 131.6237 -9.194068 -72.504379 -9.178215 -73.140785 -0.005644144 -97.059029
9209062500 -0.97537041 131.56082 -9.1855173 -72.483696 -9.1959324 -73.137337 -0.0032665466 -96.990685
9209125000 -0.9832027 131.54141 -9.190794 -72.531906 -9.1832399 -73.119202 0.0065807905 -96.920967
9209187500 -0.97380942 131.54239 -9.1805906 -72.529076 -9.1948185 -73.09893 -0.0068287607 -96.966896
9209250000 -0.97099149 131.51302 -9.1763916 -72.51725 -9.1845407 -73.199776 -0.0033444907 -96.879333
9209312500 -0.9745369 131.45073 -9.1897087 -72.533714 -9.1914339 -73.19368 -0.012723524 -96.958427
9209375000 -0.96836972 131.4948 -9.1858654 -72.5084 -9.1836185 -73.057793 -0.0078139994 -96.889244
9209437500 -0.98119473 131.43614 -9.1937866 -72.496162 -9.1902809 -73.16571 -0.0076294933 -96.823059
9209500000 -0.97314239 131.46089 -9.1778355 -72.548615 -9.18363 -73.135536 -0.0016806612 -96.84124
9209562500 -0.9824053 131.4686 -9.2025318 -72.42112 -9.1877184 -73.080338 -0.013279913 -96.791756
9209625000 -0.97985411 131.38538 -9.1872549 -72.508934 -9.1813211 -73.171799 -0.0058849715 -96.850967
9209687500 -0.97396928 131.32922 -9.1755648 -72.595558 -9.1794147 -73.116852 -0.0018277277 -96.825531
9209750000 -0.98479575 131.33679 -9.1803312 -72.63295 -9.1852131 -73.103172 0.0027805839 -96.831749
9209812500 -0.97657138 131.3819 -9.1875801 -72.457954 -9.1854572 -73.133034 -0.0073101595 -96.764053
9209875000 -0.97175545 131.36673 -9.1789064 -72.491135 -9.1775875 -73.1558 -0.0062687052 -96.795731
9209937500 -0.97518897 131.4137 -9.1931839 -72.492813 -9.1899967 -73.112282 -0.014292906 -96.816452
9210000000 -0.96660686 131.37975 -9.1778231 -72.430931 -9.1728001 -73.056953 -0.013907026 -96.669037
9210062500 -0.98004895 131.3829 -9.1869659 -72.526337 -9.1726723 -73.082443 -0.0026671437 -96.686485
9210125000 -0.97094446 131.31432 -9.1783857 -72.538902 -9.1762676 -73.061882 -0.013006437 -96.691879
9210187500 -0.98279589 131.32886 -9.1739311 -72.495338 -9.1684399 -73.131569 0.0014756087 -96.671623
9210250000 -0.97718745 131.34486 -9.1754475 -72.470474 -9.176693 -73.103455 -0.01132127 -96.661011
9210312500 -0.98283184 131.32605 -9.1801453 -72.428787 -9.1786575 -73.151398 -0.014187084 -96.681053
9210375000 -0.97475296 131.31526 -9.1739635 -72.483078 -9.1782084 -73.010803 -0.016504422 -96.546852
9210437500 -0.97147912 131.24786 -9.1817379 -72.491676 -9.1714048 -73.132553 -0.0014693501 -96.618446
9210500000 -0.97816592 131.256 -9.1808386 -72.482872 -9.1727142 -73.143578 -0.0012901891 -96.618515
9210562500 -0.97901708 131.22681 -9.1825027 -72.397514 -9.1741333 -73.083725 -0.0070255287 -96.538208
9210625000 -0.97244996 131.23761 -9.1715555 -72.439133 -9.1800213 -73.023972 -0.010874606 -96.517189
9210687500 -0.9783439 131.23291 -9.1798248 -72.500519 -9.1727734 -73.113762 -0.016388997 -96.546043
9210750000 -0.97887355 131.19125 -9.1811771 -72.488029 -9.1762218 -73.064636 -0.011208847 -96.535736
9210812500 -0.97820121 131.16574 -9.1723347 -72.50013 -9.1686068 -73.028458 -0.010046631 -96.505554
9210875000 -0.9737426 131.19431 -9.1794901 -72.446045 -9.1689653 -73.041458 -0.014595502 -96.522034
9210937500 -0.97672963 131.19377 -9.1765232 -72.446114 -9.168437 -73.010406 -0.014791041 -96.468224
9211000000 -0.97494358 131.17986 -9.1764297 -72.469917 -9.1723232 -73.143677 -0.0049517592 -96.488564
9211062500 -0.97333902 131.15526 -9.172349 -72.429932 -9.1629095 -73.056915 -0.0076249391 -96.466515
9211125000 -0.97576135 131.09081 -9.1728554 -72.461372 -9.1602621 -73.048622 -0.0092046848 -96.417488
9211187500 -0.98279268 131.09753 -9.1747437 -72.430328 -9.1596184 -73.03067 -0.012812469 -96.386688
9211250000 -0.9802267 131.10608 -9.168047 -72.502373 -9.1626062 -72.984093 0.0066351322 -96.345558
9211312500 -0.97567564 131.10257 -9.1684389 -72.472672 -9.1591539 -73.128273 -0.011402485 -96.427589
9211375000 -0.97361386 131.01024 -9.1659489 -72.475014 -9.1662083 -73.083702 -0.011730745 -96.312798
9211437500 -0.97268683 131.04829 -9.1548462 -72.445198 -9.1656828 -73.118217 -0.010140129 -96.333969
9211500000 -0.97570062 130.99196 -9.1644583 -72.488983 -9.1628819 -73.10482 -0.0058822539 -96.323914
9211562500 -0.98553109 131.08165 -9.1776505 -72.485046 -9.1631498 -73.052231 -0.01490791 -96.319298
9211625000 -0.97600365 130.96011 -9.1645069 -72.534195 -9.1610918 -73.072151 -0.010544384 -96.299683
9211687500 -0.98271656 131.06712 -9.1736975 -72.360664 -9.1615105 -73.091919 -0.011509924 -96.28157
9211750000 -0.97835141 130.95518 -9.1646233 -72.448196 -9.1707163 -73.0467 -0.018875539 -96.209282
9211812500 -0.97931463 130.97011 -9.1778479 -72.429588 -9.1632595 -73.052994 -0.018330786 -96.266563
9211875000 -0.98634464 130.94592 -9.1720409 -72.443306 -9.143384 -73.010765 -0.0021376212 -96.139938
9211937500 -0.97851133 130.92345 -9.1577911 -72.530167 -9.1595411 -73.011482 -0.019343583 -96.18792
9212000000 -0.97603154 130.88065 -9.1573105 -72.479446 -9.1539478 -73.024132 -0.018405668 -96.183487
9212062500 -0.98031014 130.88614 -9.1744127 -72.374947 -9.1575346 -73.015785 -0.024978723 -96.178909
9212125000 -0.97444206 130.82634 -9.1623344 -72.478569 -9.1679258 -73.098236 -0.017154718 -96.094826
