!Agilent Technologies,N5242A,MY51221714,A.09.90.19
!Agilent N5242A: A.09.90.19
!Date: Tuesday, March 26, 2024 15:43:17
!Correction: S11(Full 2 Port(1,2)) 
!S21(Full 2 Port(1,2)) 
!S12(Full 2 Port(1,2)) 
!S22(Full 2 Port(1,2)) 
!S2P File: Measurements: S11, S21, S12, S22:
# Hz S  dB   R 50
9200000000 -0.99563396 133.1617 -9.2251358 -73.165199 -9.2141914 -73.884689 -0.018227464 -99.702225
9200062500 -0.99350232 133.14389 -9.2239895 -73.209656 -9.2208757 -73.842751 -0.013372399 -99.637161
9200125000 -0.99884385 133.14165 -9.2185354 -73.194443 -9.2160444 -73.776695 -0.012177838 -99.607933
9200187500 -0.99925011 133.14906 -9.2189713 -73.117584 -9.2109346 -73.885208 0.0024856948 -99.549469
9200250000 -0.99369037 133.09552 -9.2191029 -73.195374 -9.2179079 -73.824127 -0.010408571 -99.597748
9200312500 -1.0010113 133.11147 -9.2259254 -73.185509 -9.2177706 -73.85247 -0.018374065 -99.582672
9200375000 -0.99616051 133.05255 -9.2142525 -73.177292 -9.2126837 -73.912163 -0.0069121071 -99.618851
9200437500 -0.99544597 133.09401 -9.2242985 -73.215836 -9.2115202 -73.88208 -0.0094435029 -99.542786
9200500000 -0.9959662 133.04539 -9.2307281 -73.121521 -9.2058964 -73.741165 -0.0089288997 -99.461136
9200562500 -0.98745161 133.03763 -9.2151279 -73.17643 -9.2228251 -73.840599 -0.011190648 -99.545502
9200625000 -1.0012039 133.01271 -9.2263308 -73.206657 -9.2200079 -73.791496 -0.01250153 -99.507118
9200687500 -0.99265307 133.02901 -9.2139702 -73.110977 -9.2201748 -73.814384 -0.01352359 -99.476311
9200750000 -0.99120027 132.98708 -9.2127695 -73.179222 -9.2169943 -73.753654 -0.011972207 -99.452507
9200812500 -1.0111209 133.05812 -9.2294636 -73.074142 -9.2252836 -73.787674 -0.025379533 -99.392815
9200875000 -0.99341643 133.08698 -9.2183008 -73.030647 -9.211853 -73.744949 -0.015736688 -99.435074
9200937500 -0.99979293 132.98788 -9.229455 -73.153168 -9.2092352 -73.788429 -0.011920079 -99.354301
9201000000 -0.99148035 132.94597 -9.2184753 -73.235893 -9.21031 -73.803192 -0.013351603 -99.428162
9201062500 -0.99747962 132.94135 -9.2093849 -73.142853 -9.2085743 -73.831024 -0.016402531 -99.390343
9201125000 -0.99895501 132.94197 -9.2153769 -73.125847 -9.2087364 -73.779442 -0.017156562 -99.2994
9201187500 -0.99751914 132.87787 -9.2137299 -73.131454 -9.2069731 -73.77787 -0.017770359 -99.231712
9201250000 -1.0026859 132.93025 -9.2190952 -73.107239 -9.2186108 -73.691818 -0.017068917 -99.22554
9201312500 -1.0042447 132.92731 -9.2094278 -73.107628 -9.2145576 -73.812721 -0.010239397 -99.325294
9201375000 -1.0066746 132.91687 -9.2228127 -73.045372 -9.2058144 -73.743469 -0.027102673 -99.231194
9201437500 -0.99296826 132.88615 -9.2167864 -73.083298 -9.2130861 -73.754105 -0.013259607 -99.313049
9201500000 -0.99563611 132.87704 -9.2181673 -73.071449 -9.2132587 -73.777412 -0.021037508 -99.274864
9201562500 -1.0008892 132.84761 -9.2110701 -73.084587 -9.217988 -73.839973 -0.027670316 -99.250656
9201625000 -0.99981713 132.8407 -9.2096624 -73.096062 -9.2065792 -73.723763 -0.023351727 -99.122688
9201687500 -1.0099508 132.82559 -9.2149973 -73.026672 -9.2017975 -73.714363 -0.018719258 -99.109955
9201750000 -0.9986608 132.8324 -9.2179976 -73.102829 -9.1917915 -73.752342 -0.00668664 -99.1353
9201812500 -0.99195105 132.78915 -9.2108154 -73.136208 -9.2079 -73.764923 -0.024859138 -99.196533
9201875000 -0.99179405 132.75888 -9.19769 -73.1259 -9.2065372 -73.803139 -0.015561735 -99.0839
9201937500 -1.0076718 132.73235 -9.2168808 -73.063957 -9.2119913 -73.823219 -0.017878691 -99.140938
9202000000 -1.0020857 132.74825 -9.1974382 -73.014069 -9.1997576 -73.758392 -0.011422924 -99.085739
9202062500 -1.0039006 132.7191 -9.206604 -73.11203 -9.1983585 -73.820778 -0.0095057292 -99.083664
9202125000 -0.99961597 132.74635 -9.2164345 -73.15316 -9.2002535 -73.719063 -0.0280178 -99.077759
9202187500 -0.99821341 132.73898 -9.2041092 -73.133957 -9.2035637 -73.773743 -0.022309734 -99.030121
9202250000 -1.0017443 132.6601 -9.2060318 -73.136482 -9.1952686 -73.686836 -0.021533744 -99.042381
9202312500 -1.001703 132.70966 -9.2109661 -73.061081 -9.1944475 -73.774666 -0.017142292 -99.002083
9202375000 -0.99798077 132.66832 -9.2117901 -73.100471 -9.1935072 -73.741165 -0.019730262 -98.946663
9202437500 -1.0045909 132.69485 -9.1948872 -73.060982 -9.1940298 -73.747284 -0.013361751 -99.002365
9202500000 -1.0079916 132.63959 -9.2073345 -73.167274 -9.2046204 -73.711014 -0.015091115 -98.98867
9202562500 -0.99413717 132.59824 -9.1895962 -73.082619 -9.196475 -73.688614 -0.021165943 -98.93409
9202625000 -1.0000194 132.68823 -9.2010727 -73.112473 -9.1940203 -73.719742 -0.01997938 -98.93924
9202687500 -1.0006788 132.62311 -9.1963263 -73.021095 -9.1920462 -73.720879 -0.016210487 -98.817589
9202750000 -0.99306726 132.5472 -9.1869326 -73.101379 -9.1874056 -73.790222 -0.018173205 -98.888634
9202812500 -1.002804 132.52348 -9.1996803 -73.069443 -9.1806278 -73.784523 -0.010524226 -98.844269
9202875000 -0.99781352 132.51923 -9.1980038 -73.100273 -9.1883631 -73.744843 -0.014684114 -98.848381
9202937500 -1.0012543 132.56792 -9.2015486 -73.084557 -9.1845074 -73.727936 -0.019806588 -98.865295
9203000000 -1.0004244 132.58432 -9.1962643 -73.085533 -9.1963959 -73.783119 -0.022608988 -98.825409
9203062500 -0.99797308 132.46635 -9.1993761 -73.097061 -9.1957407 -73.71846 -0.02467454 -98.824585
9203125000 -0.99819916 132.4908 -9.1949015 -73.084412 -9.1762972 -73.7248 -0.021000789 -98.780602
9203187500 -1.0014684 132.47856 -9.2054892 -73.149055 -9.1790037 -73.803146 -0.02021803 -98.788307
9203250000 -1.0008692 132.43446 -9.1884365 -73.102531 -9.1950836 -73.726883 -0.021559924 -98.762436
9203312500 -1.015044 132.44949 -9.2057285 -73.149086 -9.1835814 -73.705811 -0.011519367 -98.722351
9203375000 -1.0001019 132.43561 -9.1863794 -73.062958 -9.1888008 -73.715813 -0.022156758 -98.6828
9203437500 -1.0056387 132.49178 -9.202796 -73.029716 -9.2011108 -73.75795 -0.02488208 -98.675568
9203500000 -0.99983436 132.42223 -9.1942835 -73.046959 -9.1794996 -73.711563 -0.0087860841 -98.688545
9203562500 -1.0046797 132.4256 -9.2000208 -73.068062 -9.1935472 -73.727211 -0.031210013 -98.682632
9203625000 -1.0084708 132.40678 -9.2049313 -73.174629 -9.1925602 -73.715927 -0.032368965 -98.752571
9203687500 -1.0070127 132.37582 -9.2000017 -73.048988 -9.2032757 -73.753395 -0.039123051 -98.645897
9203750000 -1.0057038 132.36465 -9.1940784 -73.061554 -9.1870766 -73.689804 -0.015603023 -98.589745
9203812500 -1.0074974 132.37737 -9.1872168 -73.108223 -9.1866779 -73.731155 -0.024815517 -98.610451
9203875000 -1.0017548 132.33359 -9.1907721 -73.072144 -9.1933317 -73.776955 -0.045786992 -98.618164
9203937500 -1.0181668 132.34145 -9.1933146 -73.099525 -9.1823616 -73.668976 -0.019523267 -98.587753
9204000000 -1.0064462 132.33855 -9.1886959 -73.048737 -9.1851254 -73.688797 -0.017258681 -98.521248
9204062500 -0.99889052 132.33252 -9.194438 -73.013588 -9.1749973 -73.737823 -0.027432224 -98.527321
9204125000 -1.0074919 132.30148 -9.1820202 -73.030418 -9.1755905 -73.714012 -0.017457383 -98.462479
9204187500 -1.009349 132.2271 -9.1943398 -73.058113 -9.1794996 -73.714417 -0.027285838 -98.476204
9204250000 -1.0066254 132.26917 -9.1907616 -73.073624 -9.1849489 -73.708252 -0.01820514 -98.504478
9204312500 -1.0056362 132.27939 -9.1819172 -72.981598 -9.1765766 -73.690674 -0.019641208 -98.385979
9204375000 -0.99189055 132.23064 -9.1846676 -73.095436 -9.184082 -73.666527 -0.028163804 -98.480309
9204437500 -1.0064453 132.25375 -9.1775284 -73.076546 -9.1909904 -73.625702 -0.02356565 -98.39875
9204500000 -1.0099233 132.19859 -9.183691 -73.094719 -9.1801729 -73.672371 -0.01950437 -98.403305
9204562500 -1.0021881 132.19635 -9.1765146 -73.109688 -9.1831474 -73.784531 -0.021820188 -98.493912
9204625000 -0.99298352 132.15082 -9.1750793 -73.039482 -9.1695118 -73.721031 -0.026647052 -98.352119
9204687500 -1.0011584 132.15622 -9.1833344 -72.983551 -9.1759157 -73.695 -0.026660077 -98.309158
9204750000 -1.0108474 132.14909 -9.1731091 -72.981956 -9.1766272 -73.668655 -0.030239128 -98.311554
9204812500 -0.99822944 132.13457 -9.1833973 -72.980339 -9.174613 -73.70433 -0.024707487 -98.303543
9204875000 -1.0028228 132.17905 -9.1782217 -73.051155 -9.1918926 -73.693245 -0.035200812 -98.361206
9204937500 -1.0030347 132.10825 -9.1679554 -73.114754 -9.1686525 -73.737823 -0.016834419 -98.331207
9205000000 -0.99419332 132.06801 -9.1704044 -72.925674 -9.1682835 -73.622223 -0.039165772 -98.250122
9205062500 -1.0025674 132.06882 -9.1755285 -73.074158 -9.1642084 -73.664093 -0.028045904 -98.210541
9205125000 -0.9999786 132.08618 -9.1784391 -73.024109 -9.1682825 -73.589066 -0.02691678 -98.156967
9205187500 -1.0066979 132.10997 -9.1772919 -72.959618 -9.1686983 -73.619942 -0.032369137 -98.134277
9205250000 -1.0013878 132.00766 -9.1804457 -73.036545 -9.1763535 -73.609901 -0.032317381 -98.251228
9205312500 -1.0062352 132.09634 -9.1753674 -72.948517 -9.1764364 -73.697525 -0.036565401 -98.237953
9205375000 -1.0051293 132.02348 -9.1732597 -73.03952 -9.1735249 -73.724762 -0.026880512 -98.161987
9205437500 -0.99547291 132.01465 -9.1658831 -72.91082 -9.1652012 -73.622498 -0.025734726 -98.158974
9205500000 -1.0083414 131.95753 -9.1643095 -73.013268 -9.1715307 -73.673264 -0.026035612 -98.061935
9205562500 -1.0076334 131.9839 -9.1683578 -73.05835 -9.1670027 -73.651001 -0.019721564 -98.111374
9205625000 -1.0116576 131.99922 -9.1668463 -72.973717 -9.1667824 -73.636391 -0.037220661 -98.076965
9205687500 -1.0043952 131.9942 -9.1720219 -72.963348 -9.1582079 -73.705025 -0.024706418 -98.043373
9205750000 -1.0042193 131.91977 -9.1614017 -73.004097 -9.1660967 -73.655136 -0.02432587 -98.012444
9205812500 -1.0070416 131.86801 -9.1655569 -72.991089 -9.1702414 -73.693802 -0.029215587 -98.013481
9205875000 -0.99742317 131.91603 -9.1730299 -72.97477 -9.1711569 -73.595673 -0.037085023 -98.014183
9205937500 -1.0067134 131.91023 -9.1725636 -73.011177 -9.1595812 -73.627228 -0.031919617 -97.966263
9206000000 -1.0082083 131.90088 -9.1601009 -72.943275 -9.1569757 -73.623253 -0.026762269 -97.926895
9206062500 -0.99903262 131.89488 -9.1618156 -73.01593 -9.1645937 -73.639168 -0.034123722 -98.026817
9206125000 -1.0029083 131.86707 -9.172739 -72.922607 -9.1501551 -73.617424 -0.027072074 -97.860603
9206187500 -1.0068634 131.87407 -9.1638174 -73.005951 -9.1495342 -73.68898 -0.016113715 -97.943817
9206250000 -1.0067737 131.8139 -9.1703825 -73.022491 -9.1537828 -73.665009 -0.025487291 -97.938187
9206312500 -1.0040795 131.76347 -9.1775064 -73.032181 -9.1665058 -73.813194 -0.034639515 -97.952278
9206375000 -1.0041355 131.81862 -9.1631165 -72.980614 -9.1581173 -73.602577 -0.027690101 -97.922066
9206437500 -0.99816972 131.75127 -9.1592216 -72.99308 -9.1604433 -73.661507 -0.035652105 -97.934799
9206500000 -1.0038321 131.76352 -9.1674633 -73.024193 -9.1548357 -73.610786 -0.034385655 -97.89019
9206562500 -1.0065373 131.77983 -9.1653976 -73.066559 -9.1646166 -73.62635 -0.035863813 -97.872643
9206625000 -1.0014915 131.68304 -9.156745 -73.032639 -9.1636829 -73.720497 -0.02875209 -97.838287
9206687500 -1.0074153 131.74178 -9.1640682 -72.997841 -9.1527834 -73.676506 -0.023169806 -97.876282
9206750000 -1.0039009 131.70509 -9.1581774 -72.998436 -9.1599216 -73.614616 -0.035127442 -97.820709
9206812500 -0.99617732 131.70654 -9.1505947 -73.041344 -9.1525717 -73.70948 -0.021903208 -97.85833
9206875000 -1.0112035 131.6757 -9.1589422 -73.035797 -9.1507225 -73.552628 -0.026653623 -97.673798
9206937500 -0.99932235 131.72432 -9.1560574 -72.983391 -9.1613808 -73.662483 -0.034123342 -97.722984
9207000000 -1.0027841 131.6983 -9.161026 -72.989838 -9.1520262 -73.676353 -0.029911382 -97.766075
9207062500 -1.0002649 131.65311 -9.1475229 -72.999657 -9.1621027 -73.598701 -0.038738538 -97.654106
9207125000 -1.0157572 131.63994 -9.1554499 -72.996826 -9.1530685 -73.623756 -0.029344302 -97.67672
9207187500 -1.0016712 131.60355 -9.146843 -73.032959 -9.1522741 -73.663132 -0.035081275 -97.724182
9207250000 -1.0015444 131.59842 -9.1514387 -73.0093 -9.1522007 -73.647858 -0.028032605 -97.719528
9207312500 -1.0063285 131.57385 -9.1576052 -73.086365 -9.140955 -73.602135 -0.029561756 -97.641884
9207375000 -1.010258 131.56427 -9.1536961 -72.998642 -9.145978 -73.653351 -0.031102875 -97.598854
9207437500 -0.99940473 131.62596 -9.1522293 -72.925598 -9.1573544 -73.623611 -0.035107091 -97.579193
9207500000 -1.0097661 131.59921 -9.1580572 -72.966148 -9.1403875 -73.552849 -0.036679499 -97.552826
9207562500 -0.99461317 131.61937 -9.1426468 -72.98243 -9.1404638 -73.642891 -0.037559979 -97.616837
9207625000 -1.0102769 131.47507 -9.1563015 -72.966248 -9.1475973 -73.636269 -0.031521589 -97.498199
9207687500 -1.0059193 131.5464 -9.1404438 -72.935959 -9.1466637 -73.572784 -0.023426875 -97.526764
9207750000 -1.0095434 131.50391 -9.1547689 -72.929039 -9.1378441 -73.64061 -0.033852678 -97.537346
9207812500 -1.0038277 131.52402 -9.1628571 -72.991463 -9.1499395 -73.526825 -0.039674219 -97.479858
9207875000 -1.0012922 131.48593 -9.1590099 -72.932182 -9.1530685 -73.618385 -0.031105306 -97.532066
9207937500 -1.005384 131.43472 -9.1559887 -72.925217 -9.149931 -73.618843 -0.039129466 -97.508148
9208000000 -1.0137135 131.47562 -9.1533108 -72.991714 -9.1490278 -73.570343 -0.034581929 -97.407494
9208062500 -1.0116011 131.44604 -9.1543903 -72.966148 -9.1510782 -73.637222 -0.044406708 -97.460709
9208125000 -1.0094618 131.45587 -9.1495638 -72.992897 -9.1471214 -73.612793 -0.040871855 -97.406174
9208187500 -1.0037887 131.44556 -9.145052 -72.985817 -9.1511955 -73.566933 -0.036897451 -97.428482
9208250000 -1.0189549 131.43408 -9.1520557 -72.882858 -9.1291218 -73.595879 -0.035143383 -97.352577
9208312500 -1.0002649 131.4287 -9.1397257 -72.897224 -9.1221199 -73.564224 -0.034778278 -97.363899
9208375000 -1.0118138 131.37674 -9.1467247 -72.962975 -9.1495342 -73.554565 -0.041622277 -97.291847
9208437500 -1.0101446 131.314 -9.1527596 -72.958733 -9.1424675 -73.546402 -0.045458887 -97.324562
9208500000 -1.0051066 131.28966 -9.1528025 -72.975037 -9.1475544 -73.614052 -0.039056242 -97.333504
9208562500 -1.006379 131.38412 -9.1411676 -72.924263 -9.1457291 -73.552124 -0.037499782 -97.269859
9208625000 -1.003226 131.302 -9.1387596 -72.915771 -9.1368027 -73.529274 -0.045241047 -97.288605
9208687500 -1.0005542 131.29471 -9.1378536 -72.92469 -9.1380672 -73.616241 -0.034281164 -97.250336
9208750000 -1.0071754 131.31453 -9.1372967 -72.893379 -9.1305189 -73.554024 -0.032056458 -97.258286
9208812500 -1.0095414 131.31784 -9.1444817 -72.921478 -9.1423712 -73.586426 -0.033860374 -97.189316
9208875000 -1.0097789 131.26726 -9.1350708 -72.986328 -9.1365652 -73.535957 -0.0344733 -97.181694
9208937500 -1.0090309 131.229 -9.1364479 -72.962364 -9.1326447 -73.537712 -0.040698264 -97.149048
9209000000 -1.0002656 131.23848 -9.1413126 -72.904022 -9.1244612 -73.501869 -0.035300657 -97.215324
9209062500 -1.017471 131.26546 -9.1436357 -72.862236 -9.1371841 -73.589523 -0.039201178 -97.127289
9209125000 -1.0108454 131.21849 -9.1307564 -72.910912 -9.1279631 -73.577972 -0.034625486 -97.090385
9209187500 -1.0052654 131.22166 -9.1302843 -72.965576 -9.138134 -73.497185 -0.035031885 -97.097076
9209250000 -1.0017681 131.16042 -9.128603 -72.975815 -9.1247835 -73.638878 -0.035865344 -97.101906
9209312500 -1.0083207 131.0769 -9.1398487 -72.95208 -9.1367826 -73.559715 -0.049232297 -97.10788
9209375000 -0.99939382 131.17871 -9.1358252 -72.933388 -9.1377678 -73.519524 -0.044798158 -97.058388
9209437500 -1.0148344 131.14146 -9.1353197 -72.823517 -9.1241693 -73.544846 -0.041558854 -96.969833
9209500000 -1.0054861 131.10292 -9.1279774 -72.979584 -9.1286268 -73.529236 -0.03678602 -96.978806
9209562500 -1.0189874 131.1152 -9.1382513 -72.937813 -9.1340361 -73.489906 -0.048119619 -96.936272
9209625000 -1.0052302 131.05783 -9.1243124 -72.965355 -9.1365099 -73.547714 -0.040165316 -97.016083
9209687500 -1.0062408 131.02982 -9.1267204 -72.924919 -9.1235485 -73.560524 -0.033719499 -97.008888
9209750000 -1.0077633 131.03511 -9.1233377 -72.953087 -9.138938 -73.452248 -0.033721477 -96.893539
9209812500 -1.0064865 131.02701 -9.1349602 -72.90049 -9.1317463 -73.522766 -0.042884827 -96.861382
9209875000 -1.0028043 131.02559 -9.1262302 -72.927696 -9.1250706 -73.500793 -0.046647623 -96.89753
9209937500 -1.0087138 131.1087 -9.1421318 -72.940948 -9.135994 -73.558983 -0.045310225 -96.978615
9210000000 -0.99923784 131.06435 -9.1231499 -72.80658 -9.116209 -73.582466 -0.046466906 -96.891258
9210062500 -1.015154 131.02812 -9.1339827 -72.94458 -9.1208944 -73.497215 -0.048802227 -96.835281
9210125000 -1.006461 130.96545 -9.1332245 -72.892082 -9.118207 -73.5532 -0.042371798 -96.857414
9210187500 -1.0087723 130.99164 -9.1256285 -72.885567 -9.1213713 -73.510605 -0.042160235 -96.817749
9210250000 -1.0136274 130.99521 -9.1254969 -72.879196 -9.1201448 -73.512329 -0.049984209 -96.841835
9210312500 -1.0091696 130.94281 -9.1217375 -72.856636 -9.1246538 -73.551834 -0.043557413 -96.867744
9210375000 -1.0082839 130.95522 -9.1279182 -72.885376 -9.1302519 -73.457481 -0.047186688 -96.687042
9210437500 -1.0022577 130.91521 -9.1342773 -72.901421 -9.1201048 -73.606117 -0.041078303 -96.822342
9210500000 -1.0030092 130.91354 -9.124691 -72.884148 -9.1200953 -73.483788 -0.039813776 -96.749962
9210562500 -1.009419 130.87733 -9.1179495 -72.843452 -9.1215639 -73.523659 -0.046529815 -96.689056
9210625000 -1.0093336 130.89967 -9.1400213 -72.893791 -9.1261683 -73.491867 -0.045167156 -96.733269
9210687500 -1.0074106 130.93922 -9.122427 -72.825439 -9.1226349 -73.591537 -0.045686401 -96.684235
9210750000 -1.0108595 130.88019 -9.1189661 -72.921219 -9.1101789 -73.509369 -0.042005438 -96.69519
9210812500 -1.0111396 130.82718 -9.1230459 -72.866516 -9.1231861 -73.473648 -0.055367157 -96.628967
9210875000 -1.0116122 130.84134 -9.1326017 -72.874763 -9.1090651 -73.487495 -0.050654646 -96.655266
9210937500 -1.0096908 130.847 -9.1221476 -72.847557 -9.116313 -73.445267 -0.048921462 -96.649017
9211000000 -1.0031235 130.84406 -9.1153851 -72.864449 -9.1292448 -73.480049 -0.044427212 -96.606255
9211062500 -1.0067118 130.83662 -9.1227789 -72.802025 -9.1135855 -73.502167 -0.055556793 -96.641563
9211125000 -1.0019747 130.80884 -9.1138973 -72.835342 -9.1087599 -73.439224 -0.046026643 -96.566238
9211187500 -1.0180702 130.8076 -9.1246014 -72.816849 -9.1122913 -73.445183 -0.050760102 -96.543655
9211250000 -1.0133833 130.78703 -9.1166153 -72.946983 -9.1206436 -73.448471 -0.038865384 -96.540558
9211312500 -1.0048875 130.76949 -9.1131859 -72.855042 -9.1195688 -73.534386 -0.061904538 -96.559166
9211375000 -1.0114316 130.69084 -9.1170368 -72.867821 -9.123024 -73.538643 -0.05546055 -96.451927
9211437500 -1.0110251 130.71962 -9.1056271 -72.809799 -9.1016874 -73.488045 -0.042293992 -96.470139
9211500000 -1.0130845 130.68076 -9.1156549 -72.861801 -9.102994 -73.501869 -0.044350307 -96.498772
9211562500 -1.0161203 130.7509 -9.1162939 -72.887558 -9.1040239 -73.497604 -0.052314516 -96.4897
9211625000 -1.0079567 130.66185 -9.1063061 -72.923119 -9.0984383 -73.530334 -0.040769152 -96.503868
9211687500 -1.0148388 130.7041 -9.1094666 -72.827942 -9.1058216 -73.479782 -0.048051536 -96.401733
9211750000 -1.012372 130.64084 -9.1068611 -72.797348 -9.1004763 -73.51046 -0.041161399 -96.370384
9211812500 -1.0111718 130.63152 -9.1157694 -72.888916 -9.1092329 -73.458717 -0.051971011 -96.420929
9211875000 -1.0124981 130.59161 -9.1156445 -72.91909 -9.1086407 -73.427795 -0.046193168 -96.320038
9211937500 -1.0071567 130.65913 -9.1067333 -72.844162 -9.1166325 -73.488945 -0.061508864 -96.354301
9212000000 -1.0094877 130.56256 -9.1045923 -72.792786 -9.1036997 -73.44622 -0.051123731 -96.310432
9212062500 -1.0066875 130.57227 -9.1074362 -72.747963 -9.1001263 -73.479408 -0.054690231 -96.344086
9212125000 -1.0137498 130.49449 -9.1021872 -72.899727 -9.1221266 -73.492439 -0.056010529 -96.274956
9212187500 -0.99888104 130.57091 -9.090848 -72.777428 -9.095952 -73.479179 -0.056212232 -96.277069
