!Agilent Technologies,N5242A,MY51221714,A.09.90.19
!Agilent N5242A: A.09.90.19
!Date: Tuesday, March 26, 2024 15:44:21
!Correction: S11(Full 2 Port(1,2)) 
!S21(Full 2 Port(1,2)) 
!S12(Full 2 Port(1,2)) 
!S22(Full 2 Port(1,2)) 
!S2P File: Measurements: S11, S21, S12, S22:
# Hz S  dB   R 50
9200000000 -1.0668561 133.1769 -9.2270861 -74.12178 -9.2258825 -74.831482 -0.060670014 -100.71005
9200062500 -1.0666914 133.15016 -9.2284203 -74.118866 -9.2245464 -74.71257 -0.051015727 -100.58802
9200125000 -1.0620736 133.14008 -9.2219315 -74.085495 -9.2234278 -74.716202 -0.056887299 -100.58293
9200187500 -1.0742557 133.1573 -9.2404499 -74.054596 -9.2246828 -74.808128 -0.045170799 -100.62546
9200250000 -1.061394 133.11246 -9.2193909 -74.14093 -9.2195578 -74.793076 -0.049944777 -100.62945
9200312500 -1.0753081 133.1344 -9.2277298 -74.10041 -9.2201605 -74.732666 -0.054050617 -100.58328
9200375000 -1.067595 133.07779 -9.2238979 -74.118217 -9.2256155 -74.929359 -0.053189952 -100.57864
9200437500 -1.0700581 133.09685 -9.2211781 -74.094437 -9.2161741 -74.781754 -0.049143787 -100.54292
9200500000 -1.0643048 133.01967 -9.2209101 -74.115623 -9.2214508 -74.707352 -0.060122788 -100.51785
9200562500 -1.0625532 133.00323 -9.2203875 -74.13343 -9.2257671 -74.771507 -0.052096378 -100.57616
9200625000 -1.0730517 133.01505 -9.2330437 -74.172523 -9.2284184 -74.743797 -0.0581926 -100.5164
9200687500 -1.060426 133.04909 -9.2170782 -74.007088 -9.2243509 -74.780464 -0.055777188 -100.50696
9200750000 -1.0675126 132.97905 -9.2210531 -74.155251 -9.2186985 -74.761063 -0.05377527 -100.49359
9200812500 -1.0792694 133.00687 -9.2273741 -74.0625 -9.2255116 -74.739586 -0.070352636 -100.44372
9200875000 -1.0619863 133.08426 -9.2178764 -74.022896 -9.2265158 -74.701981 -0.062761001 -100.4765
9200937500 -1.0639863 132.97635 -9.2301331 -74.072235 -9.2149887 -74.722076 -0.051262587 -100.40408
9201000000 -1.0639467 132.98343 -9.2161179 -74.136292 -9.211688 -74.762344 -0.056348443 -100.45066
9201062500 -1.061723 132.96825 -9.2069016 -74.024933 -9.2153883 -74.762787 -0.060348433 -100.37321
9201125000 -1.0659896 132.96562 -9.2120066 -74.058846 -9.219367 -74.761536 -0.058372661 -100.36286
9201187500 -1.0762659 132.88466 -9.2201109 -74.046913 -9.2140589 -74.723236 -0.066319451 -100.27016
9201250000 -1.0710088 132.95677 -9.2095995 -74.036491 -9.2238359 -74.730537 -0.066553697 -100.34239
9201312500 -1.0769271 132.9287 -9.2183008 -74.005692 -9.2149038 -74.788185 -0.056954395 -100.34567
9201375000 -1.0756335 132.8896 -9.2165079 -74.009209 -9.215766 -74.691093 -0.067966297 -100.25119
9201437500 -1.0672505 132.85547 -9.2155104 -74.036247 -9.2239237 -74.67997 -0.063921809 -100.28356
9201500000 -1.0655947 132.85011 -9.2083645 -74.041466 -9.2118559 -74.666901 -0.054976568 -100.28008
9201562500 -1.0722606 132.81696 -9.2303963 -74.032951 -9.2191896 -74.688316 -0.070396431 -100.26328
9201625000 -1.0662688 132.8394 -9.2081661 -74.019043 -9.212656 -74.718422 -0.073004052 -100.20689
9201687500 -1.0689471 132.79475 -9.2091589 -73.951118 -9.2081766 -74.666428 -0.067153499 -100.12743
9201750000 -1.0690755 132.78979 -9.2128582 -74.015038 -9.2101145 -74.718933 -0.055024873 -100.18925
9201812500 -1.06794 132.82796 -9.2240305 -74.006256 -9.2104473 -74.668938 -0.069847912 -100.21301
9201875000 -1.0718275 132.75026 -9.2095575 -74.082932 -9.2081871 -74.751343 -0.058992483 -100.14741
9201937500 -1.0805233 132.77078 -9.2151432 -74.004295 -9.2000837 -74.778625 -0.059470862 -100.20608
9202000000 -1.0717224 132.74466 -9.1960697 -73.999825 -9.2051191 -74.704071 -0.058164191 -100.11462
9202062500 -1.0784609 132.75883 -9.2010784 -74.037827 -9.200799 -74.683182 -0.050355788 -100.06302
9202125000 -1.0751771 132.74419 -9.2239819 -74.064995 -9.2153111 -74.690147 -0.070549719 -100.14575
9202187500 -1.0664077 132.70998 -9.1981421 -74.042099 -9.2098255 -74.707451 -0.057453115 -100.06216
9202250000 -1.0702243 132.74168 -9.2143097 -74.022781 -9.2075615 -74.654228 -0.069373377 -100.0404
9202312500 -1.0734023 132.69334 -9.2174425 -74.012405 -9.1976776 -74.710663 -0.061161608 -100.03938
9202375000 -1.0710933 132.65909 -9.2154169 -74.038628 -9.1913528 -74.715645 -0.062201943 -99.967316
9202437500 -1.0702746 132.68814 -9.2135696 -73.978043 -9.2044029 -74.705353 -0.058270227 -100.03073
9202500000 -1.0788455 132.63269 -9.2037554 -74.062958 -9.2110558 -74.689812 -0.066107884 -100.03431
9202562500 -1.0686181 132.63191 -9.2041035 -74.034447 -9.1999369 -74.698318 -0.065750413 -99.97403
9202625000 -1.0729282 132.64008 -9.2040071 -74.04538 -9.2063904 -74.673698 -0.065197088 -99.961899
9202687500 -1.069458 132.61006 -9.2042999 -74.00206 -9.1992836 -74.685638 -0.060988311 -99.863762
9202750000 -1.0643342 132.52859 -9.2026615 -74.035393 -9.2020445 -74.741539 -0.062100243 -99.96566
9202812500 -1.0730561 132.56885 -9.210062 -74.005173 -9.1879597 -74.702599 -0.062556036 -99.860321
9202875000 -1.0659367 132.5619 -9.2010212 -73.954254 -9.1991367 -74.681236 -0.064648017 -99.840431
9202937500 -1.0655804 132.52339 -9.1864233 -74.068024 -9.1952372 -74.700874 -0.05868214 -99.898201
9203000000 -1.0744245 132.57695 -9.2020187 -73.989006 -9.1994686 -74.655663 -0.066182211 -99.803261
9203062500 -1.0718125 132.48653 -9.1990509 -73.941605 -9.2019634 -74.647156 -0.077559263 -99.825272
9203125000 -1.0709647 132.49521 -9.1951027 -74.02652 -9.1877098 -74.704803 -0.066710852 -99.83622
9203187500 -1.0743854 132.51004 -9.2032089 -74.040428 -9.1836615 -74.737885 -0.059986353 -99.82225
9203250000 -1.0714484 132.48572 -9.2003336 -74.032051 -9.1861439 -74.637642 -0.062271982 -99.75901
9203312500 -1.0769235 132.50569 -9.1950798 -74.023376 -9.1871471 -74.73439 -0.054044466 -99.777466
9203375000 -1.0716978 132.43597 -9.1945419 -74.008827 -9.1909475 -74.726074 -0.060534041 -99.747688
9203437500 -1.082829 132.47075 -9.2054443 -74.050903 -9.1985912 -74.637062 -0.068078898 -99.753456
9203500000 -1.0665852 132.4238 -9.1917839 -73.986855 -9.1935015 -74.680946 -0.065098368 -99.730064
9203562500 -1.0754566 132.38905 -9.1967974 -74.035385 -9.19526 -74.625137 -0.073440827 -99.687485
9203625000 -1.078141 132.38431 -9.2032385 -74.044899 -9.1859198 -74.657402 -0.06519302 -99.74707
9203687500 -1.0786375 132.39677 -9.206418 -74.008499 -9.1961164 -74.671768 -0.072210886 -99.67305
9203750000 -1.0721202 132.37346 -9.1913137 -73.96431 -9.1952276 -74.664764 -0.056951255 -99.647354
9203812500 -1.0708143 132.42117 -9.1844196 -73.991013 -9.1962862 -74.72332 -0.070855953 -99.617088
9203875000 -1.0691297 132.37067 -9.193018 -73.985298 -9.1950254 -74.639221 -0.088013567 -99.613358
9203937500 -1.0771626 132.34535 -9.1839075 -73.98761 -9.1865044 -74.610725 -0.066538736 -99.591408
9204000000 -1.0720447 132.33165 -9.1831837 -74.000481 -9.1861582 -74.614685 -0.069949158 -99.529228
9204062500 -1.0688199 132.30396 -9.1816311 -73.97863 -9.1832771 -74.664284 -0.075627148 -99.543373
9204125000 -1.0756786 132.33549 -9.1882744 -73.988777 -9.187645 -74.631859 -0.067266256 -99.523712
9204187500 -1.0775673 132.26595 -9.2024832 -73.981178 -9.1909399 -74.662605 -0.08462213 -99.518707
9204250000 -1.0742217 132.30396 -9.1817598 -73.951981 -9.1787167 -74.646439 -0.071213298 -99.518105
9204312500 -1.0704063 132.30299 -9.1930265 -74.007675 -9.1822863 -74.676819 -0.074858502 -99.425423
9204375000 -1.0643914 132.23792 -9.179245 -74.036232 -9.1791363 -74.691292 -0.070241272 -99.539993
9204437500 -1.0797946 132.24217 -9.183445 -74.03862 -9.184804 -74.619194 -0.072891071 -99.477188
9204500000 -1.0778177 132.2166 -9.1810141 -74.036453 -9.1954594 -74.703972 -0.071689591 -99.478859
9204562500 -1.0733554 132.20947 -9.1848049 -74.019485 -9.1865206 -74.622719 -0.066037662 -99.47612
9204625000 -1.0631386 132.18684 -9.1734295 -73.921013 -9.1788092 -74.672768 -0.071592957 -99.354492
9204687500 -1.0763367 132.17462 -9.1874189 -73.929718 -9.1858177 -74.660065 -0.071286544 -99.376648
9204750000 -1.0817181 132.16841 -9.1843386 -73.922844 -9.183794 -74.63089 -0.080783941 -99.380989
9204812500 -1.0694805 132.1136 -9.1785631 -74.021324 -9.1723194 -74.683418 -0.064349987 -99.398216
9204875000 -1.074121 132.1879 -9.18363 -73.964951 -9.1982393 -74.641129 -0.077709176 -99.43605
9204937500 -1.0752022 132.12485 -9.1743622 -73.998802 -9.1656332 -74.708305 -0.060445633 -99.323051
9205000000 -1.0662456 132.07217 -9.180541 -73.931007 -9.1789989 -74.558586 -0.083752528 -99.259499
9205062500 -1.0734754 132.10167 -9.1830244 -73.989914 -9.163229 -74.68515 -0.073944129 -99.303612
9205125000 -1.0750287 132.10629 -9.184432 -73.926437 -9.1737804 -74.573471 -0.078141466 -99.198921
9205187500 -1.0781287 132.10065 -9.1805239 -73.891159 -9.1796961 -74.628555 -0.072592512 -99.220886
9205250000 -1.0702994 132.02083 -9.181941 -74.032379 -9.1861362 -74.613823 -0.082426548 -99.283867
9205312500 -1.0765232 132.1066 -9.1747551 -73.899742 -9.1657362 -74.600548 -0.075359322 -99.248009
9205375000 -1.0699126 132.01384 -9.1698151 -74.024872 -9.1738863 -74.673363 -0.068659417 -99.211517
9205437500 -1.0650347 131.98613 -9.1717014 -73.932137 -9.1703396 -74.603706 -0.072422422 -99.181946
9205500000 -1.0797045 131.94101 -9.1762486 -73.952232 -9.173811 -74.661018 -0.068503268 -99.124573
9205562500 -1.0790662 131.97455 -9.1715422 -73.951485 -9.1762438 -74.674835 -0.071992606 -99.154106
9205625000 -1.0809847 131.97998 -9.177803 -73.932014 -9.1717339 -74.627724 -0.076201543 -99.118019
9205687500 -1.0710323 132.007 -9.16605 -73.878151 -9.1696453 -74.609077 -0.07301303 -99.02301
9205750000 -1.0789456 131.90387 -9.1681528 -73.965981 -9.1686258 -74.665298 -0.07009837 -99.075813
9205812500 -1.0790249 131.90863 -9.168519 -73.983231 -9.1721182 -74.59491 -0.078749664 -99.042625
9205875000 -1.0671806 131.96039 -9.1750469 -73.928551 -9.1790524 -74.589066 -0.083484896 -99.084137
9205937500 -1.07847 131.90616 -9.1668673 -74.003952 -9.1618404 -74.582954 -0.074775077 -99.049225
9206000000 -1.0764132 131.88914 -9.1623621 -73.951233 -9.1613207 -74.612038 -0.070645936 -98.996643
9206062500 -1.0720692 131.89973 -9.1739569 -73.954147 -9.1745968 -74.630066 -0.080132939 -99.021385
9206125000 -1.0725412 131.86737 -9.163065 -73.96328 -9.1601181 -74.551849 -0.07672707 -98.949768
9206187500 -1.0739316 131.85895 -9.1646461 -73.903976 -9.1593037 -74.560356 -0.066144519 -98.960373
9206250000 -1.0793672 131.80814 -9.175909 -73.972733 -9.1588583 -74.541206 -0.072341777 -98.927208
9206312500 -1.0788397 131.80829 -9.1664925 -73.945175 -9.163805 -74.688087 -0.070982024 -98.99395
9206375000 -1.0778214 131.81142 -9.1707382 -73.940475 -9.1599131 -74.563171 -0.074691609 -98.923279
9206437500 -1.0791166 131.78214 -9.1736746 -73.970634 -9.1587944 -74.655746 -0.068948865 -98.967567
9206500000 -1.0795971 131.7751 -9.1717472 -73.97525 -9.1582842 -74.581436 -0.082010493 -98.948044
9206562500 -1.0774103 131.80469 -9.1636057 -74.047882 -9.1655607 -74.533142 -0.075511813 -98.904518
9206625000 -1.0788145 131.68919 -9.1521349 -74.002563 -9.1546574 -74.729897 -0.074059159 -98.916512
9206687500 -1.082006 131.73422 -9.1676989 -73.976868 -9.1638966 -74.655853 -0.075293578 -98.940895
9206750000 -1.0755614 131.74417 -9.1566153 -73.926666 -9.1665478 -74.616844 -0.085219346 -98.870499
9206812500 -1.0756528 131.74078 -9.1650639 -73.937195 -9.1652622 -74.639801 -0.077618115 -98.868538
9206875000 -1.074352 131.73608 -9.1552792 -73.898956 -9.1615057 -74.565079 -0.077827767 -98.758347
9206937500 -1.0743897 131.70892 -9.1544151 -73.881744 -9.1614685 -74.579865 -0.083162226 -98.752335
9207000000 -1.0767026 131.67072 -9.1560354 -73.938728 -9.1652651 -74.575104 -0.07878007 -98.749367
9207062500 -1.0794151 131.69989 -9.1511383 -73.935699 -9.1474457 -74.594856 -0.072931774 -98.657829
9207125000 -1.0885847 131.591 -9.1446714 -74.017159 -9.1522169 -74.626114 -0.075760789 -98.665741
9207187500 -1.0767012 131.63181 -9.1481686 -73.967087 -9.1578665 -74.587372 -0.080535762 -98.737999
9207250000 -1.0692335 131.62048 -9.1396484 -73.882553 -9.1515799 -74.612823 -0.067107417 -98.764816
9207312500 -1.0711508 131.57568 -9.1477556 -74.01709 -9.1484613 -74.582596 -0.068542741 -98.718758
9207375000 -1.0814292 131.57162 -9.1543455 -73.916992 -9.1444387 -74.61306 -0.080247216 -98.668221
9207437500 -1.0696591 131.63609 -9.1412086 -73.929169 -9.165863 -74.542831 -0.080122992 -98.626183
9207500000 -1.0831492 131.62621 -9.1605606 -73.87075 -9.1429853 -74.563301 -0.087011091 -98.621048
9207562500 -1.0767744 131.58154 -9.1490726 -73.940804 -9.1446772 -74.499687 -0.079347551 -98.595161
9207625000 -1.0769585 131.49182 -9.1531315 -73.902054 -9.1551189 -74.548157 -0.084131666 -98.552406
9207687500 -1.0842856 131.53513 -9.1441402 -73.855721 -9.1419296 -74.625748 -0.070254698 -98.613319
9207750000 -1.0771879 131.50708 -9.1529589 -73.899834 -9.1413574 -74.546844 -0.069666542 -98.584267
9207812500 -1.0790259 131.51482 -9.147294 -73.937637 -9.1484203 -74.564026 -0.089052066 -98.571526
9207875000 -1.0726784 131.4957 -9.1596317 -73.86721 -9.1362877 -74.530479 -0.070908442 -98.474823
9207937500 -1.0815688 131.4469 -9.1584244 -73.892357 -9.1462526 -74.616982 -0.088996291 -98.552879
9208000000 -1.0886623 131.45804 -9.1517754 -73.908241 -9.1549549 -74.506828 -0.087270319 -98.469093
9208062500 -1.0803584 131.45047 -9.1565495 -73.894402 -9.1515722 -74.513786 -0.078770757 -98.460426
9208125000 -1.0803732 131.43063 -9.146225 -73.968391 -9.1451788 -74.575462 -0.077840067 -98.445686
9208187500 -1.0750469 131.43697 -9.1503334 -73.928886 -9.1432161 -74.535591 -0.074187256 -98.446381
9208250000 -1.086733 131.42122 -9.1412058 -73.870071 -9.1345949 -74.561623 -0.074208997 -98.421082
9208312500 -1.078492 131.463 -9.1565275 -73.863029 -9.1333761 -74.563995 -0.076465875 -98.407494
9208375000 -1.082945 131.3996 -9.1506071 -73.890648 -9.140976 -74.513466 -0.079643957 -98.341698
9208437500 -1.077297 131.2899 -9.1471996 -73.935211 -9.1447935 -74.50029 -0.086090803 -98.345154
9208500000 -1.0858803 131.30324 -9.1631813 -73.905434 -9.1441526 -74.567482 -0.088443086 -98.334557
9208562500 -1.0784601 131.35054 -9.134738 -73.875526 -9.1377344 -74.545135 -0.082982503 -98.310822
9208625000 -1.077001 131.30179 -9.1300735 -73.882729 -9.1314974 -74.491394 -0.0870094 -98.341087
9208687500 -1.0729336 131.29424 -9.1250906 -73.884872 -9.1412449 -74.555962 -0.079764448 -98.30674
9208750000 -1.0775752 131.32535 -9.1438532 -73.84845 -9.1391888 -74.489227 -0.082921386 -98.270409
9208812500 -1.0772984 131.34358 -9.1500902 -73.910591 -9.1375561 -74.635857 -0.078797251 -98.335747
9208875000 -1.0797665 131.2558 -9.1340456 -73.908424 -9.1384287 -74.504761 -0.076495163 -98.259918
9208937500 -1.083902 131.2765 -9.1403351 -73.899742 -9.1369562 -74.541924 -0.085622475 -98.243408
9209000000 -1.0692546 131.24158 -9.1452866 -73.865631 -9.1327333 -74.508789 -0.088778466 -98.208763
9209062500 -1.0863841 131.25708 -9.142683 -73.85244 -9.13974 -74.522598 -0.087550871 -98.193535
9209125000 -1.082767 131.21567 -9.1330194 -73.873451 -9.1386995 -74.542107 -0.081133217 -98.163696
9209187500 -1.0777557 131.25365 -9.1299772 -73.889565 -9.1327038 -74.491592 -0.079199515 -98.189224
9209250000 -1.0737332 131.20523 -9.1322851 -73.843422 -9.131711 -74.573738 -0.089769781 -98.099365
9209312500 -1.0793779 131.14021 -9.1426468 -73.8629 -9.1328478 -74.567001 -0.091117874 -98.117317
9209375000 -1.0728011 131.18393 -9.1390314 -73.866219 -9.137146 -74.495682 -0.087950058 -98.109436
9209437500 -1.082988 131.1185 -9.1323109 -73.866768 -9.1265297 -74.568993 -0.081238106 -98.018051
9209500000 -1.0780249 131.13644 -9.1272163 -73.888641 -9.1249399 -74.546539 -0.084217444 -98.046837
9209562500 -1.0829601 131.12134 -9.1345806 -73.883255 -9.1330862 -74.48539 -0.092125125 -98.004539
9209625000 -1.0871404 131.05307 -9.1309271 -73.912903 -9.1267195 -74.548134 -0.078562245 -98.036682
9209687500 -1.0783091 131.01231 -9.123601 -73.851517 -9.1359406 -74.474922 -0.088788427 -97.992218
9209750000 -1.0774586 131.05032 -9.1199751 -73.979164 -9.1324959 -74.492836 -0.084710263 -97.99369
9209812500 -1.0833589 131.05309 -9.1357899 -73.855003 -9.132576 -74.516006 -0.089326404 -97.969337
9209875000 -1.0834873 131.00711 -9.1280794 -73.855652 -9.1238985 -74.506393 -0.088258326 -97.92746
9209937500 -1.0810894 131.13594 -9.1468649 -73.78241 -9.1344061 -74.460243 -0.091710098 -97.98204
9210000000 -1.0697536 131.05211 -9.1187391 -73.800652 -9.1243258 -74.452698 -0.10039989 -97.889595
9210062500 -1.0819936 131.02745 -9.1197891 -73.855202 -9.1268492 -74.476135 -0.094950914 -97.90509
9210125000 -1.0774456 130.99634 -9.1339512 -73.788757 -9.1205626 -74.482254 -0.084848762 -97.891174
9210187500 -1.0763495 131.01511 -9.1215496 -73.783615 -9.1184015 -74.467033 -0.089044832 -97.812958
9210250000 -1.0884434 131.00644 -9.1193008 -73.888634 -9.1138668 -74.399971 -0.090294331 -97.849335
9210312500 -1.0897082 130.96837 -9.135149 -73.812141 -9.1331692 -74.559509 -0.09536849 -97.924599
9210375000 -1.0805774 130.97984 -9.1281414 -73.808853 -9.1202812 -74.467262 -0.082284749 -97.746536
9210437500 -1.0750147 130.93484 -9.1275816 -73.86161 -9.1166239 -74.588402 -0.081281394 -97.856812
9210500000 -1.0747265 130.9104 -9.1208229 -73.894745 -9.1097698 -74.561623 -0.077151485 -97.833725
9210562500 -1.0802224 130.91042 -9.116188 -73.792511 -9.1194 -74.520401 -0.089513361 -97.714989
9210625000 -1.0805017 130.85811 -9.1311274 -73.865158 -9.1205378 -74.425659 -0.091943838 -97.783112
9210687500 -1.0784118 130.87697 -9.122366 -73.846184 -9.119976 -74.522118 -0.092238523 -97.707001
9210750000 -1.0841837 130.87836 -9.1225681 -73.831062 -9.1165476 -74.458977 -0.086547494 -97.706238
9210812500 -1.0880681 130.82806 -9.1273193 -73.858528 -9.117589 -74.421051 -0.098320931 -97.676231
9210875000 -1.0823647 130.85919 -9.1260347 -73.840385 -9.1189127 -74.470726 -0.10459681 -97.745544
9210937500 -1.0778692 130.86685 -9.1123953 -73.763168 -9.1221323 -74.47007 -0.099595785 -97.647575
9211000000 -1.0809956 130.88211 -9.1218424 -73.786423 -9.1255102 -74.478279 -0.09349601 -97.685303
9211062500 -1.0798216 130.82556 -9.119091 -73.73999 -9.1164837 -74.449196 -0.094353296 -97.651436
9211125000 -1.075254 130.75618 -9.1091042 -73.87606 -9.101675 -74.483688 -0.081935704 -97.642639
9211187500 -1.0890815 130.77325 -9.122427 -73.815948 -9.1107969 -74.471428 -0.094132312 -97.640053
9211250000 -1.0820844 130.77744 -9.1079168 -73.813576 -9.1168671 -74.425842 -0.091301337 -97.595039
9211312500 -1.0777665 130.75214 -9.1115313 -73.826645 -9.1163712 -74.476158 -0.096139759 -97.622177
9211375000 -1.0800005 130.70488 -9.111763 -73.835732 -9.1148195 -74.530075 -0.095058002 -97.537285
9211437500 -1.0799569 130.71146 -9.0952463 -73.777382 -9.1144981 -74.443527 -0.090507977 -97.518105
9211500000 -1.0898271 130.7085 -9.112566 -73.865608 -9.1135674 -74.479843 -0.094386578 -97.578453
9211562500 -1.0906976 130.73756 -9.1168003 -73.798836 -9.1080751 -74.436394 -0.098972708 -97.517029
9211625000 -1.0819547 130.63344 -9.1037788 -73.893913 -9.1000071 -74.500511 -0.0916868 -97.506889
9211687500 -1.0883726 130.67418 -9.1145306 -73.827492 -9.1060896 -74.448456 -0.10274354 -97.452263
9211750000 -1.0817276 130.63318 -9.1012049 -73.790131 -9.1071062 -74.504341 -0.082074828 -97.438248
9211812500 -1.0915396 130.62143 -9.124896 -73.850929 -9.1046858 -74.488106 -0.10255623 -97.460365
9211875000 -1.0912105 130.60448 -9.1117992 -73.854843 -9.0990696 -74.410141 -0.090883873 -97.312767
9211937500 -1.0799731 130.64656 -9.1116467 -73.768936 -9.096343 -74.394684 -0.10188707 -97.378258
9212000000 -1.0794829 130.53555 -9.0931263 -73.794792 -9.1040277 -74.461449 -0.098333433 -97.384178
9212062500 -1.0794284 130.5417 -9.1105871 -73.774651 -9.1077528 -74.451065 -0.10558441 -97.379677
9212125000 -1.0783184 130.48534 -9.0992241 -73.870575 -9.1169014 -74.497917 -0.096810952 -97.32959
9212187500 -1.0728934 130.52319 -9.099103 -73.741478 -9.101676 -74.473083 -0.10768089 -97.325829
