!Agilent Technologies,N5242A,MY51221714,A.09.90.19
!Agilent N5242A: A.09.90.19
!Date: Tuesday, March 26, 2024 15:36:05
!Correction: S11(Full 2 Port(1,2)) 
!S21(Full 2 Port(1,2)) 
!S12(Full 2 Port(1,2)) 
!S22(Full 2 Port(1,2)) 
!S2P File: Measurements: S11, S21, S12, S22:
# Hz S  dB   R 50
9200000000 -0.97805911 133.25153 -9.2332964 -73.090942 -9.2249317 -73.633659 0.013853518 -99.562195
9200062500 -0.97777325 133.26884 -9.226202 -73.01403 -9.2326212 -73.665535 0.015271553 -99.55455
9200125000 -0.98351479 133.2285 -9.2340069 -73.057816 -9.2221308 -73.59465 0.012325794 -99.493111
9200187500 -0.9947626 133.29051 -9.2394133 -72.962387 -9.2352362 -73.67395 0.019939227 -99.498528
9200250000 -0.97432339 133.21616 -9.2253208 -73.055099 -9.2293024 -73.600258 0.015531225 -99.529388
9200312500 -0.98190522 133.21634 -9.2352266 -73.006523 -9.2266626 -73.668129 0.018731877 -99.514221
9200375000 -0.98610705 133.15367 -9.2330074 -72.993423 -9.2342892 -73.714096 0.017829485 -99.424286
9200437500 -0.97732311 133.20084 -9.2254725 -73.002167 -9.2297974 -73.632149 0.02339102 -99.454987
9200500000 -0.97265601 133.12796 -9.2247972 -73.023949 -9.226016 -73.59523 0.0099104848 -99.420044
9200562500 -0.9738332 133.14391 -9.2257185 -72.97213 -9.237628 -73.623558 0.015974237 -99.409325
9200625000 -0.98250145 133.11824 -9.2289877 -73.028534 -9.2147884 -73.610054 0.022080828 -99.374168
9200687500 -0.97167546 133.14752 -9.2248859 -72.942497 -9.2320251 -73.69928 0.012899264 -99.386787
9200750000 -0.97711998 133.07472 -9.2228365 -73.083641 -9.2250633 -73.601303 0.014558173 -99.369492
9200812500 -0.99363774 133.07613 -9.233799 -73.045311 -9.231431 -73.644096 0.00062853249 -99.351959
9200875000 -0.97587061 133.15831 -9.2209625 -72.968788 -9.2317734 -73.585144 0.0073365546 -99.36821
9200937500 -0.978513 133.05385 -9.2247124 -73.040298 -9.2166634 -73.609993 0.020156186 -99.309341
9201000000 -0.97927868 133.09842 -9.2318182 -73.024826 -9.2142258 -73.710434 0.01851536 -99.344398
9201062500 -0.97504032 133.06436 -9.2220154 -72.971436 -9.2147799 -73.638771 0.01058016 -99.262848
9201125000 -0.98092657 133.03455 -9.2249537 -72.982841 -9.2326365 -73.572975 0.0026073877 -99.243896
9201187500 -0.97981369 132.93808 -9.2261591 -72.996613 -9.2141104 -73.58474 0.012666615 -99.151939
9201250000 -0.98187017 133.03279 -9.2162609 -72.933426 -9.2290487 -73.519135 0.0064575672 -99.156563
9201312500 -0.99149573 132.98566 -9.2264643 -73.01709 -9.2197342 -73.59108 0.016772058 -99.238182
9201375000 -0.98947424 132.97318 -9.2298679 -72.902328 -9.2225599 -73.541084 -0.00048746189 -99.133286
9201437500 -0.97953957 132.92627 -9.2259264 -72.999893 -9.2307825 -73.601357 0.0036893415 -99.222588
9201500000 -0.98592764 132.96057 -9.2222462 -72.939522 -9.2321777 -73.577705 0.0043183169 -99.168388
9201562500 -0.98296511 132.91945 -9.2215958 -72.933594 -9.2298403 -73.592621 -0.0038611435 -99.156792
9201625000 -0.97896349 132.95374 -9.2254705 -72.877411 -9.2104044 -73.590904 0.0038028266 -99.06443
9201687500 -0.99300945 132.89206 -9.2231178 -72.946152 -9.2088957 -73.575226 0.012704075 -99.039818
9201750000 -0.99027294 132.90555 -9.2253885 -72.929146 -9.2036123 -73.56749 0.024252739 -99.050842
9201812500 -0.97978652 132.87515 -9.2199659 -72.951561 -9.2189064 -73.546059 -0.0047700135 -99.109474
9201875000 -0.9837122 132.83934 -9.211978 -72.974823 -9.213727 -73.569466 0.017522559 -98.995758
9201937500 -0.99173129 132.82208 -9.2278891 -72.943146 -9.2139816 -73.616974 0.011278627 -99.091209
9202000000 -0.98609757 132.84116 -9.2168007 -72.919235 -9.2107983 -73.612373 0.013149607 -98.993637
9202062500 -0.98641098 132.81551 -9.2105732 -72.952972 -9.2100534 -73.619659 0.014516469 -99.006104
9202125000 -0.98640782 132.82784 -9.2283278 -72.905228 -9.2166729 -73.522049 -0.0027722686 -98.988808
9202187500 -0.98398137 132.81686 -9.2131653 -72.992714 -9.2179317 -73.577682 0.0063486868 -98.941452
9202250000 -0.98274815 132.76364 -9.2109785 -72.924019 -9.2091618 -73.482399 0.0027836566 -98.915985
9202312500 -0.98545998 132.76407 -9.2261276 -72.93705 -9.2124748 -73.588989 0.0051967092 -98.939201
9202375000 -0.98399884 132.73947 -9.2189999 -72.959412 -9.2055693 -73.637535 0.0059370403 -98.880531
9202437500 -0.98208022 132.81111 -9.209198 -72.93055 -9.2113609 -73.633347 0.012109857 -98.976044
9202500000 -0.99264824 132.73224 -9.2184525 -72.956131 -9.2173185 -73.570396 0.0094149904 -98.909088
9202562500 -0.97858435 132.72241 -9.2166414 -72.876213 -9.212923 -73.578728 -0.0015471808 -98.904541
9202625000 -0.98508644 132.7708 -9.2133837 -72.98774 -9.204628 -73.529671 0.0066460227 -98.811234
9202687500 -0.98092026 132.70004 -9.1982298 -72.951172 -9.2044373 -73.560204 0.019913802 -98.797981
9202750000 -0.97516418 132.61758 -9.1991568 -72.966431 -9.200058 -73.591362 0.0045224377 -98.823547
9202812500 -0.98800123 132.63858 -9.2025385 -72.972008 -9.2032003 -73.615479 0.012639008 -98.759117
9202875000 -0.97808039 132.64275 -9.2072144 -72.900375 -9.1980362 -73.526375 0.010111341 -98.76358
9202937500 -0.97724009 132.63876 -9.2045984 -73.000267 -9.2040138 -73.49485 0.0092501557 -98.708626
9203000000 -0.98523295 132.67088 -9.2154684 -72.964516 -9.2108917 -73.55825 0.0030969409 -98.672096
9203062500 -0.98005784 132.60115 -9.2073488 -72.967117 -9.2026682 -73.526451 0.0041193026 -98.723091
9203125000 -0.98350847 132.56465 -9.2069178 -72.959808 -9.1946192 -73.569633 0.0044378396 -98.698784
9203187500 -0.98318815 132.59293 -9.2174044 -72.943604 -9.2039108 -73.597237 0.0039906725 -98.693588
9203250000 -0.98548222 132.55124 -9.2063026 -72.945572 -9.2077932 -73.550209 0.0050718235 -98.690811
9203312500 -0.99353576 132.59044 -9.2099247 -72.905457 -9.1948814 -73.533463 0.015994135 -98.647079
9203375000 -0.98617905 132.57349 -9.2144156 -72.917259 -9.1915464 -73.562134 0.013166166 -98.608681
9203437500 -0.98811841 132.57304 -9.2155333 -72.959824 -9.2021799 -73.530128 0.0074661314 -98.641266
9203500000 -0.98134077 132.51259 -9.1964722 -72.961372 -9.202054 -73.520905 0.011518892 -98.593552
9203562500 -0.9909873 132.53868 -9.2122355 -72.882706 -9.2079411 -73.576836 -0.0034213439 -98.653831
9203625000 -0.99146354 132.47943 -9.2204208 -72.994583 -9.2078648 -73.524246 0.00576371 -98.62149
9203687500 -0.99011225 132.48866 -9.2092276 -72.953453 -9.2140589 -73.523247 -0.0023273292 -98.53756
9203750000 -0.9882136 132.45775 -9.2026634 -72.911003 -9.2007799 -73.464516 0.01319538 -98.514145
9203812500 -0.98796165 132.44884 -9.1929865 -72.909309 -9.1971292 -73.571869 -0.0021600362 -98.51004
9203875000 -0.9828583 132.44766 -9.20403 -72.902618 -9.2023106 -73.489563 -0.01251043 -98.492775
9203937500 -0.98592836 132.43507 -9.1878319 -72.927643 -9.1940584 -73.490501 0.0046963473 -98.505516
9204000000 -0.98666722 132.42934 -9.2017879 -72.877838 -9.2034044 -73.538353 0.00099845254 -98.472374
9204062500 -0.9792757 132.41814 -9.2040768 -72.88031 -9.190546 -73.489021 -0.0040834695 -98.432747
9204125000 -0.98887002 132.40031 -9.1944017 -72.946899 -9.1856899 -73.554344 0.0097694295 -98.446014
9204187500 -0.99383938 132.34209 -9.1997786 -72.872566 -9.1982002 -73.563347 -0.0079794051 -98.438484
9204250000 -0.98979771 132.32426 -9.1938095 -72.908379 -9.1977215 -73.507607 0.0017479266 -98.433632
9204312500 -0.98809773 132.368 -9.2025452 -72.852524 -9.1928196 -73.476425 0.0041093561 -98.299149
9204375000 -0.97893548 132.32349 -9.1916809 -72.967819 -9.1907234 -73.560234 0.0039465334 -98.408463
9204437500 -0.99705976 132.35606 -9.1928415 -72.916206 -9.1883802 -73.521881 0.0091954963 -98.335678
9204500000 -0.99042308 132.32111 -9.1979561 -72.946342 -9.1958818 -73.535988 0.00058589899 -98.372284
9204562500 -0.98473763 132.25615 -9.1921892 -72.986404 -9.1870852 -73.534157 0.0067153368 -98.358772
9204625000 -0.97935188 132.26111 -9.1857452 -72.886505 -9.1873894 -73.49102 0.0041677309 -98.226723
9204687500 -0.98960149 132.25096 -9.1981478 -72.833038 -9.1874199 -73.522408 0.0029855103 -98.287224
9204750000 -0.99613994 132.28294 -9.1955938 -72.805183 -9.1861658 -73.473 -0.0035290245 -98.237099
9204812500 -0.98009086 132.23903 -9.1889715 -72.841209 -9.1895704 -73.479721 0.0014107529 -98.23259
9204875000 -0.98395503 132.34517 -9.1795464 -72.770889 -9.1993608 -73.530495 -0.0039980807 -98.279503
9204937500 -0.98642284 132.24126 -9.1809053 -72.879265 -9.1839476 -73.525703 0.01455177 -98.178291
9205000000 -0.97821057 132.16707 -9.1889715 -72.791145 -9.1767864 -73.407005 -0.011489539 -98.157082
9205062500 -0.98463744 132.18486 -9.19034 -72.904785 -9.1697779 -73.562439 -1.8249948e-005 -98.214851
9205125000 -0.98712146 132.18176 -9.1879187 -72.903313 -9.1849461 -73.474052 -0.0051059755 -98.12841
9205187500 -0.98918992 132.18942 -9.1939144 -72.843704 -9.1803722 -73.502831 -0.002026632 -98.122482
9205250000 -0.98177606 132.12961 -9.1844263 -72.900948 -9.1960859 -73.4394 -0.014754709 -98.156075
9205312500 -0.98672354 132.18172 -9.1810551 -72.87204 -9.181571 -73.469673 -0.0098943803 -98.166718
9205375000 -0.98650163 132.14877 -9.1930885 -72.818573 -9.1823053 -73.514015 0.0039569261 -98.069695
9205437500 -0.98297322 132.14055 -9.183877 -72.833374 -9.1782207 -73.468445 0.0044370717 -98.080063
9205500000 -0.99165004 132.04498 -9.1861763 -72.870552 -9.1837416 -73.509827 -0.0025744771 -98.003944
9205562500 -0.99081808 132.07837 -9.1714249 -72.879486 -9.1818886 -73.490814 0.0023049526 -98.03241
9205625000 -0.993568 132.09229 -9.1896791 -72.807663 -9.1777954 -73.457932 -0.0045257271 -97.94677
9205687500 -0.98772931 132.08713 -9.1822081 -72.799019 -9.1720896 -73.537498 0.00073716743 -97.950714
9205750000 -0.98624146 132.00668 -9.1712818 -72.891357 -9.1843185 -73.5121 0.0039361855 -97.994774
9205812500 -0.98857141 132.00859 -9.1771326 -72.82637 -9.1840363 -73.454109 -0.0025240805 -97.896988
9205875000 -0.98033339 132.01889 -9.1769676 -72.862282 -9.1860151 -73.454872 -0.0027014997 -97.999969
9205937500 -0.98630184 132.00804 -9.1773767 -72.850838 -9.1731138 -73.426575 -0.0023641251 -97.882751
9206000000 -0.99139714 132.00066 -9.1681337 -72.793282 -9.1713905 -73.461006 0.00069035054 -97.8442
9206062500 -0.98714107 131.9839 -9.1778498 -72.878593 -9.1749039 -73.433556 -0.00070883275 -97.892715
9206125000 -0.98610079 131.96187 -9.1683931 -72.867973 -9.1756372 -73.407135 -0.0085337423 -97.826141
9206187500 -0.98799902 131.91666 -9.1658688 -72.891449 -9.1650391 -73.488281 0.0050169667 -97.881424
9206250000 -0.98819071 131.90775 -9.1842527 -72.865097 -9.1760836 -73.361534 -0.0060029589 -97.851692
9206312500 -0.98654461 131.88225 -9.1758327 -72.861389 -9.1685276 -73.570976 0.0031426735 -97.872307
9206375000 -0.98220521 131.92914 -9.174407 -72.824158 -9.1637297 -73.407471 -0.0005173969 -97.816177
9206437500 -0.98480463 131.89386 -9.1823044 -72.788071 -9.1749115 -73.47937 -0.0056207431 -97.832558
9206500000 -0.99144441 131.84683 -9.1800585 -72.886978 -9.1663628 -73.419571 -0.012191271 -97.803299
9206562500 -0.99284196 131.87602 -9.1777201 -72.922058 -9.1711712 -73.462257 -0.0025716471 -97.800354
9206625000 -0.99067563 131.79153 -9.1600466 -72.897392 -9.1739912 -73.504738 -0.0044001513 -97.779259
9206687500 -0.99244076 131.80855 -9.1865292 -72.879021 -9.1733608 -73.499641 0.0034150956 -97.801361
9206750000 -0.98502088 131.81767 -9.163847 -72.811157 -9.1745377 -73.475914 -0.0034948827 -97.78775
9206812500 -0.98556417 131.86746 -9.1640091 -72.803452 -9.1704845 -73.489204 -0.0039615617 -97.754761
9206875000 -0.99069977 131.81729 -9.1663122 -72.83564 -9.1604691 -73.380379 0.0027813138 -97.627708
9206937500 -0.98186195 131.80447 -9.1629162 -72.738457 -9.1708002 -73.462547 -0.0023691636 -97.632751
9207000000 -0.9848358 131.76108 -9.1651096 -72.780602 -9.1673851 -73.484612 -0.0032735891 -97.709877
9207062500 -0.98194623 131.79041 -9.1585131 -72.779808 -9.1656179 -73.429512 -0.0072250138 -97.499222
9207125000 -1.002834 131.76236 -9.1686926 -72.852219 -9.1599493 -73.504333 -0.00079982873 -97.574387
9207187500 -0.98761976 131.65759 -9.161809 -72.879036 -9.1621256 -73.482323 -0.00023696585 -97.676353
9207250000 -0.99009985 131.73212 -9.1679287 -72.757515 -9.1622992 -73.452271 -0.0026529448 -97.643753
9207312500 -0.98174989 131.70024 -9.1655779 -72.827477 -9.1573877 -73.376892 -0.0025775328 -97.503326
9207375000 -0.99579036 131.66602 -9.1682711 -72.798248 -9.1588421 -73.438797 -0.0043204534 -97.484596
9207437500 -0.98699653 131.6777 -9.1587629 -72.829262 -9.1690397 -73.336861 -0.0082353856 -97.523094
9207500000 -0.99456328 131.6882 -9.1760349 -72.81871 -9.1558752 -73.384979 -0.018726008 -97.492226
9207562500 -0.98539436 131.67494 -9.1602898 -72.840332 -9.1598883 -73.422195 -0.014157014 -97.550064
9207625000 -0.98809636 131.57434 -9.1635981 -72.863945 -9.1653852 -73.421028 -0.0072531723 -97.406555
9207687500 -0.99089885 131.60963 -9.160471 -72.784836 -9.1639729 -73.399033 -0.0056875846 -97.474548
9207750000 -0.98840332 131.61008 -9.1614771 -72.790565 -9.155098 -73.42585 0.0021666933 -97.451729
9207812500 -0.99073911 131.58656 -9.1699543 -72.818588 -9.1634083 -73.374786 -0.019972118 -97.38221
9207875000 -0.98840302 131.61588 -9.16998 -72.707619 -9.1564798 -73.412407 -0.0079523651 -97.391922
9207937500 -0.99263322 131.57896 -9.1701145 -72.720619 -9.1541233 -73.46933 -0.010591294 -97.462196
9208000000 -0.99309641 131.55458 -9.157217 -72.772499 -9.1578474 -73.345444 -0.0026986231 -97.293922
9208062500 -0.99052477 131.58699 -9.1650276 -72.766441 -9.15417 -73.453079 -0.0022884493 -97.387909
9208125000 -0.99871796 131.4826 -9.1626997 -72.826569 -9.158226 -73.432388 -0.0080109788 -97.354126
9208187500 -0.98372692 131.57336 -9.1567125 -72.757729 -9.1504736 -73.455032 -0.011413327 -97.337341
9208250000 -0.99589747 131.52043 -9.1748924 -72.734367 -9.1545992 -73.389694 -0.0089573991 -97.27758
9208312500 -0.99000162 131.54634 -9.1618643 -72.770294 -9.1391706 -73.38472 -0.0042089866 -97.278496
9208375000 -0.99688977 131.47957 -9.1524305 -72.758484 -9.1566582 -73.347824 -0.014043791 -97.219276
9208437500 -0.99193555 131.42255 -9.1560097 -72.844116 -9.1590595 -73.351044 -0.01722179 -97.238197
9208500000 -0.99249196 131.40942 -9.1578102 -72.775963 -9.1531477 -73.355469 -0.0083534662 -97.197853
9208562500 -0.99426937 131.49396 -9.1494713 -72.727928 -9.1469717 -73.382294 -0.0066192169 -97.220398
9208625000 -0.99189013 131.4129 -9.144887 -72.717049 -9.1383476 -73.348541 -0.011581904 -97.201088
9208687500 -0.98358023 131.37083 -9.1463385 -72.827705 -9.1471663 -73.375748 -0.0072095427 -97.177597
9208750000 -0.98206186 131.44029 -9.1494179 -72.73185 -9.1499329 -73.367508 -0.014608902 -97.153419
9208812500 -0.99647337 131.46196 -9.1560202 -72.80497 -9.1542091 -73.352669 -0.012774247 -97.168365
9208875000 -0.98985773 131.35219 -9.1423006 -72.719986 -9.1544495 -73.391891 -0.014947755 -97.083481
9208937500 -0.99425125 131.32988 -9.1432285 -72.814697 -9.134388 -73.3302 -0.0061149155 -97.079948
9209000000 -0.98472291 131.32808 -9.1508284 -72.725494 -9.1407852 -73.348854 -0.013108945 -97.138573
9209062500 -0.98996896 131.3261 -9.1551027 -72.725121 -9.152709 -73.331787 -0.01637781 -97.04174
9209125000 -0.99488008 131.30537 -9.1456385 -72.808922 -9.1494532 -73.338379 -0.0046354872 -97.013992
9209187500 -0.99146783 131.36049 -9.142581 -72.741661 -9.1465044 -73.387558 -0.015795194 -97.052948
9209250000 -0.98387325 131.28111 -9.1387749 -72.801956 -9.1500492 -73.404327 -0.014566732 -96.951523
9209312500 -0.99075091 131.19801 -9.1502199 -72.796196 -9.1367655 -73.411736 -0.021443905 -97.053162
9209375000 -0.98750252 131.26227 -9.1494026 -72.758011 -9.1533833 -73.335602 -0.025384773 -96.996681
9209437500 -0.99763805 131.19623 -9.1525078 -72.758873 -9.1370506 -73.409851 -0.012363467 -96.935135
9209500000 -0.99102938 131.2216 -9.1436138 -72.798073 -9.1420317 -73.381363 -0.019512689 -96.961998
9209562500 -1.0028223 131.21373 -9.1581345 -72.704048 -9.1460323 -73.302383 -0.023765387 -96.870354
9209625000 -0.98973083 131.15517 -9.1394005 -72.770515 -9.1391029 -73.342384 -0.015795195 -96.848969
9209687500 -0.99676293 131.13028 -9.1371193 -72.773079 -9.1401072 -73.329063 -0.01523766 -96.900452
9209750000 -0.99274033 131.1371 -9.1365423 -72.84005 -9.14818 -73.350403 -0.014269712 -96.918083
9209812500 -0.99251986 131.16425 -9.1436796 -72.697266 -9.1460772 -73.390991 -0.016276335 -96.817276
9209875000 -0.99137866 131.12614 -9.1396866 -72.811935 -9.1403809 -73.339317 -0.012369019 -96.846527
9209937500 -0.9909398 131.21346 -9.1474237 -72.723907 -9.139205 -73.385742 -0.013778257 -96.951897
9210000000 -0.98298585 131.12793 -9.1429625 -72.653984 -9.1339273 -73.32621 -0.031632792 -96.774498
9210062500 -0.99296838 131.12442 -9.1383791 -72.735733 -9.1287193 -73.372864 -0.014839747 -96.826157
9210125000 -0.98845714 131.09567 -9.1403255 -72.761101 -9.1234732 -73.292839 -0.014511027 -96.734406
9210187500 -0.99517506 131.09903 -9.1425877 -72.721397 -9.1384277 -73.294647 -0.017651323 -96.724403
9210250000 -0.99473011 131.06561 -9.1361523 -72.727058 -9.1250401 -73.250893 -0.020174462 -96.725319
9210312500 -0.99546653 131.10127 -9.1424236 -72.700508 -9.1433325 -73.402885 -0.021843029 -96.764
9210375000 -0.98579717 131.07541 -9.1355848 -72.692009 -9.128171 -73.287186 -0.012114104 -96.638351
9210437500 -0.98932523 131.03769 -9.1481075 -72.710899 -9.1296997 -73.366051 -0.012900291 -96.71106
9210500000 -0.99259984 131.02109 -9.1341476 -72.670265 -9.1322737 -73.336029 -0.012134896 -96.649887
9210562500 -0.98941737 130.96674 -9.1377382 -72.71489 -9.1242533 -73.369247 -0.012470584 -96.661659
9210625000 -0.98786145 130.99896 -9.1372709 -72.696968 -9.1338558 -73.2519 -0.025892712 -96.640877
9210687500 -0.9849838 131.01747 -9.1323719 -72.678032 -9.1318474 -73.353462 -0.019646514 -96.61937
9210750000 -0.99316531 130.96696 -9.138196 -72.749184 -9.1250439 -73.284973 -0.011582804 -96.585762
9210812500 -0.99378395 130.91212 -9.1306343 -72.78653 -9.1214666 -73.260078 -0.02343378 -96.506287
9210875000 -0.99118465 130.94893 -9.13589 -72.700493 -9.1220455 -73.262123 -0.023487834 -96.597771
9210937500 -0.98952293 130.94351 -9.1313248 -72.750687 -9.1343756 -73.239746 -0.020206774 -96.578011
9211000000 -0.99471152 130.95201 -9.1372013 -72.699623 -9.1337194 -73.269218 -0.019683659 -96.546936
9211062500 -0.98913747 130.9102 -9.1255703 -72.640236 -9.1263065 -73.323288 -0.020882204 -96.497368
9211125000 -0.98990512 130.87895 -9.1335163 -72.736961 -9.1200294 -73.312271 -0.019545984 -96.538216
9211187500 -0.99961597 130.87811 -9.1346455 -72.741806 -9.1217785 -73.295021 -0.02657719 -96.466248
9211250000 -0.99909365 130.91612 -9.1156931 -72.691872 -9.129508 -73.266785 -0.014451915 -96.458397
9211312500 -0.99082679 130.8479 -9.1277351 -72.661491 -9.1232271 -73.299347 -0.024004355 -96.483635
9211375000 -0.98816985 130.78384 -9.1208286 -72.659409 -9.1226835 -73.327652 -0.022135444 -96.395233
9211437500 -0.99436718 130.85094 -9.1265039 -72.584152 -9.1273022 -73.345291 -0.027392656 -96.395248
9211500000 -0.99444866 130.79413 -9.1217728 -72.715027 -9.1174402 -73.281616 -0.017224394 -96.402687
9211562500 -0.99898499 130.84349 -9.1299152 -72.663933 -9.1183643 -73.277611 -0.025414819 -96.360313
9211625000 -0.9954164 130.75237 -9.1250238 -72.743301 -9.1016579 -73.361748 -0.012843736 -96.403419
9211687500 -0.99559551 130.84802 -9.1241226 -72.620514 -9.1214228 -73.322968 -0.022460693 -96.323433
9211750000 -0.99358124 130.73196 -9.124505 -72.674583 -9.1160583 -73.288979 -0.013376241 -96.269936
9211812500 -0.99478954 130.72879 -9.1344042 -72.709862 -9.1224365 -73.250397 -0.032550517 -96.303047
9211875000 -0.99750346 130.70061 -9.1212015 -72.674126 -9.1132002 -73.308861 -0.016707757 -96.250969
9211937500 -0.99004489 130.76248 -9.1171999 -72.652084 -9.1178837 -73.276726 -0.030100936 -96.282501
9212000000 -0.98917317 130.65518 -9.1179581 -72.633141 -9.1089458 -73.303604 -0.028443852 -96.238602
9212062500 -0.99380416 130.65968 -9.1267681 -72.604301 -9.111412 -73.207863 -0.025113191 -96.200203
