!Agilent Technologies,N5242A,MY51221714,A.09.90.19
!Agilent N5242A: A.09.90.19
!Date: Tuesday, March 26, 2024 15:46:33
!Correction: S11(Full 2 Port(1,2)) 
!S21(Full 2 Port(1,2)) 
!S12(Full 2 Port(1,2)) 
!S22(Full 2 Port(1,2)) 
!S2P File: Measurements: S11, S21, S12, S22:
# Hz S  dB   R 50
9200000000 -1.1828957 132.73163 -9.1267414 -75.92038 -9.1129332 -76.686684 -0.16358227 -101.67628
9200062500 -1.188526 132.70665 -9.1265402 -76.009132 -9.1208858 -76.600578 -0.15709257 -101.57821
9200125000 -1.1839085 132.71486 -9.1181049 -75.904823 -9.1166573 -76.592148 -0.15614505 -101.58565
9200187500 -1.1935339 132.72516 -9.1232042 -75.914139 -9.1208677 -76.640884 -0.14852948 -101.56965
9200250000 -1.1769695 132.67554 -9.1171045 -75.978714 -9.1238956 -76.578003 -0.14993368 -101.56749
9200312500 -1.1916375 132.66672 -9.117588 -75.928673 -9.1261749 -76.552765 -0.15448101 -101.53625
9200375000 -1.1862919 132.62837 -9.1200953 -75.926651 -9.1118059 -76.673271 -0.14618804 -101.46423
9200437500 -1.1832951 132.6842 -9.1225777 -75.922424 -9.1141319 -76.644829 -0.14820664 -101.51661
9200500000 -1.1813859 132.62303 -9.1209221 -75.99308 -9.1148453 -76.580338 -0.15710838 -101.4742
9200562500 -1.182212 132.62717 -9.1123228 -75.94873 -9.1304283 -76.590889 -0.15443452 -101.51787
9200625000 -1.1884406 132.61824 -9.1123209 -75.933174 -9.1111593 -76.580925 -0.157663 -101.42527
9200687500 -1.1753271 132.58197 -9.1200399 -75.88678 -9.1185179 -76.582176 -0.15974116 -101.40224
9200750000 -1.185877 132.55142 -9.1229935 -75.977013 -9.1179113 -76.599884 -0.15967758 -101.45289
9200812500 -1.1962874 132.55733 -9.1162281 -75.924667 -9.1155996 -76.659187 -0.16566837 -101.42715
9200875000 -1.1842899 132.61896 -9.1123619 -75.872208 -9.1208334 -76.549782 -0.15740708 -101.41821
9200937500 -1.1861178 132.56451 -9.1245966 -75.959923 -9.1104231 -76.534912 -0.15314665 -101.40059
9201000000 -1.1806225 132.53195 -9.1141901 -75.944016 -9.0969028 -76.573029 -0.14863835 -101.3352
9201062500 -1.1833189 132.49359 -9.1119442 -75.874199 -9.1021671 -76.61071 -0.15420531 -101.30161
9201125000 -1.187942 132.5175 -9.1161051 -75.919189 -9.10886 -76.600906 -0.16037109 -101.31484
9201187500 -1.188506 132.45433 -9.1191568 -75.921158 -9.0987911 -76.584534 -0.15663272 -101.23248
9201250000 -1.1924071 132.51163 -9.1130514 -75.898651 -9.1105156 -76.538048 -0.16576247 -101.23734
9201312500 -1.1958826 132.452 -9.1077662 -75.912018 -9.1013327 -76.638527 -0.15133394 -101.29581
9201375000 -1.1952246 132.42572 -9.1112385 -75.865433 -9.1097689 -76.538841 -0.16786557 -101.24453
9201437500 -1.1868802 132.44342 -9.1069984 -75.892159 -9.1101723 -76.558174 -0.162459 -101.28549
9201500000 -1.1875362 132.40923 -9.1052361 -75.909149 -9.1186733 -76.518791 -0.1617987 -101.24313
9201562500 -1.1879231 132.38719 -9.1151171 -75.903755 -9.1118164 -76.498886 -0.17000468 -101.19394
9201625000 -1.1844106 132.39708 -9.1019726 -75.816765 -9.0953989 -76.562195 -0.16772406 -101.12901
9201687500 -1.2002082 132.39589 -9.1151609 -75.832535 -9.1035795 -76.546158 -0.15744361 -101.07362
9201750000 -1.1860133 132.3643 -9.1044483 -75.927528 -9.0955391 -76.530739 -0.15240619 -101.10043
9201812500 -1.1875081 132.39073 -9.1091032 -75.847282 -9.095664 -76.53196 -0.16930324 -101.20119
9201875000 -1.184082 132.35416 -9.0994701 -75.859467 -9.1023846 -76.586082 -0.15405133 -101.06761
9201937500 -1.1982081 132.27106 -9.1108742 -75.910004 -9.0984201 -76.575157 -0.16009641 -101.09889
9202000000 -1.1952153 132.33775 -9.1024418 -75.834435 -9.0870934 -76.56282 -0.155211 -101.05685
9202062500 -1.1920258 132.2796 -9.0910807 -75.898979 -9.0889359 -76.601181 -0.15326017 -101.05474
9202125000 -1.1922711 132.30827 -9.1136036 -75.887878 -9.1083832 -76.557976 -0.17075172 -101.04237
9202187500 -1.1890954 132.27554 -9.0967941 -75.910507 -9.0999117 -76.583862 -0.15786418 -100.98585
9202250000 -1.1944674 132.27283 -9.1046381 -75.825363 -9.0928974 -76.513954 -0.16163202 -100.99809
9202312500 -1.1857715 132.26974 -9.1023216 -75.874329 -9.0978737 -76.585373 -0.15989308 -101.00829
9202375000 -1.1917597 132.20784 -9.1091642 -75.877502 -9.0950689 -76.584305 -0.16673946 -100.8808
9202437500 -1.1952047 132.26808 -9.0958014 -75.831726 -9.089797 -76.606964 -0.15614595 -100.99328
9202500000 -1.1931112 132.22874 -9.1009197 -75.898842 -9.1054602 -76.530388 -0.1633538 -100.96655
9202562500 -1.1822211 132.17509 -9.0947752 -75.873535 -9.0946045 -76.515419 -0.17334823 -100.95292
9202625000 -1.1932433 132.2419 -9.1019993 -75.858154 -9.0928755 -76.511635 -0.16782424 -100.91508
9202687500 -1.1897819 132.18231 -9.094202 -75.882751 -9.0892801 -76.559708 -0.16097836 -100.81928
9202750000 -1.1830971 132.11195 -9.0815363 -75.912193 -9.0886192 -76.578148 -0.1610356 -100.93667
9202812500 -1.1949373 132.14143 -9.0971193 -75.836212 -9.0816975 -76.567612 -0.15767701 -100.8138
9202875000 -1.1908288 132.12843 -9.0984507 -75.880478 -9.0909863 -76.573578 -0.16242149 -100.83372
9202937500 -1.1880161 132.08681 -9.0877218 -75.900597 -9.0818768 -76.431168 -0.16093846 -100.79594
9203000000 -1.19205 132.14343 -9.0937948 -75.882996 -9.090765 -76.566597 -0.16185795 -100.77834
9203062500 -1.1858524 132.09792 -9.0911493 -75.821999 -9.0884542 -76.483513 -0.17459407 -100.78767
9203125000 -1.1930463 132.01804 -9.0907249 -75.850777 -9.0798378 -76.51059 -0.16085291 -100.774
9203187500 -1.1927263 132.02272 -9.0951147 -75.945007 -9.0805817 -76.588715 -0.16298597 -100.77242
9203250000 -1.1934808 132.03116 -9.0910234 -75.838448 -9.0911207 -76.533241 -0.1640939 -100.74854
9203312500 -1.2011434 132.05441 -9.092164 -75.872849 -9.079711 -76.564857 -0.15358044 -100.71976
9203375000 -1.1931658 132.01276 -9.0795565 -75.858994 -9.0806999 -76.508141 -0.16236657 -100.66767
9203437500 -1.1955136 132.04941 -9.09589 -75.910233 -9.0813246 -76.52552 -0.1641971 -100.69536
9203500000 -1.1860905 131.97038 -9.0826769 -75.833344 -9.0836802 -76.537376 -0.16261142 -100.68658
9203562500 -1.1998733 131.98605 -9.0937319 -75.859009 -9.0990515 -76.559479 -0.1802011 -100.66425
9203625000 -1.1926526 131.95526 -9.0887108 -75.940445 -9.089613 -76.550346 -0.17438124 -100.68919
9203687500 -1.1953282 131.94696 -9.0899782 -75.824936 -9.0866957 -76.493202 -0.171197 -100.61452
9203750000 -1.1927867 131.92159 -9.0872164 -75.872063 -9.0834579 -76.47979 -0.15508409 -100.55759
9203812500 -1.1891649 131.9487 -9.0802269 -75.858315 -9.0883341 -76.510559 -0.16985811 -100.57825
9203875000 -1.1923318 131.93752 -9.0915174 -75.806915 -9.0884876 -76.556015 -0.17867884 -100.60153
9203937500 -1.1993287 131.92116 -9.0780411 -75.915863 -9.0721207 -76.450165 -0.1672368 -100.55053
9204000000 -1.1948942 131.9054 -9.0839911 -75.860619 -9.0884275 -76.511101 -0.17028593 -100.50686
9204062500 -1.1857308 131.88828 -9.0751076 -75.811195 -9.0750198 -76.515945 -0.17559923 -100.48454
9204125000 -1.2013153 131.86031 -9.0814848 -75.848923 -9.0745716 -76.522896 -0.17155661 -100.52537
9204187500 -1.1973858 131.83759 -9.0822811 -75.943344 -9.0924053 -76.502106 -0.18322848 -100.47339
9204250000 -1.1953906 131.84967 -9.0750046 -75.836571 -9.076355 -76.511978 -0.16902551 -100.5026
9204312500 -1.1933759 131.82487 -9.0725183 -75.859459 -9.0660906 -76.512573 -0.16586037 -100.38743
9204375000 -1.1822315 131.78937 -9.0785084 -75.844841 -9.0739403 -76.489128 -0.1707737 -100.47234
9204437500 -1.1998096 131.85146 -9.0795574 -75.838989 -9.0725613 -76.451302 -0.16765584 -100.43605
9204500000 -1.1948788 131.8038 -9.0782557 -75.808258 -9.0833139 -76.52076 -0.1762989 -100.45101
9204562500 -1.1961769 131.74557 -9.0731373 -75.941063 -9.0719891 -76.5616 -0.16088305 -100.44301
9204625000 -1.1837084 131.7606 -9.0705853 -75.790024 -9.0660725 -76.568031 -0.17032167 -100.34609
9204687500 -1.1930108 131.74236 -9.0744448 -75.772713 -9.0694981 -76.470146 -0.16424355 -100.29979
9204750000 -1.1997173 131.74982 -9.0790577 -75.757866 -9.0809126 -76.516373 -0.18467964 -100.3256
9204812500 -1.1876607 131.69191 -9.0657024 -75.784622 -9.0661154 -76.502403 -0.16484497 -100.30116
9204875000 -1.1922946 131.7415 -9.0674458 -75.779625 -9.0853472 -76.541298 -0.17642006 -100.34228
9204937500 -1.1881779 131.65942 -9.0672579 -75.887016 -9.054143 -76.534752 -0.15677567 -100.25819
9205000000 -1.1846031 131.62022 -9.0587177 -75.801758 -9.0657692 -76.447342 -0.18679495 -100.2613
9205062500 -1.1976904 131.67499 -9.068675 -75.807472 -9.0587149 -76.540192 -0.16727248 -100.23135
9205125000 -1.1962419 131.64394 -9.0730486 -75.78289 -9.0581999 -76.475365 -0.1692545 -100.1502
9205187500 -1.1928912 131.63708 -9.06703 -75.789398 -9.0675564 -76.458389 -0.17880227 -100.1739
9205250000 -1.1925256 131.57211 -9.0730124 -75.867752 -9.0684557 -76.564926 -0.17841898 -100.28185
9205312500 -1.1981562 131.67865 -9.0710487 -75.777298 -9.0688591 -76.489349 -0.18255173 -100.16905
9205375000 -1.1981709 131.58643 -9.0626497 -75.790085 -9.0609236 -76.43145 -0.16731758 -100.07582
9205437500 -1.1885915 131.58662 -9.0571508 -75.758125 -9.0614901 -76.453606 -0.17321208 -100.11708
9205500000 -1.1943432 131.5076 -9.0559874 -75.784935 -9.0571156 -76.52951 -0.1645958 -100.06647
9205562500 -1.1961107 131.55038 -9.059721 -75.853195 -9.058485 -76.544685 -0.17352007 -100.09925
9205625000 -1.2059673 131.52979 -9.0725489 -75.825127 -9.0571222 -76.424179 -0.17266105 -100.01324
9205687500 -1.1946644 131.55049 -9.0615196 -75.784103 -9.0598946 -76.527542 -0.17863239 -100.03098
9205750000 -1.2012912 131.4612 -9.0542669 -75.848114 -9.0595989 -76.430504 -0.17037828 -99.983925
9205812500 -1.2036117 131.46097 -9.0648336 -75.827469 -9.061491 -76.426544 -0.16974527 -99.995964
9205875000 -1.1907008 131.52916 -9.0728531 -75.740204 -9.0653515 -76.457443 -0.17583025 -100.03724
9205937500 -1.1911584 131.43358 -9.0575781 -75.815414 -9.0463009 -76.462189 -0.17058749 -99.978035
9206000000 -1.1964761 131.4411 -9.0499687 -75.767532 -9.0647202 -76.480118 -0.1726996 -99.932404
9206062500 -1.1962672 131.44817 -9.0580645 -75.854027 -9.061511 -76.470726 -0.17996998 -99.990356
9206125000 -1.1900486 131.43362 -9.0524282 -75.770332 -9.0544138 -76.454506 -0.17456962 -99.913658
9206187500 -1.1980152 131.4212 -9.0514555 -75.805405 -9.0451775 -76.466583 -0.16348408 -99.900764
9206250000 -1.2007738 131.35413 -9.0753422 -75.79364 -9.05896 -76.388321 -0.17867519 -99.901917
9206312500 -1.1945871 131.33751 -9.0622158 -75.767319 -9.0558643 -76.588371 -0.169403 -99.903305
9206375000 -1.1996328 131.37607 -9.057354 -75.807304 -9.048275 -76.42894 -0.17470333 -99.903336
9206437500 -1.1932418 131.36667 -9.063652 -75.799385 -9.058445 -76.502419 -0.18056989 -99.900871
9206500000 -1.1943562 131.30338 -9.050993 -75.846565 -9.0484028 -76.425339 -0.18527748 -99.864304
9206562500 -1.2005152 131.31561 -9.0609818 -75.892349 -9.0504808 -76.427666 -0.1791663 -99.875793
9206625000 -1.2024516 131.25969 -9.0585032 -75.862816 -9.0530119 -76.482849 -0.17699663 -99.841019
9206687500 -1.1977181 131.31908 -9.0652914 -75.809784 -9.0451717 -76.447884 -0.16801545 -99.829613
9206750000 -1.1934125 131.27538 -9.0475855 -75.767807 -9.0547237 -76.461479 -0.18280321 -99.821129
9206812500 -1.1918401 131.29233 -9.0573244 -75.798782 -9.0593681 -76.536819 -0.17532806 -99.874382
9206875000 -1.2014042 131.27725 -9.0589743 -75.770576 -9.0436296 -76.404442 -0.17578925 -99.676125
9206937500 -1.1952257 131.24164 -9.0457373 -75.810234 -9.0492706 -76.435196 -0.1777513 -99.705765
9207000000 -1.1986399 131.25131 -9.0590057 -75.787277 -9.0486755 -76.471779 -0.18041533 -99.690292
9207062500 -1.1961818 131.22711 -9.049634 -75.697929 -9.0431299 -76.426414 -0.1793115 -99.566429
9207125000 -1.2080172 131.15965 -9.0415955 -75.855942 -9.039422 -76.512733 -0.17288558 -99.670792
9207187500 -1.1962007 131.16367 -9.0365696 -75.85257 -9.0480013 -76.428291 -0.18226138 -99.689247
9207250000 -1.1951522 131.19714 -9.0510845 -75.791748 -9.050643 -76.451599 -0.17694438 -99.703438
9207312500 -1.1922873 131.1667 -9.0411091 -75.822334 -9.0426197 -76.470642 -0.17883116 -99.669937
9207375000 -1.2079407 131.12627 -9.0571747 -75.835007 -9.0374594 -76.470169 -0.17917024 -99.578598
9207437500 -1.1899244 131.17549 -9.0393438 -75.76281 -9.0533991 -76.401955 -0.18669444 -99.551575
9207500000 -1.2005738 131.17844 -9.0563288 -75.719154 -9.0308504 -76.447586 -0.18738985 -99.589111
9207562500 -1.1904997 131.13539 -9.0413637 -75.821533 -9.0319395 -76.390312 -0.18280464 -99.548988
9207625000 -1.1957344 131.0648 -9.0303593 -75.796547 -9.0346069 -76.444725 -0.17806591 -99.483902
9207687500 -1.2022154 131.10915 -9.0317478 -75.789818 -9.0323324 -76.44841 -0.17674027 -99.553207
9207750000 -1.2011826 131.06065 -9.0509329 -75.766716 -9.0270405 -76.414223 -0.17496021 -99.518135
9207812500 -1.19842 131.04683 -9.0544138 -75.795563 -9.0393476 -76.387192 -0.1851352 -99.496948
9207875000 -1.1995634 131.05849 -9.044714 -75.743462 -9.0326242 -76.455513 -0.17692851 -99.46302
9207937500 -1.206021 130.96442 -9.0558357 -75.787415 -9.0448513 -76.447617 -0.18795842 -99.483223
9208000000 -1.2052046 131.01068 -9.0425777 -75.836746 -9.0385809 -76.384125 -0.17805757 -99.454582
9208062500 -1.2027831 131.00943 -9.0412207 -75.815018 -9.0300703 -76.45372 -0.18001252 -99.445801
9208125000 -1.1974082 131.00499 -9.0378122 -75.761757 -9.0337906 -76.514778 -0.18147114 -99.375351
9208187500 -1.1971846 130.98653 -9.0358696 -75.824341 -9.0405407 -76.41806 -0.18909504 -99.404778
9208250000 -1.208743 130.95415 -9.0451527 -75.714676 -9.0314636 -76.478218 -0.18829733 -99.383301
9208312500 -1.1975312 130.96663 -9.0468903 -75.826607 -9.0200653 -76.440674 -0.1860832 -99.38121
9208375000 -1.2023968 130.9552 -9.0355177 -75.756516 -9.0346575 -76.426552 -0.18496288 -99.292969
9208437500 -1.2034651 130.86481 -9.0346699 -75.823288 -9.033576 -76.378746 -0.18850602 -99.292206
9208500000 -1.2032034 130.85764 -9.0347147 -75.747925 -9.0329943 -76.417023 -0.18579617 -99.29277
9208562500 -1.2005697 130.90382 -9.0160542 -75.711884 -9.0310812 -76.363457 -0.18071507 -99.245697
9208625000 -1.1948832 130.84732 -9.0215921 -75.725197 -9.0278215 -76.362457 -0.1917458 -99.246117
9208687500 -1.1918067 130.85448 -9.0151329 -75.79715 -9.0292749 -76.468651 -0.18657832 -99.297775
9208750000 -1.2017431 130.88162 -9.0375452 -75.744606 -9.0251417 -76.388847 -0.18666916 -99.223503
9208812500 -1.2047844 130.92165 -9.0315914 -75.736763 -9.0269279 -76.414627 -0.18020678 -99.191376
9208875000 -1.2019651 130.82091 -9.0235271 -75.737236 -9.035512 -76.387604 -0.1847924 -99.160095
9208937500 -1.2056204 130.82387 -9.0298061 -75.816879 -9.0252857 -76.356895 -0.18237253 -99.116043
9209000000 -1.1990446 130.82239 -9.0399303 -75.767235 -9.0147276 -76.347412 -0.1914221 -99.179016
9209062500 -1.2001933 130.77887 -9.0218782 -75.777954 -9.0253773 -76.367874 -0.18195334 -99.124664
9209125000 -1.2029903 130.75162 -9.0240297 -75.813553 -9.0126781 -76.362404 -0.17277361 -99.077568
9209187500 -1.204897 130.78906 -9.0174274 -75.761307 -9.0296106 -76.411835 -0.18769081 -99.097191
9209250000 -1.1951729 130.70575 -9.0208454 -75.790451 -9.0230608 -76.468544 -0.18760739 -99.030106
9209312500 -1.2041303 130.63585 -9.0300179 -75.805351 -9.0196457 -76.444443 -0.19252674 -99.089798
9209375000 -1.1978756 130.73601 -9.0257072 -75.79834 -9.0351801 -76.363075 -0.20384048 -99.075096
9209437500 -1.2072529 130.64142 -9.0286217 -75.711868 -9.0200224 -76.487122 -0.18861359 -99.034721
9209500000 -1.1992867 130.69284 -9.0249767 -75.732513 -9.0173273 -76.395615 -0.1888486 -98.985703
9209562500 -1.2089466 130.68654 -9.0320215 -75.745026 -9.0299597 -76.382019 -0.19633467 -98.970528
9209625000 -1.2044523 130.60431 -9.0261908 -75.793983 -9.0287886 -76.434883 -0.19202791 -98.959038
9209687500 -1.2053322 130.57732 -9.0236902 -75.791328 -9.0186577 -76.30191 -0.18835723 -98.904121
9209750000 -1.2072917 130.58794 -9.015317 -75.861252 -9.0301847 -76.317368 -0.18338759 -98.927589
9209812500 -1.2012204 130.60475 -9.0144844 -75.6922 -9.0259848 -76.427361 -0.19510947 -98.892723
9209875000 -1.2060753 130.61771 -9.0180693 -75.724998 -9.0131483 -76.362968 -0.18917276 -98.94043
9209937500 -1.1996331 130.66808 -9.0284405 -75.717209 -9.019927 -76.399223 -0.19736589 -98.952667
9210000000 -1.1918371 130.61911 -9.0213928 -75.710609 -9.0202656 -76.362335 -0.20312932 -98.817406
9210062500 -1.2029467 130.59134 -9.0151863 -75.747627 -9.0162344 -76.43013 -0.19650178 -98.878639
9210125000 -1.1970185 130.55034 -9.0244799 -75.756073 -9.0186701 -76.397842 -0.19627938 -98.874496
9210187500 -1.2070404 130.54858 -9.0140734 -75.790176 -9.0041666 -76.412193 -0.19004869 -98.822624
9210250000 -1.2076277 130.55928 -9.0275269 -75.740158 -9.0060329 -76.310066 -0.19297047 -98.794876
9210312500 -1.2067732 130.54968 -9.0152874 -75.672562 -9.0123835 -76.408142 -0.19306561 -98.803513
9210375000 -1.198935 130.55199 -9.0135508 -75.722145 -9.0168047 -76.337608 -0.19694415 -98.708412
9210437500 -1.1989472 130.44879 -9.0206232 -75.847702 -9.0125456 -76.414513 -0.19087666 -98.777763
9210500000 -1.2029877 130.46733 -9.0038919 -75.74543 -9.0036316 -76.408859 -0.18391837 -98.773933
9210562500 -1.2105505 130.41672 -9.01793 -75.737854 -9.0106878 -76.45903 -0.19600742 -98.730057
9210625000 -1.198562 130.43707 -9.0216417 -75.729446 -9.0184937 -76.329636 -0.19688235 -98.746918
9210687500 -1.2050037 130.44414 -9.0172672 -75.657722 -9.004962 -76.388992 -0.19308867 -98.662575
9210750000 -1.2099477 130.43834 -9.0187817 -75.752136 -8.9992828 -76.30085 -0.19083074 -98.629028
9210812500 -1.2067356 130.37527 -9.0043955 -75.698151 -9.0062008 -76.304375 -0.19876814 -98.63829
9210875000 -1.2040321 130.38557 -9.0145121 -75.697388 -9.0127335 -76.343346 -0.20083211 -98.664276
9210937500 -1.1999019 130.3764 -9.0086317 -75.779549 -9.008934 -76.313873 -0.1988457 -98.609245
9211000000 -1.2027102 130.38152 -9.0105829 -75.709404 -9.0079527 -76.431068 -0.19237864 -98.678192
9211062500 -1.2026912 130.35982 -9.01266 -75.669846 -9.0082054 -76.307411 -0.20383097 -98.58033
9211125000 -1.198259 130.31177 -9.0081692 -75.683357 -9.0021505 -76.341972 -0.19146989 -98.598206
9211187500 -1.2124212 130.3331 -9.0128059 -75.718117 -8.9972925 -76.328133 -0.19651408 -98.559738
9211250000 -1.2111008 130.28885 -9.0022917 -75.765312 -9.0104475 -76.334282 -0.19550785 -98.522675
9211312500 -1.205181 130.32387 -9.0098867 -75.660034 -8.9995832 -76.294174 -0.20046714 -98.498428
9211375000 -1.203668 130.21324 -9.0054121 -75.730888 -9.0057592 -76.38343 -0.19823468 -98.480583
9211437500 -1.2050781 130.26521 -8.9977913 -75.686348 -8.9961195 -76.388443 -0.19876529 -98.494011
9211500000 -1.2037084 130.24716 -9.0087652 -75.72757 -8.9999247 -76.342415 -0.19398235 -98.491455
9211562500 -1.2108603 130.30937 -9.00877 -75.660332 -8.9928646 -76.318436 -0.19777454 -98.453377
9211625000 -1.2035142 130.22644 -8.9876289 -75.744965 -8.9917459 -76.403175 -0.18795577 -98.484375
9211687500 -1.2117761 130.2728 -9.0090714 -75.624733 -8.994935 -76.33828 -0.19990602 -98.366081
9211750000 -1.2052562 130.14873 -8.9966764 -75.762856 -8.9978218 -76.323669 -0.19796073 -98.369591
9211812500 -1.2077805 130.18542 -8.9987736 -75.706757 -8.9975462 -76.345802 -0.20320788 -98.390404
9211875000 -1.2097064 130.13533 -9.0007477 -75.724236 -8.9856281 -76.348351 -0.19208474 -98.260941
9211937500 -1.206079 130.17859 -8.9947834 -75.704124 -8.9900694 -76.351936 -0.19568005 -98.346848
9212000000 -1.2078143 130.09618 -8.9959526 -75.690842 -8.9894829 -76.369774 -0.19284618 -98.317406
9212062500 -1.2040142 130.12051 -8.9952459 -75.703987 -8.9846392 -76.334106 -0.20252143 -98.343742
9212125000 -1.2138696 130.03549 -8.9955339 -75.732262 -9.0056324 -76.327797 -0.20565096 -98.262474
9212187500 -1.1985792 130.06941 -8.983037 -75.638359 -8.9828444 -76.330391 -0.20251761 -98.294121
9212250000 -1.2067174 130.05641 -8.9878826 -75.726059 -8.9799366 -76.349243 -0.187207 -98.296364
9212312500 -1.2037058 130.09386 -8.9845743 -75.660881 -8.9849234 -76.31308 -0.19926731 -98.241249
