!Agilent Technologies,N5242A,MY51221714,A.09.90.19
!Agilent N5242A: A.09.90.19
!Date: Tuesday, March 26, 2024 15:38:34
!Correction: S11(Full 2 Port(1,2)) 
!S21(Full 2 Port(1,2)) 
!S12(Full 2 Port(1,2)) 
!S22(Full 2 Port(1,2)) 
!S2P File: Measurements: S11, S21, S12, S22:
# Hz S  dB   R 50
9200000000 -0.98690212 133.21002 -9.2731228 -73.298737 -9.2554979 -73.919159 0.0042271009 -99.776604
9200062500 -0.98617172 133.20404 -9.2491035 -73.222267 -9.2462749 -73.900635 0.013371329 -99.767921
9200125000 -0.98594451 133.16124 -9.2547398 -73.236588 -9.2503977 -73.814232 0.0043218355 -99.715256
9200187500 -0.99020523 133.20596 -9.2522621 -73.111488 -9.2534037 -73.890213 0.021626901 -99.707535
9200250000 -0.98082882 133.16962 -9.2447748 -73.15078 -9.2467031 -73.789619 0.016732527 -99.695229
9200312500 -0.98772031 133.16324 -9.2566843 -73.177841 -9.2522278 -73.854942 0.017302021 -99.705963
9200375000 -0.98844248 133.13266 -9.2596283 -73.245377 -9.2527819 -73.894173 0.016945867 -99.653122
9200437500 -0.98544651 133.12933 -9.2431564 -73.232674 -9.2376204 -73.861732 0.028104566 -99.657402
9200500000 -0.98179394 133.08574 -9.2545586 -73.209419 -9.2458553 -73.803337 0.012962673 -99.597023
9200562500 -0.97912973 133.08119 -9.2465906 -73.181038 -9.2586784 -73.84861 0.017322131 -99.651985
9200625000 -0.98908627 133.07439 -9.2521391 -73.213661 -9.2470083 -73.834892 0.01311362 -99.625221
9200687500 -0.97849238 133.05391 -9.2475853 -73.162643 -9.2608061 -73.867767 0.012283643 -99.565216
9200750000 -0.98073894 132.99107 -9.2541637 -73.220009 -9.2515745 -73.838264 0.0097734947 -99.578903
9200812500 -0.99689388 133.03717 -9.2461777 -73.193817 -9.2461977 -73.815941 0.0017895323 -99.531311
9200875000 -0.98170239 133.13326 -9.2388477 -73.162285 -9.2459002 -73.793327 0.008305436 -99.593224
9200937500 -0.98723537 132.98648 -9.2445431 -73.21759 -9.2434206 -73.83046 0.014722819 -99.493759
9201000000 -0.98412651 133.00098 -9.2452078 -73.215454 -9.239665 -73.858032 0.019520914 -99.527504
9201062500 -0.98552817 132.97763 -9.2435284 -73.164711 -9.2397022 -73.891098 0.01193039 -99.513557
9201125000 -0.99255437 132.99123 -9.2530165 -73.130447 -9.2486668 -73.880173 0.0063963998 -99.484695
9201187500 -0.99153167 132.89009 -9.2468481 -73.220619 -9.2474184 -73.853668 0.00088946248 -99.373978
9201250000 -0.99212921 132.97098 -9.2460337 -73.191666 -9.2456264 -73.80793 0.0071448977 -99.438126
9201312500 -0.99578714 132.92261 -9.2475119 -73.183357 -9.2510796 -73.830215 0.015084829 -99.413086
9201375000 -0.99655873 132.93146 -9.2523298 -73.132957 -9.2428942 -73.752251 0.0025946994 -99.379395
9201437500 -0.97970229 132.92851 -9.2471914 -73.148636 -9.2507639 -73.806412 0.00082149083 -99.430374
9201500000 -0.98713762 132.91504 -9.2427692 -73.037605 -9.2419577 -73.845444 0.0088853948 -99.388695
9201562500 -0.98897284 132.87936 -9.242321 -73.099861 -9.2428436 -73.780678 0.0034181969 -99.375526
9201625000 -0.98058599 132.85019 -9.2405672 -73.157516 -9.2340784 -73.77063 -0.00027667847 -99.282089
9201687500 -0.99125761 132.84691 -9.2376442 -73.049789 -9.2404108 -73.849007 0.0073909601 -99.268188
9201750000 -0.98331004 132.86327 -9.2479105 -73.080811 -9.2191734 -73.861755 0.021145346 -99.294304
9201812500 -0.98369539 132.8441 -9.2389965 -73.098267 -9.2358618 -73.797371 0.002167555 -99.327713
9201875000 -0.98676717 132.79024 -9.223815 -73.179573 -9.2465105 -73.798485 0.015133616 -99.216591
9201937500 -1.0017307 132.77048 -9.2486572 -73.136147 -9.2386618 -73.812675 0.017325398 -99.280312
9202000000 -0.99317729 132.79659 -9.2369146 -73.104309 -9.2384815 -73.834427 0.014572944 -99.216934
9202062500 -0.99490201 132.80658 -9.2315435 -73.110077 -9.2338219 -73.818558 0.016997313 -99.2332
9202125000 -0.99099237 132.7986 -9.2501011 -73.103371 -9.2349739 -73.737473 0.0027129657 -99.203247
9202187500 -0.98307854 132.75204 -9.2347326 -73.168823 -9.2365952 -73.789612 0.0058356388 -99.130707
9202250000 -0.98835003 132.73158 -9.244379 -73.150452 -9.2330074 -73.720726 0.004407634 -99.109154
9202312500 -0.98509687 132.74159 -9.244422 -73.121956 -9.2240267 -73.776726 0.0031890562 -99.123634
9202375000 -0.98282659 132.69452 -9.2323856 -73.116348 -9.2349148 -73.828796 -0.0021459679 -99.07135
9202437500 -0.98631752 132.70898 -9.2279787 -73.13224 -9.2314577 -73.777504 0.018692045 -99.158493
9202500000 -0.9927215 132.68855 -9.2330523 -73.175011 -9.2288857 -73.780624 0.010348141 -99.114479
9202562500 -0.98162383 132.64763 -9.2203712 -73.085243 -9.2379494 -73.710388 -0.0005159392 -99.071381
9202625000 -0.98949629 132.72539 -9.2266531 -73.152557 -9.2264194 -73.743286 0.0038622741 -99.056313
9202687500 -0.9904986 132.68303 -9.2386408 -73.133255 -9.225482 -73.748795 0.008550155 -98.96183
9202750000 -0.97928232 132.58577 -9.2237997 -73.120163 -9.2243605 -73.787712 0.0088296058 -99.034134
9202812500 -0.98962748 132.57466 -9.2271156 -73.173889 -9.2178869 -73.778427 0.014060232 -98.984055
9202875000 -0.97905123 132.59076 -9.2195807 -73.144356 -9.2295523 -73.785439 0.0082502374 -98.943222
9202937500 -0.98582715 132.59515 -9.2149277 -73.143211 -9.2261591 -73.741943 0.0076519237 -98.938766
9203000000 -0.993007 132.63988 -9.232935 -73.07843 -9.2317314 -73.76329 0.00082736101 -98.903778
9203062500 -0.98619908 132.53047 -9.2187109 -73.11322 -9.2228851 -73.741913 -0.0011796923 -98.950836
9203125000 -0.98481798 132.50842 -9.2308798 -73.100082 -9.2107782 -73.775558 0.0077569927 -98.908104
9203187500 -0.99141556 132.52296 -9.2337389 -73.081772 -9.2199402 -73.801712 -0.00028770114 -98.893227
9203250000 -0.98791993 132.51886 -9.2275734 -73.097626 -9.2207518 -73.739677 0.0048551024 -98.867233
9203312500 -0.99346036 132.50542 -9.2221699 -73.110802 -9.2067022 -73.74662 0.017441925 -98.860321
9203375000 -0.98829567 132.50558 -9.2198324 -73.110054 -9.2186441 -73.815094 0.0065664724 -98.845345
9203437500 -0.99198103 132.47597 -9.2296333 -73.206726 -9.2240438 -73.712097 0.0067670634 -98.831665
9203500000 -0.98699337 132.46753 -9.2238541 -73.079384 -9.2332859 -73.785172 -7.1283233e-005 -98.850151
9203562500 -0.99462706 132.44392 -9.2193708 -73.143822 -9.2296801 -73.742943 -0.0097506987 -98.834846
9203625000 -0.98617506 132.48712 -9.2258263 -73.133965 -9.2286701 -73.718933 -0.0014306691 -98.818634
9203687500 -0.9933787 132.37923 -9.221839 -73.132553 -9.2373896 -73.707451 -0.0041523408 -98.763092
9203750000 -0.98763269 132.42661 -9.2194185 -73.066788 -9.2218103 -73.758148 0.0056221765 -98.718811
9203812500 -0.98644441 132.38789 -9.2076893 -73.167984 -9.2165785 -73.796768 -0.0026160565 -98.706985
9203875000 -0.99015319 132.39824 -9.2238665 -73.010841 -9.2197609 -73.735527 -0.0081062373 -98.686615
9203937500 -1.0019557 132.38286 -9.2233963 -73.117096 -9.2069206 -73.702484 0.0066251564 -98.703964
9204000000 -0.99073172 132.44321 -9.2085428 -73.009056 -9.2301149 -73.712013 0.0031860638 -98.642616
9204062500 -0.99032605 132.38622 -9.223547 -73.006592 -9.2074337 -73.727402 -0.0036556446 -98.676239
9204125000 -0.9950403 132.37531 -9.2148075 -73.049545 -9.2177763 -73.713013 0.00053711911 -98.634628
9204187500 -1.0006125 132.2739 -9.2165985 -73.13694 -9.223505 -73.799706 -0.0052081873 -98.639984
9204250000 -0.99677855 132.33298 -9.2141657 -73.034958 -9.2146444 -73.699493 0.0027897647 -98.626015
9204312500 -0.99194312 132.32722 -9.2075548 -72.999939 -9.2161846 -73.694092 -0.0047235684 -98.505028
9204375000 -0.97734737 132.3269 -9.2135048 -73.068092 -9.2102652 -73.748238 0.00040144386 -98.631416
9204437500 -0.99846208 132.30664 -9.2092533 -73.075226 -9.2056761 -73.697212 0.0081051039 -98.559982
9204500000 -0.99281186 132.30885 -9.2066746 -73.071228 -9.2235136 -73.733582 -0.0052375039 -98.533974
9204562500 -0.99510068 132.21176 -9.2184868 -73.152695 -9.2074499 -73.749115 0.0018374462 -98.610886
9204625000 -0.98440087 132.22415 -9.2021837 -72.982651 -9.2075405 -73.719116 0.0015896797 -98.454163
9204687500 -0.99457526 132.23329 -9.2187834 -73.037453 -9.2111111 -73.751297 -0.0014215229 -98.458961
9204750000 -0.99400663 132.1808 -9.2056341 -73.007332 -9.2182503 -73.723145 -0.013173457 -98.478485
9204812500 -0.98037779 132.19899 -9.2107821 -72.989098 -9.2099791 -73.740402 0.0001165742 -98.447823
9204875000 -0.9878425 132.24866 -9.2078581 -73.010109 -9.2242451 -73.705307 -0.0042337277 -98.482552
9204937500 -0.99084234 132.19614 -9.2100477 -73.037704 -9.2060242 -73.780106 0.0064220745 -98.441544
9205000000 -0.98359066 132.13199 -9.2064743 -73.034988 -9.2057762 -73.690277 -0.011799772 -98.381691
9205062500 -0.99535173 132.09937 -9.2116108 -73.086983 -9.1993542 -73.684204 -0.0037608307 -98.344643
9205125000 -0.98864615 132.11761 -9.1962385 -73.053253 -9.1993322 -73.701393 -0.0049164086 -98.302979
9205187500 -0.99264884 132.12686 -9.208848 -73.007965 -9.2056656 -73.71534 -0.0050194492 -98.346054
9205250000 -0.98832446 132.09245 -9.2041779 -73.068535 -9.2104683 -73.669014 -0.010417593 -98.3489
9205312500 -0.99363869 132.12146 -9.2087517 -73.026947 -9.2052269 -73.633789 -0.0076495609 -98.324036
9205375000 -0.99646759 132.02896 -9.2043266 -73.094009 -9.20613 -73.71505 0.00057323306 -98.30912
9205437500 -0.97994614 132.05032 -9.1916599 -72.988647 -9.1992321 -73.638176 -0.0016311653 -98.246201
9205500000 -1.0015334 131.99904 -9.2050467 -73.08078 -9.2036562 -73.741501 -0.000513823 -98.211136
9205562500 -0.99061418 132.03017 -9.2005358 -73.059174 -9.1986351 -73.733864 -0.0012501004 -98.238937
9205625000 -1.0010887 132.00803 -9.210906 -73.092079 -9.197649 -73.722038 -0.0032509891 -98.153
9205687500 -0.9924258 132.03958 -9.1971016 -72.97303 -9.1983309 -73.636024 -0.004946765 -98.160835
9205750000 -0.99086219 131.97482 -9.1923552 -73.050926 -9.2026653 -73.709618 -0.0048000272 -98.170753
9205812500 -0.99637711 131.95108 -9.2004251 -73.03949 -9.2016935 -73.650208 -0.0033077407 -98.138062
9205875000 -0.98742712 131.96301 -9.1998549 -73.009689 -9.2077188 -73.686539 -0.0064978693 -98.208641
9205937500 -0.98826027 131.94826 -9.1993961 -72.98481 -9.1924105 -73.646942 2.519492e-005 -98.136086
9206000000 -1.0005149 131.92093 -9.1938086 -72.991127 -9.1906672 -73.643578 0.005360466 -98.111946
9206062500 -0.99255407 131.94975 -9.1915731 -73.047585 -9.1922617 -73.686005 -0.0065517058 -98.152557
9206125000 -0.99711937 131.90248 -9.1965628 -73.065338 -9.187623 -73.63958 -0.0038320734 -98.04586
9206187500 -0.99263203 131.89401 -9.1914682 -73.014412 -9.1904001 -73.729813 0.0056749508 -98.073975
9206250000 -1.0006391 131.84006 -9.2035561 -73.01416 -9.1966314 -73.674973 -0.0066813757 -98.078728
9206312500 -0.99086964 131.78038 -9.2038984 -73.041374 -9.1946917 -73.809883 -0.0084747067 -98.074532
9206375000 -0.99460137 131.84055 -9.1960669 -73.061104 -9.1883106 -73.636604 -0.0041372343 -98.044556
9206437500 -0.98942393 131.79604 -9.1890736 -73.030975 -9.2026472 -73.678329 -0.0107 -98.045731
9206500000 -0.99587148 131.80664 -9.2074556 -73.001312 -9.1962404 -73.63427 -0.013161667 -98.000526
9206562500 -0.99519706 131.81033 -9.1953869 -73.073509 -9.1975307 -73.621712 -0.0092618223 -98.037819
9206625000 -0.99884617 131.73404 -9.1948013 -73.007545 -9.1878815 -73.689102 -0.0041776067 -97.991882
9206687500 -0.99707776 131.78032 -9.1931944 -73.015694 -9.1864233 -73.662903 -0.0023052169 -97.98082
9206750000 -0.9906401 131.75348 -9.1846867 -73.055649 -9.1925802 -73.695168 -0.012171319 -97.970825
9206812500 -0.99527335 131.79176 -9.1875525 -73.013885 -9.1952477 -73.70459 -0.0053151292 -97.953629
9206875000 -0.99440956 131.74437 -9.1834869 -73.026199 -9.1784296 -73.60038 -0.0048832828 -97.790833
9206937500 -0.9940564 131.72635 -9.1867561 -72.988426 -9.1958418 -73.614464 -0.010034703 -97.835907
9207000000 -0.99206161 131.71426 -9.1930094 -73.049202 -9.1852016 -73.697861 -0.0067197853 -97.888351
9207062500 -0.99057686 131.67924 -9.1856709 -72.955673 -9.1849775 -73.597839 -0.0047186436 -97.693642
9207125000 -0.99986637 131.63638 -9.1759014 -73.025238 -9.1867647 -73.690674 -0.0069552516 -97.768654
9207187500 -0.99500871 131.6185 -9.1833801 -73.104004 -9.1838923 -73.614334 -0.010895687 -97.847267
9207250000 -0.99455374 131.65755 -9.1897736 -73.017998 -9.1935349 -73.634354 -0.0067371991 -97.849945
9207312500 -0.98921961 131.6432 -9.1812544 -73.085617 -9.1789637 -73.647064 -0.0035395725 -97.80378
9207375000 -0.99730951 131.59923 -9.1880932 -72.989037 -9.182662 -73.659103 -0.0052978345 -97.726166
9207437500 -0.99200702 131.68349 -9.1865358 -73.030434 -9.1966543 -73.638283 -0.0046878546 -97.74231
9207500000 -0.99634242 131.65602 -9.1873217 -72.959732 -9.1637096 -73.62838 -0.01325868 -97.678238
9207562500 -0.99238241 131.62582 -9.1913481 -72.982887 -9.1751051 -73.657784 -0.01393957 -97.738434
9207625000 -0.99477303 131.52167 -9.1828461 -72.954475 -9.1827822 -73.658226 -0.0076716966 -97.647911
9207687500 -0.99742967 131.53777 -9.1768332 -73.03083 -9.175005 -73.595001 -0.0035324432 -97.67144
9207750000 -0.99647057 131.56508 -9.1810284 -72.929337 -9.1768742 -73.621742 -0.0070032654 -97.650749
9207812500 -0.99413371 131.55482 -9.1840048 -72.98539 -9.1770391 -73.596931 -0.01259251 -97.574776
9207875000 -0.98768425 131.54051 -9.1859341 -73.033661 -9.1755781 -73.68499 -0.0053538694 -97.648499
9207937500 -0.99725258 131.51553 -9.1881609 -72.94236 -9.1839199 -73.679428 -0.016701596 -97.615364
9208000000 -0.99762821 131.48744 -9.1759253 -73.046051 -9.1686106 -73.581459 -0.0080279149 -97.546005
9208062500 -1.0026112 131.45811 -9.1883307 -72.992699 -9.1780767 -73.629097 -0.014617381 -97.540871
9208125000 -0.99761182 131.47186 -9.1790028 -73.020607 -9.173996 -73.615807 -0.0098522836 -97.534622
9208187500 -0.99394023 131.48329 -9.1744471 -72.955811 -9.175457 -73.665596 -0.013201002 -97.558434
9208250000 -0.99884981 131.44804 -9.1774225 -72.899498 -9.1658659 -73.603447 -0.0077310218 -97.496704
9208312500 -0.99754608 131.45949 -9.1818142 -72.944939 -9.1688442 -73.590027 -0.013794104 -97.494667
9208375000 -1.0027802 131.42879 -9.1676168 -73.010872 -9.1751184 -73.605637 -0.0083577214 -97.435219
9208437500 -1.0002408 131.3519 -9.1727467 -73.02417 -9.173502 -73.535423 -0.020617319 -97.44326
9208500000 -0.99845868 131.35663 -9.1730013 -72.995491 -9.1774635 -73.636253 -0.0093109449 -97.454117
9208562500 -0.99499226 131.38214 -9.1767569 -72.989975 -9.1724443 -73.675674 -0.01152671 -97.441643
9208625000 -0.99379921 131.33302 -9.1684675 -72.937584 -9.1715002 -73.551163 -0.018359324 -97.428162
9208687500 -0.98879921 131.31432 -9.167592 -72.989632 -9.1731243 -73.591591 -0.013109761 -97.384506
9208750000 -0.99581629 131.39165 -9.1788168 -72.932915 -9.1682968 -73.525566 -0.0091436328 -97.350021
9208812500 -0.99925959 131.37445 -9.1731606 -72.996704 -9.1768999 -73.576714 -0.010796177 -97.329567
9208875000 -0.99358141 131.29317 -9.1745958 -73.03997 -9.1713886 -73.599533 -0.011486254 -97.295517
9208937500 -0.99935192 131.26669 -9.1605825 -72.984772 -9.1684036 -73.591721 -0.012645524 -97.285675
9209000000 -0.98749191 131.31325 -9.1725216 -72.948715 -9.163168 -73.547249 -0.0213758 -97.357162
9209062500 -0.99486232 131.25757 -9.1694164 -72.949539 -9.1668797 -73.61692 -0.013865318 -97.271408
9209125000 -0.99883527 131.27948 -9.1640444 -72.894447 -9.1609612 -73.540573 -0.011555475 -97.160614
9209187500 -0.99818462 131.23576 -9.1676922 -72.982925 -9.1704597 -73.531197 -0.013634853 -97.277519
9209250000 -0.99585807 131.19551 -9.1687803 -72.945244 -9.1556396 -73.639137 -0.01373546 -97.191971
9209312500 -0.99227858 131.16823 -9.1697674 -72.898697 -9.1655464 -73.556236 -0.026267434 -97.189362
9209375000 -0.98853624 131.20737 -9.1676683 -72.936226 -9.1787109 -73.489784 -0.027021326 -97.172218
9209437500 -1.003679 131.17151 -9.1761322 -72.866608 -9.1568241 -73.630142 -0.013635997 -97.139053
9209500000 -0.99546969 131.15469 -9.1599731 -73.012039 -9.1632853 -73.56768 -0.013797663 -97.127007
9209562500 -1.0053459 131.14499 -9.1760349 -72.901695 -9.1649294 -73.520042 -0.022591837 -97.076805
9209625000 -0.99516892 131.07333 -9.1640282 -72.933632 -9.1531315 -73.575111 -0.010130414 -97.061569
9209687500 -0.99981034 131.0968 -9.1542301 -72.959457 -9.1517458 -73.517891 -0.011859416 -97.088188
9209750000 -0.99459904 131.07358 -9.1560154 -72.986893 -9.157711 -73.522156 -0.010525865 -97.067924
9209812500 -0.99606901 131.09985 -9.1631012 -72.903725 -9.1574583 -73.605431 -0.01722263 -97.040947
9209875000 -0.99543607 131.10344 -9.151638 -72.895157 -9.1582403 -73.555 -0.020672813 -97.039169
9209937500 -0.99662364 131.1356 -9.1675634 -72.922028 -9.1700687 -73.532845 -0.022260671 -97.064568
9210000000 -0.98878407 131.07799 -9.1586027 -72.864342 -9.1514482 -73.480286 -0.03016747 -96.949821
9210062500 -1.0052305 131.06995 -9.1565008 -72.932335 -9.1577978 -73.609138 -0.023482088 -97.02993
9210125000 -0.99188179 131.03687 -9.1619787 -72.931343 -9.1587362 -73.592941 -0.023627771 -97.031677
9210187500 -0.99990529 131.04353 -9.1506929 -72.90094 -9.1562061 -73.508087 -0.023886763 -96.92524
9210250000 -0.99574357 131.05922 -9.1581383 -72.869904 -9.1493082 -73.519455 -0.01987865 -96.949417
9210312500 -1.0053201 131.02466 -9.1633291 -72.84716 -9.1612101 -73.591187 -0.022270609 -96.956062
9210375000 -0.99462938 131.0271 -9.1534033 -72.904373 -9.1510344 -73.569901 -0.020479109 -96.828362
9210437500 -0.99651355 130.93918 -9.1554356 -72.965195 -9.1432781 -73.55909 -0.012411515 -96.941429
9210500000 -0.9950965 130.94531 -9.1527147 -72.969543 -9.1470737 -73.524178 -0.011030453 -96.865227
9210562500 -1.0030175 130.92059 -9.1603413 -72.866196 -9.1523685 -73.579758 -0.02144908 -96.838463
9210625000 -0.99332303 130.92947 -9.154871 -72.904671 -9.1568403 -73.522217 -0.018116657 -96.887596
9210687500 -0.99698198 130.9333 -9.1612854 -72.9319 -9.1523552 -73.52317 -0.023245219 -96.81321
9210750000 -0.99903518 130.90369 -9.1561089 -72.940742 -9.1402855 -73.528854 -0.018727813 -96.827934
9210812500 -0.99869192 130.92467 -9.1543398 -72.82341 -9.1548948 -73.487663 -0.027200894 -96.787086
9210875000 -0.99582499 130.89261 -9.1490898 -72.873611 -9.1401739 -73.549698 -0.023482069 -96.801186
9210937500 -0.99570686 130.87254 -9.1564865 -72.924393 -9.1565046 -73.489441 -0.032708745 -96.757393
9211000000 -0.99142653 130.87498 -9.1563425 -72.903831 -9.1564484 -73.550102 -0.022306636 -96.772079
9211062500 -0.99163121 130.85385 -9.1431313 -72.842422 -9.1480637 -73.501892 -0.023558624 -96.738457
9211125000 -0.99210984 130.81155 -9.1365833 -72.910484 -9.1413994 -73.508537 -0.015108598 -96.717247
9211187500 -1.0027412 130.82803 -9.1444769 -72.901382 -9.1521492 -73.505127 -0.022319101 -96.713821
9211250000 -1.0026343 130.81696 -9.1413202 -72.948372 -9.1410599 -73.43528 -0.0089426432 -96.620628
9211312500 -0.99466705 130.78922 -9.141118 -72.88369 -9.1441431 -73.472099 -0.020947274 -96.630409
9211375000 -0.99429464 130.71954 -9.1452475 -72.926041 -9.1480284 -73.56337 -0.024272626 -96.604691
9211437500 -0.99478489 130.75722 -9.1459131 -72.86673 -9.138463 -73.513367 -0.021338502 -96.575844
9211500000 -1.0031118 130.73444 -9.1450634 -72.889343 -9.1450396 -73.49633 -0.020632343 -96.62925
9211562500 -1.0067556 130.7554 -9.1583633 -72.86422 -9.1436033 -73.523399 -0.028335514 -96.58757
9211625000 -0.99987847 130.6712 -9.1343002 -72.926842 -9.1273661 -73.551285 -0.014727904 -96.592117
9211687500 -1.0008761 130.76636 -9.1495209 -72.823189 -9.142786 -73.534584 -0.024214491 -96.569977
9211750000 -1.00333 130.6823 -9.1465397 -72.819656 -9.1322412 -73.486389 -0.013776473 -96.48838
9211812500 -1.0047194 130.68628 -9.1559105 -72.898697 -9.1429539 -73.474976 -0.0320828 -96.53006
9211875000 -0.9999615 130.64474 -9.1488018 -72.896805 -9.1354876 -73.437103 -0.021336192 -96.401939
9211937500 -0.99560505 130.6846 -9.1461897 -72.859161 -9.1380882 -73.445755 -0.032084387 -96.470566
9212000000 -0.99549967 130.56866 -9.1356936 -72.887985 -9.1347952 -73.549057 -0.024345659 -96.460632
9212062500 -0.99311894 130.59503 -9.1393156 -72.8358 -9.1345053 -73.446014 -0.032731548 -96.43676
