!Agilent Technologies,N5242A,MY51221714,A.09.90.19
!Agilent N5242A: A.09.90.19
!Date: Tuesday, March 26, 2024 15:37:25
!Correction: S11(Full 2 Port(1,2)) 
!S21(Full 2 Port(1,2)) 
!S12(Full 2 Port(1,2)) 
!S22(Full 2 Port(1,2)) 
!S2P File: Measurements: S11, S21, S12, S22:
# Hz S  dB   R 50
9200000000 -0.97824955 133.28386 -9.2497015 -73.132202 -9.2333984 -73.729164 0.0089563746 -99.712509
9200062500 -0.98396623 133.32904 -9.2504187 -73.173302 -9.2541161 -73.74543 0.0036996934 -99.61248
9200125000 -0.97496152 133.23863 -9.2414684 -73.100037 -9.2403297 -73.754929 0.0052212127 -99.623962
9200187500 -0.98119354 133.29973 -9.2448988 -73.055923 -9.2405748 -73.775887 0.020316375 -99.61261
9200250000 -0.97277164 133.22481 -9.2340899 -73.086449 -9.24228 -73.684113 0.010986608 -99.620079
9200312500 -0.98086435 133.24803 -9.2448015 -73.171181 -9.2432718 -73.742706 0.014113139 -99.562592
9200375000 -0.97356081 133.21318 -9.2353945 -73.134911 -9.2436581 -73.806442 0.014654896 -99.586151
9200437500 -0.97746688 133.2243 -9.2452316 -73.128067 -9.242156 -73.717278 0.013436344 -99.55162
9200500000 -0.97672129 133.18796 -9.2457418 -73.128441 -9.238452 -73.705116 0.0017769171 -99.513054
9200562500 -0.97551924 133.17764 -9.2348003 -73.055428 -9.2431335 -73.727585 0.014558918 -99.542343
9200625000 -0.9858585 133.18794 -9.2447004 -73.087357 -9.2287502 -73.720215 0.0055346317 -99.496376
9200687500 -0.97136432 133.21425 -9.2431774 -73.046936 -9.2448807 -73.717491 0.006654643 -99.439705
9200750000 -0.97713125 133.09807 -9.247776 -73.152252 -9.2396955 -73.702728 0.0045216321 -99.489243
9200812500 -0.98759902 133.16428 -9.2365904 -73.023933 -9.2401628 -73.687569 -0.0050932947 -99.42141
9200875000 -0.97072691 133.25853 -9.2372847 -73.016144 -9.2456932 -73.764732 0.0032177933 -99.497452
9200937500 -0.97846782 133.1367 -9.2456369 -73.094292 -9.2339172 -73.662979 0.016104992 -99.377197
9201000000 -0.97839749 133.10803 -9.2415876 -73.153038 -9.2319317 -73.728104 0.010813033 -99.416161
9201062500 -0.97114801 133.07446 -9.2300959 -73.043076 -9.2305841 -73.742142 0.0089592366 -99.36702
9201125000 -0.97688711 133.09013 -9.225255 -73.042717 -9.2424002 -73.727165 0.0052675796 -99.360916
9201187500 -0.98188788 132.99312 -9.2313213 -73.105682 -9.2336845 -73.726967 0.0052266913 -99.242584
9201250000 -0.97772694 133.05852 -9.2240973 -73.028404 -9.2403889 -73.682869 0.0050904304 -99.269272
9201312500 -0.98614818 133.02148 -9.2398081 -73.067085 -9.2294521 -73.762444 0.016687157 -99.366936
9201375000 -0.98281515 133.01491 -9.2346048 -72.972885 -9.240324 -73.685158 -2.2437458e-005 -99.281235
9201437500 -0.978935 133.01534 -9.2415915 -73.01638 -9.2412758 -73.707222 0.0035093767 -99.33046
9201500000 -0.98036772 133.02411 -9.2303019 -73.060295 -9.2329292 -73.69191 0.0061996956 -99.287712
9201562500 -0.9789024 132.96748 -9.2433844 -73.019081 -9.238143 -73.669662 -0.0018712081 -99.222488
9201625000 -0.97643477 132.96716 -9.2307425 -73.030418 -9.2225294 -73.641655 0.00036498695 -99.182861
9201687500 -0.98292923 132.9801 -9.2272682 -72.965904 -9.234436 -73.673065 0.0023232733 -99.102875
9201750000 -0.98111093 132.95122 -9.2325087 -73.063255 -9.2171507 -73.715446 0.013325897 -99.160492
9201812500 -0.96930724 132.92873 -9.2268238 -73.022835 -9.2378931 -73.713028 -0.013784741 -99.253799
9201875000 -0.98077905 132.8904 -9.2212753 -72.999496 -9.2169542 -73.739861 0.016413743 -99.123795
9201937500 -0.9916721 132.82401 -9.238061 -73.064011 -9.2240543 -73.717812 0.0075946199 -99.170105
9202000000 -0.98239571 132.87062 -9.2203398 -73.004639 -9.222126 -73.702759 0.0068249651 -99.089691
9202062500 -0.98440033 132.87408 -9.2138119 -73.107918 -9.2247648 -73.733078 0.012989223 -99.126953
9202125000 -0.98300028 132.89255 -9.2351999 -73.017685 -9.2360716 -73.653854 -0.011717614 -99.11367
9202187500 -0.98307234 132.8652 -9.2283602 -73.071587 -9.2228432 -73.672295 0.0092792436 -99.060959
9202250000 -0.98232591 132.81146 -9.2287111 -73.032448 -9.2248306 -73.633293 -0.002231512 -99.005043
9202312500 -0.9774189 132.83864 -9.2317419 -72.990265 -9.2175875 -73.643745 0.0030793122 -99.01577
9202375000 -0.98040831 132.77704 -9.2351456 -72.998329 -9.2126045 -73.664108 0.0024127665 -98.921844
9202437500 -0.97622168 132.81807 -9.2141066 -73.025482 -9.222105 -73.644722 0.010718595 -99.068687
9202500000 -0.98637414 132.78668 -9.232749 -73.120766 -9.232398 -73.675606 0.00070997968 -99.021194
9202562500 -0.97561795 132.76286 -9.2207899 -73.032936 -9.2223511 -73.573128 -0.0046360306 -98.96447
9202625000 -0.98201311 132.81546 -9.2205381 -72.990524 -9.2143335 -73.645317 0.0029448273 -98.944237
9202687500 -0.98491925 132.73778 -9.2218037 -73.061684 -9.2249765 -73.654503 0.0038233863 -98.898476
9202750000 -0.97076344 132.679 -9.2138929 -73.001396 -9.2215681 -73.676483 0.0030637989 -98.918335
9202812500 -0.98050141 132.66321 -9.2183266 -73.066093 -9.206522 -73.64782 0.0058940696 -98.887344
9202875000 -0.97634792 132.68474 -9.2145243 -73.043869 -9.2218695 -73.683975 0.0017542065 -98.856064
9202937500 -0.97597498 132.68623 -9.2059679 -73.10965 -9.2074938 -73.600052 0.0058891918 -98.822662
9203000000 -0.98482239 132.72112 -9.2161312 -73.043388 -9.2173405 -73.639183 0.003444636 -98.783218
9203062500 -0.97819906 132.63071 -9.2098808 -73.013222 -9.2150126 -73.632538 -0.0038552852 -98.829796
9203125000 -0.98216462 132.57748 -9.2124605 -73.045441 -9.2150087 -73.708961 -0.00061685842 -98.862946
9203187500 -0.97993267 132.5972 -9.2254686 -73.121689 -9.2094355 -73.645248 0.00066676096 -98.79615
9203250000 -0.98503977 132.57829 -9.2167244 -73.048851 -9.2123384 -73.665031 0.0034890193 -98.809578
9203312500 -0.99004722 132.58937 -9.2253752 -73.039589 -9.212923 -73.740608 0.0066071898 -98.766624
9203375000 -0.98312426 132.6228 -9.2188063 -73.009895 -9.2052002 -73.647209 0.0053341221 -98.699936
9203437500 -0.9905892 132.60963 -9.2347813 -73.026535 -9.2121468 -73.690079 -0.00079719286 -98.740112
9203500000 -0.98145288 132.543 -9.2185936 -72.988579 -9.2249765 -73.657822 -0.0024660775 -98.734909
9203562500 -0.98622525 132.52361 -9.2185497 -73.049515 -9.2176695 -73.640732 -0.0071122483 -98.749084
9203625000 -0.98485333 132.57623 -9.2203808 -73.028488 -9.2093287 -73.616333 -0.0022995984 -98.687515
9203687500 -0.99217981 132.4912 -9.2286263 -73.030693 -9.2160292 -73.64782 -0.0034211075 -98.655701
9203750000 -0.97870445 132.47714 -9.212595 -72.965523 -9.2025499 -73.603394 0.0075067463 -98.633644
9203812500 -0.9904381 132.45361 -9.214076 -73.088448 -9.2193584 -73.627434 -0.0038177751 -98.613693
9203875000 -0.98073226 132.48624 -9.216855 -72.941589 -9.2112103 -73.680222 -0.015965782 -98.65168
9203937500 -0.98303807 132.46541 -9.2037315 -73.004753 -9.2093477 -73.571503 -0.0027261674 -98.578766
9204000000 -0.98805743 132.43938 -9.1982517 -72.957573 -9.2147579 -73.61937 0.0015787109 -98.547958
9204062500 -0.9815383 132.46088 -9.215867 -72.995209 -9.2027063 -73.581223 -0.0036113134 -98.475891
9204125000 -0.98950219 132.48344 -9.2042971 -72.993431 -9.206316 -73.612091 -0.00200565 -98.510345
9204187500 -0.99312752 132.37886 -9.2131138 -72.983032 -9.2177334 -73.629631 -0.012999189 -98.484634
9204250000 -0.9873445 132.35809 -9.2023573 -73.039513 -9.2103062 -73.638237 -0.0013589166 -98.535378
9204312500 -0.98059911 132.42595 -9.2019711 -72.98011 -9.2011251 -73.674652 -0.0059476658 -98.415138
9204375000 -0.97427255 132.37869 -9.2092152 -72.954163 -9.1959963 -73.612549 -0.00038516123 -98.535652
9204437500 -0.9887358 132.37047 -9.2059069 -73.025475 -9.20327 -73.546707 0.0028988435 -98.409691
9204500000 -0.99182487 132.36186 -9.210742 -72.989525 -9.2097101 -73.664787 -0.007468835 -98.487823
9204562500 -0.9852109 132.28836 -9.2050018 -73.08577 -9.2018747 -73.679787 0.0043894998 -98.446167
9204625000 -0.97852808 132.30669 -9.2007198 -72.951103 -9.1967068 -73.643318 -0.0040862183 -98.345428
9204687500 -0.98101002 132.31726 -9.2082682 -72.919937 -9.2075424 -73.630074 -0.00020498045 -98.312698
9204750000 -0.99216026 132.29471 -9.2031221 -72.90522 -9.2056942 -73.578819 -0.012816967 -98.367386
9204812500 -0.97855574 132.30005 -9.2014971 -72.918892 -9.2022667 -73.694145 0.0003969399 -98.34919
9204875000 -0.98540324 132.33842 -9.2076035 -72.954857 -9.2162685 -73.602394 -0.01669674 -98.34967
9204937500 -0.98554182 132.23306 -9.1964788 -73.01123 -9.2026567 -73.60968 -0.0020344155 -98.306175
9205000000 -0.9713074 132.22523 -9.1900749 -72.908203 -9.1968813 -73.621574 -0.013037904 -98.306747
9205062500 -0.98446107 132.1734 -9.2063532 -73.005684 -9.1893578 -73.590942 -0.0062653762 -98.243019
9205125000 -0.98295242 132.2325 -9.1974621 -72.947609 -9.1965294 -73.59726 -0.007588611 -98.228897
9205187500 -0.98748487 132.228 -9.2004461 -72.901108 -9.1922569 -73.598419 -0.010197675 -98.241081
9205250000 -0.97587794 132.16971 -9.2054834 -72.968521 -9.2044897 -73.556686 -0.014406523 -98.2696
9205312500 -0.98261321 132.25356 -9.1849155 -72.91967 -9.2002087 -73.577354 -0.011893858 -98.236252
9205375000 -0.98427552 132.179 -9.1962833 -72.941864 -9.1988106 -73.521095 -0.0089637283 -98.149574
9205437500 -0.98035032 132.15465 -9.1964016 -72.889389 -9.1915388 -73.529045 -0.0012224936 -98.169479
9205500000 -0.98960686 132.10556 -9.1885004 -72.933029 -9.1881208 -73.576393 0.0026915227 -98.091209
9205562500 -0.9859547 132.12894 -9.1922293 -72.941849 -9.1980391 -73.533035 -0.0067698713 -98.096481
9205625000 -0.99233645 132.13329 -9.1993227 -72.876274 -9.1849985 -73.555466 -0.002130979 -98.058182
9205687500 -0.98332816 132.11 -9.1933813 -72.947586 -9.186799 -73.587822 -0.0079197893 -98.083191
9205750000 -0.98479187 132.05061 -9.1930895 -72.952377 -9.1929264 -73.568733 -0.0073063746 -98.022713
9205812500 -0.98779452 132.02072 -9.1890583 -72.944069 -9.1854868 -73.627724 -0.006997386 -98.027397
9205875000 -0.98105037 132.07135 -9.1916885 -72.944359 -9.1924677 -73.588715 -0.0086270571 -98.115242
9205937500 -0.98520362 132.00977 -9.1886148 -73.000465 -9.1907949 -73.558304 -0.0131409 -97.999687
9206000000 -0.99027324 131.99529 -9.1863146 -72.894585 -9.186861 -73.501961 0.00059579575 -97.946899
9206062500 -0.98414272 132.03697 -9.194109 -73.011383 -9.1992569 -73.553757 -0.016020732 -97.998253
9206125000 -0.98628241 131.98257 -9.1826715 -72.930389 -9.1862469 -73.534233 -0.0095488615 -97.900826
9206187500 -0.98478007 131.97992 -9.189477 -72.97139 -9.1868219 -73.560493 0.00046165261 -97.978508
9206250000 -0.99362457 131.93069 -9.1922541 -72.987358 -9.184454 -73.496262 -0.014732393 -97.935066
9206312500 -0.98554397 131.91066 -9.1899023 -72.928886 -9.1862202 -73.653717 -0.0085387528 -97.966125
9206375000 -0.99155718 131.9467 -9.1873217 -72.923233 -9.1822205 -73.468529 -0.0050971019 -97.923317
9206437500 -0.98029292 131.90025 -9.1903648 -72.971863 -9.1889906 -73.557755 -0.019216083 -97.89959
9206500000 -0.98893052 131.91483 -9.193512 -72.948929 -9.178771 -73.543831 -0.017601237 -97.867149
9206562500 -0.98893952 131.90613 -9.1894474 -73.042694 -9.1780405 -73.462456 -0.0057056546 -97.853439
9206625000 -0.99527144 131.80444 -9.1790934 -72.970535 -9.1790323 -73.644936 -0.0077018165 -97.918915
9206687500 -0.98928678 131.87125 -9.1869488 -72.948448 -9.1760607 -73.613823 0.00061520294 -97.87719
9206750000 -0.98600531 131.86969 -9.1730537 -72.942009 -9.1798973 -73.551399 -0.013634788 -97.845825
9206812500 -0.98260039 131.85768 -9.1891079 -72.963783 -9.1885824 -73.575027 -0.0092072859 -97.849121
9206875000 -0.98935384 131.83958 -9.1818924 -72.917191 -9.1800222 -73.504799 -0.0077031762 -97.728317
9206937500 -0.98822165 131.81944 -9.1963396 -72.924133 -9.1874008 -73.588013 -0.022905571 -97.763115
9207000000 -0.98357713 131.77379 -9.1868982 -72.903618 -9.1918306 -73.552803 -0.017011084 -97.761223
9207062500 -0.97871685 131.80231 -9.1778069 -72.917747 -9.177371 -73.469917 -0.013203355 -97.624077
9207125000 -0.9925012 131.73148 -9.1742392 -72.993233 -9.1727018 -73.590675 -0.0044268565 -97.659698
9207187500 -0.98141253 131.75456 -9.1672983 -72.922615 -9.1807775 -73.53051 -0.017409706 -97.712914
9207250000 -0.98296732 131.73068 -9.1732683 -72.877556 -9.1796055 -73.561646 -0.0078133084 -97.792114
9207312500 -0.98376 131.72458 -9.1738949 -72.989647 -9.1702833 -73.543884 -0.0045929672 -97.705124
9207375000 -0.99132508 131.7189 -9.1862144 -72.93306 -9.1696482 -73.518188 -0.013155578 -97.623367
9207437500 -0.98767787 131.73904 -9.1813154 -72.876038 -9.1873045 -73.485573 -0.010274374 -97.613243
9207500000 -0.99153197 131.71831 -9.1853189 -72.852814 -9.166049 -73.460533 -0.028413851 -97.598457
9207562500 -0.98757726 131.69083 -9.1838713 -72.911423 -9.1664066 -73.508858 -0.017004153 -97.590843
9207625000 -0.98303819 131.58919 -9.1755257 -72.841972 -9.1797047 -73.563911 -0.016731922 -97.545723
9207687500 -0.98651999 131.66461 -9.1710577 -72.856865 -9.1669426 -73.482674 -0.0076637361 -97.539124
9207750000 -0.98825884 131.65936 -9.1713905 -72.871498 -9.1710758 -73.541252 -0.006164833 -97.537064
9207812500 -0.9887622 131.62146 -9.1759453 -72.862167 -9.176053 -73.432823 -0.023393687 -97.481339
9207875000 -0.98332965 131.64143 -9.1716785 -72.858047 -9.1663589 -73.508087 -0.0087182224 -97.482552
9207937500 -0.98755568 131.58943 -9.1831169 -72.837471 -9.167449 -73.527496 -0.015171628 -97.475609
9208000000 -0.99209571 131.59764 -9.1643972 -72.9067 -9.1667233 -73.485115 -0.011223908 -97.411018
9208062500 -0.9898389 131.56305 -9.1721182 -72.863914 -9.1747227 -73.515732 -0.019745989 -97.466904
9208125000 -0.98781931 131.52985 -9.1730995 -72.887253 -9.1811323 -73.533813 -0.016454304 -97.442871
9208187500 -0.9818576 131.5755 -9.1690559 -72.821693 -9.1764593 -73.42112 -0.018088458 -97.360931
9208250000 -0.99294317 131.51941 -9.1754208 -72.788712 -9.1621342 -73.488838 -0.013627767 -97.378914
9208312500 -0.98293084 131.53107 -9.1769466 -72.875511 -9.1552839 -73.518845 -0.013545901 -97.388329
9208375000 -0.99592042 131.55031 -9.1720428 -72.852844 -9.1738749 -73.500359 -0.022255395 -97.297493
9208437500 -0.98792237 131.44348 -9.1673613 -72.968834 -9.1696892 -73.493797 -0.026594613 -97.32782
9208500000 -0.99007779 131.44591 -9.1763763 -72.834709 -9.1697445 -73.502541 -0.017257411 -97.290352
9208562500 -0.98946369 131.47278 -9.1583281 -72.879723 -9.1666727 -73.423271 -0.016024562 -97.289635
9208625000 -0.98307556 131.43091 -9.1482019 -72.867844 -9.1593752 -73.505974 -0.024894476 -97.338242
9208687500 -0.97761989 131.41992 -9.1438169 -72.8955 -9.1631041 -73.476448 -0.01086918 -97.300163
9208750000 -0.98462683 131.44398 -9.1606674 -72.880516 -9.1617289 -73.406166 -0.018271016 -97.221848
9208812500 -0.99024594 131.48587 -9.1752119 -72.842903 -9.1669655 -73.489105 -0.014700294 -97.237106
9208875000 -0.98626947 131.3676 -9.1595726 -72.851036 -9.1637239 -73.438797 -0.01586953 -97.144379
9208937500 -0.991669 131.38812 -9.1583023 -72.889755 -9.1568012 -73.436241 -0.020272883 -97.173721
9209000000 -0.98266298 131.4057 -9.1671448 -72.838882 -9.1569176 -73.436485 -0.022375142 -97.245102
9209062500 -0.99108547 131.38704 -9.1574602 -72.832436 -9.1620007 -73.476479 -0.022837089 -97.165466
9209125000 -0.99844438 131.37604 -9.161171 -72.861755 -9.1644411 -73.484299 -0.009666793 -97.123444
9209187500 -0.98859215 131.33272 -9.1559563 -72.8405 -9.1663189 -73.394524 -0.019015523 -97.095993
9209250000 -0.98222703 131.29472 -9.1603193 -72.805519 -9.149394 -73.490639 -0.014615052 -97.057968
9209312500 -0.9918589 131.25096 -9.1599751 -72.875954 -9.1427221 -73.501709 -0.021774404 -97.147095
9209375000 -0.97908872 131.29367 -9.154458 -72.829033 -9.1623907 -73.460876 -0.029683817 -97.091743
9209437500 -0.99410975 131.26701 -9.1597261 -72.798477 -9.159708 -73.521812 -0.021956991 -97.00145
9209500000 -0.99055421 131.24796 -9.1554193 -72.891968 -9.1528425 -73.472397 -0.017627198 -97.00074
9209562500 -0.99280119 131.22643 -9.1601744 -72.813606 -9.1689568 -73.514778 -0.02840008 -96.986488
9209625000 -0.9924466 131.16177 -9.1511717 -72.91935 -9.1552963 -73.429695 -0.017422996 -96.986992
9209687500 -0.99048173 131.15836 -9.1505089 -72.883339 -9.1490679 -73.352066 -0.020349862 -96.951241
9209750000 -0.99005204 131.16261 -9.1470423 -72.910965 -9.154336 -73.41243 -0.0086203767 -96.971466
9209812500 -0.98705584 131.18321 -9.1470518 -72.846909 -9.1482544 -73.479439 -0.023258159 -96.950844
9209875000 -0.98779267 131.15836 -9.146615 -72.837021 -9.1472845 -73.440033 -0.016363414 -96.94989
9209937500 -0.98816836 131.27272 -9.1621418 -72.830803 -9.1551628 -73.487022 -0.027556159 -97.030426
9210000000 -0.98361033 131.17964 -9.1466379 -72.766319 -9.1521168 -73.397873 -0.036286399 -96.857773
9210062500 -0.99634922 131.15131 -9.1583929 -72.828789 -9.1486788 -73.470467 -0.023583148 -96.903641
9210125000 -0.97904104 131.08641 -9.1529636 -72.884712 -9.1381416 -73.405174 -0.026809735 -96.898216
9210187500 -0.99732411 131.1441 -9.15448 -72.807434 -9.1435318 -73.439667 -0.017946461 -96.817917
9210250000 -0.9900347 131.159 -9.1466093 -72.795044 -9.1444883 -73.440369 -0.024208207 -96.873825
9210312500 -0.99825442 131.13087 -9.1619272 -72.74633 -9.1473837 -73.493874 -0.027097179 -96.826317
9210375000 -0.99256849 131.12584 -9.1563997 -72.773941 -9.1457005 -73.402367 -0.026124921 -96.723915
9210437500 -0.987037 131.06215 -9.149518 -72.800621 -9.1405325 -73.486404 -0.012969066 -96.846848
9210500000 -0.98754191 131.04477 -9.1472406 -72.823677 -9.1426353 -73.468956 -0.016435584 -96.787186
9210562500 -0.99425721 131.02946 -9.1588717 -72.790565 -9.1380482 -73.442406 -0.023468873 -96.738708
9210625000 -0.98285025 131.03952 -9.1500092 -72.798744 -9.1503725 -73.372391 -0.023147641 -96.724968
9210687500 -0.98584503 131.06339 -9.1421824 -72.805283 -9.1475754 -73.446228 -0.025391089 -96.710899
9210750000 -0.99159658 130.99522 -9.1518946 -72.770477 -9.1397543 -73.399117 -0.025204636 -96.682014
9210812500 -0.99298996 130.97412 -9.1512594 -72.84037 -9.1355867 -73.402313 -0.030779576 -96.655907
9210875000 -0.99143291 130.99339 -9.154768 -72.754082 -9.1350737 -73.369873 -0.026795331 -96.673874
9210937500 -0.98722982 130.96625 -9.1390257 -72.778801 -9.1424437 -73.364754 -0.027387254 -96.663834
9211000000 -0.98866147 130.957 -9.1531076 -72.880638 -9.1465673 -73.438744 -0.021181149 -96.676872
9211062500 -0.98546708 130.9519 -9.1354656 -72.734543 -9.1362095 -73.427902 -0.031193782 -96.645523
9211125000 -0.98385364 130.88307 -9.1388083 -72.805725 -9.1354704 -73.376488 -0.023641592 -96.569565
9211187500 -0.99427128 130.91069 -9.1409168 -72.793297 -9.132782 -73.417549 -0.026843434 -96.587151
9211250000 -0.99264157 130.89342 -9.1358089 -72.83667 -9.1360722 -73.356361 -0.016509233 -96.539963
9211312500 -0.98754597 130.8994 -9.1419144 -72.761345 -9.1359558 -73.405838 -0.025396621 -96.546982
9211375000 -0.98845315 130.78815 -9.1434698 -72.796501 -9.1272793 -73.41069 -0.024476435 -96.48838
9211437500 -0.98925787 130.86304 -9.1334906 -72.697533 -9.1397972 -73.430771 -0.028218254 -96.499641
9211500000 -0.99207419 130.82559 -9.1382627 -72.754623 -9.1392918 -73.399544 -0.027191192 -96.535484
9211562500 -0.99673313 130.86218 -9.1401024 -72.809746 -9.1286192 -73.374207 -0.026412897 -96.47699
9211625000 -0.98909026 130.79874 -9.1272202 -72.818115 -9.1277742 -73.396011 -0.024559332 -96.460999
9211687500 -0.99758285 130.82864 -9.1417599 -72.735435 -9.1381731 -73.415535 -0.032660995 -96.413078
9211750000 -0.99111813 130.76811 -9.1286354 -72.732368 -9.1318655 -73.35421 -0.019284641 -96.368759
9211812500 -0.99244577 130.74283 -9.1463642 -72.776131 -9.1324511 -73.426628 -0.036497422 -96.420395
9211875000 -0.99441546 130.73746 -9.1374474 -72.766846 -9.1185722 -73.378189 -0.015389706 -96.317917
9211937500 -0.9915936 130.77554 -9.1393719 -72.797501 -9.1229124 -73.445244 -0.028408235 -96.402122
9212000000 -0.9945001 130.67731 -9.135087 -72.763184 -9.1312494 -73.402016 -0.033801947 -96.363358
9212062500 -0.99017566 130.69644 -9.1254663 -72.724991 -9.1332922 -73.378098 -0.032644872 -96.302681
