!Agilent Technologies,N5242A,MY51221714,A.09.90.19
!Agilent N5242A: A.09.90.19
!Date: Tuesday, March 26, 2024 15:45:23
!Correction: S11(Full 2 Port(1,2)) 
!S21(Full 2 Port(1,2)) 
!S12(Full 2 Port(1,2)) 
!S22(Full 2 Port(1,2)) 
!S2P File: Measurements: S11, S21, S12, S22:
# Hz S  dB   R 50
9200000000 -1.114959 133.31929 -9.1643686 -75.128647 -9.1539927 -75.800362 -0.12962091 -101.52002
9200062500 -1.1193912 133.28069 -9.1538553 -75.202202 -9.1590986 -75.80761 -0.12963492 -101.49188
9200125000 -1.1188242 133.26622 -9.1590557 -75.123428 -9.1480608 -75.72084 -0.13419281 -101.468
9200187500 -1.1272777 133.34943 -9.1618185 -75.0606 -9.1553907 -75.877602 -0.11777392 -101.471
9200250000 -1.1104087 133.28157 -9.1441364 -75.155273 -9.1465664 -75.763474 -0.1205831 -101.48825
9200312500 -1.1221464 133.27953 -9.1564913 -75.175743 -9.1585798 -75.8573 -0.12756798 -101.48055
9200375000 -1.1242977 133.22911 -9.155344 -75.118889 -9.1479969 -75.873558 -0.12002792 -101.42146
9200437500 -1.1188685 133.25508 -9.1558733 -75.164742 -9.1452713 -75.881767 -0.12637359 -101.46767
9200500000 -1.1209705 133.18738 -9.1630678 -75.164108 -9.1443968 -75.742012 -0.13031685 -101.35246
9200562500 -1.1158682 133.20937 -9.155942 -75.127045 -9.1489744 -75.832108 -0.12217718 -101.43157
9200625000 -1.1239587 133.14185 -9.1488323 -75.216438 -9.139205 -75.793289 -0.12440486 -101.3801
9200687500 -1.117918 133.16321 -9.1493216 -75.135368 -9.149004 -75.794945 -0.1276312 -101.34589
9200750000 -1.1198108 133.12538 -9.1480141 -75.095001 -9.1480246 -75.727081 -0.131943 -101.32176
9200812500 -1.1305921 133.14638 -9.1507664 -75.08226 -9.1486616 -75.734413 -0.13925567 -101.28884
9200875000 -1.1156384 133.23006 -9.140234 -75.058716 -9.1433973 -75.75885 -0.13655381 -101.3797
9200937500 -1.1240853 133.12285 -9.1634455 -75.162468 -9.1404152 -75.80175 -0.12259521 -101.29637
9201000000 -1.1180422 133.12338 -9.149909 -75.179092 -9.1419201 -75.828819 -0.12743163 -101.31503
9201062500 -1.116953 133.06055 -9.147172 -75.090446 -9.1369743 -75.778206 -0.13130069 -101.26461
9201125000 -1.1153784 133.10217 -9.1434536 -75.096718 -9.1489029 -75.75502 -0.12761499 -101.20558
9201187500 -1.1218144 133.00958 -9.1491852 -75.062881 -9.1426306 -75.773476 -0.13809229 -101.11662
9201250000 -1.1237875 133.06726 -9.1400337 -75.051262 -9.1394548 -75.764824 -0.13274333 -101.18616
9201312500 -1.1356038 133.00188 -9.1377478 -75.123131 -9.1378889 -75.798431 -0.12663862 -101.20586
9201375000 -1.1279051 133.01599 -9.1484356 -75.059105 -9.1375923 -75.716873 -0.13702638 -101.1301
9201437500 -1.1169078 133.00703 -9.1506453 -75.028801 -9.1420975 -75.856071 -0.13978991 -101.23785
9201500000 -1.1224089 133.01691 -9.1480618 -75.049164 -9.1427984 -75.769371 -0.13348858 -101.15689
9201562500 -1.1200304 132.97823 -9.1405516 -74.986458 -9.1480284 -75.713692 -0.14296538 -101.07008
9201625000 -1.1193779 132.98462 -9.1357822 -75.06842 -9.1256752 -75.734406 -0.13235071 -101.07777
9201687500 -1.1310451 132.97237 -9.143033 -74.966339 -9.137846 -75.717377 -0.13552549 -100.98643
9201750000 -1.124644 132.97287 -9.1517982 -75.052925 -9.1293335 -75.709457 -0.11934093 -100.99804
9201812500 -1.1216272 132.92781 -9.1400328 -75.112747 -9.1432476 -75.751884 -0.14563583 -101.13753
9201875000 -1.1228949 132.9231 -9.1327744 -75.071617 -9.1310606 -75.811516 -0.12470685 -101.02514
9201937500 -1.132347 132.8378 -9.1398907 -75.095703 -9.1340532 -75.788155 -0.13081968 -101.05647
9202000000 -1.114397 132.83582 -9.1293831 -75.056648 -9.1357689 -75.778687 -0.1364858 -101.0025
9202062500 -1.1357557 132.84787 -9.136796 -75.174263 -9.1312647 -75.827507 -0.13193516 -100.9867
9202125000 -1.1279026 132.90497 -9.1572208 -75.074318 -9.1371441 -75.657196 -0.14181747 -100.98302
9202187500 -1.1219168 132.8521 -9.1303072 -75.104927 -9.1350212 -75.659607 -0.12846014 -100.85851
9202250000 -1.126139 132.81958 -9.1422091 -75.130592 -9.1305428 -75.723969 -0.13771853 -100.91745
9202312500 -1.1172433 132.83636 -9.1316795 -75.036949 -9.1317701 -75.789223 -0.1407681 -100.88448
9202375000 -1.1225268 132.77562 -9.1460066 -75.113525 -9.1217232 -75.764618 -0.1380282 -100.83334
9202437500 -1.1212379 132.82327 -9.1303282 -75.112297 -9.1322832 -75.769051 -0.13322784 -100.90197
9202500000 -1.1334254 132.79559 -9.1381092 -75.092979 -9.1303997 -75.735397 -0.13583285 -100.88895
9202562500 -1.1202826 132.73628 -9.1340075 -75.075241 -9.1264219 -75.69416 -0.13921703 -100.88789
9202625000 -1.1284766 132.78995 -9.1342249 -75.154778 -9.1210241 -75.695244 -0.1331521 -100.8036
9202687500 -1.1225826 132.7636 -9.1306829 -75.094574 -9.1309223 -75.765503 -0.13255203 -100.78987
9202750000 -1.118374 132.70013 -9.1226015 -75.040779 -9.1224098 -75.776299 -0.13070416 -100.81215
9202812500 -1.1277292 132.68358 -9.1397276 -75.069405 -9.1173944 -75.760124 -0.13423221 -100.74976
9202875000 -1.1231011 132.69232 -9.1311884 -74.986916 -9.1260252 -75.818054 -0.143105 -100.74408
9202937500 -1.122925 132.6797 -9.1273661 -75.136269 -9.1195126 -75.704994 -0.12973095 -100.73862
9203000000 -1.1233603 132.70874 -9.1238785 -75.0327 -9.1282921 -75.795074 -0.1405427 -100.69009
9203062500 -1.1223297 132.63069 -9.1215725 -75.143402 -9.1267729 -75.74231 -0.14014791 -100.71446
9203125000 -1.1274066 132.62679 -9.1270275 -75.004196 -9.1148434 -75.763969 -0.14042971 -100.67828
9203187500 -1.1206769 132.62117 -9.1252432 -75.080673 -9.1198483 -75.741829 -0.13536152 -100.65543
9203250000 -1.1263111 132.60193 -9.1289005 -75.046082 -9.1268768 -75.708435 -0.14011021 -100.64566
9203312500 -1.1304624 132.59468 -9.126873 -75.067635 -9.1102915 -75.735435 -0.12778047 -100.62238
9203375000 -1.1204426 132.58333 -9.1155062 -75.064743 -9.1137018 -75.767303 -0.13431071 -100.56093
9203437500 -1.1285808 132.60289 -9.1373968 -75.107811 -9.1274128 -75.681625 -0.14309353 -100.58485
9203500000 -1.1238229 132.55466 -9.1143255 -75.059845 -9.1164293 -75.748672 -0.13570981 -100.60096
9203562500 -1.1329216 132.54066 -9.1352987 -75.059563 -9.1340818 -75.688187 -0.15154684 -100.5723
9203625000 -1.1278605 132.5341 -9.1262693 -75.104782 -9.1178627 -75.711502 -0.14312315 -100.60925
9203687500 -1.1286107 132.52185 -9.1284781 -75.077148 -9.1325998 -75.730934 -0.15082178 -100.53168
9203750000 -1.1284907 132.50017 -9.1274242 -75.084595 -9.1179686 -75.746498 -0.13443406 -100.5201
9203812500 -1.1256484 132.50542 -9.1089449 -75.105377 -9.1193323 -75.738098 -0.14324404 -100.49624
9203875000 -1.1241311 132.4888 -9.1172991 -75.015434 -9.123848 -75.822624 -0.15393381 -100.5383
9203937500 -1.1327357 132.46326 -9.1218424 -75.079872 -9.1115961 -75.694839 -0.14205968 -100.46787
9204000000 -1.1292586 132.47646 -9.1154356 -75.02182 -9.1248417 -75.680893 -0.1428864 -100.42589
9204062500 -1.1222785 132.48358 -9.1123676 -75.000916 -9.1047506 -75.727417 -0.1434143 -100.41721
9204125000 -1.1268978 132.4532 -9.1136436 -75.004486 -9.1103268 -75.673065 -0.13464913 -100.414
9204187500 -1.1374412 132.3584 -9.1243038 -75.108482 -9.1204262 -75.711906 -0.15281622 -100.39342
9204250000 -1.131973 132.4301 -9.1106062 -75.055046 -9.1139517 -75.686249 -0.1452606 -100.38043
9204312500 -1.127822 132.41995 -9.1202869 -74.994637 -9.104948 -75.711006 -0.14262715 -100.28217
9204375000 -1.1205566 132.39197 -9.1169882 -75.008461 -9.1150627 -75.667572 -0.14290801 -100.38311
9204437500 -1.1395364 132.38884 -9.1171265 -75.082169 -9.1099091 -75.669518 -0.14385462 -100.30403
9204500000 -1.1342608 132.38121 -9.1088133 -75.005798 -9.1124525 -75.72052 -0.14454347 -100.32375
9204562500 -1.1316702 132.30405 -9.1079664 -75.14756 -9.1064787 -75.723015 -0.13679633 -100.36768
9204625000 -1.1173539 132.3376 -9.1017141 -74.99501 -9.1075315 -75.800461 -0.14833006 -100.29721
9204687500 -1.1284993 132.29489 -9.1130075 -75.061691 -9.1124477 -75.715553 -0.14889394 -100.24776
9204750000 -1.1326451 132.27878 -9.1099882 -75.013527 -9.1140985 -75.744255 -0.15067424 -100.3053
9204812500 -1.1192124 132.2755 -9.1072292 -75.040894 -9.1029282 -75.629326 -0.13722941 -100.20429
9204875000 -1.1282793 132.34885 -9.1069632 -74.990685 -9.1240597 -75.678459 -0.15718721 -100.22882
9204937500 -1.1252915 132.27292 -9.1064005 -75.066254 -9.1088724 -75.668907 -0.14135231 -100.20982
9205000000 -1.1163437 132.1964 -9.1005688 -74.989761 -9.0982046 -75.700859 -0.15025488 -100.19313
9205062500 -1.1240813 132.20238 -9.1049738 -75.035141 -9.0972986 -75.705757 -0.14559029 -100.13823
9205125000 -1.1286716 132.25539 -9.1053972 -74.99334 -9.1074581 -75.634979 -0.15261398 -100.06759
9205187500 -1.1313196 132.23721 -9.1092262 -74.988747 -9.098402 -75.683617 -0.14970481 -100.06942
9205250000 -1.1302644 132.16862 -9.1082754 -75.055038 -9.1067905 -75.737175 -0.15265086 -100.19065
9205312500 -1.1254801 132.24046 -9.0977907 -74.962677 -9.1035299 -75.665939 -0.14846063 -100.09231
9205375000 -1.1264629 132.1432 -9.0998373 -74.954338 -9.097949 -75.698944 -0.13816488 -100.03879
9205437500 -1.1198113 132.13565 -9.0968838 -74.99514 -9.1069975 -75.651176 -0.15089288 -100.05678
9205500000 -1.1311799 132.08133 -9.0979271 -74.972496 -9.0975895 -75.73069 -0.14120725 -100.02319
9205562500 -1.1358404 132.11627 -9.0969114 -75.082085 -9.0929918 -75.643227 -0.13726534 -99.966644
9205625000 -1.1353773 132.11749 -9.1014433 -75.006599 -9.1012297 -75.696899 -0.15390249 -99.9804
9205687500 -1.1293646 132.10638 -9.1045475 -75.006691 -9.091423 -75.704536 -0.14642559 -99.935753
9205750000 -1.1287131 132.05457 -9.1023998 -75.08297 -9.0900621 -75.689003 -0.14043292 -99.966393
9205812500 -1.1342417 132.03227 -9.0883293 -75.018089 -9.0994425 -75.661995 -0.14760271 -99.908813
9205875000 -1.1197947 132.06314 -9.0963469 -74.987595 -9.1011219 -75.689011 -0.14501418 -100.01727
9205937500 -1.1242099 132.04167 -9.084218 -75.013344 -9.0850077 -75.634163 -0.14731228 -99.898537
9206000000 -1.1359924 132.04349 -9.090086 -74.96801 -9.092329 -75.621979 -0.1458874 -99.854179
9206062500 -1.1243488 132.03896 -9.0877047 -75.051758 -9.1025743 -75.69902 -0.15670618 -99.914276
9206125000 -1.1287268 132.02458 -9.0803394 -74.981247 -9.0923567 -75.609802 -0.15043436 -99.803864
9206187500 -1.1217227 131.98616 -9.0896301 -75.018028 -9.0965328 -75.656487 -0.15027297 -99.816078
9206250000 -1.1300486 131.91853 -9.0911198 -75.044594 -9.0924063 -75.591286 -0.14863735 -99.860924
9206312500 -1.1235375 131.88809 -9.0959673 -75.024651 -9.091712 -75.783501 -0.14898199 -99.839897
9206375000 -1.1299773 131.97557 -9.0991011 -74.92511 -9.0851698 -75.591324 -0.1489671 -99.770897
9206437500 -1.1312993 131.92264 -9.0967035 -75.028252 -9.0832443 -75.664543 -0.14465193 -99.813354
9206500000 -1.1318237 131.91092 -9.0945597 -75.019981 -9.0860329 -75.610001 -0.15610428 -99.752724
9206562500 -1.1279006 131.88066 -9.0922413 -75.121048 -9.0910549 -75.606346 -0.15150222 -99.778145
9206625000 -1.1352327 131.83203 -9.0827293 -75.015869 -9.0885286 -75.749687 -0.15129171 -99.786705
9206687500 -1.1331185 131.8786 -9.1067724 -75.045792 -9.079504 -75.709854 -0.14404386 -99.846565
9206750000 -1.1330662 131.87688 -9.0814657 -74.985306 -9.0932045 -75.632576 -0.15468399 -99.741058
9206812500 -1.1251179 131.87155 -9.0921555 -75.010719 -9.0838499 -75.70224 -0.14532827 -99.729546
9206875000 -1.1311536 131.80716 -9.0821352 -75.017258 -9.0834694 -75.654556 -0.14512648 -99.610435
9206937500 -1.1266952 131.83499 -9.0780554 -74.958359 -9.0847998 -75.691193 -0.14771961 -99.68
9207000000 -1.1284487 131.80893 -9.0832844 -74.969955 -9.0850525 -75.618927 -0.14906831 -99.590607
9207062500 -1.1262685 131.78568 -9.074748 -74.934601 -9.0806818 -75.585274 -0.15375301 -99.503571
9207125000 -1.1383448 131.7666 -9.0798845 -74.98996 -9.0736151 -75.648277 -0.1455884 -99.513161
9207187500 -1.1276165 131.74048 -9.0739479 -75.039688 -9.0823307 -75.614014 -0.15319447 -99.576973
9207250000 -1.1274822 131.70097 -9.07722 -75.027077 -9.0801067 -75.604027 -0.145235 -99.585434
9207312500 -1.1259989 131.71754 -9.0812941 -75.013725 -9.077178 -75.583443 -0.15112832 -99.509628
9207375000 -1.1381476 131.71414 -9.086937 -74.991402 -9.0717745 -75.643448 -0.15209898 -99.514343
9207437500 -1.1304337 131.74802 -9.0901222 -74.951912 -9.0944061 -75.550713 -0.15451631 -99.517776
9207500000 -1.1345079 131.74574 -9.0827618 -74.947952 -9.0636072 -75.599548 -0.15365779 -99.457901
9207562500 -1.1288689 131.72382 -9.0796156 -75.032242 -9.0728197 -75.64769 -0.1526158 -99.503006
9207625000 -1.1257943 131.64462 -9.0674992 -74.916794 -9.0791588 -75.633392 -0.14965302 -99.411858
9207687500 -1.1364647 131.66338 -9.0851078 -75.03125 -9.0735092 -75.619278 -0.14722809 -99.453995
9207750000 -1.1337293 131.62747 -9.0793247 -74.930939 -9.070075 -75.635384 -0.14888899 -99.410454
9207812500 -1.1337898 131.67593 -9.0774603 -74.967476 -9.0691986 -75.574211 -0.15422229 -99.401382
9207875000 -1.129998 131.6544 -9.0792065 -74.943069 -9.0690031 -75.664108 -0.14834447 -99.389946
9207937500 -1.1354628 131.53343 -9.0925722 -74.988342 -9.0808134 -75.646843 -0.16245906 -99.438499
9208000000 -1.1389449 131.60457 -9.0689125 -74.967621 -9.0702543 -75.620392 -0.15369888 -99.353088
9208062500 -1.1339576 131.5838 -9.0738564 -74.9515 -9.0737791 -75.626457 -0.156094 -99.357384
9208125000 -1.1380723 131.5246 -9.073493 -75.014572 -9.0670929 -75.653679 -0.15694851 -99.351128
9208187500 -1.1323225 131.57101 -9.0765982 -74.996346 -9.0700045 -75.601181 -0.15595964 -99.30249
9208250000 -1.1376539 131.54488 -9.0739794 -74.901093 -9.0601845 -75.610016 -0.14853455 -99.273911
9208312500 -1.1305587 131.5291 -9.0771666 -74.951378 -9.0590487 -75.593864 -0.1571459 -99.267235
9208375000 -1.1365364 131.53386 -9.070116 -74.977272 -9.066309 -75.597153 -0.15614733 -99.197548
9208437500 -1.1346937 131.42696 -9.0777273 -75.014503 -9.075943 -75.534325 -0.17044368 -99.212326
9208500000 -1.1360253 131.46216 -9.0683002 -75.014122 -9.0700331 -75.60804 -0.15650305 -99.204742
9208562500 -1.1433595 131.46002 -9.0688553 -74.969978 -9.0563936 -75.532349 -0.14743656 -99.180908
9208625000 -1.1304662 131.45866 -9.0645018 -74.925468 -9.0575867 -75.542282 -0.15781946 -99.192825
9208687500 -1.1333634 131.46965 -9.0690937 -74.921814 -9.0592899 -75.618736 -0.15783103 -99.144981
9208750000 -1.1323112 131.44864 -9.0700903 -74.932793 -9.0578127 -75.562065 -0.1584383 -99.123924
9208812500 -1.1369749 131.47716 -9.0719347 -74.967659 -9.0677757 -75.623581 -0.15863876 -99.149506
9208875000 -1.1343092 131.36162 -9.0681009 -75.039696 -9.0746641 -75.539772 -0.16094221 -99.055611
9208937500 -1.1403421 131.39934 -9.0640965 -75.028076 -9.0505123 -75.554222 -0.15030076 -99.111336
9209000000 -1.1282935 131.40114 -9.0697165 -74.969841 -9.0568419 -75.600479 -0.16480947 -99.164024
9209062500 -1.1365701 131.38019 -9.0739727 -74.90387 -9.0625792 -75.553886 -0.15911368 -99.038414
9209125000 -1.1419218 131.33516 -9.0639162 -74.987953 -9.0527487 -75.60186 -0.14561062 -99.016899
9209187500 -1.1356421 131.34636 -9.052783 -74.934105 -9.0652704 -75.520538 -0.16030066 -99.004112
9209250000 -1.129272 131.27965 -9.0618725 -74.966469 -9.061758 -75.645027 -0.16030468 -98.922806
9209312500 -1.1334199 131.207 -9.0705395 -75.053497 -9.0567293 -75.61515 -0.16341744 -99.022697
9209375000 -1.129416 131.31885 -9.0641146 -74.937469 -9.0659285 -75.55159 -0.16935386 -99.006279
9209437500 -1.1418991 131.21906 -9.0703259 -74.91011 -9.0617437 -75.618149 -0.16302544 -98.874283
9209500000 -1.13056 131.24005 -9.0556459 -74.996399 -9.064065 -75.589096 -0.16414702 -98.891853
9209562500 -1.1471261 131.22081 -9.0750322 -74.895454 -9.0557489 -75.622612 -0.1678336 -98.953964
9209625000 -1.1347953 131.19472 -9.0482597 -74.943207 -9.0516872 -75.5541 -0.15557452 -98.851494
9209687500 -1.1382171 131.14835 -9.0588484 -74.94072 -9.0511065 -75.527359 -0.16431193 -98.864052
9209750000 -1.1315621 131.18285 -9.046031 -75.015251 -9.0612679 -75.528175 -0.15877581 -98.884041
9209812500 -1.1373351 131.17154 -9.0559425 -74.881493 -9.0589867 -75.581909 -0.15752353 -98.82888
9209875000 -1.1392173 131.13722 -9.0641384 -74.992142 -9.0550241 -75.551529 -0.16792248 -98.827415
9209937500 -1.1389503 131.25726 -9.0675583 -74.909805 -9.0575905 -75.57177 -0.16893703 -98.915131
9210000000 -1.1310332 131.15144 -9.052352 -74.891083 -9.0492659 -75.548759 -0.17595194 -98.756889
9210062500 -1.1442027 131.18689 -9.0604267 -74.904831 -9.0509615 -75.597237 -0.17107488 -98.756737
9210125000 -1.1351048 131.12271 -9.0630503 -74.926971 -9.0502377 -75.549538 -0.16672891 -98.743141
9210187500 -1.1387358 131.13974 -9.0583248 -74.891731 -9.0430059 -75.561356 -0.16308439 -98.703461
9210250000 -1.1385505 131.11322 -9.0557775 -74.930649 -9.0528154 -75.542267 -0.16943535 -98.767715
9210312500 -1.1442182 131.10378 -9.0565739 -74.893295 -9.056716 -75.593056 -0.16337341 -98.76226
9210375000 -1.1345698 131.09378 -9.0624971 -74.948067 -9.0546942 -75.542397 -0.16491471 -98.640068
9210437500 -1.130403 131.04095 -9.0564966 -74.925011 -9.0507002 -75.539093 -0.16270433 -98.730606
9210500000 -1.1339426 131.04218 -9.0435648 -74.932671 -9.0408812 -75.545364 -0.15546577 -98.694588
9210562500 -1.1445165 131.02724 -9.0563059 -74.907768 -9.0458469 -75.558647 -0.16611457 -98.638512
9210625000 -1.1346197 131.06473 -9.0549536 -74.838127 -9.0481873 -75.528038 -0.17191742 -98.639702
9210687500 -1.1343958 131.03114 -9.0525713 -74.938904 -9.0504322 -75.57618 -0.17112614 -98.630547
9210750000 -1.1367655 131.03223 -9.0493822 -74.925766 -9.0309668 -75.536644 -0.16425234 -98.591888
9210812500 -1.1425282 130.96733 -9.0567017 -74.913498 -9.0375938 -75.486938 -0.17195152 -98.559006
9210875000 -1.1430092 130.97884 -9.0494862 -74.918037 -9.0355444 -75.521111 -0.17053001 -98.547745
9210937500 -1.1398258 131.00713 -9.0520649 -74.893585 -9.0499125 -75.509567 -0.17891598 -98.53611
9211000000 -1.1366986 130.99678 -9.0559654 -74.884552 -9.0441418 -75.558205 -0.16591077 -98.563187
9211062500 -1.1325705 130.95779 -9.0446815 -74.855659 -9.0423832 -75.519409 -0.1782643 -98.48233
9211125000 -1.1333969 130.90305 -9.0378981 -74.952156 -9.0293283 -75.49411 -0.15714668 -98.513069
9211187500 -1.1446869 130.92245 -9.0502396 -74.866852 -9.0355787 -75.558815 -0.168505 -98.478691
9211250000 -1.1442482 130.92046 -9.0370865 -74.920174 -9.0396118 -75.528893 -0.15559956 -98.454781
9211312500 -1.1370718 130.92006 -9.0412579 -74.845932 -9.0291719 -75.543297 -0.16668543 -98.459183
9211375000 -1.1392494 130.8149 -9.0389271 -74.874771 -9.0387878 -75.537491 -0.16766074 -98.37104
9211437500 -1.1330554 130.85674 -9.0368633 -74.856033 -9.03339 -75.547997 -0.16812459 -98.406761
9211500000 -1.149001 130.81488 -9.0499792 -74.869644 -9.0394611 -75.52137 -0.17149179 -98.443214
9211562500 -1.1404476 130.84453 -9.0399094 -74.953224 -9.0312357 -75.553352 -0.17059956 -98.422333
9211625000 -1.134058 130.78059 -9.032238 -74.936386 -9.0259161 -75.544418 -0.15918227 -98.359024
9211687500 -1.1435242 130.86441 -9.0545111 -74.803024 -9.0273571 -75.453934 -0.17280555 -98.310219
9211750000 -1.1375273 130.74727 -9.0389194 -74.85878 -9.0380287 -75.526276 -0.17459285 -98.289276
9211812500 -1.1423029 130.74939 -9.0442162 -74.890739 -9.0263443 -75.485649 -0.17292219 -98.289909
9211875000 -1.143623 130.72813 -9.0322895 -74.917206 -9.0267897 -75.476372 -0.16871579 -98.214447
9211937500 -1.1303427 130.77861 -9.0348301 -74.859039 -9.0323238 -75.510963 -0.18299749 -98.302818
9212000000 -1.1390281 130.64288 -9.0322342 -74.910652 -9.0201797 -75.50383 -0.16745088 -98.216072
9212062500 -1.1361806 130.68042 -9.0404243 -74.847641 -9.0259428 -75.463966 -0.17822325 -98.25753
9212125000 -1.1333951 130.60661 -9.0230818 -74.924164 -9.0330381 -75.524132 -0.16946222 -98.228462
9212187500 -1.1326162 130.65526 -9.0222788 -74.874321 -9.0240088 -75.553932 -0.17483278 -98.218536
9212250000 -1.138557 130.64015 -9.041873 -74.914192 -9.0248823 -75.532074 -0.16687329 -98.190018
9212312500 -1.143136 130.66486 -9.0371981 -74.853203 -9.0097551 -75.515327 -0.168882 -98.209282
