!Agilent Technologies,N5242A,MY51221714,A.09.90.19
!Agilent N5242A: A.09.90.19
!Date: Tuesday, March 26, 2024 15:49:43
!Correction: S11(Full 2 Port(1,2)) 
!S21(Full 2 Port(1,2)) 
!S12(Full 2 Port(1,2)) 
!S22(Full 2 Port(1,2)) 
!S2P File: Measurements: S11, S21, S12, S22:
# Hz S  dB   R 50
9200000000 -1.093978 132.99933 -9.0690842 -75.14901 -9.04918 -75.837769 -0.10260703 -101.8693
9200062500 -1.1005313 133.06148 -9.0560474 -75.185562 -9.0569096 -75.778511 -0.092807189 -101.77155
9200125000 -1.0990795 132.97035 -9.056098 -75.192909 -9.0434103 -75.74736 -0.10433676 -101.74197
9200187500 -1.1073998 133.05901 -9.0557671 -75.06308 -9.0545149 -75.882965 -0.087866381 -101.80112
9200250000 -1.1008276 133.00314 -9.0600538 -75.129478 -9.0520287 -75.797417 -0.10300305 -101.76834
9200312500 -1.1078454 132.97612 -9.0673609 -75.146713 -9.0524054 -75.813377 -0.10089937 -101.7999
9200375000 -1.103756 132.93358 -9.0591946 -75.143211 -9.0495377 -75.928368 -0.092043445 -101.72604
9200437500 -1.0971526 132.96219 -9.0533895 -75.164169 -9.0499659 -75.826599 -0.096989922 -101.74168
9200500000 -1.0934557 132.91856 -9.0564795 -75.147415 -9.05161 -75.791939 -0.10511455 -101.69949
9200562500 -1.0925783 132.86505 -9.0522394 -75.151352 -9.0525761 -75.816612 -0.095273569 -101.69771
9200625000 -1.1027758 132.89162 -9.060194 -75.214767 -9.0447826 -75.817627 -0.1051488 -101.6805
9200687500 -1.0951401 132.86722 -9.0522871 -75.162582 -9.0533724 -75.856186 -0.094976567 -101.63745
9200750000 -1.0936561 132.85231 -9.0492153 -75.116798 -9.0509644 -75.732491 -0.10414867 -101.66128
9200812500 -1.1073982 132.84381 -9.0572577 -75.130409 -9.0587988 -75.811508 -0.11824828 -101.62223
9200875000 -1.0948523 132.96318 -9.0535259 -75.004677 -9.0585766 -75.772903 -0.11224338 -101.64304
9200937500 -1.0981864 132.82263 -9.0560055 -75.169029 -9.0380259 -75.789696 -0.087083392 -101.54788
9201000000 -1.0968151 132.82236 -9.0577631 -75.204208 -9.0429068 -75.82843 -0.1000342 -101.60641
9201062500 -1.094849 132.79346 -9.0341415 -75.100639 -9.0357571 -75.799164 -0.10397431 -101.58707
9201125000 -1.0957181 132.81041 -9.0425892 -75.095146 -9.0485525 -75.758919 -0.10831825 -101.50259
9201187500 -1.103334 132.77939 -9.0545387 -75.095444 -9.0459623 -75.811516 -0.11351925 -101.44823
9201250000 -1.1006609 132.81685 -9.0379295 -75.066193 -9.0539484 -75.747253 -0.11204647 -101.46267
9201312500 -1.1059963 132.77513 -9.0446987 -75.031441 -9.0512266 -75.797691 -0.10218829 -101.46898
9201375000 -1.1042688 132.75008 -9.0457964 -75.053886 -9.0430241 -75.711884 -0.10604228 -101.40739
9201437500 -1.0937045 132.70186 -9.0482655 -75.136955 -9.0516539 -75.728645 -0.11234197 -101.49547
9201500000 -1.0993539 132.73 -9.0455475 -75.079681 -9.0520716 -75.800835 -0.11002596 -101.44181
9201562500 -1.1016508 132.71628 -9.04708 -75.068352 -9.0424738 -75.797493 -0.11314967 -101.42596
9201625000 -1.0993559 132.68851 -9.0453691 -75.125778 -9.0403814 -75.733757 -0.1150261 -101.33986
9201687500 -1.1052774 132.66951 -9.0503912 -75.022911 -9.0429182 -75.780518 -0.11053927 -101.26793
9201750000 -1.1035676 132.66786 -9.0489502 -75.060249 -9.0243378 -75.775711 -0.093927249 -101.34999
9201812500 -1.095206 132.65656 -9.0452995 -75.095116 -9.0418863 -75.733788 -0.11349734 -101.38062
9201875000 -1.0957861 132.60826 -9.0370874 -75.112762 -9.035964 -75.745087 -0.10073511 -101.27104
9201937500 -1.1098251 132.57607 -9.049964 -75.03022 -9.0393438 -75.861115 -0.1062989 -101.34413
9202000000 -1.1047385 132.57239 -9.0431786 -75.126396 -9.0273237 -75.757904 -0.098811351 -101.28265
9202062500 -1.1090933 132.60974 -9.0324612 -75.123276 -9.0296392 -75.810883 -0.10043207 -101.2859
9202125000 -1.1054423 132.61362 -9.049489 -75.131866 -9.0398607 -75.745613 -0.1142731 -101.29386
9202187500 -1.1008993 132.5399 -9.0405035 -75.109505 -9.0317392 -75.757294 -0.10161517 -101.18365
9202250000 -1.1097196 132.56419 -9.0517902 -75.094269 -9.0286131 -75.697113 -0.1161636 -101.21329
9202312500 -1.0957022 132.58286 -9.0379982 -75.07608 -9.0302296 -75.819664 -0.10974371 -101.20848
9202375000 -1.1015662 132.52921 -9.0469103 -75.05162 -9.0373049 -75.796349 -0.1217916 -101.1591
9202437500 -1.1055642 132.58305 -9.0412989 -74.966125 -9.0301094 -75.779625 -0.10346125 -101.19523
9202500000 -1.1107516 132.50864 -9.048645 -75.064011 -9.0456676 -75.749596 -0.1119182 -101.20768
9202562500 -1.0903974 132.47032 -9.0267544 -75.037132 -9.0296431 -75.751488 -0.11361068 -101.22816
9202625000 -1.1056551 132.52161 -9.0352526 -75.082649 -9.028245 -75.747177 -0.11376047 -101.13649
9202687500 -1.1023 132.47691 -9.0341091 -75.070183 -9.0301933 -75.694603 -0.10221975 -101.06605
9202750000 -1.0961777 132.42685 -9.0289497 -75.052368 -9.027709 -75.785622 -0.1129659 -101.12441
9202812500 -1.1065546 132.41118 -9.0384626 -75.114304 -9.0155172 -75.787109 -0.10660234 -101.01012
9202875000 -1.0986626 132.39888 -9.0256348 -75.104057 -9.0338049 -75.750893 -0.11095604 -101.01467
9202937500 -1.1009415 132.40572 -9.0220509 -75.151581 -9.0173273 -75.721901 -0.1067695 -101.01057
9203000000 -1.1050037 132.45279 -9.038909 -75.042191 -9.0302782 -75.748726 -0.1185874 -100.99278
9203062500 -1.1029023 132.36443 -9.0349703 -75.13427 -9.0226803 -75.725952 -0.11887126 -101.05319
9203125000 -1.103232 132.3163 -9.0224152 -75.119087 -9.0117369 -75.832535 -0.10379949 -101.02585
9203187500 -1.1005325 132.35782 -9.0310593 -75.117134 -9.0179472 -75.835602 -0.10892966 -101.02688
9203250000 -1.09822 132.31921 -9.0326166 -75.103851 -9.0148659 -75.814682 -0.10696401 -100.98669
9203312500 -1.1132157 132.34296 -9.0308065 -75.109383 -9.0143766 -75.778412 -0.10209305 -100.92495
9203375000 -1.1024157 132.29816 -9.0257797 -75.069817 -9.0192261 -75.77494 -0.10143062 -100.90396
9203437500 -1.1104244 132.3369 -9.0370016 -75.143898 -9.0176973 -75.74662 -0.10710108 -100.9331
9203500000 -1.0978521 132.26025 -9.0193577 -75.037384 -9.0260019 -75.726585 -0.11017808 -100.86835
9203562500 -1.1076949 132.27998 -9.0317583 -75.067719 -9.0298567 -75.729881 -0.12218602 -100.92056
9203625000 -1.1010505 132.27394 -9.0264721 -75.124023 -9.025672 -75.724579 -0.12099861 -100.91068
9203687500 -1.1114695 132.2029 -9.0336609 -75.124893 -9.0293484 -75.702721 -0.12243923 -100.79562
9203750000 -1.1057363 132.23615 -9.0259285 -75.065536 -9.01406 -75.741852 -0.099654391 -100.79062
9203812500 -1.1096618 132.19475 -9.0161066 -75.094154 -9.0078354 -75.776321 -0.10831138 -100.834
9203875000 -1.1002485 132.23878 -9.022975 -75.041611 -9.0218363 -75.751968 -0.12960503 -100.83712
9203937500 -1.1052846 132.17473 -9.0152988 -75.084862 -9.0151739 -75.68338 -0.10621447 -100.77164
9204000000 -1.1035403 132.19365 -9.0167465 -74.97184 -9.01402 -75.699547 -0.10896106 -100.76752
9204062500 -1.0952027 132.19524 -9.0185318 -75.048309 -9.0135546 -75.756973 -0.12390388 -100.70318
9204125000 -1.1080041 132.17055 -9.02071 -75.0224 -9.0174799 -75.698929 -0.11606702 -100.69765
9204187500 -1.1056405 132.097 -9.0167246 -75.056343 -9.0278978 -75.722664 -0.12661745 -100.6721
9204250000 -1.1073318 132.15138 -9.0135984 -75.043732 -9.0134678 -75.674042 -0.11288723 -100.67142
9204312500 -1.106908 132.11618 -9.0165644 -75.000351 -9.0148087 -75.739464 -0.12325968 -100.63718
9204375000 -1.1019906 132.11365 -9.0204744 -75.04277 -9.0049982 -75.686485 -0.11435004 -100.63088
9204437500 -1.1128019 132.12973 -9.0187244 -75.089615 -9.0058994 -75.681801 -0.105119 -100.65866
9204500000 -1.1121008 132.1008 -9.0265999 -75.106018 -9.0237837 -75.712364 -0.12300484 -100.64137
9204562500 -1.1043094 132.05989 -9.018013 -75.066124 -9.017869 -75.713684 -0.11468214 -100.64531
9204625000 -1.1004688 132.06779 -9.0106421 -74.921219 -9.0034561 -75.739075 -0.117539 -100.56159
9204687500 -1.1063808 132.00073 -9.019208 -75.036797 -9.0063343 -75.702141 -0.11498625 -100.53628
9204750000 -1.1071113 131.99855 -9.0066376 -74.969147 -9.014226 -75.685623 -0.13154864 -100.53115
9204812500 -1.0959852 131.98198 -9.0077314 -74.977623 -9.0104036 -75.694092 -0.11647099 -100.51208
9204875000 -1.1056677 132.03157 -8.9968634 -75.108917 -9.0219631 -75.69976 -0.12389515 -100.54292
9204937500 -1.1033009 131.98943 -9.0060453 -75.039421 -9.0021963 -75.717896 -0.10810489 -100.46748
9205000000 -1.0972182 131.91621 -9.0012541 -74.986328 -8.9969606 -75.681084 -0.12417427 -100.45599
9205062500 -1.1076708 131.93912 -9.0135069 -75.086586 -8.9859962 -75.707436 -0.11485223 -100.42326
9205125000 -1.1020494 131.96848 -9.0015144 -74.982323 -8.9893036 -75.676643 -0.1129628 -100.3464
9205187500 -1.1101308 131.94905 -9.020422 -75.014069 -9.0071507 -75.646851 -0.127492 -100.38963
9205250000 -1.1004694 131.91765 -9.0129337 -75.060623 -9.0099335 -75.684296 -0.12390219 -100.48183
9205312500 -1.1061511 131.97362 -9.0024414 -74.958237 -9.0014524 -75.686806 -0.12453205 -100.41542
9205375000 -1.1086241 131.85023 -9.0085354 -75.023994 -9.0079851 -75.656593 -0.1176877 -100.35481
9205437500 -1.0975157 131.8909 -9.0062323 -74.958046 -9.0047531 -75.712959 -0.11641057 -100.37035
9205500000 -1.1035197 131.79024 -9.0038137 -75.014854 -8.9964352 -75.707626 -0.11456062 -100.28291
9205562500 -1.1044587 131.84026 -8.9929762 -75.024086 -9.0031576 -75.685974 -0.12830605 -100.27155
9205625000 -1.1121404 131.84428 -9.0045118 -74.970695 -8.9939003 -75.711449 -0.12527756 -100.24023
9205687500 -1.1037952 131.8634 -8.9988203 -74.910439 -9.0006151 -75.753601 -0.12193119 -100.24202
9205750000 -1.1075668 131.76904 -8.9934072 -75.014603 -8.9951887 -75.721741 -0.11500672 -100.26369
9205812500 -1.1134781 131.74409 -8.9902744 -75.049477 -9.0016804 -75.688622 -0.11934421 -100.20425
9205875000 -1.0965837 131.79594 -8.9942493 -75.013588 -9.0049658 -75.680557 -0.12491333 -100.27171
9205937500 -1.1018927 131.7494 -8.9986839 -74.99469 -8.9953556 -75.628143 -0.12715316 -100.17161
9206000000 -1.1142943 131.77034 -8.9895325 -74.971306 -8.9928274 -75.715744 -0.11584858 -100.18394
9206062500 -1.1025666 131.74004 -8.9924908 -75.048462 -8.9950047 -75.633453 -0.12669687 -100.219
9206125000 -1.1024437 131.71786 -8.9952917 -74.957726 -8.9930744 -75.606873 -0.13063732 -100.08812
9206187500 -1.1065044 131.72104 -8.987627 -74.989288 -8.9916239 -75.697083 -0.11609995 -100.13094
9206250000 -1.1101401 131.64305 -9.0029545 -75.061241 -8.9939251 -75.648544 -0.12603086 -100.12273
9206312500 -1.1023467 131.57446 -8.9941597 -75.049568 -8.989749 -75.844894 -0.12088745 -100.17287
9206375000 -1.1022279 131.68687 -8.9875336 -74.996536 -8.9825363 -75.611023 -0.12153275 -100.11094
9206437500 -1.104653 131.63454 -8.9989834 -74.974586 -8.9893818 -75.605049 -0.12678005 -100.08266
9206500000 -1.1086563 131.60739 -8.9924154 -75.011932 -8.9796362 -75.583199 -0.12613858 -100.04837
9206562500 -1.1093428 131.60478 -8.9991713 -75.038208 -8.9929829 -75.603546 -0.12370842 -100.07803
9206625000 -1.1117469 131.57092 -8.9924688 -74.985558 -8.9973631 -75.714104 -0.12724423 -100.0928
9206687500 -1.110311 131.5974 -8.9936218 -74.995956 -8.9815693 -75.631355 -0.1171499 -100.03897
9206750000 -1.1053649 131.5974 -8.985837 -74.972969 -8.9897842 -75.571327 -0.12446907 -99.974197
9206812500 -1.1020999 131.58022 -8.9927015 -74.99025 -8.992609 -75.677383 -0.11897019 -100.02827
9206875000 -1.1082743 131.57028 -8.9855347 -74.997475 -8.9806061 -75.574219 -0.12341259 -99.846497
9206937500 -1.1077065 131.56142 -8.9844189 -74.940163 -8.9833336 -75.618004 -0.12442086 -99.913696
9207000000 -1.1089933 131.55037 -8.9973288 -75.006874 -8.9963169 -75.641167 -0.1362379 -99.919327
9207062500 -1.1086768 131.55121 -8.9864359 -74.924263 -8.9790754 -75.568626 -0.12488626 -99.778358
9207125000 -1.1171699 131.49069 -8.9813404 -75.029938 -8.984271 -75.728386 -0.12842502 -99.880249
9207187500 -1.1055601 131.44252 -8.9820395 -75.120277 -8.9818878 -75.735802 -0.12730108 -99.971115
9207250000 -1.1043501 131.47504 -8.9839811 -74.986862 -8.9827213 -75.651764 -0.1180651 -99.938049
9207312500 -1.0986412 131.44131 -8.9814854 -75.026665 -8.9686394 -75.694054 -0.11844967 -99.853363
9207375000 -1.1138054 131.45995 -8.9890604 -74.978539 -8.9683046 -75.668137 -0.12353703 -99.789551
9207437500 -1.1100094 131.51224 -8.989357 -74.956718 -8.9889774 -75.600044 -0.12068626 -99.806686
9207500000 -1.1160306 131.45932 -8.9947386 -74.946823 -8.9795866 -75.583191 -0.13944429 -99.777649
9207562500 -1.0986925 131.4162 -8.9862671 -74.989563 -8.9828386 -75.6707 -0.14218423 -99.804039
9207625000 -1.1153653 131.37131 -8.9824162 -74.920021 -8.9698524 -75.646805 -0.11962518 -99.741295
9207687500 -1.1119854 131.401 -8.9704266 -74.98497 -8.9709826 -75.621094 -0.1226618 -99.745949
9207750000 -1.1127692 131.35727 -8.9920502 -74.963684 -8.9748173 -75.63047 -0.12249662 -99.730553
9207812500 -1.109549 131.36845 -8.9825668 -74.993446 -8.9735346 -75.552605 -0.13407819 -99.684013
9207875000 -1.1036496 131.38077 -8.9826097 -74.886002 -8.9805641 -75.643059 -0.12763594 -99.66349
9207937500 -1.110747 131.27791 -8.9952126 -74.967056 -8.988368 -75.692039 -0.13813935 -99.742111
9208000000 -1.1171452 131.32097 -8.973897 -74.9478 -8.9751692 -75.589821 -0.12354533 -99.624275
9208062500 -1.1134778 131.33621 -8.9935675 -74.946564 -8.9786854 -75.633804 -0.13306418 -99.64653
9208125000 -1.1133833 131.26915 -8.9788179 -75.028267 -8.9799662 -75.6306 -0.13450421 -99.626099
9208187500 -1.1011461 131.30792 -8.9675903 -74.932358 -8.9741135 -75.619385 -0.12829958 -99.60083
9208250000 -1.1164501 131.22911 -8.9805155 -74.938889 -8.9572411 -75.610588 -0.12163126 -99.56678
9208312500 -1.104862 131.25616 -8.9789791 -74.953476 -8.9594812 -75.627563 -0.13028885 -99.590378
9208375000 -1.1149924 131.21419 -8.9774923 -74.944412 -8.9644547 -75.640106 -0.12630413 -99.510612
9208437500 -1.1120996 131.18306 -8.9733753 -74.959244 -8.9744625 -75.577614 -0.14439204 -99.532455
9208500000 -1.1131674 131.16194 -8.9723892 -74.921181 -8.9672785 -75.629822 -0.13008331 -99.466606
9208562500 -1.1101886 131.18346 -8.9635229 -74.987534 -8.9732475 -75.644798 -0.13071631 -99.531891
9208625000 -1.1040208 131.12813 -8.9542341 -74.972878 -8.9618788 -75.598274 -0.13319513 -99.526367
9208687500 -1.1019616 131.11464 -8.9635477 -74.966034 -8.9654865 -75.613564 -0.13550696 -99.447067
9208750000 -1.1082211 131.17854 -8.975976 -74.89399 -8.9679527 -75.601906 -0.13547818 -99.439072
9208812500 -1.1171126 131.18394 -8.980298 -74.919746 -8.9663086 -75.598862 -0.12605405 -99.405128
9208875000 -1.1099186 131.12123 -8.9738035 -74.934227 -8.9723501 -75.560951 -0.13474065 -99.392464
9208937500 -1.1104141 131.09857 -8.9635353 -74.954353 -8.9674177 -75.5606 -0.13113227 -99.355255
9209000000 -1.1106503 131.11298 -8.9790258 -74.909714 -8.9634457 -75.589661 -0.14027202 -99.407166
9209062500 -1.1152163 131.07805 -8.9658537 -74.983215 -8.9651928 -75.561707 -0.13539343 -99.314606
9209125000 -1.1118557 131.07451 -8.9603672 -74.943398 -8.9578371 -75.60791 -0.12491576 -99.305061
9209187500 -1.1125412 131.08229 -8.9614601 -74.893257 -8.9600153 -75.518051 -0.13191429 -99.335312
9209250000 -1.1053921 131.00726 -8.9541054 -74.980766 -8.9548788 -75.633575 -0.13287163 -99.242538
9209312500 -1.1074028 130.9379 -8.9639387 -74.965164 -8.9523563 -75.642982 -0.14113334 -99.315086
9209375000 -1.1019641 131.00882 -8.9643927 -74.946434 -8.9615717 -75.519379 -0.14240931 -99.284561
9209437500 -1.1182555 130.96701 -8.9721327 -74.939781 -8.9638891 -75.660179 -0.14076914 -99.224602
9209500000 -1.1126785 130.9763 -8.9686537 -74.961311 -8.9616461 -75.621864 -0.13282472 -99.216492
9209562500 -1.1227688 130.96523 -8.9696608 -74.905243 -8.9652414 -75.58593 -0.14574032 -99.201965
9209625000 -1.1159323 130.92949 -8.9543991 -74.97541 -8.9558411 -75.603127 -0.13235766 -99.210144
9209687500 -1.1116905 130.86121 -8.9577694 -74.978195 -8.9515648 -75.530869 -0.13662025 -99.136055
9209750000 -1.1081337 130.87712 -8.9464197 -74.982857 -8.9562826 -75.532051 -0.1263345 -99.194633
9209812500 -1.1122565 130.90355 -8.9622002 -74.952232 -8.9563684 -75.602318 -0.13212791 -99.147461
9209875000 -1.1090096 130.88422 -8.9506502 -74.940895 -8.9525604 -75.582558 -0.13893226 -99.152115
9209937500 -1.1057632 130.97604 -8.9633589 -74.933258 -8.9628344 -75.604599 -0.13707073 -99.176353
9210000000 -1.1025401 130.86911 -8.9542923 -74.903412 -8.9509897 -75.541634 -0.15274756 -99.058388
9210062500 -1.1129311 130.88306 -8.9591599 -75.006561 -8.9496441 -75.611893 -0.14018831 -99.0961
9210125000 -1.1051567 130.81395 -8.9560213 -74.915123 -8.9475527 -75.563026 -0.13564259 -99.044159
9210187500 -1.1142718 130.83647 -8.9567394 -74.902176 -8.9445829 -75.598816 -0.1447078 -99.055542
9210250000 -1.1127441 130.82556 -8.9624882 -74.999428 -8.9428339 -75.592178 -0.14004767 -99.060379
9210312500 -1.1235431 130.80171 -8.9620256 -74.871971 -8.9576921 -75.604034 -0.14444746 -99.044662
9210375000 -1.1088647 130.82693 -8.954381 -74.85791 -8.9476604 -75.546379 -0.13898721 -98.938911
9210437500 -1.1046295 130.78633 -8.9569454 -74.897072 -8.9541025 -75.668526 -0.14112249 -99.059166
9210500000 -1.1084436 130.72884 -8.9417439 -74.942818 -8.9468336 -75.564186 -0.13739081 -99.020363
9210562500 -1.1158801 130.73679 -8.9492159 -74.901894 -8.9385271 -75.607651 -0.13552926 -98.951645
9210625000 -1.1130772 130.74496 -8.9628191 -74.931694 -8.9473677 -75.543327 -0.14141899 -98.963036
9210687500 -1.1116352 130.76105 -8.9492226 -74.944855 -8.9476433 -75.622154 -0.14564036 -98.9161
9210750000 -1.1160995 130.72563 -8.9565325 -74.912758 -8.9264507 -75.508553 -0.13421449 -98.901146
9210812500 -1.1153595 130.66873 -8.9500418 -74.960579 -8.9425688 -75.49958 -0.14621545 -98.870895
9210875000 -1.1076822 130.70493 -8.9498291 -74.846573 -8.9401083 -75.525826 -0.14517495 -98.919022
9210937500 -1.1097274 130.69754 -8.947938 -74.82386 -8.9448032 -75.410042 -0.14639434 -98.841797
9211000000 -1.1119461 130.64009 -8.9485292 -74.947639 -8.9456911 -75.55307 -0.13814114 -98.843292
9211062500 -1.1109807 130.65254 -8.9478483 -74.891594 -8.9489145 -75.479431 -0.14823604 -98.822227
9211125000 -1.1091043 130.62665 -8.9533262 -74.882454 -8.9397516 -75.502083 -0.14024584 -98.777214
9211187500 -1.1211786 130.6277 -8.9383287 -74.855362 -8.9356508 -75.475227 -0.13889927 -98.757576
9211250000 -1.1225097 130.61658 -8.9483814 -74.937981 -8.9378204 -75.533714 -0.13246705 -98.787636
9211312500 -1.1141443 130.60739 -8.9423208 -74.879791 -8.9338665 -75.513977 -0.14553747 -98.751747
9211375000 -1.1152334 130.5135 -8.9382172 -74.915062 -8.9412432 -75.528236 -0.14604615 -98.695229
9211437500 -1.1141096 130.55116 -8.9293737 -74.873604 -8.9370089 -75.522949 -0.13998605 -98.674889
9211500000 -1.1191832 130.504 -8.9490509 -74.928101 -8.9356079 -75.505417 -0.14451183 -98.720802
9211562500 -1.1184422 130.55571 -8.9486141 -74.906227 -8.9277439 -75.541397 -0.14324915 -98.694984
9211625000 -1.1160996 130.52055 -8.9422998 -74.887619 -8.9307737 -75.59127 -0.1397025 -98.649376
9211687500 -1.1196789 130.54953 -8.9444962 -74.841698 -8.9290733 -75.53347 -0.14803925 -98.615044
9211750000 -1.1129675 130.48149 -8.9327021 -74.823448 -8.9296503 -75.553352 -0.13373615 -98.555687
9211812500 -1.1185151 130.49435 -8.9565878 -74.875534 -8.9333324 -75.539276 -0.15813522 -98.666252
9211875000 -1.1186873 130.44612 -8.9341793 -74.885582 -8.9319487 -75.509583 -0.13904443 -98.523575
9211937500 -1.1150439 130.47809 -8.9407568 -74.931763 -8.9293737 -75.492592 -0.15725741 -98.559509
9212000000 -1.116888 130.39677 -8.9355183 -74.87944 -8.9243956 -75.543823 -0.14541455 -98.554878
9212062500 -1.1154437 130.36998 -8.9447165 -74.874435 -8.9287395 -75.503975 -0.15331072 -98.527138
9212125000 -1.1130028 130.34596 -8.9341383 -74.964279 -8.9399414 -75.550484 -0.14776634 -98.532928
9212187500 -1.1105072 130.38022 -8.9241171 -74.829208 -8.9209394 -75.508232 -0.15130894 -98.493477
9212250000 -1.1119866 130.36694 -8.9280291 -74.864136 -8.9156761 -75.49865 -0.1328219 -98.482483
9212312500 -1.1153556 130.37444 -8.9286776 -74.892334 -8.9307404 -75.479301 -0.1495776 -98.482361
