!Agilent Technologies,N5242A,MY51221714,A.09.90.19
!Agilent N5242A: A.09.90.19
!Date: Tuesday, March 26, 2024 15:47:44
!Correction: S11(Full 2 Port(1,2)) 
!S21(Full 2 Port(1,2)) 
!S12(Full 2 Port(1,2)) 
!S22(Full 2 Port(1,2)) 
!S2P File: Measurements: S11, S21, S12, S22:
# Hz S  dB   R 50
9200000000 -0.90999073 137.06258 -9.4288206 -69.866699 -9.4129601 -70.520683 0.090540893 -98.142723
9200062500 -0.91220146 137.03963 -9.4215593 -69.86953 -9.4278936 -70.588165 0.094236039 -98.13974
9200125000 -0.91500896 137.0345 -9.4137583 -69.854568 -9.417882 -70.418167 0.0886264 -98.049721
9200187500 -0.91887814 137.0307 -9.4215832 -69.817101 -9.4173021 -70.556099 0.10780993 -98.042542
9200250000 -0.90775275 136.99026 -9.4141617 -69.88443 -9.4234943 -70.455315 0.0932182 -98.067375
9200312500 -0.91659725 137.00374 -9.4160452 -69.833969 -9.4210644 -70.525047 0.094133593 -98.068176
9200375000 -0.9151848 136.94453 -9.4270287 -69.857506 -9.4091282 -70.608978 0.10424747 -98.04213
9200437500 -0.91023743 137.01602 -9.4248295 -69.813286 -9.4131145 -70.531364 0.099549234 -98.040642
9200500000 -0.91027749 136.9532 -9.4268646 -69.891785 -9.4100599 -70.510155 0.092518508 -97.979683
9200562500 -0.9038375 136.91789 -9.4125347 -69.853935 -9.4260788 -70.470772 0.095507458 -97.999596
9200625000 -0.91691232 136.91472 -9.416894 -69.862991 -9.4079647 -70.496819 0.094125606 -97.958122
9200687500 -0.90211314 136.92427 -9.4126797 -69.776199 -9.4143753 -70.46447 0.098189354 -97.939278
9200750000 -0.90993863 136.87329 -9.4114704 -69.859688 -9.4107046 -70.458969 0.094533995 -97.926971
9200812500 -0.92722535 136.93163 -9.4227495 -69.755692 -9.4199562 -70.516388 0.081553429 -97.931305
9200875000 -0.90234518 136.94135 -9.4086838 -69.821243 -9.4206085 -70.414864 0.085111186 -97.905357
9200937500 -0.91000193 136.87265 -9.424674 -69.80468 -9.4096146 -70.465118 0.099474885 -97.841034
9201000000 -0.91403514 136.87088 -9.4167824 -69.838097 -9.4017286 -70.496269 0.1034046 -97.889458
9201062500 -0.9111917 136.81828 -9.4105902 -69.828667 -9.4108944 -70.492416 0.087230437 -97.850128
9201125000 -0.9120819 136.83669 -9.4153166 -69.779762 -9.4064169 -70.464699 0.090375505 -97.820122
9201187500 -0.91390228 136.76059 -9.4095964 -69.719795 -9.4112129 -70.418068 0.088476956 -97.686295
9201250000 -0.91414869 136.78963 -9.4095821 -69.800285 -9.4077177 -70.45562 0.085843004 -97.755699
9201312500 -0.92208791 136.82135 -9.4108648 -69.760338 -9.4146032 -70.438362 0.098629504 -97.755272
9201375000 -0.91800725 136.76222 -9.4157162 -69.790833 -9.4142714 -70.401413 0.087574638 -97.724297
9201437500 -0.91468316 136.73526 -9.416338 -69.790863 -9.4098396 -70.453239 0.090140343 -97.809662
9201500000 -0.92066878 136.74574 -9.4174366 -69.829178 -9.416769 -70.445496 0.086627088 -97.735512
9201562500 -0.91543186 136.70244 -9.4206581 -69.782875 -9.4149332 -70.454651 0.073781885 -97.717949
9201625000 -0.90767032 136.73346 -9.4178391 -69.755638 -9.3983488 -70.390823 0.086235531 -97.629662
9201687500 -0.91651595 136.72356 -9.4055948 -69.692795 -9.4052773 -70.416901 0.090382934 -97.579224
9201750000 -0.91310048 136.68881 -9.4192495 -69.752525 -9.4037313 -70.463509 0.098695979 -97.645523
9201812500 -0.91079909 136.70018 -9.4138308 -69.774498 -9.4018698 -70.408813 0.082192712 -97.667099
9201875000 -0.91383243 136.64519 -9.3976393 -69.751083 -9.4003572 -70.489037 0.09571825 -97.57798
9201937500 -0.92320657 136.61749 -9.4051371 -69.767273 -9.4082794 -70.487946 0.087724537 -97.605568
9202000000 -0.91997528 136.63622 -9.4137373 -69.722252 -9.410408 -70.456276 0.089879297 -97.539757
9202062500 -0.91857904 136.63918 -9.4035473 -69.765205 -9.3964863 -70.446548 0.096499026 -97.54615
9202125000 -0.91944891 136.62592 -9.4213352 -69.841469 -9.4045668 -70.396423 0.080160812 -97.568512
9202187500 -0.91108692 136.59837 -9.4156752 -69.821693 -9.3991184 -70.420433 0.095537461 -97.48822
9202250000 -0.91635281 136.59703 -9.4127598 -69.808983 -9.3961954 -70.376297 0.082718991 -97.49176
9202312500 -0.91115165 136.60144 -9.4094677 -69.752159 -9.3942537 -70.471321 0.083791144 -97.473969
9202375000 -0.91298836 136.52963 -9.4091654 -69.741478 -9.3992262 -70.448578 0.085500494 -97.403381
9202437500 -0.91140246 136.61238 -9.3904161 -69.680397 -9.4027767 -70.456787 0.093012027 -97.477554
9202500000 -0.92142105 136.55128 -9.4084873 -69.772835 -9.411458 -70.441544 0.08866556 -97.460342
9202562500 -0.90773284 136.4915 -9.3933239 -69.753838 -9.4104929 -70.382553 0.077843264 -97.428986
9202625000 -0.91523725 136.55005 -9.4069176 -69.764267 -9.3901463 -70.374969 0.087554134 -97.399948
9202687500 -0.91007894 136.51904 -9.3958788 -69.738152 -9.3973923 -70.39109 0.093989663 -97.336365
9202750000 -0.90920752 136.4196 -9.3950214 -69.731323 -9.3950415 -70.428581 0.083439261 -97.415588
9202812500 -0.91467452 136.46571 -9.4106998 -69.73819 -9.3906174 -70.452606 0.085844249 -97.323837
9202875000 -0.90688396 136.43857 -9.4019537 -69.734291 -9.3936033 -70.460503 0.084769368 -97.293167
9202937500 -0.90971494 136.41983 -9.3990183 -69.781036 -9.388504 -70.316238 0.091960534 -97.276184
9203000000 -0.91510636 136.48756 -9.3987942 -69.716904 -9.4011517 -70.466629 0.088813335 -97.269531
9203062500 -0.9093017 136.35327 -9.3970747 -69.807587 -9.3937263 -70.349129 0.084361814 -97.32415
9203125000 -0.90881461 136.37624 -9.3987751 -69.749847 -9.3897743 -70.401924 0.087760322 -97.271454
9203187500 -0.91619897 136.39229 -9.4119701 -69.785522 -9.3926048 -70.51059 0.083294421 -97.255676
9203250000 -0.91104043 136.36729 -9.3922224 -69.67691 -9.3916149 -70.390915 0.090053506 -97.19632
9203312500 -0.9216584 136.3801 -9.3932657 -69.730774 -9.3873796 -70.40638 0.091273241 -97.222382
9203375000 -0.91004366 136.36371 -9.389349 -69.701538 -9.3819838 -70.382973 0.094433703 -97.132927
9203437500 -0.92118818 136.36281 -9.4054737 -69.792816 -9.3987904 -70.357147 0.083803467 -97.155388
9203500000 -0.90727782 136.33397 -9.3850298 -69.681297 -9.3886414 -70.393311 0.096475549 -97.151253
9203562500 -0.91938525 136.33087 -9.4064999 -69.761986 -9.4035454 -70.380493 0.07671129 -97.177841
9203625000 -0.91763574 136.32278 -9.3999643 -69.730865 -9.399313 -70.378975 0.072992809 -97.178017
9203687500 -0.92117912 136.26649 -9.3982372 -69.759491 -9.3989658 -70.315659 0.077522814 -97.086769
9203750000 -0.91631013 136.2697 -9.3977661 -69.753067 -9.39431 -70.29718 0.093923628 -97.046753
9203812500 -0.91704386 136.29024 -9.3975649 -69.71067 -9.3934984 -70.38282 0.085233413 -97.064659
9203875000 -0.91406238 136.26018 -9.3982983 -69.692413 -9.3946562 -70.378265 0.076334186 -97.044594
9203937500 -0.92463231 136.24321 -9.3937378 -69.723625 -9.3913832 -70.294426 0.084755473 -97.055603
9204000000 -0.91707706 136.23111 -9.3811741 -69.669662 -9.3995924 -70.353302 0.078876466 -96.986435
9204062500 -0.90569919 136.22758 -9.3787994 -69.669716 -9.3721647 -70.423897 0.084243976 -97.004868
9204125000 -0.91821903 136.22346 -9.3982496 -69.676895 -9.3796253 -70.400482 0.087873653 -96.972633
9204187500 -0.92448914 136.15991 -9.3979044 -69.727463 -9.3996916 -70.440903 0.06860438 -96.974678
9204250000 -0.91739112 136.16373 -9.3847733 -69.730705 -9.3892336 -70.347458 0.085561849 -96.962631
9204312500 -0.91936427 136.19695 -9.378583 -69.609741 -9.3875599 -70.393112 0.081557132 -96.873184
9204375000 -0.91150373 136.17935 -9.3923187 -69.653519 -9.385828 -70.380676 0.086931646 -96.95047
9204437500 -0.92410189 136.19258 -9.3872509 -69.668137 -9.3782969 -70.351845 0.090371564 -96.928963
9204500000 -0.92222136 136.14357 -9.390626 -69.70311 -9.3950319 -70.401596 0.080274478 -96.905487
9204562500 -0.91442871 136.10085 -9.3879967 -69.730423 -9.3829355 -70.364616 0.093097605 -96.889664
9204625000 -0.91217077 136.08229 -9.3779478 -69.610451 -9.3715315 -70.376907 0.083443791 -96.803139
9204687500 -0.91874719 136.08932 -9.3872185 -69.660225 -9.3851175 -70.369713 0.089234337 -96.851105
9204750000 -0.92457104 136.0416 -9.3970871 -69.660133 -9.3918657 -70.364227 0.070527606 -96.847572
9204812500 -0.90767837 136.05791 -9.3821926 -69.650253 -9.3910818 -70.409897 0.088078193 -96.814339
9204875000 -0.9138692 136.10677 -9.3835602 -69.632179 -9.3991327 -70.267082 0.075915962 -96.822174
9204937500 -0.91452521 136.04303 -9.3794537 -69.651375 -9.3823032 -70.379738 0.093455203 -96.780457
9205000000 -0.90813166 135.96796 -9.3882675 -69.605049 -9.3812866 -70.259285 0.073620036 -96.684723
9205062500 -0.92135686 135.95956 -9.3908224 -69.748589 -9.369318 -70.302078 0.077923633 -96.726013
9205125000 -0.91210008 136.00755 -9.3868217 -69.624931 -9.3771915 -70.32383 0.085322782 -96.660545
9205187500 -0.91860831 136.00536 -9.3907557 -69.553566 -9.3799448 -70.328217 0.080783769 -96.642143
9205250000 -0.91347259 135.93889 -9.3795223 -69.666824 -9.3910799 -70.241074 0.068233244 -96.689934
9205312500 -0.91682267 136.01796 -9.3807249 -69.578384 -9.3795471 -70.274864 0.074618004 -96.645714
9205375000 -0.91763568 135.91821 -9.3833294 -69.682312 -9.3800659 -70.260002 0.083651304 -96.551941
9205437500 -0.90700155 135.94437 -9.3731461 -69.592995 -9.382349 -70.322464 0.08140792 -96.637543
9205500000 -0.92024899 135.8737 -9.3757639 -69.639992 -9.3738518 -70.407448 0.092914581 -96.557182
9205562500 -0.92048997 135.86664 -9.3884954 -69.689659 -9.3820801 -70.364975 0.082369857 -96.602951
9205625000 -0.92352635 135.89632 -9.3912725 -69.667694 -9.3765106 -70.314445 0.081487224 -96.522087
9205687500 -0.91403383 135.87627 -9.3774643 -69.660042 -9.3726377 -70.391998 0.07916382 -96.542488
9205750000 -0.91491747 135.82896 -9.3777142 -69.632278 -9.3829269 -70.311958 0.077568106 -96.505913
9205812500 -0.91618955 135.82339 -9.3683624 -69.635963 -9.3784485 -70.278587 0.083776221 -96.501709
9205875000 -0.91053993 135.84981 -9.3814135 -69.630272 -9.3800716 -70.32634 0.076159351 -96.553787
9205937500 -0.91905028 135.76244 -9.3734884 -69.654503 -9.3652735 -70.264191 0.085610799 -96.434868
9206000000 -0.91485751 135.78482 -9.3712883 -69.601631 -9.3792181 -70.27375 0.083875112 -96.402367
9206062500 -0.91163355 135.8011 -9.3665018 -69.677406 -9.3811064 -70.303749 0.075575694 -96.448364
9206125000 -0.91459525 135.76413 -9.377284 -69.665611 -9.3709402 -70.254456 0.075163759 -96.3769
9206187500 -0.91877937 135.7567 -9.3664341 -69.701195 -9.3645716 -70.327446 0.095624961 -96.423843
9206250000 -0.91435856 135.73936 -9.3723907 -69.648697 -9.3720179 -70.288925 0.079505727 -96.393188
9206312500 -0.91456497 135.66273 -9.378212 -69.665352 -9.3665667 -70.360374 0.085803226 -96.41671
9206375000 -0.92224449 135.71254 -9.3811951 -69.606873 -9.371954 -70.21994 0.077560715 -96.348915
9206437500 -0.91624659 135.66348 -9.3840857 -69.639503 -9.36971 -70.276253 0.079679035 -96.377602
9206500000 -0.92378581 135.69604 -9.3879108 -69.666328 -9.3653307 -70.250366 0.071814679 -96.341743
9206562500 -0.92012244 135.67142 -9.3756723 -69.654137 -9.3746843 -70.24762 0.075661622 -96.360176
9206625000 -0.91923493 135.60884 -9.3719358 -69.665161 -9.3709927 -70.341019 0.077644616 -96.345078
9206687500 -0.91673863 135.62544 -9.3745871 -69.679161 -9.3542299 -70.31562 0.090447977 -96.349045
9206750000 -0.91552478 135.67435 -9.3696947 -69.593735 -9.371109 -70.240616 0.076524377 -96.246735
9206812500 -0.91049182 135.6275 -9.3724537 -69.647766 -9.3720112 -70.342026 0.079277433 -96.290985
9206875000 -0.9208827 135.63228 -9.3726015 -69.65641 -9.3560152 -70.231941 0.0894242 -96.191963
9206937500 -0.91397518 135.63432 -9.3688669 -69.553017 -9.3654013 -70.228287 0.077737868 -96.184425
9207000000 -0.91828901 135.55861 -9.3621731 -69.624878 -9.3725977 -70.261368 0.074934185 -96.178154
9207062500 -0.91299778 135.60661 -9.3546915 -69.581337 -9.3639536 -70.261383 0.077836245 -96.134033
9207125000 -0.92901909 135.54597 -9.3568602 -69.634674 -9.3642454 -70.336517 0.080460854 -96.158516
9207187500 -0.91890925 135.50449 -9.3743057 -69.636253 -9.3703814 -70.20816 0.065040663 -96.169189
9207250000 -0.91696125 135.50275 -9.3719063 -69.60405 -9.3660727 -70.287567 0.08454363 -96.186363
9207312500 -0.90939939 135.50185 -9.3645611 -69.589592 -9.3612099 -70.281425 0.083742514 -96.127731
9207375000 -0.92222649 135.47141 -9.3631401 -69.571945 -9.3461628 -70.246399 0.089924522 -96.049271
9207437500 -0.91256738 135.53996 -9.3621235 -69.558655 -9.3857431 -70.197617 0.068269983 -96.056396
9207500000 -0.92036498 135.53156 -9.3675508 -69.541443 -9.3585482 -70.210823 0.065933689 -96.038948
9207562500 -0.90952402 135.54314 -9.364049 -69.587021 -9.356473 -70.230232 0.071748145 -96.033646
9207625000 -0.92383951 135.43372 -9.363699 -69.528992 -9.3703861 -70.228226 0.072008654 -95.951263
9207687500 -0.91924357 135.44261 -9.3548975 -69.603394 -9.3637724 -70.245384 0.074266136 -96.036339
9207750000 -0.92174435 135.45558 -9.3620968 -69.527603 -9.3583183 -70.250504 0.085195452 -95.997719
9207812500 -0.92021435 135.40773 -9.3615761 -69.605019 -9.3552885 -70.231522 0.075500362 -95.968452
9207875000 -0.91833073 135.45668 -9.3743801 -69.495354 -9.3605537 -70.233658 0.078702539 -95.914917
9207937500 -0.91936529 135.34668 -9.3694687 -69.49234 -9.3630667 -70.266922 0.067952655 -95.976204
9208000000 -0.92456919 135.38245 -9.3637285 -69.587311 -9.3609943 -70.168304 0.071926296 -95.889282
9208062500 -0.92422652 135.37082 -9.3606348 -69.591637 -9.3552818 -70.244957 0.0722965 -95.892754
9208125000 -0.92235875 135.3334 -9.3571386 -69.616936 -9.3564472 -70.230003 0.074462831 -95.859535
9208187500 -0.91538674 135.37663 -9.3627167 -69.496094 -9.3598423 -70.250526 0.074894592 -95.898369
9208250000 -0.92655015 135.31479 -9.3665676 -69.490112 -9.3483219 -70.210167 0.079154335 -95.780258
9208312500 -0.92246199 135.28804 -9.3645468 -69.543198 -9.3404589 -70.229683 0.076566495 -95.86071
9208375000 -0.92693365 135.30209 -9.3638735 -69.565468 -9.3554125 -70.126564 0.074386984 -95.719734
9208437500 -0.91971546 135.26437 -9.3497849 -69.568977 -9.3570957 -70.221664 0.067997776 -95.831902
9208500000 -0.9222765 135.22067 -9.3625498 -69.539902 -9.3566246 -70.220673 0.073884249 -95.772141
9208562500 -0.92511344 135.2816 -9.3567266 -69.575539 -9.3590231 -70.225975 0.071976542 -95.715187
9208625000 -0.91485077 135.21901 -9.355505 -69.498184 -9.3447113 -70.159828 0.068521418 -95.728561
9208687500 -0.90827751 135.22902 -9.3463993 -69.571259 -9.3585272 -70.245415 0.0762522 -95.769783
9208750000 -0.9216221 135.25711 -9.3718185 -69.504364 -9.3543491 -70.13472 0.072819717 -95.696037
9208812500 -0.92252445 135.24886 -9.3644266 -69.514931 -9.3562841 -70.219398 0.07678958 -95.706329
9208875000 -0.91705698 135.16502 -9.3513346 -69.551109 -9.3590851 -70.228378 0.075362511 -95.637245
9208937500 -0.91875994 135.20013 -9.3460264 -69.56852 -9.3423681 -70.188225 0.075879164 -95.64502
9209000000 -0.9157694 135.14633 -9.3602915 -69.537041 -9.3464642 -70.141914 0.065397926 -95.616364
9209062500 -0.91832858 135.13951 -9.3500452 -69.537888 -9.3573685 -70.168015 0.072550118 -95.592651
9209125000 -0.92353559 135.1454 -9.3524199 -69.487968 -9.3460875 -70.144524 0.084182136 -95.554474
9209187500 -0.91466528 135.16542 -9.343421 -69.494667 -9.3508749 -70.179276 0.066705815 -95.597687
9209250000 -0.9139784 135.1161 -9.360568 -69.491554 -9.353138 -70.199387 0.063192926 -95.480309
9209312500 -0.92058247 135.03015 -9.3686094 -69.558388 -9.3482504 -70.162651 0.063930616 -95.547653
9209375000 -0.90989578 135.12456 -9.3487606 -69.482346 -9.3561926 -70.104912 0.057451278 -95.554253
9209437500 -0.92308146 135.03517 -9.3563671 -69.500427 -9.3516235 -70.196152 0.06841401 -95.4851
9209500000 -0.91688812 135.04846 -9.3373985 -69.49733 -9.3504915 -70.13987 0.070200644 -95.45285
9209562500 -0.92321557 135.07355 -9.3596983 -69.504555 -9.3539629 -70.158035 0.065278389 -95.472763
9209625000 -0.91754007 135.02585 -9.3538275 -69.509041 -9.3426504 -70.15815 0.073574997 -95.406616
9209687500 -0.92096961 134.93008 -9.3415871 -69.52935 -9.3430586 -70.081955 0.072401375 -95.398849
9209750000 -0.91740227 134.97025 -9.3371725 -69.592041 -9.3501043 -70.133255 0.072731584 -95.450951
9209812500 -0.91562992 134.95195 -9.3531923 -69.49012 -9.3455439 -70.123695 0.066460893 -95.381424
9209875000 -0.91773176 134.9603 -9.3480892 -69.489952 -9.342515 -70.179016 0.066146053 -95.397942
9209937500 -0.91659659 135.0614 -9.354763 -69.556656 -9.3561707 -70.155937 0.062643625 -95.425873
9210000000 -0.9114545 134.96277 -9.351779 -69.470116 -9.3391476 -70.122002 0.061972894 -95.303314
9210062500 -0.92213058 134.96649 -9.3510742 -69.460808 -9.3430777 -70.195412 0.066614546 -95.314728
9210125000 -0.91727012 134.92429 -9.3523636 -69.484123 -9.3404369 -70.067772 0.068648852 -95.319008
9210187500 -0.92423844 134.95541 -9.3422985 -69.466263 -9.3364277 -70.159859 0.066251606 -95.297234
9210250000 -0.91481966 134.94324 -9.3366175 -69.461525 -9.3403473 -70.122345 0.062185515 -95.281036
9210312500 -0.9250977 134.89287 -9.3482389 -69.43969 -9.3471794 -70.196625 0.059251424 -95.26255
9210375000 -0.91699368 134.89172 -9.3462267 -69.477867 -9.3386335 -70.057945 0.071004853 -95.133965
9210437500 -0.91350913 134.84245 -9.3485823 -69.467789 -9.33603 -70.191299 0.073484212 -95.239586
9210500000 -0.91408098 134.83684 -9.3347702 -69.516426 -9.3292894 -70.1492 0.081436582 -95.23185
9210562500 -0.91713929 134.83994 -9.3388758 -69.453346 -9.336257 -70.189949 0.062634513 -95.207878
9210625000 -0.91592431 134.83853 -9.3459139 -69.43631 -9.3372536 -70.097778 0.065765828 -95.216011
9210687500 -0.91560394 134.83614 -9.350688 -69.479019 -9.3332767 -70.200134 0.064299516 -95.179504
9210750000 -0.91788858 134.79343 -9.3461456 -69.5112 -9.3288698 -70.093834 0.071245976 -95.080612
9210812500 -0.91757554 134.77132 -9.3415623 -69.547531 -9.3373871 -70.089821 0.054058354 -95.13134
9210875000 -0.9218232 134.80246 -9.3528528 -69.466743 -9.3376293 -70.003929 0.053793963 -95.098068
9210937500 -0.91083527 134.79071 -9.3434858 -69.504379 -9.3436413 -70.146263 0.057213966 -95.143608
9211000000 -0.91687173 134.7681 -9.3488998 -69.42588 -9.3387251 -70.075943 0.074078463 -95.093033
9211062500 -0.91567802 134.76726 -9.3293743 -69.37085 -9.3336287 -70.041183 0.064971529 -95.040764
9211125000 -0.91266114 134.74292 -9.3298197 -69.465492 -9.3358011 -70.0588 0.070818529 -95.0299
9211187500 -0.92177582 134.72256 -9.3296175 -69.466095 -9.3334265 -70.063393 0.059836373 -95.025162
9211250000 -0.92284697 134.73631 -9.3330336 -69.509407 -9.33354 -70.096024 0.072329164 -95.022118
9211312500 -0.91716623 134.73749 -9.3319149 -69.350555 -9.3329992 -70.077827 0.056813467 -94.986992
9211375000 -0.91749817 134.6312 -9.3339148 -69.428978 -9.340415 -70.144394 0.06053311 -94.970268
9211437500 -0.91182685 134.61887 -9.3252401 -69.430687 -9.330513 -70.098297 0.06162123 -94.924294
9211500000 -0.91922355 134.59891 -9.3372898 -69.499725 -9.3311672 -70.126122 0.06786716 -95.001907
9211562500 -0.92543256 134.64519 -9.3401146 -69.466866 -9.3238382 -70.020363 0.062012807 -94.894928
9211625000 -0.91673368 134.56927 -9.3268843 -69.511719 -9.3239727 -70.151611 0.062499292 -94.97271
9211687500 -0.9237498 134.62682 -9.3385477 -69.41584 -9.3286247 -70.148003 0.052845839 -94.886604
9211750000 -0.92086184 134.59332 -9.3254213 -69.352852 -9.3299131 -70.099281 0.066676326 -94.791351
9211812500 -0.92482078 134.59146 -9.3412914 -69.395302 -9.3256588 -70.095985 0.055548541 -94.85183
9211875000 -0.92266095 134.59923 -9.3312492 -69.410118 -9.3220739 -70.045326 0.064955018 -94.768394
9211937500 -0.91532588 134.61507 -9.3298302 -69.410431 -9.330595 -70.058952 0.04994905 -94.800224
9212000000 -0.91980171 134.47664 -9.3280973 -69.424622 -9.315444 -70.096031 0.061804313 -94.751923
9212062500 -0.92344272 134.47586 -9.3283186 -69.452667 -9.3252258 -70.064003 0.057559308 -94.809578
9212125000 -0.91623867 134.44629 -9.3289537 -69.483749 -9.3374176 -70.090866 0.062710136 -94.76387
9212187500 -0.91269362 134.51695 -9.3181791 -69.243523 -9.3171597 -70.041687 0.05687942 -94.687561
