!Agilent Technologies,N5242A,MY51221714,A.09.90.19
!Agilent N5242A: A.09.90.19
!Date: Friday, February 02, 2024 13:04:01
!Correction: S11(Full 2 Port(1,2)) 
!S21(Full 2 Port(1,2)) 
!S12(Full 2 Port(1,2)) 
!S22(Full 2 Port(1,2)) 
!S2P File: Measurements: S11, S21, S12, S22:
# Hz S  dB   R 50
9200000000 -1.0356102 126.68519 -9.1953011 -72.065147 -9.1709309 -72.943176 0.049806643 -91.842957
9200062500 -1.036478 126.68008 -9.1964264 -72.011749 -9.171813 -72.948227 0.055858847 -91.829979
9200125000 -1.034762 126.67001 -9.1888123 -72.062393 -9.1747589 -72.878014 0.051114596 -91.783279
9200187500 -1.0377452 126.62642 -9.1974096 -72.046005 -9.1727266 -72.981117 0.045797721 -91.809044
9200250000 -1.0347054 126.62277 -9.1992149 -72.053223 -9.1744347 -72.948265 0.05024251 -91.784203
9200312500 -1.0349944 126.58389 -9.1953373 -72.046394 -9.1768885 -72.929352 0.043892179 -91.78566
9200375000 -1.0364712 126.56989 -9.1867399 -72.09893 -9.1716471 -72.952309 0.050572738 -91.791306
9200437500 -1.0370423 126.55389 -9.1840591 -72.057571 -9.1738396 -72.978851 0.051055618 -91.800591
9200500000 -1.0352957 126.53323 -9.1937361 -72.163963 -9.1766129 -72.962349 0.047116667 -91.765259
9200562500 -1.0366756 126.50913 -9.186758 -72.108406 -9.1795588 -72.956512 0.049430095 -91.69178
9200625000 -1.0305507 126.51621 -9.1822805 -72.101395 -9.1690025 -73.037628 0.058277693 -91.759186
9200687500 -1.0417598 126.54476 -9.1895418 -72.061874 -9.1697397 -72.952164 0.052401338 -91.695267
9200750000 -1.0321835 126.51312 -9.1843863 -72.124001 -9.164959 -72.942474 0.059938036 -91.67955
9200812500 -1.0297688 126.51845 -9.178936 -72.074402 -9.1659327 -72.986511 0.059335288 -91.696152
9200875000 -1.0300333 126.51762 -9.176013 -72.077034 -9.1673365 -72.914833 0.065097712 -91.662552
9200937500 -1.0314521 126.49315 -9.1773796 -72.090744 -9.1627483 -72.939651 0.060630884 -91.668282
9201000000 -1.0348771 126.4737 -9.1806402 -72.113922 -9.1682959 -72.981865 0.059451528 -91.681419
9201062500 -1.0377032 126.45741 -9.1778717 -72.094345 -9.1803513 -72.940422 0.050983455 -91.621849
9201125000 -1.0392346 126.44776 -9.1882172 -72.056458 -9.1740751 -73.011627 0.05440418 -91.636749
9201187500 -1.0368459 126.40082 -9.1818533 -72.112556 -9.173687 -72.961006 0.051246192 -91.653954
9201250000 -1.0463154 126.35149 -9.1779661 -72.098038 -9.1668158 -72.924301 0.060132083 -91.619843
9201312500 -1.0377661 126.36625 -9.1741791 -72.109795 -9.1761484 -72.933876 0.048150983 -91.575325
9201375000 -1.0399333 126.31681 -9.1812983 -72.09095 -9.1751642 -72.977943 0.048994049 -91.602623
9201437500 -1.037089 126.28313 -9.1786652 -72.152687 -9.166831 -72.890953 0.051437024 -91.550331
9201500000 -1.0338631 126.27777 -9.1773682 -72.103828 -9.1610718 -72.972031 0.052187759 -91.568573
9201562500 -1.0422781 126.25861 -9.1820765 -72.104172 -9.1657019 -72.981094 0.04879272 -91.542625
9201625000 -1.038515 126.24986 -9.1773109 -72.142342 -9.1684752 -72.930229 0.049940653 -91.515533
9201687500 -1.0474155 126.25754 -9.1875429 -72.08168 -9.1695786 -72.912979 0.044556353 -91.439217
9201750000 -1.0393897 126.18623 -9.1759558 -72.137917 -9.1669998 -72.907036 0.047816392 -91.458092
9201812500 -1.0452517 126.19854 -9.1849289 -72.11013 -9.1558113 -72.921188 0.050375801 -91.413925
9201875000 -1.0440627 126.2084 -9.1886301 -72.024681 -9.1608667 -72.913361 0.04650395 -91.369713
9201937500 -1.0431713 126.21037 -9.1705914 -72.069466 -9.1604471 -72.892914 0.04702523 -91.335464
9202000000 -1.0391115 126.19392 -9.1751957 -72.030502 -9.1564817 -72.84053 0.04080737 -91.311371
9202062500 -1.0423088 126.1794 -9.1825514 -72.002083 -9.1586781 -72.849449 0.035457343 -91.298447
9202125000 -1.0380613 126.15683 -9.1823959 -72.091827 -9.165122 -72.905891 0.039676249 -91.306252
9202187500 -1.0373087 126.14981 -9.1766443 -72.044319 -9.165453 -72.886345 0.03953987 -91.293282
9202250000 -1.0404854 126.14127 -9.1698179 -72.006195 -9.1574106 -72.857903 0.046025954 -91.253662
9202312500 -1.0370319 126.13535 -9.172719 -72.076683 -9.1587934 -72.870956 0.042410046 -91.250198
9202375000 -1.0369669 126.10786 -9.1784449 -72.042694 -9.1586761 -72.938698 0.044163104 -91.212288
9202437500 -1.0402808 126.09671 -9.1717682 -72.107979 -9.1600285 -72.906181 0.043080922 -91.217682
9202500000 -1.0419085 126.09506 -9.1710272 -72.020935 -9.1536217 -72.896057 0.0457942 -91.218407
9202562500 -1.0437604 126.08974 -9.1700935 -72.051041 -9.1549263 -72.881294 0.039583009 -91.175842
9202625000 -1.0443298 126.0802 -9.1709652 -72.044151 -9.1502476 -72.827675 0.045793612 -91.157593
9202687500 -1.0417268 126.03431 -9.1628351 -72.090034 -9.1572332 -72.849197 0.036271349 -91.117157
9202750000 -1.0448737 126.03841 -9.1698675 -72.057503 -9.1553411 -72.893486 0.0380367 -91.136826
9202812500 -1.0372685 126.05572 -9.1568022 -72.048698 -9.1602659 -72.865837 0.042217508 -91.118393
9202875000 -1.0414157 126.03023 -9.1650867 -72.029549 -9.1527252 -72.872025 0.040795956 -91.137314
9202937500 -1.037794 126.00823 -9.1694241 -72.041992 -9.1495676 -72.833786 0.050981134 -91.081459
9203000000 -1.0402194 125.99915 -9.1660023 -72.061592 -9.1681671 -72.879921 0.037978791 -91.12159
9203062500 -1.0409424 125.99389 -9.1592102 -72.069908 -9.1621456 -72.837975 0.036517888 -91.069038
9203125000 -1.0365877 126.00169 -9.1658239 -72.011238 -9.1474771 -72.829552 0.043849565 -91.041489
9203187500 -1.03596 126.01825 -9.1597462 -71.962387 -9.1522579 -72.871407 0.037420385 -91.026337
9203250000 -1.0379941 125.992 -9.1505737 -72.048538 -9.1520348 -72.857277 0.040027954 -91.013023
9203312500 -1.0366055 125.97635 -9.1578712 -71.965195 -9.1525736 -72.825958 0.03853333 -90.962624
9203375000 -1.0430832 125.97085 -9.1559162 -71.977135 -9.1460295 -72.866142 0.040548753 -90.960213
9203437500 -1.0403135 125.93242 -9.1473475 -71.944885 -9.1549101 -72.799011 0.040685691 -90.908882
9203500000 -1.0347993 125.91368 -9.1558037 -71.985878 -9.1547604 -72.803032 0.035358515 -90.897324
9203562500 -1.035448 125.90297 -9.1438446 -71.944244 -9.1503372 -72.773735 0.040429745 -90.871552
9203625000 -1.0364274 125.91982 -9.1550789 -71.99437 -9.1357584 -72.86631 0.042617619 -90.906967
9203687500 -1.0366764 125.86974 -9.166935 -71.9786 -9.1423264 -72.835304 0.040264677 -90.863403
9203750000 -1.0352415 125.87218 -9.1533279 -72.05265 -9.1415291 -72.865883 0.036882043 -90.92527
9203812500 -1.0285662 125.90167 -9.150919 -71.974808 -9.139122 -72.863724 0.041524522 -90.8937
9203875000 -1.0350718 125.85236 -9.1545229 -71.975403 -9.1436491 -72.875465 0.041537881 -90.895859
9203937500 -1.0295548 125.88213 -9.1520491 -72.003624 -9.1418505 -72.856926 0.033404667 -90.885422
9204000000 -1.0315289 125.83217 -9.156826 -71.968437 -9.1385851 -72.821541 0.034562137 -90.835175
9204062500 -1.0328038 125.81483 -9.1514826 -71.982063 -9.138957 -72.854614 0.03305291 -90.847633
9204125000 -1.0323446 125.84209 -9.1533842 -71.895966 -9.1383801 -72.777733 0.03182761 -90.806786
9204187500 -1.032971 125.77005 -9.1494122 -71.949356 -9.1419563 -72.759956 0.032813851 -90.739693
9204250000 -1.0317088 125.79852 -9.1462116 -71.9543 -9.1440525 -72.809067 0.025979383 -90.766449
9204312500 -1.03596 125.78008 -9.1584845 -71.977119 -9.1389246 -72.773598 0.029114505 -90.685966
9204375000 -1.0374699 125.74079 -9.1519585 -71.930641 -9.137598 -72.755173 0.03732603 -90.656532
9204437500 -1.0400881 125.69434 -9.1498442 -71.982742 -9.1404715 -72.787155 0.038061634 -90.646042
9204500000 -1.0349102 125.66602 -9.1462822 -71.977158 -9.1318598 -72.800056 0.035401564 -90.621605
9204562500 -1.0368949 125.67044 -9.1364183 -71.995697 -9.1293898 -72.811592 0.04458585 -90.574982
9204625000 -1.0358704 125.61939 -9.1359186 -71.96817 -9.1309872 -72.827316 0.043109562 -90.625641
9204687500 -1.0350493 125.64718 -9.147275 -71.947243 -9.1403399 -72.809143 0.039268419 -90.573608
9204750000 -1.0288029 125.60941 -9.1395321 -71.943977 -9.1351595 -72.799408 0.034540236 -90.541756
9204812500 -1.031451 125.60233 -9.1451454 -71.995529 -9.1385851 -72.810623 0.037034567 -90.579834
9204875000 -1.0320153 125.61658 -9.1406059 -71.982498 -9.132246 -72.798317 0.036303636 -90.544571
9204937500 -1.0308763 125.64854 -9.1444578 -71.885696 -9.1328793 -72.781425 0.035425629 -90.519348
9205000000 -1.0246015 125.57725 -9.1318607 -72.00428 -9.1380987 -72.812256 0.034539014 -90.485451
9205062500 -1.0287346 125.58371 -9.1338615 -71.903282 -9.1295195 -72.757317 0.034081832 -90.468063
9205125000 -1.0358565 125.58136 -9.1379881 -71.938278 -9.1294918 -72.87413 0.029228438 -90.525948
9205187500 -1.0395184 125.54636 -9.138607 -71.959122 -9.1385193 -72.781929 0.029430332 -90.412613
9205250000 -1.0393342 125.54944 -9.1383104 -71.971901 -9.1284113 -72.826599 0.030550621 -90.427162
9205312500 -1.0400882 125.52709 -9.1450634 -71.952759 -9.12784 -72.883591 0.032086842 -90.414154
9205375000 -1.0433182 125.48351 -9.1399002 -71.924553 -9.1272354 -72.804657 0.030013515 -90.361359
9205437500 -1.044975 125.45461 -9.1333504 -71.960747 -9.1154566 -72.816414 0.038157213 -90.356735
9205500000 -1.044693 125.47012 -9.1377478 -71.969208 -9.1253157 -72.848457 0.037216406 -90.369049
9205562500 -1.0455112 125.43673 -9.1414881 -71.934814 -9.1240082 -72.805359 0.044945486 -90.360268
9205625000 -1.0371869 125.48093 -9.1273031 -71.916504 -9.1211348 -72.802025 0.037324671 -90.302948
9205687500 -1.0368904 125.43439 -9.1308613 -72.020622 -9.1249046 -72.829681 0.036807623 -90.317421
9205750000 -1.0379481 125.45434 -9.1436996 -71.942268 -9.124403 -72.812157 0.03449868 -90.270981
9205812500 -1.0360615 125.41299 -9.1420956 -71.956055 -9.1205473 -72.779274 0.035598971 -90.265045
9205875000 -1.03104 125.40942 -9.1335688 -71.97438 -9.1224604 -72.787384 0.029694082 -90.255745
9205937500 -1.0400628 125.3576 -9.1418362 -72.002007 -9.1221428 -72.794876 0.02584479 -90.250488
9206000000 -1.0331842 125.3247 -9.1298723 -71.979973 -9.1234236 -72.800224 0.031349897 -90.242859
9206062500 -1.0352842 125.3185 -9.1421671 -71.994278 -9.1230688 -72.797874 0.034086421 -90.218903
9206125000 -1.0394754 125.30828 -9.142724 -72.038437 -9.1231012 -72.750908 0.033473875 -90.244347
9206187500 -1.0396281 125.32994 -9.1398106 -71.93161 -9.122508 -72.768364 0.031150116 -90.203285
9206250000 -1.0359471 125.30949 -9.1409883 -71.923836 -9.1160383 -72.746414 0.037225999 -90.158066
9206312500 -1.037726 125.31393 -9.1371193 -71.95256 -9.1124287 -72.691933 0.031326126 -90.171219
9206375000 -1.0388 125.25693 -9.1332808 -71.986786 -9.123189 -72.72728 0.033763368 -90.160995
9206437500 -1.036752 125.2561 -9.1228008 -71.962555 -9.1219692 -72.677071 0.03028124 -90.083206
9206500000 -1.0437495 125.26781 -9.1271372 -71.910507 -9.121809 -72.646774 0.034613337 -90.094116
9206562500 -1.0357684 125.23298 -9.1312761 -71.981567 -9.120698 -72.658012 0.034945633 -90.065918
9206625000 -1.0303901 125.23816 -9.1271143 -71.939308 -9.1117306 -72.720276 0.034536429 -90.061111
9206687500 -1.0357418 125.21149 -9.1311846 -71.920525 -9.1192169 -72.725571 0.030044228 -90.030342
9206750000 -1.0311584 125.2102 -9.1242704 -71.905487 -9.1176796 -72.715393 0.027294075 -90.017044
9206812500 -1.0327545 125.19331 -9.1286488 -71.920586 -9.1184931 -72.792328 0.030906765 -89.990143
9206875000 -1.0326327 125.15577 -9.1230841 -71.901421 -9.1153831 -72.717239 0.030512759 -89.958061
9206937500 -1.0357013 125.14659 -9.1221781 -71.944374 -9.1136332 -72.693321 0.035738159 -89.931084
9207000000 -1.0407367 125.15506 -9.1259327 -71.836487 -9.1131353 -72.757538 0.035608608 -89.941025
9207062500 -1.0376425 125.13973 -9.1232967 -71.881805 -9.1169538 -72.729668 0.029749583 -89.922806
9207125000 -1.0403126 125.13332 -9.1191921 -71.908707 -9.1086664 -72.738091 0.038728025 -89.911583
9207187500 -1.0396451 125.09251 -9.1182356 -71.906586 -9.1103363 -72.760315 0.034325533 -89.929893
9207250000 -1.0440344 125.08542 -9.1217394 -71.908943 -9.1053982 -72.751312 0.04040641 -89.914536
9207312500 -1.0367224 125.05313 -9.1177406 -71.967522 -9.1062479 -72.754005 0.034982935 -89.917435
9207375000 -1.0372485 125.07262 -9.1181021 -71.867828 -9.1073647 -72.739464 0.037579961 -89.846123
9207437500 -1.0335393 125.06985 -9.1124773 -71.846191 -9.1096239 -72.74881 0.034324855 -89.842926
9207500000 -1.0327868 125.0433 -9.1160021 -71.919487 -9.1031475 -72.749626 0.035625439 -89.863846
9207562500 -1.0346693 125.02951 -9.1115713 -71.945137 -9.1034985 -72.803146 0.02868348 -89.867355
9207625000 -1.0375872 125.031 -9.1221094 -71.845009 -9.1062031 -72.735352 0.033482499 -89.798767
9207687500 -1.0313016 125.01728 -9.1157446 -71.896591 -9.1147108 -72.744186 0.026498875 -89.812607
9207750000 -1.0357232 124.99648 -9.1143026 -71.918808 -9.10289 -72.741341 0.028186889 -89.803711
9207812500 -1.0333605 124.96844 -9.1173201 -71.897064 -9.1047745 -72.728615 0.032868743 -89.759926
9207875000 -1.0363194 124.98671 -9.1178608 -71.92971 -9.1090555 -72.765236 0.025351774 -89.715309
9207937500 -1.0395923 124.94565 -9.1156273 -71.976639 -9.1139326 -72.790016 0.020717757 -89.770332
9208000000 -1.0343353 124.96595 -9.1048727 -71.938728 -9.1058273 -72.752625 0.023952151 -89.658638
9208062500 -1.0324488 124.91957 -9.1115913 -71.910339 -9.1068821 -72.69133 0.024549538 -89.644585
9208125000 -1.0351843 124.9271 -9.1058035 -71.856728 -9.11308 -72.725502 0.020161387 -89.671776
9208187500 -1.0317852 124.91035 -9.1088572 -71.921089 -9.1191416 -72.713524 0.019566558 -89.657547
9208250000 -1.0385556 124.9296 -9.1035061 -71.830017 -9.097681 -72.755997 0.024317171 -89.593414
9208312500 -1.0347213 124.9305 -9.1032753 -71.82341 -9.1103954 -72.693268 0.024794051 -89.572044
9208375000 -1.0318537 124.8413 -9.1105089 -71.832275 -9.1049166 -72.745598 0.020379398 -89.605804
9208437500 -1.0305519 124.8893 -9.1030979 -71.857903 -9.1194048 -72.716347 0.023808755 -89.54142
9208500000 -1.031428 124.8562 -9.1036682 -71.845718 -9.1100435 -72.684212 0.024200913 -89.509537
9208562500 -1.0327408 124.85278 -9.0999994 -71.854874 -9.1131516 -72.752686 0.017721791 -89.576408
9208625000 -1.0376738 124.85213 -9.1067858 -71.784309 -9.1191053 -72.746429 0.019469284 -89.531532
9208687500 -1.0338241 124.82392 -9.0990248 -71.821609 -9.1126013 -72.730019 0.020363078 -89.537277
9208750000 -1.0319687 124.83489 -9.1048679 -71.776169 -9.1109896 -72.733917 0.029182576 -89.487907
9208812500 -1.0333183 124.79689 -9.1046972 -71.789314 -9.1021175 -72.72184 0.029988781 -89.443924
9208875000 -1.0375023 124.77982 -9.10958 -71.879814 -9.1120214 -72.643753 0.024450706 -89.437691
9208937500 -1.0351605 124.77543 -9.1029043 -71.847626 -9.095211 -72.700142 0.03355512 -89.397011
9209000000 -1.0314189 124.7634 -9.1026182 -71.854469 -9.0971479 -72.689896 0.027046025 -89.422073
9209062500 -1.0301569 124.76868 -9.1042738 -71.797997 -9.1045084 -72.641403 0.019384865 -89.336151
9209125000 -1.0387986 124.73424 -9.1067343 -71.850822 -9.1002016 -72.650589 0.02158395 -89.322365
9209187500 -1.0299752 124.71181 -9.102562 -71.819344 -9.0943661 -72.662987 0.019958476 -89.318047
9209250000 -1.0275143 124.72924 -9.0958891 -71.79512 -9.0925493 -72.700256 0.019982332 -89.304955
9209312500 -1.0339946 124.67176 -9.1070452 -71.821831 -9.0853567 -72.625137 0.023203602 -89.271225
9209375000 -1.0281675 124.63972 -9.0964994 -71.845688 -9.0836191 -72.665497 0.017521 -89.232864
9209437500 -1.0269529 124.64468 -9.0899925 -71.790695 -9.0858479 -72.636452 0.016969535 -89.195877
9209500000 -1.0270774 124.59851 -9.100008 -71.88031 -9.0841532 -72.663918 0.018039843 -89.2192
9209562500 -1.0304625 124.55991 -9.1027699 -71.801895 -9.0852776 -72.623123 0.020634778 -89.179482
9209625000 -1.0364462 124.55701 -9.0952797 -71.811905 -9.0840616 -72.618263 0.018984675 -89.151451
9209687500 -1.0325961 124.58517 -9.0966215 -71.830971 -9.0880461 -72.68071 0.022549113 -89.158699
9209750000 -1.0346569 124.56007 -9.0901146 -71.800278 -9.0909176 -72.665627 0.018988131 -89.130386
9209812500 -1.0378658 124.57249 -9.0978909 -71.799644 -9.0780487 -72.687714 0.025494535 -89.160934
9209875000 -1.0352849 124.55592 -9.0917683 -71.829033 -9.0905676 -72.692406 0.024422314 -89.156479
9209937500 -1.0375816 124.53148 -9.1016874 -71.799324 -9.0870905 -72.68779 0.02543658 -89.127708
9210000000 -1.0379109 124.49716 -9.0962143 -71.895691 -9.0838947 -72.657341 0.024490662 -89.1026
9210062500 -1.0301948 124.47533 -9.0941534 -71.853027 -9.0902719 -72.667572 0.011833062 -89.113762
9210125000 -1.0333207 124.48466 -9.0890207 -71.820267 -9.0795717 -72.682457 0.021999072 -89.10891
9210187500 -1.0325315 124.43927 -9.0885544 -71.848991 -9.0748777 -72.682564 0.017834906 -89.111282
9210250000 -1.0290313 124.39876 -9.0989962 -71.872917 -9.0896692 -72.679253 0.01310943 -89.083282
9210312500 -1.0291225 124.41438 -9.1005259 -71.794113 -9.0798368 -72.673653 0.015028463 -89.087936
9210375000 -1.0296572 124.44452 -9.0921097 -71.797707 -9.0833101 -72.636269 0.019502034 -89.043823
9210437500 -1.0302522 124.41447 -9.0859127 -71.794197 -9.073205 -72.651947 0.019914374 -89.035263
9210500000 -1.0329785 124.37878 -9.0997601 -71.821533 -9.0834579 -72.651169 0.018339152 -88.990341
9210562500 -1.0308185 124.37482 -9.0853872 -71.794701 -9.0776587 -72.611824 0.016571252 -88.961937
9210625000 -1.0316783 124.40106 -9.0887938 -71.747459 -9.0823574 -72.586502 0.014129155 -88.930161
9210687500 -1.0336854 124.39017 -9.087182 -71.723999 -9.072794 -72.581718 0.014447944 -88.937737
9210750000 -1.028698 124.35268 -9.0828724 -71.748833 -9.0792055 -72.569336 0.012614395 -88.902008
9210812500 -1.0331522 124.32708 -9.0833683 -71.778908 -9.0753841 -72.582573 0.015332391 -88.924034
9210875000 -1.0292419 124.35787 -9.0802574 -71.777107 -9.0747728 -72.607513 0.012945713 -88.879684
9210937500 -1.0320673 124.28559 -9.0867167 -71.781517 -9.0856953 -72.60527 0.0079672122 -88.870979
9211000000 -1.033538 124.27909 -9.0842457 -71.771385 -9.0717268 -72.494728 0.010237901 -88.777603
9211062500 -1.0332557 124.30574 -9.0881214 -71.754372 -9.0773449 -72.575783 0.0081000887 -88.810463
9211125000 -1.0320538 124.24621 -9.0700254 -71.7668 -9.0808058 -72.521187 0.0089437254 -88.758873
9211187500 -1.0340269 124.26093 -9.072504 -71.814674 -9.0849981 -72.581299 0.0081650456 -88.757172
9211250000 -1.0333192 124.21767 -9.0784321 -71.785652 -9.0815811 -72.527985 0.0095740324 -88.710594
9211312500 -1.0320247 124.19153 -9.0779152 -71.780518 -9.0763617 -72.557281 0.0094147939 -88.713608
9211375000 -1.0314442 124.19157 -9.0711317 -71.81311 -9.0853338 -72.588844 0.012247168 -88.690079
9211437500 -1.032921 124.171 -9.0817881 -71.746223 -9.0869322 -72.525642 0.0080234278 -88.661102
9211500000 -1.0347375 124.16315 -9.0797949 -71.71817 -9.0773106 -72.633156 0.014116826 -88.693672
9211562500 -1.032719 124.16041 -9.0787888 -71.744911 -9.0741262 -72.536263 0.02418125 -88.656303
9211625000 -1.0356746 124.16395 -9.0846548 -71.743462 -9.0767374 -72.598808 0.014672879 -88.672676
9211687500 -1.0342158 124.14238 -9.0714436 -71.726372 -9.0702868 -72.596199 0.019947441 -88.648239
9211750000 -1.0359721 124.15467 -9.0716715 -71.729187 -9.0729523 -72.595268 0.019936884 -88.658165
9211812500 -1.0319958 124.10081 -9.0750799 -71.725296 -9.07372 -72.546021 0.020843783 -88.589035
9211875000 -1.0268415 124.09695 -9.0624561 -71.706169 -9.0726128 -72.605896 0.013918216 -88.628616
9211937500 -1.0277883 124.05726 -9.0772486 -71.786453 -9.0646963 -72.574722 0.021671992 -88.59832
9212000000 -1.0268075 124.04629 -9.070734 -71.82122 -9.0683937 -72.554436 0.014991027 -88.581139
9212062500 -1.0254068 123.98815 -9.059763 -71.800301 -9.0688601 -72.536255 0.015522739 -88.543571
9212125000 -1.0179089 123.99117 -9.0624876 -71.764679 -9.0651531 -72.552002 0.01718857 -88.549118
9212187500 -1.0242714 123.9818 -9.0692348 -71.741302 -9.0691881 -72.599655 0.0065537672 -88.542549
9212250000 -1.0228493 123.94421 -9.0601492 -71.808449 -9.0675688 -72.61512 0.013774815 -88.53138
9212312500 -1.0330693 123.95277 -9.0719404 -71.7668 -9.0663824 -72.578651 0.0089086294 -88.534119
