!Agilent Technologies,N5242A,MY51221714,A.09.90.19
!Agilent N5242A: A.09.90.19
!Date: Friday, February 02, 2024 13:05:31
!Correction: S11(Full 2 Port(1,2)) 
!S21(Full 2 Port(1,2)) 
!S12(Full 2 Port(1,2)) 
!S22(Full 2 Port(1,2)) 
!S2P File: Measurements: S11, S21, S12, S22:
# Hz S  dB   R 50
9200000000 -1.0436021 126.71483 -9.2466412 -71.993317 -9.2195349 -72.984505 0.080964617 -91.737091
9200062500 -1.0440954 126.65517 -9.2428284 -72.009361 -9.2186022 -72.953506 0.085673399 -91.74585
9200125000 -1.0483899 126.6827 -9.2464666 -72.005371 -9.2155666 -73.004211 0.079883575 -91.726051
9200187500 -1.0476594 126.66169 -9.2567978 -72.014366 -9.2207727 -72.934669 0.076742582 -91.692101
9200250000 -1.0494196 126.65106 -9.2472448 -71.996857 -9.2279882 -72.979256 0.075249575 -91.658531
9200312500 -1.0494754 126.58491 -9.2441759 -71.972054 -9.2321634 -72.96534 0.073284097 -91.685989
9200375000 -1.0474657 126.59662 -9.2535696 -72.012421 -9.2367706 -72.948944 0.071471073 -91.686012
9200437500 -1.049798 126.54744 -9.2596607 -72.031006 -9.2348728 -73.011978 0.074009925 -91.689583
9200500000 -1.0509486 126.54182 -9.2445393 -72.089966 -9.2312212 -72.989952 0.074799664 -91.665276
9200562500 -1.0459806 126.56196 -9.2483168 -72.083115 -9.2285919 -72.994141 0.075128548 -91.603615
9200625000 -1.0483985 126.54896 -9.2476101 -72.05188 -9.225193 -73.003815 0.07600487 -91.624619
9200687500 -1.0456167 126.52807 -9.2399845 -72.044579 -9.2179146 -72.969658 0.083937466 -91.568001
9200750000 -1.045539 126.52503 -9.2374439 -72.027023 -9.2284756 -72.973091 0.086073399 -91.576218
9200812500 -1.0461509 126.5236 -9.2394867 -71.976784 -9.2220592 -72.989738 0.08678697 -91.568031
9200875000 -1.0466149 126.51199 -9.2404346 -72.014542 -9.2208328 -73.029648 0.086876765 -91.609627
9200937500 -1.0481975 126.48845 -9.2364359 -72.057693 -9.2221231 -72.974518 0.089897446 -91.545784
9201000000 -1.0446783 126.48146 -9.2390242 -71.999001 -9.2301645 -73.013428 0.078885563 -91.577347
9201062500 -1.0442948 126.46527 -9.2415905 -72.032349 -9.2310324 -72.996529 0.081931405 -91.552277
9201125000 -1.0512695 126.39999 -9.2344255 -72.028496 -9.227953 -73.05555 0.079859942 -91.587479
9201187500 -1.050688 126.41877 -9.2374144 -72.034027 -9.2363062 -72.998917 0.078341499 -91.54454
9201250000 -1.0566643 126.36791 -9.2393475 -72.053421 -9.2333288 -72.994072 0.074004754 -91.551147
9201312500 -1.0503603 126.36506 -9.2415781 -72.01825 -9.2329721 -72.988297 0.074741736 -91.525826
9201375000 -1.0528295 126.29075 -9.2396812 -72.078682 -9.2253809 -72.984985 0.072587878 -91.48114
9201437500 -1.0502896 126.29307 -9.2329149 -72.035492 -9.2248707 -72.951935 0.077754371 -91.45134
9201500000 -1.054091 126.323 -9.2395172 -72.041336 -9.2223272 -73.00013 0.074642196 -91.452095
9201562500 -1.0486761 126.25706 -9.2417049 -72.055046 -9.2231588 -72.946846 0.07447055 -91.408646
9201625000 -1.0501157 126.27363 -9.2353935 -72.024498 -9.219738 -72.989853 0.076955706 -91.389618
9201687500 -1.0514944 126.24277 -9.2406435 -72.035629 -9.2093248 -72.943359 0.07731124 -91.342583
9201750000 -1.0506126 126.26707 -9.2331581 -71.998207 -9.2170267 -72.931778 0.071899846 -91.31871
9201812500 -1.0547099 126.23575 -9.2436857 -71.991592 -9.2212591 -72.928909 0.071958862 -91.300766
9201875000 -1.0490693 126.2384 -9.232872 -72.013062 -9.2197065 -72.934166 0.070120096 -91.28698
9201937500 -1.0505332 126.21622 -9.2355299 -71.990639 -9.2098894 -72.845337 0.068050422 -91.226326
9202000000 -1.0545757 126.21239 -9.2294159 -72.030037 -9.2111912 -72.869926 0.071473822 -91.230156
9202062500 -1.0515666 126.20827 -9.2335653 -71.926544 -9.2155905 -72.895927 0.070613392 -91.22744
9202125000 -1.0538577 126.16593 -9.2363749 -72.047554 -9.2166052 -72.937218 0.070831075 -91.249344
9202187500 -1.053424 126.16969 -9.2371035 -72.024323 -9.2194233 -72.932487 0.059703089 -91.197365
9202250000 -1.0486959 126.17392 -9.2238655 -71.923828 -9.2269955 -72.95459 0.062630169 -91.201012
9202312500 -1.0484259 126.13332 -9.2319756 -71.954636 -9.2108202 -72.952065 0.070629299 -91.210068
9202375000 -1.0517968 126.13903 -9.2315283 -71.947777 -9.2132597 -72.941322 0.07179039 -91.148972
9202437500 -1.0496893 126.10277 -9.221137 -71.999413 -9.2148132 -72.92347 0.067154847 -91.083229
9202500000 -1.0525402 126.10709 -9.2357359 -71.953255 -9.2114573 -72.920326 0.067172714 -91.137238
9202562500 -1.0582919 126.07089 -9.2366972 -71.980705 -9.2183886 -72.902084 0.066429563 -91.086548
9202625000 -1.0536296 126.06038 -9.2304916 -71.985992 -9.2156906 -72.861511 0.066997685 -91.06955
9202687500 -1.0577885 126.08588 -9.23032 -72.035706 -9.2141409 -72.888756 0.066521436 -91.058815
9202750000 -1.0524209 126.05475 -9.2241068 -72.024872 -9.2049904 -72.890327 0.068556674 -91.021706
9202812500 -1.0582998 126.03012 -9.2270699 -71.987404 -9.2117414 -72.869186 0.065085992 -91.032204
9202875000 -1.0539687 126.02876 -9.2213783 -71.948265 -9.2136965 -72.911407 0.068734117 -91.008965
9202937500 -1.0527937 126.03072 -9.2277174 -71.996353 -9.2151012 -72.868195 0.065541349 -90.998932
9203000000 -1.0497308 126.01839 -9.2159395 -71.97438 -9.2092829 -72.868774 0.071190879 -90.978302
9203062500 -1.0525892 126.0462 -9.2256575 -71.969887 -9.2154579 -72.929283 0.067626238 -90.997658
9203125000 -1.050792 126.01929 -9.2139082 -72.02903 -9.2140141 -72.860168 0.065071538 -90.974098
9203187500 -1.0483475 126.00488 -9.223999 -71.960403 -9.2159243 -72.845047 0.06559059 -90.942894
9203250000 -1.0506965 125.94446 -9.2155933 -71.992836 -9.2170801 -72.855545 0.062719285 -90.894157
9203312500 -1.0497142 125.97142 -9.2132378 -71.905922 -9.2045116 -72.827934 0.070028864 -90.880455
9203375000 -1.0498948 125.95694 -9.2171297 -71.890602 -9.2050524 -72.881111 0.07136634 -90.884903
9203437500 -1.0491039 125.91369 -9.2072525 -71.913528 -9.2002649 -72.826195 0.065300122 -90.850357
9203500000 -1.0468773 125.91949 -9.2151003 -71.951546 -9.207551 -72.847847 0.063436434 -90.804779
9203562500 -1.051199 125.93924 -9.2140589 -71.930504 -9.2022619 -72.86734 0.063291036 -90.835365
9203625000 -1.0465678 125.92023 -9.2089481 -71.992378 -9.2044392 -72.829048 0.065285414 -90.785133
9203687500 -1.0443581 125.87738 -9.2147741 -71.979355 -9.1981039 -72.859299 0.063375995 -90.788788
9203750000 -1.0485026 125.93918 -9.2181854 -71.923485 -9.1985092 -72.883095 0.065174483 -90.781693
9203812500 -1.0424232 125.88311 -9.2060556 -71.944221 -9.1995602 -72.868027 0.062119074 -90.791939
9203875000 -1.0407271 125.86279 -9.2084351 -71.937576 -9.1843204 -72.868523 0.070032582 -90.789619
9203937500 -1.0412142 125.88073 -9.2056217 -71.955841 -9.1905899 -72.89006 0.063355274 -90.764694
9204000000 -1.0383387 125.87221 -9.2145548 -71.973068 -9.2004309 -72.848846 0.054048646 -90.753807
9204062500 -1.0402128 125.80399 -9.2072821 -71.97789 -9.2016439 -72.821701 0.056899685 -90.713463
9204125000 -1.039592 125.83362 -9.2084627 -71.865105 -9.2018156 -72.839401 0.058247089 -90.719345
9204187500 -1.0433829 125.80839 -9.2052431 -71.918816 -9.1964245 -72.794342 0.057674788 -90.649857
9204250000 -1.0411137 125.79516 -9.208786 -71.931297 -9.2005024 -72.824265 0.053454731 -90.65847
9204312500 -1.0431014 125.77753 -9.2095785 -71.855026 -9.1942816 -72.806808 0.055011556 -90.600952
9204375000 -1.0453902 125.73489 -9.2032318 -71.873825 -9.198843 -72.809998 0.060265429 -90.561882
9204437500 -1.0446626 125.72449 -9.1979761 -71.922211 -9.1957178 -72.828369 0.066814065 -90.56163
9204500000 -1.0448121 125.73034 -9.2049904 -71.957924 -9.1933804 -72.842476 0.064729288 -90.511971
9204562500 -1.0463917 125.67682 -9.20397 -71.861862 -9.193573 -72.760612 0.063853383 -90.473175
9204625000 -1.0443703 125.65323 -9.1939955 -71.874298 -9.1900091 -72.823776 0.066824779 -90.487144
9204687500 -1.042904 125.66567 -9.1953325 -71.884163 -9.1908026 -72.832039 0.060681164 -90.473526
9204750000 -1.0435383 125.63964 -9.2068186 -71.887756 -9.1952772 -72.771782 0.059812739 -90.427353
9204812500 -1.036738 125.60691 -9.1951675 -71.877365 -9.1946335 -72.794121 0.064844675 -90.421471
9204875000 -1.0379248 125.61398 -9.1908569 -71.885452 -9.1948233 -72.790482 0.058419503 -90.432144
9204937500 -1.0370094 125.60978 -9.2033339 -71.940826 -9.1916418 -72.821342 0.049352963 -90.443283
9205000000 -1.0390768 125.58844 -9.1955137 -71.913589 -9.1902676 -72.828331 0.059394058 -90.39608
9205062500 -1.0398284 125.60334 -9.1969681 -71.888565 -9.1878595 -72.801659 0.057396244 -90.382698
9205125000 -1.0433106 125.57365 -9.1928129 -71.86602 -9.1917839 -72.745293 0.056310352 -90.341248
9205187500 -1.0493741 125.57153 -9.1939812 -71.908623 -9.180378 -72.844772 0.062844582 -90.364281
9205250000 -1.0466155 125.53612 -9.1936436 -71.925247 -9.189579 -72.851227 0.056317247 -90.348801
9205312500 -1.0543727 125.54235 -9.1925373 -71.781082 -9.1793299 -72.77076 0.056633931 -90.237091
9205375000 -1.053538 125.53265 -9.1900482 -71.899696 -9.1858597 -72.846931 0.056883574 -90.221283
9205437500 -1.0467767 125.49661 -9.1851892 -71.853043 -9.1890993 -72.835091 0.059496149 -90.25869
9205500000 -1.0493765 125.50491 -9.1904469 -71.900734 -9.1800613 -72.843803 0.061250877 -90.240753
9205562500 -1.0484376 125.47376 -9.1903315 -71.89978 -9.1817656 -72.863098 0.067578971 -90.276688
9205625000 -1.0470545 125.45409 -9.1899519 -71.910416 -9.1804113 -72.918564 0.065252602 -90.295746
9205687500 -1.0456393 125.45694 -9.1835976 -71.886223 -9.1735945 -72.890884 0.065633804 -90.256248
9205750000 -1.0430992 125.44261 -9.1895018 -71.842148 -9.1778793 -72.808197 0.05729964 -90.194084
9205812500 -1.0457286 125.44095 -9.1946182 -71.895218 -9.1793385 -72.835213 0.05877582 -90.206139
9205875000 -1.0493047 125.4324 -9.1946764 -71.929192 -9.1793251 -72.801414 0.05938144 -90.196251
9205937500 -1.0434482 125.39412 -9.1882629 -71.899643 -9.1788988 -72.760551 0.055505361 -90.153481
9206000000 -1.0442376 125.40271 -9.1954632 -71.874222 -9.1697569 -72.815689 0.065257661 -90.14077
9206062500 -1.0423368 125.35602 -9.1869173 -71.876724 -9.1772146 -72.77198 0.059694231 -90.126877
9206125000 -1.0435419 125.34126 -9.1903629 -71.842216 -9.1726341 -72.815819 0.061521657 -90.136421
9206187500 -1.0420674 125.32259 -9.1915207 -71.856979 -9.1793156 -72.809906 0.059817676 -90.087059
9206250000 -1.0440471 125.34202 -9.1900167 -71.884651 -9.1747198 -72.761261 0.059580125 -90.120712
9206312500 -1.043506 125.33351 -9.1941118 -71.898178 -9.1710806 -72.765274 0.059873994 -90.076447
9206375000 -1.0459574 125.30884 -9.1794538 -71.85524 -9.1821165 -72.708031 0.057073966 -90.07914
9206437500 -1.0461323 125.25978 -9.1860256 -71.91098 -9.1765547 -72.729675 0.06333743 -90.063705
9206500000 -1.0408727 125.28176 -9.1807518 -71.923309 -9.1827612 -72.691505 0.062386483 -90.010902
9206562500 -1.0423348 125.27319 -9.1765795 -71.871262 -9.1775103 -72.692261 0.056492038 -89.983253
9206625000 -1.0418122 125.28228 -9.1748199 -71.841461 -9.1703796 -72.744141 0.063099779 -89.995285
9206687500 -1.0438904 125.23887 -9.1829786 -71.864868 -9.164525 -72.734306 0.059014577 -89.953232
9206750000 -1.0418118 125.19511 -9.183445 -71.855759 -9.1730042 -72.736588 0.053833056 -89.907417
9206812500 -1.0467749 125.18759 -9.1776037 -71.900429 -9.1721401 -72.757851 0.058111668 -89.912239
9206875000 -1.04563 125.19805 -9.1807604 -71.843735 -9.1701708 -72.716515 0.056100357 -89.845688
9206937500 -1.0473601 125.18196 -9.1793623 -71.836426 -9.1753263 -72.743622 0.053252999 -89.877296
9207000000 -1.0459939 125.20018 -9.1795034 -71.776207 -9.1602268 -72.735123 0.06464047 -89.804955
9207062500 -1.0488992 125.16456 -9.1891022 -71.813789 -9.1735659 -72.721489 0.060266245 -89.795181
9207125000 -1.0477597 125.12263 -9.1788874 -71.869675 -9.1789246 -72.793465 0.056002088 -89.860275
9207187500 -1.0488651 125.11236 -9.1858377 -71.86335 -9.1683073 -72.757652 0.06143067 -89.827148
9207250000 -1.049142 125.09941 -9.1746063 -71.852966 -9.1734037 -72.792908 0.054062244 -89.819809
9207312500 -1.0480205 125.08866 -9.1811047 -71.873787 -9.1622772 -72.81015 0.072113045 -89.813461
9207375000 -1.045965 125.10538 -9.177824 -71.811638 -9.1680136 -72.802269 0.056538496 -89.797913
9207437500 -1.0481296 125.05887 -9.1697388 -71.858665 -9.1621609 -72.76001 0.055967741 -89.789986
9207500000 -1.047604 125.04671 -9.1795092 -71.845123 -9.163969 -72.75103 0.053790506 -89.747948
9207562500 -1.046689 125.04466 -9.1768131 -71.912628 -9.1652298 -72.774719 0.054918118 -89.730301
9207625000 -1.0445446 125.01235 -9.1707182 -71.873917 -9.1606379 -72.753395 0.061967127 -89.729385
9207687500 -1.0415655 125.01956 -9.1758623 -71.797241 -9.1680775 -72.732681 0.053356439 -89.677307
9207750000 -1.044292 125.01553 -9.1711493 -71.867546 -9.1735315 -72.770302 0.046354908 -89.686745
9207812500 -1.0421994 125.00219 -9.1651525 -71.847092 -9.1646891 -72.728287 0.056633417 -89.657578
9207875000 -1.0457827 124.98916 -9.1791706 -71.839577 -9.1707468 -72.724205 0.050137796 -89.626976
9207937500 -1.0409672 125.00226 -9.1740961 -71.874496 -9.1585274 -72.72403 0.050149199 -89.598755
9208000000 -1.0440259 124.98952 -9.1702461 -71.84848 -9.165987 -72.773102 0.053208955 -89.60305
9208062500 -1.039879 124.97267 -9.1697655 -71.812363 -9.1659641 -72.766563 0.047725704 -89.58326
9208125000 -1.0398182 124.95415 -9.1673412 -71.809875 -9.170228 -72.709564 0.046509188 -89.524155
9208187500 -1.043674 124.93192 -9.1605682 -71.798302 -9.1669636 -72.839149 0.040121041 -89.571671
9208250000 -1.0422137 124.87658 -9.164382 -71.882774 -9.1585236 -72.702774 0.04756619 -89.470482
9208312500 -1.0488656 124.91974 -9.169714 -71.774841 -9.1573896 -72.748749 0.050970681 -89.481216
9208375000 -1.0484978 124.90344 -9.1619158 -71.752838 -9.1515293 -72.705193 0.053498495 -89.425087
9208437500 -1.0445001 124.88119 -9.159133 -71.75927 -9.1662045 -72.738487 0.052364096 -89.439621
9208500000 -1.0409278 124.87495 -9.1581554 -71.733017 -9.1633978 -72.711334 0.054342132 -89.43409
9208562500 -1.0451307 124.87933 -9.1708708 -71.759422 -9.1626358 -72.682556 0.051002949 -89.425461
9208625000 -1.0461955 124.83605 -9.1635885 -71.788391 -9.1647139 -72.726822 0.046900574 -89.461235
9208687500 -1.0448909 124.81822 -9.1658907 -71.734032 -9.1696844 -72.71067 0.040024169 -89.421532
9208750000 -1.0453418 124.82262 -9.1571188 -71.721771 -9.1691189 -72.752556 0.04683416 -89.421165
9208812500 -1.0488015 124.82463 -9.1548996 -71.733253 -9.1580868 -72.674835 0.053238455 -89.362633
9208875000 -1.0431668 124.81258 -9.1642208 -71.768723 -9.1573496 -72.706047 0.047976885 -89.340347
9208937500 -1.0472449 124.79966 -9.1555233 -71.718941 -9.1524792 -72.647217 0.052906662 -89.284096
9209000000 -1.0470495 124.77465 -9.1573849 -71.764259 -9.158185 -72.706482 0.053019762 -89.306793
9209062500 -1.0414609 124.75231 -9.1517801 -71.754356 -9.1509266 -72.70491 0.051512316 -89.281189
9209125000 -1.0420538 124.75331 -9.1611509 -71.731926 -9.157217 -72.674858 0.049979273 -89.237129
9209187500 -1.0404233 124.73379 -9.1653872 -71.768372 -9.1455021 -72.667564 0.050826889 -89.185684
9209250000 -1.039305 124.68956 -9.1608315 -71.74762 -9.1429367 -72.658859 0.050931431 -89.210648
9209312500 -1.0409551 124.66776 -9.1584444 -71.794441 -9.1427383 -72.672966 0.039985988 -89.178856
9209375000 -1.0360903 124.66322 -9.1525288 -71.724403 -9.1410694 -72.647751 0.044122688 -89.126877
9209437500 -1.0353751 124.62243 -9.1565495 -71.744843 -9.1394711 -72.681984 0.046199035 -89.140121
9209500000 -1.0322578 124.60833 -9.1551495 -71.775032 -9.1452217 -72.654892 0.036331508 -89.102478
9209562500 -1.0389031 124.56828 -9.1506481 -71.750694 -9.1384106 -72.661537 0.04542404 -89.10218
9209625000 -1.0415369 124.60886 -9.15343 -71.781174 -9.1492434 -72.679779 0.038344972 -89.081154
9209687500 -1.0438731 124.57108 -9.1583881 -71.789436 -9.1329851 -72.651527 0.056058343 -89.061836
9209750000 -1.0412389 124.55949 -9.1412783 -71.75705 -9.1343184 -72.703758 0.048670322 -89.082535
9209812500 -1.0451748 124.52123 -9.1437349 -71.865028 -9.1370583 -72.66153 0.048006382 -89.030441
9209875000 -1.0448643 124.52562 -9.1386986 -71.803787 -9.1374769 -72.720093 0.046431154 -89.05706
9209937500 -1.0479914 124.55885 -9.1541243 -71.742043 -9.1379976 -72.681564 0.048685376 -89.02951
9210000000 -1.0477576 124.49697 -9.1456537 -71.793213 -9.1372042 -72.713638 0.051207814 -89.044945
9210062500 -1.0458928 124.51409 -9.1520901 -71.751511 -9.1430435 -72.689156 0.046373885 -89.031235
9210125000 -1.0442311 124.49683 -9.1564312 -71.722862 -9.147068 -72.751778 0.040855717 -89.044342
9210187500 -1.044081 124.46899 -9.1576729 -71.800148 -9.13867 -72.72084 0.043543562 -89.049187
9210250000 -1.0354127 124.46175 -9.1566372 -71.732704 -9.1396189 -72.70668 0.040151745 -89.021767
9210312500 -1.0429369 124.43109 -9.1610451 -71.795074 -9.1501913 -72.683365 0.036335174 -88.999573
9210375000 -1.0416601 124.40891 -9.1486101 -71.734749 -9.1359243 -72.7005 0.039780088 -88.956459
9210437500 -1.0433527 124.41777 -9.1463833 -71.709846 -9.132369 -72.587822 0.048495915 -88.928131
9210500000 -1.0395628 124.429 -9.146409 -71.662811 -9.1406918 -72.637047 0.036212705 -88.871689
9210562500 -1.0385749 124.40064 -9.1524372 -71.714134 -9.1361656 -72.579208 0.044323422 -88.877579
9210625000 -1.0411321 124.40636 -9.1385202 -71.703552 -9.1288061 -72.589729 0.047546033 -88.837975
9210687500 -1.0372256 124.39069 -9.1436958 -71.761673 -9.1337366 -72.597694 0.035417084 -88.839142
9210750000 -1.0396477 124.36382 -9.1440725 -71.747353 -9.1261806 -72.610756 0.041952424 -88.800354
9210812500 -1.0391256 124.33984 -9.1406183 -71.712135 -9.1339092 -72.604866 0.035081841 -88.811607
9210875000 -1.0352831 124.35201 -9.1385899 -71.697441 -9.1390629 -72.625359 0.029258771 -88.776169
9210937500 -1.0417554 124.32825 -9.1401653 -71.659363 -9.1323996 -72.552704 0.040047526 -88.729393
9211000000 -1.0427665 124.31592 -9.1415882 -71.696098 -9.1384268 -72.574219 0.029719399 -88.730408
9211062500 -1.0355581 124.31014 -9.1286564 -71.717987 -9.1359243 -72.580376 0.03292954 -88.713715
9211125000 -1.0423105 124.28577 -9.1370897 -71.706062 -9.1410809 -72.538269 0.034373112 -88.673958
9211187500 -1.0443361 124.25364 -9.1388969 -71.716431 -9.1375875 -72.595406 0.030944159 -88.674599
9211250000 -1.042892 124.23351 -9.135293 -71.708069 -9.1357832 -72.545715 0.035226237 -88.616135
9211312500 -1.0393349 124.22315 -9.1297169 -71.727592 -9.1357498 -72.592415 0.035209306 -88.602791
9211375000 -1.0427998 124.18178 -9.1297083 -71.72303 -9.1400108 -72.582596 0.032101143 -88.597923
9211437500 -1.04155 124.15284 -9.1356649 -71.703423 -9.1328192 -72.562935 0.036851034 -88.578278
9211500000 -1.0427028 124.19023 -9.133481 -71.711151 -9.133276 -72.56086 0.040453788 -88.595947
9211562500 -1.046225 124.18277 -9.1341429 -71.666954 -9.1285973 -72.574684 0.037938833 -88.607697
9211625000 -1.0449636 124.19595 -9.141264 -71.64373 -9.1278782 -72.604729 0.047695458 -88.597542
9211687500 -1.0410278 124.15354 -9.1322918 -71.649071 -9.1292486 -72.599762 0.043877721 -88.565269
9211750000 -1.04014 124.18285 -9.1328526 -71.625946 -9.1303854 -72.619324 0.046068765 -88.576057
9211812500 -1.0424879 124.14691 -9.1337833 -71.682465 -9.1305113 -72.604042 0.04014764 -88.591507
9211875000 -1.0367408 124.12951 -9.1258774 -71.675034 -9.1205568 -72.59111 0.051759649 -88.523628
9211937500 -1.0319344 124.06539 -9.1249752 -71.717148 -9.1171627 -72.636101 0.046652116 -88.554298
9212000000 -1.0358267 124.06013 -9.1273603 -71.666985 -9.1180372 -72.571709 0.048673887 -88.507751
9212062500 -1.0305289 124.01934 -9.111659 -71.702438 -9.1291037 -72.595184 0.042829681 -88.453423
9212125000 -1.0307959 124.02686 -9.1172323 -71.683945 -9.1175404 -72.546326 0.047071621 -88.436768
9212187500 -1.0366067 123.97882 -9.1283646 -71.663925 -9.1222067 -72.532661 0.036181185 -88.418503
9212250000 -1.0384147 123.99986 -9.1189642 -71.637482 -9.113862 -72.596863 0.044625368 -88.446304
9212312500 -1.030775 124.00481 -9.1265316 -71.677513 -9.1142225 -72.602921 0.038234226 -88.415909
