!Agilent Technologies,N5242A,MY51221714,A.09.90.19
!Agilent N5242A: A.09.90.19
!Date: Friday, February 02, 2024 13:06:58
!Correction: S11(Full 2 Port(1,2)) 
!S21(Full 2 Port(1,2)) 
!S12(Full 2 Port(1,2)) 
!S22(Full 2 Port(1,2)) 
!S2P File: Measurements: S11, S21, S12, S22:
# Hz S  dB   R 50
9200000000 -1.0264668 126.69113 -9.2824345 -71.938133 -9.2512779 -73.039696 0.081972145 -91.758553
9200062500 -1.0272747 126.68389 -9.2856064 -71.879707 -9.2602158 -72.977493 0.079639003 -91.706337
9200125000 -1.0251236 126.66058 -9.2776985 -71.948227 -9.2487545 -72.973602 0.085388862 -91.725441
9200187500 -1.0275154 126.64691 -9.2851744 -71.93705 -9.2633476 -73.027931 0.074724294 -91.718857
9200250000 -1.030161 126.63139 -9.2832365 -71.935638 -9.2567892 -73.019135 0.082190037 -91.737778
9200312500 -1.0287544 126.61514 -9.2870016 -71.981613 -9.2582788 -72.975426 0.075319558 -91.676483
9200375000 -1.0287969 126.56187 -9.286768 -71.981483 -9.2622023 -72.98774 0.072662719 -91.632675
9200437500 -1.0320476 126.5401 -9.2888556 -71.968552 -9.2695131 -73.01429 0.070600212 -91.638702
9200500000 -1.0337002 126.52898 -9.2830887 -71.951202 -9.2637749 -73.008919 0.078232028 -91.590416
9200562500 -1.02847 126.56357 -9.2881746 -71.918007 -9.2537241 -73.022629 0.078579664 -91.597137
9200625000 -1.0230556 126.54058 -9.2740841 -72.012901 -9.2641401 -72.966583 0.081743181 -91.572769
9200687500 -1.0239663 126.54716 -9.2754555 -71.953117 -9.2574673 -73.018768 0.083798438 -91.534134
9200750000 -1.0251881 126.52423 -9.2658415 -71.978157 -9.2589216 -72.982185 0.081213981 -91.550995
9200812500 -1.0215814 126.51514 -9.270731 -71.922287 -9.254427 -73.011353 0.088065982 -91.55619
9200875000 -1.0285662 126.50768 -9.2748098 -71.93943 -9.2525053 -73.026344 0.085127346 -91.534264
9200937500 -1.025859 126.50319 -9.2738609 -71.939919 -9.2510338 -72.997162 0.079296 -91.549538
9201000000 -1.0316238 126.46515 -9.2745733 -71.983139 -9.264595 -73.015228 0.077325188 -91.550316
9201062500 -1.0279871 126.48532 -9.2640038 -71.969292 -9.2608109 -73.02404 0.081122451 -91.536629
9201125000 -1.029914 126.42877 -9.2722702 -72.006683 -9.2613497 -73.008041 0.078725807 -91.497467
9201187500 -1.031918 126.4239 -9.276701 -71.969475 -9.2568464 -73.042198 0.073825769 -91.543297
9201250000 -1.0312766 126.37398 -9.2658873 -71.950645 -9.2666645 -72.943985 0.077900298 -91.482315
9201312500 -1.0337877 126.33 -9.2813854 -71.955765 -9.2592783 -73.018494 0.080391876 -91.458984
9201375000 -1.0285186 126.3307 -9.2719364 -71.996216 -9.2624521 -73.014885 0.069798291 -91.471306
9201437500 -1.0382286 126.29666 -9.2836657 -72.02742 -9.2577696 -73.064667 0.081807703 -91.4674
9201500000 -1.0310292 126.29749 -9.2776785 -71.982437 -9.2520504 -72.981789 0.081848741 -91.42041
9201562500 -1.0313175 126.2864 -9.2668343 -71.946655 -9.2496099 -73.003853 0.079061016 -91.389618
9201625000 -1.0349623 126.24608 -9.2779779 -72.024361 -9.2506256 -73.003181 0.072692111 -91.371895
9201687500 -1.0359821 126.2533 -9.2792244 -71.943222 -9.2555532 -72.961792 0.071566842 -91.327164
9201750000 -1.0346483 126.24973 -9.2766514 -71.990448 -9.2539835 -72.930916 0.069971941 -91.34272
9201812500 -1.0321926 126.27808 -9.2727928 -71.910278 -9.2552853 -72.893204 0.072773673 -91.285248
9201875000 -1.0309412 126.22038 -9.2675009 -71.981354 -9.2440529 -72.964699 0.084307641 -91.279984
9201937500 -1.0375943 126.21869 -9.2722816 -71.911819 -9.2537785 -72.844521 0.070308916 -91.173637
9202000000 -1.0291065 126.19881 -9.2658024 -71.959023 -9.2484999 -72.909042 0.070284091 -91.218376
9202062500 -1.0307446 126.19873 -9.2767744 -71.903587 -9.251545 -72.948219 0.069146626 -91.181114
9202125000 -1.0286713 126.20267 -9.2618208 -71.881325 -9.2448387 -72.907181 0.0758439 -91.134491
9202187500 -1.0312797 126.14354 -9.2661552 -71.947006 -9.2418699 -72.923744 0.071875706 -91.143234
9202250000 -1.0326473 126.15144 -9.2727003 -71.964432 -9.2596798 -72.93071 0.065493546 -91.154587
9202312500 -1.0372838 126.15069 -9.2708187 -71.931564 -9.2537737 -72.900185 0.0661235 -91.123871
9202375000 -1.0293725 126.12951 -9.2666607 -71.927521 -9.2527246 -72.965805 0.066868514 -91.101143
9202437500 -1.0286289 126.13917 -9.2633724 -71.88205 -9.2526045 -72.884338 0.061371837 -91.095871
9202500000 -1.0332204 126.09162 -9.2636909 -71.908981 -9.2549248 -72.882828 0.064471647 -91.06675
9202562500 -1.0407871 126.1011 -9.2719116 -71.892311 -9.2467175 -72.870895 0.066428944 -91.066849
9202625000 -1.0354825 126.07604 -9.2621727 -71.901443 -9.2471352 -72.878616 0.068261161 -91.016899
9202687500 -1.0369296 126.04859 -9.2662325 -71.94928 -9.2427578 -72.927689 0.06932006 -91.015991
9202750000 -1.0388081 126.06449 -9.2617254 -71.867523 -9.236577 -72.907646 0.071870044 -91.001915
9202812500 -1.0393548 126.05706 -9.2618093 -71.9011 -9.2448015 -72.905396 0.068667881 -90.98069
9202875000 -1.0369129 126.08288 -9.2501812 -71.909439 -9.2535324 -72.949173 0.066168465 -90.996277
9202937500 -1.0330557 126.06807 -9.2588148 -71.902901 -9.2472153 -72.889145 0.07323236 -90.980591
9203000000 -1.0302534 126.03683 -9.2476988 -71.891228 -9.2515192 -72.869141 0.064757638 -90.959473
9203062500 -1.030355 126.04046 -9.249052 -71.890297 -9.2409859 -72.959389 0.071697608 -90.975662
9203125000 -1.0271678 125.99091 -9.2524128 -71.915222 -9.2450638 -72.906967 0.057510499 -90.948242
9203187500 -1.0292507 126.01253 -9.2408972 -71.871964 -9.2497644 -72.901382 0.065543436 -90.904686
9203250000 -1.0376105 125.96567 -9.2521877 -71.942223 -9.2462101 -72.860985 0.070111521 -90.865097
9203312500 -1.0275042 125.96898 -9.2398062 -71.866646 -9.2507629 -72.901718 0.069421843 -90.861786
9203375000 -1.030686 125.96847 -9.2440166 -71.909218 -9.2420931 -72.857689 0.065373681 -90.82605
9203437500 -1.0309131 125.92716 -9.25249 -71.906227 -9.247076 -72.874054 0.066413991 -90.793564
9203500000 -1.0296201 125.95141 -9.2477961 -71.853722 -9.2440023 -72.852486 0.063852191 -90.795273
9203562500 -1.0303044 125.92027 -9.2547464 -71.811821 -9.2418776 -72.847229 0.069176652 -90.744995
9203625000 -1.0279125 125.90607 -9.2472677 -71.853043 -9.232233 -72.910164 0.068517096 -90.774132
9203687500 -1.033352 125.91074 -9.2565765 -71.87075 -9.2320461 -72.862617 0.069320254 -90.769997
9203750000 -1.0230091 125.89362 -9.2395658 -71.900391 -9.2347012 -72.870125 0.066336542 -90.75988
9203812500 -1.0211223 125.90334 -9.2383547 -71.931221 -9.229001 -72.850021 0.073439047 -90.742432
9203875000 -1.0217867 125.8817 -9.248724 -71.945526 -9.2311687 -72.940315 0.064213075 -90.769493
9203937500 -1.0250839 125.8906 -9.2470045 -71.905586 -9.2240992 -72.82737 0.062959678 -90.706154
9204000000 -1.0263988 125.86602 -9.2481956 -71.855782 -9.2288494 -72.900063 0.059172474 -90.717026
9204062500 -1.0232193 125.86987 -9.2374115 -71.840248 -9.2237978 -72.889206 0.062644176 -90.716591
9204125000 -1.0278209 125.88078 -9.252512 -71.816597 -9.2279491 -72.892365 0.05538458 -90.652168
9204187500 -1.0228472 125.80534 -9.2527018 -71.850029 -9.2355461 -72.929581 0.055243909 -90.650551
9204250000 -1.02496 125.77604 -9.2418003 -71.876221 -9.2371054 -72.813606 0.05727822 -90.596512
9204312500 -1.0240669 125.82114 -9.240283 -71.760826 -9.2328138 -72.786606 0.059599698 -90.572601
9204375000 -1.0277768 125.78112 -9.2371273 -71.774483 -9.2274952 -72.765045 0.060751099 -90.509888
9204437500 -1.0289298 125.70556 -9.2377577 -71.822769 -9.2305241 -72.805702 0.055996973 -90.496605
9204500000 -1.0284171 125.71119 -9.2410469 -71.845764 -9.2247906 -72.833481 0.069286257 -90.514168
9204562500 -1.0337179 125.688 -9.2427883 -71.838539 -9.2265501 -72.838402 0.065674797 -90.467552
9204625000 -1.0234663 125.63551 -9.2294111 -71.81076 -9.2179775 -72.814995 0.072251938 -90.436165
9204687500 -1.0276697 125.64673 -9.2340412 -71.911453 -9.2259159 -72.84626 0.059569798 -90.454468
9204750000 -1.0210567 125.60617 -9.2328577 -71.881371 -9.2308149 -72.856598 0.062667929 -90.431786
9204812500 -1.0189898 125.63726 -9.229948 -71.863754 -9.22721 -72.824677 0.062062524 -90.421883
9204875000 -1.0121804 125.63842 -9.2268858 -71.793182 -9.2236853 -72.773827 0.06448786 -90.383675
9204937500 -1.0208251 125.63158 -9.2280483 -71.799843 -9.2146282 -72.854187 0.065512888 -90.404724
9205000000 -1.0222033 125.60669 -9.2344236 -71.826164 -9.2277708 -72.863747 0.061570864 -90.414246
9205062500 -1.0199013 125.61647 -9.2188511 -71.788101 -9.2208872 -72.82135 0.056297239 -90.366783
9205125000 -1.0260552 125.56684 -9.2273455 -71.83609 -9.2172384 -72.834915 0.060004249 -90.346191
9205187500 -1.0313801 125.5943 -9.2410431 -71.803886 -9.2169342 -72.849518 0.060842186 -90.329979
9205250000 -1.0361028 125.5807 -9.2327805 -71.836922 -9.2255173 -72.823135 0.054430965 -90.258751
9205312500 -1.0334517 125.53467 -9.2301455 -71.823418 -9.2149563 -72.808449 0.058395226 -90.225845
9205375000 -1.0365003 125.52708 -9.2245493 -71.792038 -9.2163382 -72.854912 0.060997456 -90.233429
9205437500 -1.0348876 125.50475 -9.2292614 -71.813515 -9.2078581 -72.838219 0.064095698 -90.200867
9205500000 -1.0350718 125.51089 -9.2320309 -71.860985 -9.2088766 -72.88372 0.065469995 -90.221443
9205562500 -1.0317093 125.47318 -9.2254467 -71.852554 -9.2146835 -72.917183 0.066567399 -90.217766
9205625000 -1.0279599 125.49183 -9.2297802 -71.75782 -9.2169046 -72.837334 0.058920708 -90.163864
9205687500 -1.0333198 125.4472 -9.2225819 -71.82486 -9.2158289 -72.852211 0.0654447 -90.179581
9205750000 -1.0273323 125.47614 -9.2214632 -71.781487 -9.2171993 -72.897774 0.060372848 -90.21167
9205812500 -1.0266987 125.43504 -9.2200403 -71.807281 -9.2105398 -72.78669 0.062060852 -90.125923
9205875000 -1.0238212 125.42467 -9.2320309 -71.811661 -9.2121325 -72.787025 0.057066806 -90.128067
9205937500 -1.0218601 125.39442 -9.2247334 -71.854729 -9.2194538 -72.81562 0.056411412 -90.124657
9206000000 -1.0232315 125.36547 -9.2268438 -71.796501 -9.2143297 -72.787636 0.062910236 -90.102951
9206062500 -1.0276555 125.32732 -9.2318401 -71.816666 -9.2113218 -72.805923 0.063331172 -90.115395
9206125000 -1.0224622 125.36465 -9.2304583 -71.7939 -9.2145395 -72.795906 0.060770206 -90.079277
9206187500 -1.0259235 125.30429 -9.2345943 -71.864632 -9.2034788 -72.792084 0.062874287 -90.10305
9206250000 -1.0311445 125.3195 -9.2279978 -71.835075 -9.2060699 -72.780197 0.068964228 -90.078735
9206312500 -1.0336853 125.31435 -9.2329693 -71.832306 -9.2114601 -72.755226 0.062857546 -90.032822
9206375000 -1.0237067 125.3241 -9.2134905 -71.848724 -9.2149849 -72.707397 0.059752166 -90.006058
9206437500 -1.0302998 125.25544 -9.2265301 -71.85331 -9.2097588 -72.673325 0.065822624 -89.985573
9206500000 -1.0345095 125.28575 -9.2210646 -71.82811 -9.2147636 -72.713837 0.059876617 -90.007187
9206562500 -1.0221105 125.27721 -9.2220669 -71.814003 -9.2093248 -72.769455 0.062491436 -89.968941
9206625000 -1.0263153 125.24697 -9.2303553 -71.817398 -9.2140961 -72.723389 0.055428259 -89.929733
9206687500 -1.0252374 125.23398 -9.2147608 -71.78157 -9.2053862 -72.714035 0.061282612 -89.905685
9206750000 -1.0213031 125.20865 -9.216383 -71.815475 -9.2022305 -72.755638 0.056660891 -89.890221
9206812500 -1.0299805 125.21011 -9.2126856 -71.809464 -9.2009039 -72.733421 0.055245396 -89.858856
9206875000 -1.025649 125.19081 -9.2192402 -71.78331 -9.2056379 -72.734879 0.063780159 -89.813148
9206937500 -1.0232674 125.16148 -9.211132 -71.788948 -9.209754 -72.783188 0.058808867 -89.826347
9207000000 -1.0260714 125.17972 -9.2138519 -71.735344 -9.1947241 -72.75563 0.061947241 -89.787888
9207062500 -1.029713 125.14833 -9.2191715 -71.752701 -9.2037926 -72.802299 0.06557326 -89.826805
9207125000 -1.0279194 125.13364 -9.2136393 -71.770645 -9.2001247 -72.742836 0.067291275 -89.784912
9207187500 -1.0309546 125.12447 -9.2166967 -71.776779 -9.2073431 -72.738403 0.062771037 -89.755028
9207250000 -1.0313641 125.09744 -9.2141991 -71.823441 -9.2069902 -72.815697 0.061068643 -89.790756
9207312500 -1.0338948 125.10835 -9.2153807 -71.769257 -9.2051563 -72.751488 0.060458068 -89.745209
9207375000 -1.0266631 125.12251 -9.2123852 -71.788864 -9.1946535 -72.767212 0.061504006 -89.743317
9207437500 -1.0268645 125.06988 -9.2088346 -71.813309 -9.195199 -72.766617 0.066589579 -89.716278
9207500000 -1.0311066 125.06441 -9.2096243 -71.766068 -9.1953115 -72.783112 0.061347179 -89.726509
9207562500 -1.031021 125.03802 -9.2163277 -71.78772 -9.1972208 -72.849068 0.055390332 -89.720451
9207625000 -1.032443 125.0259 -9.2165461 -71.770935 -9.1937666 -72.749947 0.059808556 -89.654152
9207687500 -1.0255134 124.994 -9.1997728 -71.78154 -9.1953573 -72.759079 0.060993906 -89.669373
9207750000 -1.0243816 125.01382 -9.2104654 -71.733902 -9.2017202 -72.775238 0.053296324 -89.605118
9207812500 -1.0304061 125.00245 -9.2065239 -71.780296 -9.2014294 -72.779701 0.057335757 -89.654465
9207875000 -1.0284678 124.98954 -9.2067041 -71.803566 -9.2045355 -72.757324 0.050407022 -89.584991
9207937500 -1.029114 124.98906 -9.216877 -71.750694 -9.2065325 -72.731766 0.043431066 -89.574356
9208000000 -1.0241288 124.9743 -9.2084532 -71.740379 -9.2083797 -72.753738 0.048519321 -89.606613
9208062500 -1.0246903 124.97478 -9.2042732 -71.740303 -9.1986341 -72.75679 0.050219938 -89.538582
9208125000 -1.0257397 124.94103 -9.2076693 -71.751266 -9.2081366 -72.809189 0.042805113 -89.518967
9208187500 -1.024274 124.92377 -9.2031574 -71.714478 -9.1996431 -72.734856 0.054057416 -89.470795
9208250000 -1.0272324 124.89519 -9.2047043 -71.751846 -9.2061768 -72.77578 0.052718986 -89.474876
9208312500 -1.0302285 124.89996 -9.2021255 -71.73938 -9.1994686 -72.753609 0.051718973 -89.444336
9208375000 -1.0244231 124.88361 -9.201499 -71.703407 -9.2044258 -72.709206 0.043393575 -89.421143
9208437500 -1.0242403 124.8932 -9.2075577 -71.767464 -9.1980944 -72.773613 0.050280455 -89.438347
9208500000 -1.0311656 124.85532 -9.2007961 -71.713005 -9.2030964 -72.766899 0.042385437 -89.423439
9208562500 -1.0290856 124.86923 -9.2069845 -71.65435 -9.2018042 -72.715202 0.046282042 -89.35807
9208625000 -1.0267136 124.81905 -9.1935911 -71.773781 -9.2073183 -72.726418 0.048200216 -89.378708
9208687500 -1.0301386 124.83533 -9.201252 -71.692123 -9.1964207 -72.712387 0.051221788 -89.369553
9208750000 -1.0289553 124.80225 -9.2105665 -71.718185 -9.2017965 -72.781456 0.047886107 -89.407578
9208812500 -1.0261259 124.81358 -9.1974983 -71.72171 -9.1958313 -72.738609 0.054343548 -89.305496
9208875000 -1.0262522 124.80067 -9.1984501 -71.686913 -9.2008104 -72.689178 0.054978017 -89.308533
9208937500 -1.0250019 124.79083 -9.1964712 -71.754578 -9.1977034 -72.698875 0.050769951 -89.307732
9209000000 -1.0268766 124.76711 -9.2032528 -71.744499 -9.1932087 -72.695213 0.050867047 -89.250359
9209062500 -1.0274823 124.78979 -9.203824 -71.703255 -9.1916008 -72.683525 0.049616136 -89.213867
9209125000 -1.0190369 124.73484 -9.1860771 -71.737312 -9.1855392 -72.669029 0.056875769 -89.227028
9209187500 -1.0227436 124.72591 -9.2028437 -71.750076 -9.1956148 -72.670761 0.041410953 -89.173882
9209250000 -1.0208189 124.67818 -9.1959581 -71.668854 -9.1862497 -72.626045 0.046990201 -89.136459
9209312500 -1.0196559 124.70396 -9.2019062 -71.701332 -9.1787834 -72.653015 0.04348075 -89.099228
9209375000 -1.0201062 124.64068 -9.1936302 -71.762733 -9.1792488 -72.675217 0.044871368 -89.089897
9209437500 -1.0182934 124.62122 -9.1930256 -71.657524 -9.1779842 -72.669632 0.045965936 -89.071465
9209500000 -1.0159149 124.63511 -9.1879225 -71.692947 -9.1712894 -72.709648 0.04773432 -89.120163
9209562500 -1.0216528 124.59761 -9.185297 -71.68309 -9.176362 -72.672943 0.043977249 -89.046776
9209625000 -1.027397 124.59353 -9.1976204 -71.673241 -9.1711206 -72.64576 0.050825343 -89.035019
9209687500 -1.0259733 124.59044 -9.1909218 -71.738342 -9.1786795 -72.709404 0.044660449 -89.050003
9209750000 -1.0269282 124.55652 -9.1930637 -71.65023 -9.18606 -72.687431 0.046982799 -89.048195
9209812500 -1.0254055 124.54675 -9.1837492 -71.68856 -9.181776 -72.70359 0.042532407 -88.992424
9209875000 -1.0262496 124.56295 -9.1838923 -71.666374 -9.1905212 -72.770691 0.047468394 -89.051697
9209937500 -1.0318911 124.53267 -9.1924915 -71.709457 -9.173439 -72.690186 0.047727291 -88.972359
9210000000 -1.0298547 124.51793 -9.192399 -71.706963 -9.1816196 -72.728157 0.042215172 -88.992744
9210062500 -1.0250469 124.52599 -9.1902266 -71.628471 -9.176219 -72.677727 0.043605112 -88.946327
9210125000 -1.0256848 124.50734 -9.1933994 -71.667725 -9.178401 -72.702667 0.038702145 -88.970589
9210187500 -1.0241356 124.4628 -9.1887798 -71.72271 -9.174655 -72.739059 0.04815447 -88.974724
9210250000 -1.0238092 124.43203 -9.1898031 -71.707405 -9.1803284 -72.707451 0.034869015 -88.994362
9210312500 -1.022561 124.4819 -9.187705 -71.678421 -9.1812601 -72.703766 0.031544473 -88.956886
9210375000 -1.0246267 124.42088 -9.1897402 -71.695984 -9.1818037 -72.624222 0.040860195 -88.904442
9210437500 -1.023658 124.44155 -9.1815271 -71.682724 -9.1695118 -72.651817 0.040988754 -88.896393
9210500000 -1.0184933 124.42688 -9.1837597 -71.676796 -9.1683645 -72.64933 0.040471032 -88.863449
9210562500 -1.027689 124.4353 -9.1878176 -71.678055 -9.1737537 -72.601204 0.03713841 -88.82811
9210625000 -1.0226756 124.38264 -9.1925392 -71.70108 -9.1680183 -72.61042 0.040571623 -88.792778
9210687500 -1.02569 124.43607 -9.1917715 -71.661652 -9.1719494 -72.696815 0.038864665 -88.837746
9210750000 -1.0229425 124.39519 -9.1831293 -71.594154 -9.1664629 -72.619301 0.03776063 -88.773392
9210812500 -1.0206662 124.36044 -9.1775541 -71.660828 -9.1731224 -72.609657 0.036823675 -88.750908
9210875000 -1.0203075 124.3457 -9.1729879 -71.652061 -9.1660089 -72.586571 0.038459774 -88.737999
9210937500 -1.0244336 124.35957 -9.1789074 -71.524757 -9.1742992 -72.610817 0.030240126 -88.691818
9211000000 -1.0233719 124.34882 -9.1777468 -71.595703 -9.1726208 -72.619164 0.03222239 -88.715645
9211062500 -1.0252041 124.32343 -9.1762991 -71.626289 -9.1706114 -72.559738 0.035836246 -88.674431
9211125000 -1.0240469 124.28875 -9.1839876 -71.570633 -9.1779757 -72.616913 0.025707804 -88.629242
9211187500 -1.0204668 124.27306 -9.1781864 -71.624695 -9.1867952 -72.591095 0.02837305 -88.639145
9211250000 -1.0253577 124.27071 -9.1733131 -71.649231 -9.1791153 -72.563408 0.034154333 -88.575882
9211312500 -1.0278819 124.22377 -9.1812382 -71.618668 -9.1745968 -72.543373 0.035058688 -88.556953
9211375000 -1.020575 124.21648 -9.1785669 -71.642853 -9.179759 -72.598267 0.036907095 -88.532051
9211437500 -1.0258185 124.18386 -9.1765127 -71.621338 -9.180603 -72.586891 0.037014339 -88.576538
9211500000 -1.0266607 124.20482 -9.1726246 -71.581329 -9.1732931 -72.595207 0.041656658 -88.536232
9211562500 -1.0265335 124.19054 -9.1754017 -71.596512 -9.1721363 -72.60627 0.03964749 -88.517426
9211625000 -1.0305601 124.17252 -9.1775217 -71.620003 -9.1641893 -72.605698 0.04571965 -88.542786
9211687500 -1.0266706 124.18101 -9.1753807 -71.556374 -9.1678734 -72.587059 0.045314748 -88.540642
9211750000 -1.0302116 124.19611 -9.1760492 -71.535431 -9.1697292 -72.614494 0.041128557 -88.491997
9211812500 -1.0229989 124.14456 -9.173707 -71.605652 -9.1611338 -72.639946 0.047298737 -88.517952
9211875000 -1.0193257 124.12792 -9.1650925 -71.583961 -9.1674509 -72.644302 0.049614906 -88.514893
9211937500 -1.0180415 124.11078 -9.1646652 -71.617981 -9.15942 -72.646973 0.045016244 -88.490204
9212000000 -1.0173359 124.07986 -9.1683922 -71.605858 -9.1639252 -72.619026 0.041230302 -88.468498
9212062500 -1.0124501 124.05617 -9.1612873 -71.639435 -9.15697 -72.603432 0.047393568 -88.439636
9212125000 -1.0160843 124.00692 -9.1678448 -71.627007 -9.1604481 -72.624466 0.038400088 -88.398819
9212187500 -1.0199493 123.98798 -9.1627302 -71.618439 -9.1600161 -72.633972 0.042072233 -88.402832
9212250000 -1.0172998 124.01736 -9.1596165 -71.606064 -9.1555395 -72.599014 0.04489626 -88.375999
9212312500 -1.0183538 124.02532 -9.1675806 -71.571304 -9.1596155 -72.569893 0.043928847 -88.358757
