!Agilent Technologies,N5242A,MY51221714,A.09.90.19
!Agilent N5242A: A.09.90.19
!Date: Friday, February 02, 2024 13:08:11
!Correction: S11(Full 2 Port(1,2)) 
!S21(Full 2 Port(1,2)) 
!S12(Full 2 Port(1,2)) 
!S22(Full 2 Port(1,2)) 
!S2P File: Measurements: S11, S21, S12, S22:
# Hz S  dB   R 50
9200000000 -1.0314718 126.70554 -9.2668238 -71.965767 -9.2361259 -73.100128 0.056258194 -91.831879
9200062500 -1.0263155 126.71191 -9.2562275 -71.984085 -9.242487 -73.057747 0.056977838 -91.796562
9200125000 -1.0335073 126.65343 -9.2705755 -71.979881 -9.2344961 -73.111717 0.06437739 -91.796524
9200187500 -1.0335152 126.66647 -9.26649 -71.966141 -9.2343006 -73.112282 0.059309024 -91.779037
9200250000 -1.0329254 126.65956 -9.2629137 -71.989105 -9.2350311 -73.157104 0.057583902 -91.768402
9200312500 -1.0379895 126.63182 -9.2717409 -71.970314 -9.2409763 -73.130371 0.054868713 -91.785469
9200375000 -1.0384623 126.58776 -9.2650051 -72.01799 -9.2432365 -73.09874 0.054258183 -91.761986
9200437500 -1.037164 126.60159 -9.268857 -72.035759 -9.2411661 -73.159988 0.050064925 -91.70948
9200500000 -1.0337443 126.61092 -9.2637453 -71.980042 -9.2400579 -73.09565 0.058277737 -91.686996
9200562500 -1.0337607 126.58019 -9.2654829 -72.042137 -9.2454872 -73.106537 0.055089731 -91.674797
9200625000 -1.0353502 126.57032 -9.2639828 -72.038437 -9.2482042 -73.095055 0.049821015 -91.629089
9200687500 -1.0328585 126.57943 -9.2605438 -71.99556 -9.2469025 -73.066055 0.052772049 -91.630943
9200750000 -1.0299754 126.58717 -9.2595463 -71.964043 -9.2433834 -73.089508 0.054653499 -91.626068
9200812500 -1.0317491 126.55975 -9.2540989 -72.052269 -9.2341642 -73.127777 0.065114915 -91.618927
9200875000 -1.0308907 126.53802 -9.252142 -71.964874 -9.227273 -73.137405 0.070380822 -91.616158
9200937500 -1.0325247 126.53574 -9.2521791 -71.951706 -9.2323227 -73.143272 0.068466648 -91.62603
9201000000 -1.0365855 126.55975 -9.2612457 -71.952271 -9.2394381 -73.103691 0.061217446 -91.615791
9201062500 -1.0337639 126.48264 -9.2487288 -72.026726 -9.2422028 -73.124397 0.061006684 -91.616539
9201125000 -1.0377492 126.45157 -9.2561083 -72.057579 -9.2424402 -73.140343 0.06057322 -91.63176
9201187500 -1.0365186 126.43242 -9.2486153 -72.040062 -9.2391558 -73.135216 0.05585951 -91.612068
9201250000 -1.0355546 126.39328 -9.2515097 -72.032318 -9.2448664 -73.078575 0.060606658 -91.589165
9201312500 -1.0408573 126.35297 -9.2646885 -72.072342 -9.2446175 -73.080788 0.056577485 -91.545227
9201375000 -1.0445521 126.3409 -9.2659178 -72.031181 -9.2447767 -73.103989 0.045764256 -91.562508
9201437500 -1.0360825 126.32734 -9.2571859 -72.046005 -9.2387094 -73.087212 0.05343869 -91.531937
9201500000 -1.0360148 126.31904 -9.2553806 -71.997276 -9.2359276 -73.096405 0.05646326 -91.488571
9201562500 -1.0419616 126.29616 -9.2543755 -71.972939 -9.2365379 -73.09507 0.055072274 -91.441963
9201625000 -1.0372843 126.28035 -9.2555962 -72.012321 -9.238658 -73.094681 0.053575125 -91.441017
9201687500 -1.0376687 126.28464 -9.2599344 -71.990166 -9.2403946 -73.040955 0.048675571 -91.405663
9201750000 -1.0375663 126.23893 -9.2509499 -72.065689 -9.2271404 -73.057228 0.060016185 -91.407578
9201812500 -1.0406278 126.23269 -9.26583 -72.057335 -9.2309694 -73.075211 0.047356971 -91.3517
9201875000 -1.0346525 126.23943 -9.2490349 -71.952133 -9.2249632 -73.016388 0.048589524 -91.308876
9201937500 -1.0378039 126.21477 -9.2549105 -72.011604 -9.2231569 -73.046921 0.04655448 -91.316689
9202000000 -1.0353388 126.21423 -9.2461786 -72.010506 -9.2294598 -73.07299 0.048633136 -91.296425
9202062500 -1.0395857 126.20456 -9.2600431 -72.015015 -9.2307081 -72.984467 0.04649239 -91.257629
9202125000 -1.0338941 126.17646 -9.2419024 -72.040993 -9.2313614 -73.008087 0.048778847 -91.223373
9202187500 -1.0347633 126.19337 -9.2504005 -71.936462 -9.2239571 -73.039185 0.048680082 -91.202866
9202250000 -1.0362555 126.16844 -9.2476377 -71.976128 -9.2327871 -73.040787 0.042234749 -91.225319
9202312500 -1.0330044 126.17594 -9.2540197 -71.969185 -9.2337809 -73.066711 0.044974033 -91.211006
9202375000 -1.0382205 126.16213 -9.2549219 -71.920975 -9.2291489 -73.049484 0.041240983 -91.160957
9202437500 -1.0420762 126.14625 -9.2469511 -71.932472 -9.2351732 -73.054977 0.045284025 -91.16909
9202500000 -1.0421991 126.10632 -9.2436628 -72.001442 -9.2234945 -73.046082 0.047167655 -91.163589
9202562500 -1.0375552 126.13445 -9.2452526 -71.937103 -9.2310152 -73.030594 0.039628241 -91.116661
9202625000 -1.0385975 126.07413 -9.2492981 -71.962959 -9.2259007 -73.022743 0.045576211 -91.125183
9202687500 -1.0372517 126.08537 -9.2391901 -72.010132 -9.2273941 -73.063232 0.047723897 -91.099266
9202750000 -1.038576 126.06584 -9.2357473 -71.94017 -9.231286 -73.014915 0.048826501 -91.09771
9202812500 -1.0390418 126.10004 -9.2379475 -71.9907 -9.2320614 -73.038162 0.041064214 -91.096954
9202875000 -1.0389142 126.08114 -9.2479181 -71.980797 -9.2249689 -72.973801 0.049274798 -91.018387
9202937500 -1.0390607 126.05138 -9.2352238 -71.983215 -9.2238817 -73.065727 0.047370173 -91.067131
9203000000 -1.0368915 126.03524 -9.2406788 -71.980484 -9.2276783 -73.018578 0.043409087 -91.051727
9203062500 -1.0337446 126.08025 -9.237731 -71.910553 -9.2356873 -73.038086 0.040860776 -91.022186
9203125000 -1.040494 126.0351 -9.2454157 -71.943245 -9.2262392 -72.927704 0.048996743 -90.950783
9203187500 -1.0358609 126.02352 -9.2357626 -71.960121 -9.225297 -72.962746 0.04809773 -90.994408
9203250000 -1.0376011 126.00634 -9.2306795 -71.926727 -9.2256832 -72.944626 0.044146001 -90.968941
9203312500 -1.0344546 125.9869 -9.2239923 -71.953194 -9.2256565 -72.976311 0.047768861 -90.919868
9203375000 -1.0343492 125.98345 -9.2240267 -71.884834 -9.2203836 -73.010155 0.044687994 -90.93
9203437500 -1.0372131 125.96878 -9.2332602 -71.869881 -9.211915 -73.009918 0.051169954 -90.90107
9203500000 -1.0326588 125.93694 -9.2167559 -71.896255 -9.2300253 -72.97197 0.039620999 -90.863655
9203562500 -1.0353104 125.94765 -9.2334738 -71.896835 -9.2206202 -72.960167 0.042585697 -90.835922
9203625000 -1.032199 125.94173 -9.2265835 -71.906731 -9.2171297 -72.988747 0.041513 -90.888809
9203687500 -1.0349879 125.97553 -9.2395191 -71.901474 -9.2107248 -73.056091 0.041933596 -90.858543
9203750000 -1.0302922 125.92433 -9.2333822 -71.920563 -9.2037191 -73.068878 0.04101767 -90.894234
9203812500 -1.0324469 125.91584 -9.231081 -71.957382 -9.2171965 -72.992783 0.043187615 -90.848015
9203875000 -1.0335253 125.91277 -9.2330227 -71.936562 -9.2056303 -73.017067 0.0416575 -90.853584
9203937500 -1.0319258 125.89075 -9.2341089 -71.944023 -9.2122221 -72.996284 0.040411059 -90.839157
9204000000 -1.0289903 125.8726 -9.2359629 -71.909302 -9.2161846 -72.94841 0.038073841 -90.772324
9204062500 -1.0302311 125.83983 -9.2364388 -71.946205 -9.219696 -73.056343 0.029423449 -90.802498
9204125000 -1.0307775 125.87537 -9.2294054 -71.856117 -9.2185268 -72.991928 0.034128554 -90.735207
9204187500 -1.0312095 125.81959 -9.2355442 -71.882492 -9.2169037 -72.912308 0.029796533 -90.694931
9204250000 -1.0296192 125.80434 -9.2286205 -71.844612 -9.21453 -72.855644 0.033556361 -90.642555
9204312500 -1.0327005 125.789 -9.2205887 -71.881493 -9.2118492 -72.906296 0.037555274 -90.635628
9204375000 -1.0332102 125.77544 -9.2218552 -71.881523 -9.2037516 -72.89019 0.041706786 -90.586891
9204437500 -1.0363905 125.73709 -9.2231274 -71.927551 -9.2151022 -72.935364 0.034891255 -90.592834
9204500000 -1.0383106 125.70618 -9.2246971 -71.892166 -9.200819 -72.997688 0.044182997 -90.567459
9204562500 -1.0324112 125.67789 -9.2252169 -71.912247 -9.2039728 -72.92807 0.046310846 -90.537621
9204625000 -1.0385062 125.68124 -9.2224321 -71.918549 -9.2057381 -72.956764 0.046766296 -90.538498
9204687500 -1.0321395 125.67686 -9.2181225 -71.879875 -9.2014227 -73.007675 0.047948886 -90.518097
9204750000 -1.0276439 125.6787 -9.2229252 -71.898582 -9.1999617 -72.976135 0.042669814 -90.53083
9204812500 -1.0323756 125.68359 -9.2224483 -71.882988 -9.2046604 -72.89489 0.046061914 -90.477264
9204875000 -1.0223309 125.65867 -9.210557 -71.85038 -9.2015858 -72.94239 0.039780024 -90.46759
9204937500 -1.0226252 125.64766 -9.2143412 -71.881142 -9.2052431 -72.951385 0.036543638 -90.43898
9205000000 -1.0207677 125.64029 -9.2163715 -71.831009 -9.2191086 -72.937126 0.027661821 -90.456978
9205062500 -1.0330653 125.64958 -9.2207794 -71.827393 -9.2045889 -72.981354 0.035426583 -90.457016
9205125000 -1.0357391 125.57605 -9.2104177 -71.904465 -9.2041454 -72.953995 0.0381818 -90.422585
9205187500 -1.0370449 125.59278 -9.2172356 -71.847534 -9.2121582 -72.971916 0.032682844 -90.356194
9205250000 -1.0361398 125.58606 -9.2209787 -71.843903 -9.2051687 -73.010315 0.033649147 -90.383369
9205312500 -1.0435544 125.55291 -9.21492 -71.847397 -9.2032833 -72.973076 0.035669561 -90.35379
9205375000 -1.0405018 125.5378 -9.2094679 -71.88945 -9.2011623 -72.967705 0.035889246 -90.319077
9205437500 -1.0385649 125.51215 -9.2070427 -71.887932 -9.193347 -72.980927 0.041146807 -90.278824
9205500000 -1.0407536 125.50579 -9.2135611 -71.890907 -9.1939192 -73.000175 0.039448585 -90.309662
9205562500 -1.0394011 125.49959 -9.2030315 -71.910759 -9.1934299 -72.941299 0.042929832 -90.267899
9205625000 -1.0341237 125.48771 -9.210042 -71.860672 -9.194869 -72.954727 0.044662338 -90.250862
9205687500 -1.03381 125.49718 -9.214859 -71.870415 -9.1962786 -72.962608 0.037446611 -90.272148
9205750000 -1.0309078 125.49918 -9.2055216 -71.847588 -9.1905384 -72.955284 0.041356858 -90.244316
9205812500 -1.0322113 125.46321 -9.2035742 -71.872437 -9.1901846 -72.964142 0.039520439 -90.249321
9205875000 -1.0318588 125.44137 -9.2189217 -71.90136 -9.1973906 -72.955101 0.040925816 -90.216843
9205937500 -1.0316979 125.41144 -9.21064 -71.911125 -9.1978416 -72.959984 0.03382995 -90.246284
9206000000 -1.0315002 125.39738 -9.2091637 -71.947083 -9.2006941 -72.995537 0.034667544 -90.266235
9206062500 -1.0301149 125.39192 -9.2166595 -71.859123 -9.2078676 -72.904297 0.032152344 -90.154076
9206125000 -1.031032 125.35071 -9.2149744 -71.888603 -9.1979637 -72.804108 0.03774073 -90.128906
9206187500 -1.0333301 125.35107 -9.2104292 -71.820862 -9.1903896 -72.885162 0.040132545 -90.135757
9206250000 -1.0347255 125.37139 -9.2088633 -71.833115 -9.1933184 -72.930199 0.03653872 -90.151581
9206312500 -1.0304669 125.34743 -9.2034168 -71.862099 -9.1965332 -72.875992 0.04084307 -90.142509
9206375000 -1.0342463 125.31912 -9.2017794 -71.884056 -9.1947241 -72.857895 0.037835874 -90.132751
9206437500 -1.0371335 125.31708 -9.205492 -71.860275 -9.1944532 -72.806625 0.033492904 -90.07402
9206500000 -1.0303094 125.30241 -9.199379 -71.860588 -9.1918306 -72.856979 0.044606172 -90.105507
9206562500 -1.0292125 125.27555 -9.2036552 -71.821342 -9.1949463 -72.757629 0.037895083 -89.993988
9206625000 -1.0350785 125.26876 -9.2056284 -71.834007 -9.1959257 -72.823433 0.031818386 -90.036736
9206687500 -1.029526 125.24836 -9.194953 -71.903107 -9.183898 -72.861534 0.035978775 -89.981552
9206750000 -1.0307076 125.23565 -9.2026014 -71.858833 -9.1866045 -72.881767 0.034637976 -89.949631
9206812500 -1.0296615 125.25589 -9.2099018 -71.830177 -9.1958609 -72.872246 0.030861542 -89.924576
9206875000 -1.0309038 125.23483 -9.2038221 -71.759598 -9.1892939 -72.889931 0.035922941 -89.935783
9206937500 -1.0320605 125.22098 -9.1970387 -71.784523 -9.1845264 -72.85334 0.036442097 -89.922165
9207000000 -1.034765 125.19492 -9.2050362 -71.820305 -9.1858873 -72.877762 0.035159692 -89.887833
9207062500 -1.0350732 125.15614 -9.1967268 -71.847702 -9.1913815 -72.911499 0.04084048 -89.870415
9207125000 -1.0356065 125.17507 -9.1885529 -71.805946 -9.1852026 -72.905289 0.040003806 -89.861137
9207187500 -1.0372314 125.14443 -9.2028437 -71.831421 -9.1756783 -72.863243 0.046031799 -89.859558
9207250000 -1.0395552 125.15569 -9.1984549 -71.840919 -9.1881504 -72.888382 0.038047116 -89.867538
9207312500 -1.0365031 125.10201 -9.1999683 -71.868752 -9.1799736 -72.924484 0.039802149 -89.86879
9207375000 -1.0330516 125.118 -9.1916151 -71.837967 -9.1797457 -72.967651 0.040958643 -89.825226
9207437500 -1.0356624 125.10928 -9.1974773 -71.841911 -9.1826792 -72.8666 0.03198576 -89.794853
9207500000 -1.0344419 125.07239 -9.1990347 -71.816452 -9.174901 -72.918976 0.038463105 -89.808548
9207562500 -1.029687 125.07268 -9.1870384 -71.848282 -9.1830215 -72.904007 0.041916635 -89.782303
9207625000 -1.0365344 125.06478 -9.1909904 -71.803604 -9.1815901 -72.897491 0.038533635 -89.741943
9207687500 -1.0334275 125.03252 -9.1925907 -71.869057 -9.1863594 -72.8964 0.03005578 -89.724411
9207750000 -1.0321689 125.02296 -9.2003202 -71.819099 -9.1824341 -72.856651 0.029911762 -89.733864
9207812500 -1.0318912 125.01956 -9.1984081 -71.873695 -9.1883564 -72.90715 0.022979524 -89.703773
9207875000 -1.0327901 125.00518 -9.1919498 -71.796104 -9.1867342 -72.88121 0.032285694 -89.636223
9207937500 -1.0338964 125.03302 -9.1979847 -71.843376 -9.1822767 -72.91732 0.027651187 -89.662086
9208000000 -1.0292557 125.01112 -9.1836615 -71.862717 -9.1862125 -72.871811 0.027329747 -89.64019
9208062500 -1.0306242 124.96636 -9.2013788 -71.886665 -9.1861925 -72.915688 0.030684624 -89.621361
9208125000 -1.0269829 124.98188 -9.1811008 -71.797073 -9.1901121 -72.898186 0.023808127 -89.595314
9208187500 -1.0356833 124.96875 -9.1931705 -71.82328 -9.1912937 -72.874115 0.026066029 -89.565697
9208250000 -1.0324646 124.95023 -9.1905746 -71.777405 -9.1815567 -72.911476 0.017761435 -89.553627
9208312500 -1.0338615 124.92718 -9.1842079 -71.800575 -9.1727448 -72.900177 0.031708315 -89.549683
9208375000 -1.0392262 124.90676 -9.1867876 -71.764694 -9.1809816 -72.888016 0.028729223 -89.496574
9208437500 -1.0318161 124.9348 -9.1815004 -71.727791 -9.1809568 -72.934464 0.029375715 -89.524109
9208500000 -1.0410562 124.92123 -9.1880884 -71.748947 -9.1932487 -72.855873 0.022194142 -89.517715
9208562500 -1.0319422 124.89595 -9.184968 -71.773865 -9.1835203 -72.887283 0.030508442 -89.470802
9208625000 -1.036375 124.86501 -9.1779785 -71.733673 -9.1854992 -72.867546 0.023797322 -89.455132
9208687500 -1.0344068 124.8712 -9.1846886 -71.792671 -9.1893387 -72.83062 0.023691704 -89.443985
9208750000 -1.0368078 124.83557 -9.1763649 -71.7416 -9.1840763 -72.839294 0.032523721 -89.430145
9208812500 -1.0368414 124.85179 -9.185256 -71.757896 -9.1818495 -72.803986 0.027958186 -89.382469
9208875000 -1.0323615 124.83164 -9.1835375 -71.772575 -9.1761827 -72.812019 0.034774903 -89.374413
9208937500 -1.0300022 124.81744 -9.1826334 -71.763741 -9.1805458 -72.814087 0.027670972 -89.35482
9209000000 -1.0355031 124.81184 -9.1804628 -71.728104 -9.1716347 -72.827072 0.031931654 -89.343597
9209062500 -1.0311865 124.80491 -9.1800365 -71.744331 -9.179039 -72.790543 0.031470489 -89.319092
9209125000 -1.0335006 124.78757 -9.1866751 -71.735397 -9.1684885 -72.783859 0.029960036 -89.239449
9209187500 -1.0311277 124.79396 -9.1886196 -71.745605 -9.1685581 -72.835861 0.027008647 -89.285736
9209250000 -1.0300299 124.75096 -9.188386 -71.758743 -9.1745396 -72.823441 0.01769047 -89.25351
9209312500 -1.0304445 124.72539 -9.1898756 -71.763855 -9.1734514 -72.759933 0.021351065 -89.213303
9209375000 -1.0267888 124.68312 -9.180069 -71.721764 -9.1649904 -72.816254 0.020967487 -89.174706
9209437500 -1.0290387 124.66803 -9.1822376 -71.719795 -9.167367 -72.863174 0.016792532 -89.17395
9209500000 -1.0228602 124.60947 -9.1740379 -71.800858 -9.1590204 -72.725662 0.024256716 -89.11554
9209562500 -1.0262865 124.63542 -9.1753254 -71.798508 -9.1661873 -72.799026 0.018359205 -89.12574
9209625000 -1.0297852 124.6153 -9.1824493 -71.789978 -9.1550798 -72.781029 0.018789921 -89.141602
9209687500 -1.0317504 124.60252 -9.1700048 -71.762367 -9.1620541 -72.859245 0.028768444 -89.147377
9209750000 -1.0328583 124.60369 -9.1827202 -71.779396 -9.1703606 -72.920807 0.020306701 -89.152122
9209812500 -1.0312995 124.56693 -9.172657 -71.736916 -9.1603212 -72.838257 0.021690816 -89.131729
9209875000 -1.0391526 124.54148 -9.1722136 -71.772217 -9.161211 -72.791206 0.027053824 -89.078362
9209937500 -1.0324093 124.56384 -9.1682301 -71.750061 -9.1574306 -72.82766 0.031370521 -89.062241
9210000000 -1.0338668 124.55768 -9.1776266 -71.785812 -9.157094 -72.900764 0.029246796 -89.100853
9210062500 -1.0373265 124.56068 -9.1880226 -71.720901 -9.1541891 -72.913773 0.028485596 -89.109352
9210125000 -1.0346304 124.50766 -9.1747694 -71.739861 -9.1529093 -72.855064 0.027268967 -89.056854
9210187500 -1.0332522 124.4777 -9.1772747 -71.740562 -9.1574898 -72.828232 0.021917792 -89.050255
9210250000 -1.0304242 124.44682 -9.1764574 -71.817535 -9.1582928 -72.800629 0.024377735 -89.012871
9210312500 -1.0313418 124.47296 -9.1800127 -71.720604 -9.1601791 -72.818619 0.016981132 -89.018982
9210375000 -1.0320859 124.44917 -9.1688757 -71.712639 -9.1519461 -72.778954 0.027349718 -88.978149
9210437500 -1.027506 124.46797 -9.1715345 -71.737923 -9.1536608 -72.748138 0.024287494 -88.944977
9210500000 -1.0286533 124.47214 -9.1690731 -71.727188 -9.1601486 -72.789948 0.021536205 -88.964287
9210562500 -1.0339024 124.4811 -9.1730652 -71.702164 -9.1563635 -72.771172 0.015764736 -88.962776
9210625000 -1.0306433 124.4426 -9.1735592 -71.70237 -9.1531096 -72.671188 0.024430254 -88.872993
9210687500 -1.0282421 124.45038 -9.1728859 -71.740013 -9.1487255 -72.722343 0.01660895 -88.883095
9210750000 -1.0274724 124.39833 -9.1606007 -71.696083 -9.1508837 -72.706429 0.014945664 -88.807312
9210812500 -1.0318923 124.39862 -9.1732483 -71.766418 -9.1483965 -72.734215 0.015330693 -88.842407
9210875000 -1.0312911 124.38262 -9.1633759 -71.638908 -9.1611214 -72.716049 0.013531642 -88.820343
9210937500 -1.027662 124.38753 -9.1696091 -71.643517 -9.1551466 -72.690277 0.012682067 -88.763268
9211000000 -1.0311317 124.33089 -9.1659155 -71.662895 -9.1516476 -72.7509 0.010434939 -88.756523
9211062500 -1.0323081 124.30692 -9.1627331 -71.727989 -9.1593771 -72.712578 0.0092575112 -88.728592
9211125000 -1.0303918 124.29826 -9.161994 -71.739548 -9.1529856 -72.668655 0.014449485 -88.676231
9211187500 -1.0375675 124.31355 -9.1677694 -71.703194 -9.1631174 -72.703857 0.0073877671 -88.697609
9211250000 -1.0334752 124.26814 -9.1607332 -71.671631 -9.1621122 -72.722046 0.0087779192 -88.675148
9211312500 -1.0326841 124.27367 -9.1692448 -71.701172 -9.1557608 -72.676765 0.011186245 -88.656113
9211375000 -1.0317078 124.25965 -9.163763 -71.676895 -9.1637907 -72.722023 0.012716617 -88.644356
9211437500 -1.0306603 124.21249 -9.1569328 -71.669701 -9.1578465 -72.683502 0.012570581 -88.618996
9211500000 -1.0343177 124.20893 -9.1544571 -71.729843 -9.1577435 -72.67189 0.016101621 -88.621025
9211562500 -1.0367056 124.21304 -9.1623507 -71.67865 -9.1506729 -72.774002 0.013465983 -88.636711
9211625000 -1.0342646 124.20053 -9.1605644 -71.697342 -9.1570435 -72.729416 0.016889859 -88.610733
9211687500 -1.0355771 124.20504 -9.1632519 -71.620712 -9.1528234 -72.764038 0.01965257 -88.604279
9211750000 -1.0330215 124.18661 -9.1553059 -71.692932 -9.1425142 -72.781006 0.02599184 -88.632637
9211812500 -1.0288218 124.1669 -9.1568518 -71.689171 -9.1588717 -72.713699 0.017607361 -88.560707
9211875000 -1.0260178 124.1273 -9.1555672 -71.688942 -9.1436453 -72.74823 0.024619551 -88.594864
9211937500 -1.0240812 124.08871 -9.1558952 -71.678284 -9.1470623 -72.741257 0.026069088 -88.583084
9212000000 -1.0233078 124.08679 -9.1470537 -71.673462 -9.151145 -72.773552 0.021647612 -88.581322
9212062500 -1.0190765 124.10549 -9.1464548 -71.64003 -9.1564856 -72.763321 0.016437922 -88.522476
9212125000 -1.0239631 124.06434 -9.1528273 -71.600967 -9.1421518 -72.698013 0.017863188 -88.452812
9212187500 -1.0264587 124.04974 -9.1535177 -71.650963 -9.1422634 -72.7089 0.021456117 -88.47274
9212250000 -1.0243136 124.01115 -9.149621 -71.635117 -9.1392965 -72.706245 0.014887728 -88.469826
9212312500 -1.0254632 124.00723 -9.1591196 -71.684166 -9.1462517 -72.646851 0.011723122 -88.395729
