!Agilent Technologies,N5242A,MY51221714,A.09.90.19
!Agilent N5242A: A.09.90.19
!Date: Friday, February 02, 2024 13:09:48
!Correction: S11(Full 2 Port(1,2)) 
!S21(Full 2 Port(1,2)) 
!S12(Full 2 Port(1,2)) 
!S22(Full 2 Port(1,2)) 
!S2P File: Measurements: S11, S21, S12, S22:
# Hz S  dB   R 50
9200000000 -1.0286984 126.32103 -9.2823296 -71.953896 -9.2552395 -73.114609 0.078768365 -91.523262
9200062500 -1.0300843 126.34595 -9.2802982 -71.989624 -9.2510052 -73.127502 0.073505633 -91.506477
9200125000 -1.02555 126.35159 -9.2753639 -71.935486 -9.2542467 -73.159386 0.072774068 -91.473061
9200187500 -1.0280725 126.35204 -9.281949 -71.922989 -9.256258 -73.196724 0.070389532 -91.490303
9200250000 -1.031424 126.28356 -9.2840939 -71.999741 -9.2609119 -73.169197 0.073442481 -91.454445
9200312500 -1.0333459 126.25685 -9.2821836 -71.970848 -9.2689075 -73.18634 0.06490498 -91.416405
9200375000 -1.0269248 126.2362 -9.273571 -72.010414 -9.2574129 -73.178337 0.072997458 -91.461823
9200437500 -1.0354207 126.22721 -9.2837086 -71.999298 -9.2594881 -73.217133 0.070797056 -91.440941
9200500000 -1.031159 126.19545 -9.2800303 -72.00856 -9.2575207 -73.150856 0.068706021 -91.359375
9200562500 -1.0274274 126.1796 -9.2786064 -72.059326 -9.2619848 -73.174347 0.061051957 -91.361542
9200625000 -1.0317649 126.22833 -9.270647 -71.990982 -9.2560015 -73.223717 0.072256379 -91.377472
9200687500 -1.0301642 126.18439 -9.2764578 -72.014084 -9.2488546 -73.183273 0.078778759 -91.355141
9200750000 -1.0314953 126.20697 -9.2762814 -71.989151 -9.2469311 -73.122749 0.080884747 -91.281349
9200812500 -1.0288516 126.19806 -9.278614 -71.970863 -9.2522745 -73.218651 0.076409742 -91.330055
9200875000 -1.0343708 126.19474 -9.2769909 -72.051384 -9.2572422 -73.164444 0.080697104 -91.299713
9200937500 -1.0339904 126.18098 -9.2665205 -72.032249 -9.2468433 -73.179497 0.080722548 -91.298157
9201000000 -1.030229 126.15168 -9.2679348 -72.011017 -9.2513466 -73.208786 0.083889708 -91.293701
9201062500 -1.0324829 126.11587 -9.2713041 -72.032394 -9.2536726 -73.194496 0.076990902 -91.283173
9201125000 -1.03253 126.11794 -9.2727861 -72.004089 -9.2625446 -73.165718 0.077934712 -91.292946
9201187500 -1.0349298 126.06229 -9.2619267 -72.06208 -9.2578506 -73.147835 0.075161889 -91.277565
9201250000 -1.0346134 126.02396 -9.2761555 -72.032249 -9.2496424 -73.171608 0.077188276 -91.295891
9201312500 -1.0357641 126.00137 -9.2745399 -72.045403 -9.2561522 -73.188934 0.066959389 -91.253059
9201375000 -1.0325986 125.97868 -9.2658396 -72.026695 -9.2579346 -73.126434 0.07387761 -91.238167
9201437500 -1.0331379 125.95492 -9.2698679 -71.977135 -9.2528591 -73.12011 0.073341809 -91.206825
9201500000 -1.0402907 125.95104 -9.2719412 -72.042282 -9.2479172 -73.150208 0.075434394 -91.188316
9201562500 -1.0380969 125.95354 -9.2744761 -72.071083 -9.2485666 -73.140022 0.068978503 -91.164345
9201625000 -1.0431228 125.93219 -9.270443 -72.06002 -9.2488813 -73.122604 0.066842429 -91.116776
9201687500 -1.035532 125.93943 -9.2723436 -71.965408 -9.2504568 -73.143784 0.070813611 -91.096794
9201750000 -1.0358239 125.90581 -9.2650166 -72.006271 -9.2484875 -73.131828 0.068513237 -91.117096
9201812500 -1.0360233 125.87183 -9.2655993 -72.01429 -9.2510366 -73.085991 0.060998324 -91.031876
9201875000 -1.0382303 125.86699 -9.2710695 -71.996658 -9.2474089 -73.105438 0.05924229 -91.045921
9201937500 -1.0364352 125.87286 -9.2720737 -71.97924 -9.2453718 -73.083145 0.062507078 -90.987724
9202000000 -1.0365934 125.88533 -9.264348 -71.947151 -9.2429533 -73.066124 0.063276403 -90.966766
9202062500 -1.0355911 125.87157 -9.2614927 -71.93782 -9.2468824 -73.100578 0.065294839 -90.990021
9202125000 -1.0325848 125.83668 -9.2625999 -71.968163 -9.248497 -73.137032 0.065425701 -90.977112
9202187500 -1.0293491 125.83848 -9.2588625 -71.935051 -9.2540407 -73.100822 0.062065776 -90.920021
9202250000 -1.0299516 125.81342 -9.2711897 -71.968559 -9.2376204 -73.102531 0.065586157 -90.941528
9202312500 -1.0343564 125.79481 -9.2591429 -71.905357 -9.2371387 -73.156876 0.073604189 -90.933182
9202375000 -1.0317175 125.7862 -9.2567844 -71.952568 -9.2456284 -73.085167 0.065763369 -90.885147
9202437500 -1.0365143 125.76266 -9.2642117 -71.978905 -9.2388773 -73.148277 0.059090182 -90.86718
9202500000 -1.0368003 125.77386 -9.2618475 -72.020081 -9.2404299 -73.095818 0.060715176 -90.848167
9202562500 -1.0368177 125.75227 -9.252676 -71.916992 -9.2408609 -73.093872 0.064465649 -90.831474
9202625000 -1.0396262 125.73471 -9.2603884 -72.022484 -9.2414799 -73.066772 0.062842503 -90.802002
9202687500 -1.0412353 125.73269 -9.2556648 -71.902023 -9.2312975 -73.013863 0.069171548 -90.785103
9202750000 -1.0367843 125.72168 -9.2588186 -71.962059 -9.2491446 -73.032349 0.058207709 -90.780373
9202812500 -1.0375918 125.72903 -9.2536306 -71.939903 -9.2387161 -73.085281 0.067119673 -90.775612
9202875000 -1.0320232 125.72182 -9.256856 -71.926285 -9.2446547 -73.025688 0.064737104 -90.736908
9202937500 -1.037867 125.72434 -9.2564325 -71.986786 -9.2363071 -73.040237 0.069001503 -90.727859
9203000000 -1.0304013 125.70547 -9.2481108 -71.963745 -9.234642 -73.055977 0.064978607 -90.717125
9203062500 -1.0334876 125.74461 -9.2578859 -71.932899 -9.2377138 -73.066574 0.068306699 -90.725571
9203125000 -1.0327214 125.69734 -9.2456226 -71.926765 -9.2423487 -73.03775 0.064930625 -90.703079
9203187500 -1.0316291 125.66334 -9.2491903 -71.954033 -9.2373333 -73.027069 0.065184951 -90.63298
9203250000 -1.0344795 125.66477 -9.2465343 -71.898331 -9.2321758 -73.069946 0.064931221 -90.621292
9203312500 -1.0324398 125.65705 -9.2376661 -71.864532 -9.2347431 -73.084229 0.071556509 -90.640137
9203375000 -1.0325307 125.63252 -9.236908 -71.885201 -9.2376099 -73.038101 0.064403869 -90.589806
9203437500 -1.0312855 125.62729 -9.2383451 -71.945854 -9.2320585 -73.056824 0.065239556 -90.610573
9203500000 -1.0335943 125.59377 -9.2408581 -71.892654 -9.2312145 -73.065994 0.061861437 -90.562698
9203562500 -1.0332445 125.57861 -9.2489567 -71.932251 -9.2270298 -73.083206 0.067030154 -90.528351
9203625000 -1.0229341 125.54552 -9.2328653 -71.991379 -9.2303925 -73.051277 0.064735688 -90.550171
9203687500 -1.0296929 125.56375 -9.2437744 -71.902901 -9.2194271 -73.059296 0.065382615 -90.558891
9203750000 -1.0238438 125.58395 -9.2433739 -71.920692 -9.2165747 -73.096893 0.069973871 -90.537346
9203812500 -1.029474 125.60871 -9.2527294 -71.908272 -9.2341127 -73.04567 0.058937255 -90.547523
9203875000 -1.0236404 125.52123 -9.2335615 -71.946991 -9.221982 -73.10054 0.064446434 -90.51635
9203937500 -1.0222152 125.5524 -9.2447643 -71.900627 -9.2218752 -73.112015 0.061214879 -90.555168
9204000000 -1.0237943 125.52352 -9.2422562 -71.931465 -9.2215261 -73.057198 0.058290653 -90.483688
9204062500 -1.0254189 125.50063 -9.2430305 -71.927284 -9.2328415 -72.976471 0.051637128 -90.455223
9204125000 -1.027095 125.491 -9.2367334 -71.906494 -9.2252913 -72.990288 0.051008634 -90.447838
9204187500 -1.024615 125.46931 -9.2345047 -71.890556 -9.2297049 -72.995995 0.052300852 -90.414825
9204250000 -1.025414 125.50121 -9.2319069 -71.85173 -9.2274656 -72.976273 0.05506188 -90.382637
9204312500 -1.0229355 125.45786 -9.2404184 -71.843666 -9.2205191 -72.92778 0.059647083 -90.352509
9204375000 -1.0274851 125.41026 -9.2355442 -71.864456 -9.225421 -72.974503 0.054930616 -90.296021
9204437500 -1.0345181 125.41726 -9.2373734 -71.854134 -9.2224493 -73.060287 0.054201707 -90.312157
9204500000 -1.0338959 125.36046 -9.2338848 -71.87352 -9.2152958 -73.015045 0.063615061 -90.252907
9204562500 -1.030609 125.36362 -9.2331047 -71.895866 -9.2141924 -73.039467 0.06068762 -90.239449
9204625000 -1.0322475 125.31265 -9.237834 -71.89547 -9.2215748 -72.983833 0.066404581 -90.215164
9204687500 -1.0300815 125.31332 -9.2342653 -71.895844 -9.2119255 -73.013428 0.06113654 -90.223679
9204750000 -1.0245833 125.3157 -9.2392769 -71.852829 -9.2226124 -73.008316 0.050928567 -90.182861
9204812500 -1.021857 125.30604 -9.2314157 -71.863449 -9.2176695 -73.003067 0.060936168 -90.185966
9204875000 -1.0254548 125.2896 -9.231205 -71.852211 -9.2122068 -72.969963 0.054521576 -90.181038
9204937500 -1.0223441 125.2791 -9.2280264 -71.857903 -9.2265596 -72.998497 0.051423222 -90.143646
9205000000 -1.0235324 125.27656 -9.2326164 -71.875504 -9.221036 -73.020256 0.053023059 -90.141998
9205062500 -1.027209 125.2887 -9.2392883 -71.844002 -9.21875 -72.989975 0.056788284 -90.097939
9205125000 -1.0267477 125.24812 -9.2292109 -71.877792 -9.2182131 -73.065407 0.050456256 -90.163033
9205187500 -1.0326664 125.23805 -9.2247372 -71.881607 -9.2197189 -72.979401 0.055436492 -90.070267
9205250000 -1.0326871 125.22153 -9.224762 -71.853226 -9.218091 -73.01429 0.053890999 -90.04258
9205312500 -1.0354524 125.20852 -9.2259541 -71.846916 -9.2161398 -73.013687 0.052717499 -90.039635
9205375000 -1.0379865 125.19641 -9.2173891 -71.886223 -9.2114878 -72.983467 0.059187353 -89.953217
9205437500 -1.0353861 125.20657 -9.2219753 -71.883881 -9.2066956 -73.05098 0.055721141 -90.004112
9205500000 -1.0290947 125.147 -9.218277 -71.877968 -9.2171154 -73.05497 0.053264044 -90.02906
9205562500 -1.0308464 125.15318 -9.2194424 -71.851852 -9.2035093 -73.00927 0.062152017 -89.992065
9205625000 -1.0305479 125.14244 -9.2180481 -71.903473 -9.2092342 -73.067032 0.051035404 -90.024323
9205687500 -1.0278193 125.14272 -9.2200956 -71.896599 -9.202075 -73.037506 0.058643021 -89.947571
9205750000 -1.0327932 125.12153 -9.2266636 -71.838554 -9.2107124 -72.994034 0.060437959 -89.937889
9205812500 -1.0299221 125.10926 -9.2227077 -71.864571 -9.2040224 -72.975456 0.063479431 -89.91938
9205875000 -1.0288235 125.10446 -9.2318316 -71.863289 -9.2125158 -72.956757 0.055596545 -89.899773
9205937500 -1.0234861 125.03955 -9.2296057 -71.854935 -9.2114172 -73.023094 0.053383462 -89.915741
9206000000 -1.0245918 125.03026 -9.2296066 -71.873466 -9.2036982 -72.944649 0.054968826 -89.863922
9206062500 -1.0253096 125.03795 -9.221384 -71.873779 -9.2029142 -72.986626 0.053049784 -89.899864
9206125000 -1.0253228 125.02219 -9.2332926 -71.864311 -9.213418 -72.963036 0.054513369 -89.887886
9206187500 -1.0299182 125.0006 -9.2236023 -71.869308 -9.2030239 -72.963638 0.056343079 -89.893593
9206250000 -1.028687 124.98242 -9.2231121 -71.880836 -9.2025633 -72.927444 0.061684743 -89.803726
9206312500 -1.0338067 124.98237 -9.2241745 -71.847115 -9.2038612 -72.846359 0.05831543 -89.798897
9206375000 -1.0298891 124.94058 -9.2219219 -71.890182 -9.2096786 -72.909561 0.056094252 -89.773987
9206437500 -1.0250965 124.96503 -9.2189655 -71.873184 -9.2103348 -72.870232 0.056166906 -89.790741
9206500000 -1.0303887 124.93559 -9.216011 -71.83857 -9.2030344 -72.927216 0.058767926 -89.787689
9206562500 -1.0279944 124.91254 -9.2202177 -71.851128 -9.2077875 -72.885902 0.051073156 -89.73037
9206625000 -1.0277542 124.91785 -9.2160311 -71.828354 -9.2038317 -72.875748 0.054961093 -89.679237
9206687500 -1.0263594 124.91817 -9.2106752 -71.790184 -9.2031145 -72.902779 0.056329634 -89.682678
9206750000 -1.0280509 124.89545 -9.2105408 -71.815559 -9.1917334 -72.959389 0.056199394 -89.665497
9206812500 -1.0254419 124.86666 -9.212122 -71.838615 -9.2054663 -72.924606 0.048598029 -89.651253
9206875000 -1.032164 124.86282 -9.215353 -71.741554 -9.1962509 -72.943207 0.052212644 -89.617065
9206937500 -1.0271811 124.85445 -9.2066193 -71.80217 -9.2042284 -72.929802 0.05347142 -89.572807
9207000000 -1.0321268 124.83325 -9.2091293 -71.785393 -9.19734 -72.945656 0.058475923 -89.559967
9207062500 -1.0332106 124.79081 -9.213562 -71.790848 -9.1979046 -72.963165 0.054015923 -89.616859
9207125000 -1.0284427 124.82033 -9.2095642 -71.789787 -9.1999273 -72.957809 0.058550242 -89.561508
9207187500 -1.0334344 124.79672 -9.2170229 -71.842506 -9.1933537 -72.968903 0.061683502 -89.569603
9207250000 -1.0296915 124.76118 -9.2144547 -71.825676 -9.1974297 -72.946144 0.056576759 -89.565559
9207312500 -1.0327238 124.76872 -9.2035437 -71.816437 -9.1947737 -72.90918 0.061089747 -89.49675
9207375000 -1.0304363 124.6944 -9.2081852 -71.84005 -9.1925297 -72.928139 0.059888914 -89.526833
9207437500 -1.0284767 124.73353 -9.2108183 -71.870049 -9.1950674 -72.96962 0.052158132 -89.517265
9207500000 -1.0258639 124.70441 -9.201046 -71.832954 -9.1904364 -72.92717 0.05448471 -89.46769
9207562500 -1.0321326 124.6986 -9.2132759 -71.78196 -9.1923018 -72.932854 0.052833904 -89.456207
9207625000 -1.0262258 124.70992 -9.2058191 -71.853882 -9.1925097 -72.920547 0.053320806 -89.441322
9207687500 -1.0294178 124.68356 -9.2002535 -71.857758 -9.1923857 -72.911774 0.05571368 -89.410561
9207750000 -1.025606 124.66637 -9.2031479 -71.863998 -9.1930342 -72.939995 0.053633742 -89.417412
9207812500 -1.0305033 124.68172 -9.2075615 -71.803688 -9.1970501 -72.901276 0.050790895 -89.389343
9207875000 -1.0281525 124.67359 -9.2138414 -71.752945 -9.1907949 -72.955956 0.047401872 -89.390877
9207937500 -1.0260482 124.66997 -9.2062359 -71.783066 -9.201643 -72.969086 0.041700531 -89.350166
9208000000 -1.0271443 124.64613 -9.2053022 -71.78923 -9.198947 -72.939972 0.045078542 -89.333885
9208062500 -1.0305185 124.60921 -9.2098522 -71.834869 -9.193079 -72.894218 0.048254397 -89.312897
9208125000 -1.0273265 124.6231 -9.2103844 -71.786911 -9.1992722 -72.996162 0.042223524 -89.315437
9208187500 -1.0294296 124.59277 -9.196949 -71.789177 -9.1876745 -72.883095 0.052360494 -89.233017
9208250000 -1.0279888 124.58669 -9.2051258 -71.759399 -9.1946106 -72.862282 0.049012959 -89.209328
9208312500 -1.0279886 124.55636 -9.1933184 -71.74408 -9.1952 -72.936012 0.046391483 -89.208076
9208375000 -1.0302656 124.55486 -9.19491 -71.736946 -9.1900091 -72.892799 0.043907862 -89.215424
9208437500 -1.0283921 124.55335 -9.1872177 -71.756569 -9.19063 -72.917313 0.052473444 -89.218079
9208500000 -1.0274594 124.5313 -9.1964912 -71.693977 -9.1963835 -72.87825 0.046303906 -89.200264
9208562500 -1.0295126 124.54046 -9.1977406 -71.730377 -9.1943407 -72.884346 0.044716783 -89.206467
9208625000 -1.0313314 124.5048 -9.2030039 -71.713234 -9.1903143 -72.916481 0.045503143 -89.164253
9208687500 -1.0261236 124.51585 -9.191308 -71.687935 -9.1962271 -72.881218 0.046192117 -89.176529
9208750000 -1.0306478 124.51159 -9.1962996 -71.758873 -9.1905279 -72.892036 0.051912606 -89.133972
9208812500 -1.0276363 124.47578 -9.1967468 -71.773781 -9.192194 -72.931999 0.048885431 -89.170349
9208875000 -1.0293897 124.46756 -9.1924706 -71.734642 -9.1932821 -72.866745 0.05390336 -89.054886
9208937500 -1.0260402 124.45427 -9.1953335 -71.763824 -9.1844931 -72.879654 0.04835128 -89.079071
9209000000 -1.027873 124.43878 -9.2022581 -71.782928 -9.1892319 -72.863373 0.046834871 -89.027016
9209062500 -1.0292614 124.43195 -9.1926327 -71.716957 -9.1799927 -72.855652 0.054034341 -89.024002
9209125000 -1.0285971 124.41541 -9.1952333 -71.715096 -9.1748285 -72.833519 0.050776232 -88.995003
9209187500 -1.0274734 124.37846 -9.1927462 -71.76252 -9.1770811 -72.815544 0.043572888 -88.934669
9209250000 -1.0194268 124.39014 -9.1873302 -71.701477 -9.1832819 -72.894051 0.039342701 -88.934029
9209312500 -1.020928 124.36544 -9.1906595 -71.773788 -9.172225 -72.858124 0.043723166 -88.91481
9209375000 -1.0212843 124.33503 -9.1886177 -71.665276 -9.1731052 -72.838501 0.042275269 -88.877419
9209437500 -1.0198424 124.32126 -9.1906729 -71.738808 -9.1674967 -72.825363 0.04461446 -88.836868
9209500000 -1.0210918 124.27621 -9.1978264 -71.766754 -9.1724091 -72.847504 0.03917202 -88.842407
9209562500 -1.0269754 124.26714 -9.1875076 -71.731834 -9.1742449 -72.838425 0.038422391 -88.84243
9209625000 -1.0273451 124.24292 -9.1834059 -71.75174 -9.1677189 -72.848412 0.039760049 -88.855827
9209687500 -1.027289 124.25031 -9.1902666 -71.682549 -9.1721935 -72.876076 0.038280476 -88.788048
9209750000 -1.0247108 124.23321 -9.1793203 -71.786781 -9.1716166 -72.858261 0.04406818 -88.791611
9209812500 -1.025084 124.22056 -9.1749954 -71.755516 -9.177124 -72.868294 0.049378786 -88.794075
9209875000 -1.0291681 124.20403 -9.1769552 -71.744125 -9.163353 -72.837555 0.045072183 -88.773888
9209937500 -1.0265185 124.19248 -9.1728821 -71.745201 -9.1713505 -72.875275 0.044245914 -88.810287
9210000000 -1.0332209 124.18474 -9.1820393 -71.776871 -9.1682329 -72.942017 0.043389603 -88.844833
9210062500 -1.0256693 124.17335 -9.1898432 -71.736046 -9.1671543 -72.92601 0.045408178 -88.81881
9210125000 -1.031796 124.16704 -9.1883631 -71.765984 -9.1654205 -72.831009 0.036991011 -88.767784
9210187500 -1.0288544 124.13741 -9.1902676 -71.738907 -9.1784487 -72.925941 0.035470817 -88.767456
9210250000 -1.0277624 124.11286 -9.1925001 -71.814598 -9.1684723 -72.830215 0.037941106 -88.703278
9210312500 -1.0249752 124.07782 -9.1930895 -71.748695 -9.1722193 -72.861252 0.036973581 -88.707253
9210375000 -1.0273597 124.11938 -9.1876478 -71.708031 -9.1677561 -72.838821 0.036292642 -88.707329
9210437500 -1.0238565 124.08795 -9.1791763 -71.697578 -9.1653509 -72.858002 0.041650336 -88.67041
9210500000 -1.0198253 124.09641 -9.1811056 -71.713661 -9.1573343 -72.773163 0.04365655 -88.631569
9210562500 -1.0241003 124.06583 -9.1802845 -71.696739 -9.1631203 -72.745583 0.039224472 -88.572922
9210625000 -1.0253016 124.09327 -9.181159 -71.689552 -9.1654549 -72.739281 0.041301049 -88.590172
9210687500 -1.0247314 124.07577 -9.1847801 -71.636787 -9.1660309 -72.790253 0.038601425 -88.581482
9210750000 -1.0218073 124.07186 -9.1791172 -71.619423 -9.1612606 -72.790382 0.036124025 -88.545181
9210812500 -1.0238363 124.02737 -9.1860952 -71.656548 -9.161046 -72.762741 0.03600014 -88.540123
9210875000 -1.01992 124.03142 -9.1794024 -71.683029 -9.1707869 -72.778885 0.028305262 -88.555069
9210937500 -1.0226065 124.05256 -9.1812773 -71.621429 -9.1595316 -72.723518 0.037456859 -88.454704
9211000000 -1.0264814 123.97135 -9.1681871 -71.656563 -9.1630392 -72.748734 0.030621121 -88.449234
9211062500 -1.0265343 123.96394 -9.1759253 -71.651634 -9.1664276 -72.719208 0.035878304 -88.434013
9211125000 -1.0272802 123.94424 -9.1670094 -71.686821 -9.1668491 -72.734055 0.02891859 -88.419167
9211187500 -1.0245615 123.93574 -9.1634893 -71.632454 -9.1684599 -72.691078 0.030714717 -88.392021
9211250000 -1.025347 123.91165 -9.1722584 -71.704239 -9.1675777 -72.759773 0.032961152 -88.371864
9211312500 -1.0278425 123.90081 -9.1772165 -71.671944 -9.1705017 -72.75975 0.033157956 -88.333588
9211375000 -1.0272427 123.896 -9.166728 -71.59198 -9.1615601 -72.753082 0.030877674 -88.343071
9211437500 -1.0268066 123.85642 -9.1660843 -71.702789 -9.1759043 -72.745064 0.030669475 -88.330574
9211500000 -1.0286649 123.86246 -9.1705494 -71.707527 -9.1636925 -72.77877 0.036008611 -88.360252
9211562500 -1.0232342 123.84586 -9.1648788 -71.63092 -9.1678629 -72.814964 0.0411545 -88.336472
9211625000 -1.0248585 123.8466 -9.1687469 -71.615341 -9.1727943 -72.73896 0.031262938 -88.324059
9211687500 -1.0237411 123.82685 -9.1636429 -71.660355 -9.1606035 -72.793854 0.037562009 -88.344643
9211750000 -1.0266489 123.82875 -9.1706543 -71.622589 -9.1660175 -72.78849 0.036329269 -88.321526
9211812500 -1.0277718 123.83072 -9.1712627 -71.608696 -9.1611414 -72.787819 0.037946079 -88.286263
9211875000 -1.0225983 123.7821 -9.1628571 -71.654549 -9.1561346 -72.750404 0.040962085 -88.270935
9211937500 -1.0203074 123.73724 -9.1613073 -71.680504 -9.1640444 -72.73381 0.042661518 -88.226357
9212000000 -1.0194595 123.7345 -9.1683445 -71.69593 -9.155694 -72.796265 0.035546307 -88.27932
9212062500 -1.0154545 123.71852 -9.1667757 -71.626167 -9.1590109 -72.73587 0.035562664 -88.207451
9212125000 -1.0155874 123.66424 -9.1587505 -71.627098 -9.1523485 -72.765541 0.03574343 -88.165283
9212187500 -1.0166155 123.65316 -9.1563911 -71.606529 -9.1521597 -72.75145 0.036294308 -88.157875
9212250000 -1.0187569 123.64095 -9.1599712 -71.725555 -9.1572027 -72.719406 0.031802788 -88.151649
9212312500 -1.0184863 123.62518 -9.1657219 -71.665306 -9.1531839 -72.750671 0.03216859 -88.158119
