!Agilent Technologies,N5242A,MY51221714,A.09.90.19
!Agilent N5242A: A.09.90.19
!Date: Friday, February 02, 2024 13:10:45
!Correction: S11(Full 2 Port(1,2)) 
!S21(Full 2 Port(1,2)) 
!S12(Full 2 Port(1,2)) 
!S22(Full 2 Port(1,2)) 
!S2P File: Measurements: S11, S21, S12, S22:
# Hz S  dB   R 50
9200000000 -1.0236491 126.30886 -9.2360392 -71.806633 -9.204237 -73.044228 0.072873883 -91.461998
9200062500 -1.0219107 126.30262 -9.2345791 -71.819023 -9.2069473 -73.083565 0.072612993 -91.459877
9200125000 -1.0251026 126.28971 -9.2275581 -71.835831 -9.2130661 -73.034691 0.069568679 -91.46563
9200187500 -1.0237795 126.26987 -9.2474794 -71.852844 -9.206543 -73.093254 0.070980668 -91.444099
9200250000 -1.0274019 126.23328 -9.2427359 -71.910263 -9.2135286 -73.054649 0.066085368 -91.369644
9200312500 -1.0248873 126.19557 -9.2384758 -71.910034 -9.2214308 -73.082489 0.067493044 -91.40258
9200375000 -1.0267006 126.17801 -9.2441139 -71.891884 -9.2121515 -73.040169 0.065208264 -91.362167
9200437500 -1.0307643 126.18079 -9.2434196 -71.914719 -9.2181959 -73.109062 0.065705083 -91.401886
9200500000 -1.0288771 126.14784 -9.2416735 -71.933296 -9.2223921 -73.075096 0.06438078 -91.378067
9200562500 -1.0282575 126.15142 -9.2450933 -71.916344 -9.2150059 -73.101135 0.063370362 -91.373627
9200625000 -1.0247452 126.11642 -9.2283945 -71.983459 -9.2126131 -73.072266 0.070354462 -91.34021
9200687500 -1.0271995 126.15871 -9.2398787 -71.892067 -9.2010679 -73.070564 0.075517029 -91.267471
9200750000 -1.0205904 126.16936 -9.2319689 -71.864105 -9.2100344 -73.066101 0.075192615 -91.273277
9200812500 -1.0231348 126.1423 -9.2296839 -71.810097 -9.2070084 -73.118423 0.072163552 -91.258385
9200875000 -1.0198269 126.1279 -9.2313128 -71.88147 -9.2024565 -73.093178 0.080118537 -91.304832
9200937500 -1.0239254 126.12278 -9.2301397 -71.853874 -9.2044306 -73.113304 0.080848515 -91.311462
9201000000 -1.0286646 126.06244 -9.2258711 -71.871727 -9.2049255 -73.104347 0.078035638 -91.30825
9201062500 -1.030865 126.07742 -9.2313881 -71.84407 -9.2159643 -73.066193 0.069750987 -91.282066
9201125000 -1.0312507 126.04834 -9.2274218 -71.865097 -9.2069883 -73.078995 0.071538195 -91.254738
9201187500 -1.0287598 126.03165 -9.2288504 -71.893982 -9.2155704 -73.092598 0.069184259 -91.28006
9201250000 -1.0278541 125.97966 -9.227973 -71.855835 -9.2074251 -73.074989 0.076726124 -91.265846
9201312500 -1.0299009 125.96611 -9.2285452 -71.934143 -9.2223415 -73.084068 0.060397919 -91.269691
9201375000 -1.0319494 125.91692 -9.2382193 -71.929817 -9.2110062 -73.062599 0.071961835 -91.187813
9201437500 -1.0269973 125.93637 -9.2316284 -71.897766 -9.2155581 -73.097801 0.066935718 -91.208557
9201500000 -1.0296804 125.91882 -9.2267532 -71.895569 -9.2100363 -73.081558 0.063328475 -91.130745
9201562500 -1.0307064 125.85467 -9.2238293 -71.972885 -9.2063627 -73.110168 0.069862232 -91.140137
9201625000 -1.0292665 125.85764 -9.2299623 -71.906609 -9.1975584 -73.07473 0.064698644 -91.131371
9201687500 -1.0316535 125.88834 -9.2290545 -71.864479 -9.2011051 -72.982796 0.067595445 -91.045197
9201750000 -1.0301778 125.81924 -9.2350254 -71.924934 -9.2077427 -73.06636 0.068245269 -91.082932
9201812500 -1.0275851 125.85099 -9.2232885 -71.874611 -9.2011976 -72.969986 0.06565655 -91.019371
9201875000 -1.0323771 125.84921 -9.2189379 -71.905685 -9.1939955 -72.992706 0.062995724 -91.010773
9201937500 -1.0338382 125.83682 -9.2242489 -71.816528 -9.2003555 -72.940468 0.067986265 -90.937202
9202000000 -1.0306084 125.79607 -9.2190533 -71.882767 -9.1958141 -73.013008 0.06287735 -90.96389
9202062500 -1.0307666 125.81076 -9.2222128 -71.857567 -9.2019272 -72.974922 0.056339148 -90.9142
9202125000 -1.0288036 125.75296 -9.2201948 -71.877075 -9.1973181 -73.005562 0.057004504 -90.959717
9202187500 -1.0344948 125.7747 -9.2350121 -71.807755 -9.1958818 -73.018761 0.060775235 -90.89386
9202250000 -1.0297967 125.72455 -9.2169762 -71.885742 -9.1942511 -73.031174 0.061897565 -90.896233
9202312500 -1.0281115 125.76476 -9.2183704 -71.822906 -9.19839 -73.077354 0.064322039 -90.896355
9202375000 -1.0291063 125.75318 -9.211483 -71.852821 -9.2048311 -73.043236 0.057879455 -90.89016
9202437500 -1.0287279 125.71764 -9.2210321 -71.81218 -9.2005014 -72.981117 0.06215585 -90.78344
9202500000 -1.0272427 125.70265 -9.2150574 -71.836723 -9.1953163 -73.001511 0.065879747 -90.792664
9202562500 -1.0328381 125.71487 -9.2092466 -71.843651 -9.2017097 -73.007858 0.058329705 -90.798401
9202625000 -1.0322344 125.65511 -9.2212648 -71.853996 -9.1959667 -73.011276 0.057277355 -90.793015
9202687500 -1.0337715 125.67789 -9.2167654 -71.796059 -9.192029 -72.979164 0.06413158 -90.756111
9202750000 -1.0292637 125.68145 -9.2158279 -71.809494 -9.1962109 -72.923012 0.064151719 -90.736641
9202812500 -1.0324632 125.63824 -9.2100439 -71.87072 -9.1991835 -72.945297 0.062883981 -90.725891
9202875000 -1.0330126 125.66054 -9.2147903 -71.843559 -9.1953259 -72.971497 0.05843645 -90.710701
9202937500 -1.0296806 125.61431 -9.2142057 -71.821327 -9.1993484 -72.983925 0.063521609 -90.710335
9203000000 -1.0287993 125.65238 -9.2150812 -71.857178 -9.2022257 -72.969597 0.058049183 -90.748268
9203062500 -1.0310388 125.64219 -9.2038851 -71.782036 -9.1934471 -72.908287 0.059966102 -90.629066
9203125000 -1.0260826 125.63311 -9.207922 -71.818703 -9.2053947 -73.013229 0.052282121 -90.68663
9203187500 -1.0298538 125.59518 -9.2173395 -71.820892 -9.2004032 -72.96019 0.06033466 -90.652946
9203250000 -1.0278333 125.58689 -9.199439 -71.775269 -9.1959438 -72.970116 0.062893175 -90.613922
9203312500 -1.0342532 125.56644 -9.2150078 -71.79493 -9.190217 -72.941429 0.05825663 -90.607597
9203375000 -1.0227673 125.60248 -9.1992903 -71.663643 -9.20228 -72.978462 0.058242168 -90.559601
9203437500 -1.029135 125.53275 -9.1989708 -71.80851 -9.1828337 -72.926941 0.061494749 -90.528046
9203500000 -1.0261291 125.52269 -9.1960535 -71.817879 -9.1830168 -72.956757 0.064925492 -90.525368
9203562500 -1.0297916 125.50684 -9.2035379 -71.839104 -9.1869106 -72.972389 0.057159279 -90.555595
9203625000 -1.021811 125.51268 -9.1996374 -71.750267 -9.1878119 -72.972855 0.062315088 -90.454399
9203687500 -1.0182911 125.50959 -9.1980915 -71.789307 -9.1799917 -73.020706 0.053595275 -90.501213
9203750000 -1.0213909 125.50126 -9.1971703 -71.8246 -9.1796284 -73.001724 0.05966951 -90.536781
9203812500 -1.0229001 125.51007 -9.2080784 -71.861816 -9.178688 -73.020409 0.059472516 -90.556999
9203875000 -1.0180959 125.46851 -9.2082462 -71.803993 -9.1817904 -73.001228 0.056003973 -90.511124
9203937500 -1.0197409 125.47525 -9.2034349 -71.812569 -9.1768913 -72.942352 0.055811178 -90.517632
9204000000 -1.0183939 125.46668 -9.2003078 -71.743324 -9.1789312 -72.872955 0.054621246 -90.393425
9204062500 -1.023082 125.46407 -9.2072649 -71.757248 -9.1863899 -72.931519 0.049710352 -90.396111
9204125000 -1.0234486 125.44428 -9.198513 -71.781555 -9.1815901 -72.876579 0.049454 -90.374924
9204187500 -1.0239273 125.43558 -9.2087126 -71.743546 -9.1828251 -72.923035 0.046101108 -90.384232
9204250000 -1.0227623 125.42973 -9.1990108 -71.774048 -9.1908884 -72.963409 0.03922952 -90.408859
9204312500 -1.0279067 125.39103 -9.1972017 -71.697357 -9.1783257 -72.904938 0.054073669 -90.297585
9204375000 -1.0257303 125.35091 -9.1898642 -71.772606 -9.1818514 -72.866508 0.052229431 -90.288254
9204437500 -1.0268631 125.34076 -9.1960621 -71.742523 -9.1852808 -72.929764 0.048452817 -90.260582
9204500000 -1.0267382 125.33172 -9.2033262 -71.778877 -9.1843786 -72.926094 0.056639224 -90.265182
9204562500 -1.0225298 125.27746 -9.1847258 -71.79232 -9.1838894 -72.956367 0.052193481 -90.249268
9204625000 -1.0225304 125.27626 -9.1899242 -71.770088 -9.1739721 -72.955597 0.062959328 -90.197891
9204687500 -1.0277628 125.26458 -9.1933727 -71.78965 -9.1665602 -72.898293 0.062199742 -90.203903
9204750000 -1.0189672 125.25152 -9.1894274 -71.757042 -9.1697922 -72.940544 0.057045963 -90.190826
9204812500 -1.0185307 125.2477 -9.1849985 -71.740219 -9.1744356 -72.959999 0.050477177 -90.181808
9204875000 -1.0191611 125.21054 -9.1883717 -71.770866 -9.1685772 -72.902802 0.05602726 -90.135384
9204937500 -1.0156668 125.21379 -9.1943874 -71.756363 -9.1841269 -72.889618 0.046065528 -90.111893
9205000000 -1.0122029 125.214 -9.1790705 -71.74823 -9.1727438 -72.888496 0.049608052 -90.140182
9205062500 -1.0213279 125.18597 -9.1880522 -71.763557 -9.1764736 -72.911789 0.04992101 -90.108887
9205125000 -1.0277411 125.18398 -9.1910543 -71.73703 -9.1758118 -72.924026 0.048176605 -90.096626
9205187500 -1.0273445 125.16883 -9.1844177 -71.706245 -9.1723175 -72.969643 0.043496244 -90.047554
9205250000 -1.029325 125.14977 -9.1878052 -71.70945 -9.1787672 -72.96978 0.047828477 -90.026726
9205312500 -1.0281435 125.17512 -9.1816998 -71.706429 -9.1710863 -73.016922 0.055234417 -90.038887
9205375000 -1.0302628 125.10356 -9.1803808 -71.745277 -9.1785221 -72.960083 0.044663947 -89.982758
9205437500 -1.0307195 125.10201 -9.1725407 -71.725113 -9.1689301 -72.976387 0.048448235 -89.975204
9205500000 -1.0282369 125.08956 -9.1705208 -71.753304 -9.1616354 -72.944206 0.056137886 -90.009003
9205562500 -1.0327617 125.10303 -9.1821289 -71.74231 -9.1635647 -72.904251 0.052762315 -89.95536
9205625000 -1.0273564 125.07359 -9.1757154 -71.739098 -9.1661434 -72.970314 0.056955963 -89.914772
9205687500 -1.0259362 125.09373 -9.1743259 -71.752663 -9.1646786 -72.915321 0.05712799 -89.947273
9205750000 -1.0276996 125.05959 -9.1799631 -71.770081 -9.1632528 -72.916672 0.057951253 -89.932022
9205812500 -1.0223217 125.03433 -9.1781588 -71.76873 -9.1677828 -72.928558 0.051589515 -89.915955
9205875000 -1.0259265 125.01379 -9.1834517 -71.766525 -9.1587019 -72.955078 0.062448572 -89.90947
9205937500 -1.0211846 125.0105 -9.1754675 -71.76239 -9.1628008 -72.870308 0.053760678 -89.850624
9206000000 -1.0278935 124.96564 -9.1802969 -71.776642 -9.1535978 -72.91153 0.057801422 -89.877579
9206062500 -1.0196689 124.93044 -9.1794767 -71.827644 -9.1672888 -72.90361 0.051041849 -89.884911
9206125000 -1.021539 124.96613 -9.1765385 -71.755028 -9.1621351 -72.867622 0.053690907 -89.855392
9206187500 -1.0220785 124.94701 -9.1864033 -71.78463 -9.1674614 -72.82888 0.053271174 -89.783928
9206250000 -1.0228747 124.9157 -9.179491 -71.753334 -9.1591558 -72.848442 0.054389175 -89.792305
9206312500 -1.0208848 124.92371 -9.1696491 -71.787788 -9.1627598 -72.841591 0.059196211 -89.829422
9206375000 -1.0254505 124.8932 -9.1757717 -71.767593 -9.157712 -72.833824 0.054610617 -89.76722
9206437500 -1.0232198 124.87611 -9.1757736 -71.745705 -9.1668282 -72.824883 0.046788383 -89.745911
9206500000 -1.0282437 124.88672 -9.1786566 -71.773796 -9.1642036 -72.881706 0.052242268 -89.806213
9206562500 -1.0248156 124.85363 -9.1799688 -71.788544 -9.1656981 -72.796707 0.050435584 -89.73378
9206625000 -1.0205312 124.84402 -9.1670523 -71.716774 -9.1613579 -72.813492 0.048294518 -89.689957
9206687500 -1.0251534 124.84385 -9.1803904 -71.703575 -9.1575689 -72.835648 0.047087468 -89.667114
9206750000 -1.0268326 124.83265 -9.1738949 -71.710968 -9.1612568 -72.83886 0.051237877 -89.60704
9206812500 -1.0181201 124.80623 -9.1707773 -71.701698 -9.1597004 -72.810097 0.050541114 -89.621002
9206875000 -1.0233824 124.81828 -9.1770353 -71.72226 -9.1618748 -72.851379 0.043639734 -89.572952
9206937500 -1.0218323 124.76033 -9.1691847 -71.706215 -9.1531582 -72.863716 0.055738732 -89.559845
9207000000 -1.0295019 124.76527 -9.1644125 -71.740364 -9.1550303 -72.843376 0.051119275 -89.564064
9207062500 -1.0261611 124.76817 -9.1703892 -71.665642 -9.1385956 -72.837753 0.059460979 -89.544518
9207125000 -1.0309508 124.72916 -9.1724195 -71.74556 -9.152379 -72.871849 0.05541575 -89.567802
9207187500 -1.0258981 124.71878 -9.1681585 -71.736977 -9.1421957 -72.79879 0.060718916 -89.546844
9207250000 -1.0286592 124.70724 -9.1655779 -71.695244 -9.1469545 -72.88092 0.057890866 -89.527428
9207312500 -1.0281025 124.70633 -9.1634617 -71.707794 -9.1526833 -72.834221 0.053730167 -89.501839
9207375000 -1.022782 124.70475 -9.1684427 -71.670143 -9.1566362 -72.847565 0.045401502 -89.462982
9207437500 -1.025907 124.65681 -9.1634178 -71.719688 -9.156848 -72.900887 0.051551141 -89.497292
9207500000 -1.0293092 124.67239 -9.1700115 -71.724197 -9.145709 -72.869995 0.059217017 -89.440521
9207562500 -1.0247278 124.64053 -9.1607199 -71.747902 -9.1539011 -72.851089 0.047323078 -89.434967
9207625000 -1.0240695 124.63326 -9.1648207 -71.777908 -9.1479244 -72.907822 0.05115233 -89.44117
9207687500 -1.0281119 124.60625 -9.1671114 -71.733566 -9.1544533 -72.891602 0.043562647 -89.394775
9207750000 -1.0278537 124.61638 -9.164959 -71.696625 -9.1583214 -72.837379 0.048527073 -89.37532
9207812500 -1.0301236 124.59309 -9.1718531 -71.688652 -9.162241 -72.849129 0.03735302 -89.370018
9207875000 -1.0269812 124.57234 -9.157547 -71.754509 -9.1559448 -72.844727 0.044296212 -89.347702
9207937500 -1.0221938 124.5851 -9.1654644 -71.764275 -9.1574488 -72.873138 0.03748389 -89.363297
9208000000 -1.0274715 124.5551 -9.1681795 -71.747375 -9.1555738 -72.819962 0.045722917 -89.326012
9208062500 -1.0220568 124.55396 -9.1632576 -71.750916 -9.1543455 -72.820992 0.043380126 -89.297211
9208125000 -1.0240451 124.55059 -9.1598225 -71.698235 -9.1492739 -72.876625 0.045919973 -89.267715
9208187500 -1.023874 124.51731 -9.1507006 -71.683998 -9.1539507 -72.816658 0.036279988 -89.223015
9208250000 -1.0237794 124.52873 -9.1565218 -71.625633 -9.1392441 -72.831444 0.047084339 -89.229149
9208312500 -1.025579 124.50628 -9.1476622 -71.683113 -9.1466427 -72.876221 0.046485327 -89.209007
9208375000 -1.0251896 124.47106 -9.159709 -71.693703 -9.1448984 -72.823288 0.047661211 -89.168365
9208437500 -1.0227757 124.47681 -9.1527166 -71.668167 -9.1417036 -72.828682 0.046480004 -89.179619
9208500000 -1.0236456 124.49422 -9.1545544 -71.621101 -9.152422 -72.82058 0.041246664 -89.152199
9208562500 -1.0272795 124.48562 -9.1595974 -71.624352 -9.1463175 -72.864258 0.044656355 -89.185951
9208625000 -1.0278605 124.45147 -9.1553764 -71.642059 -9.159543 -72.823036 0.037891444 -89.166016
9208687500 -1.0260056 124.43621 -9.1541004 -71.62159 -9.151639 -72.822144 0.037338305 -89.16111
9208750000 -1.0303284 124.42433 -9.1539125 -71.640739 -9.1522989 -72.822075 0.042348672 -89.122711
9208812500 -1.031024 124.41499 -9.1552353 -71.669716 -9.1498661 -72.832695 0.043499876 -89.090813
9208875000 -1.0226028 124.37994 -9.1525764 -71.575508 -9.1538458 -72.741768 0.040079258 -89.033508
9208937500 -1.0215367 124.42976 -9.1539574 -71.593964 -9.1501427 -72.762352 0.037553094 -89.012489
9209000000 -1.0248693 124.37569 -9.1616802 -71.639023 -9.136858 -72.752655 0.04722923 -88.986694
9209062500 -1.0249664 124.36568 -9.1534967 -71.602921 -9.1340218 -72.783409 0.041882835 -88.946426
9209125000 -1.021257 124.32476 -9.1496181 -71.69915 -9.1460075 -72.784531 0.040515624 -88.962624
9209187500 -1.0160847 124.32822 -9.1506605 -71.642456 -9.1358585 -72.767227 0.041921161 -88.93277
9209250000 -1.017172 124.29967 -9.144105 -71.645523 -9.1306448 -72.802498 0.037132066 -88.904114
9209312500 -1.0203865 124.29124 -9.1469488 -71.644218 -9.140029 -72.752579 0.038087167 -88.891296
9209375000 -1.01765 124.26073 -9.1547451 -71.621872 -9.1337614 -72.759995 0.027302377 -88.84005
9209437500 -1.0136832 124.22761 -9.1449614 -71.613617 -9.1292763 -72.746445 0.033596847 -88.809158
9209500000 -1.0175886 124.2002 -9.1452646 -71.580872 -9.1215343 -72.736565 0.043803766 -88.791161
9209562500 -1.0135741 124.18892 -9.1442461 -71.673538 -9.1238794 -72.808258 0.039326038 -88.827904
9209625000 -1.0190992 124.19215 -9.1430387 -71.611031 -9.1267157 -72.78614 0.032626688 -88.811562
9209687500 -1.0236496 124.16794 -9.1526108 -71.629936 -9.1345377 -72.76841 0.035259582 -88.789406
9209750000 -1.0287936 124.18057 -9.1468697 -71.615173 -9.134243 -72.833801 0.035612896 -88.798927
9209812500 -1.0266004 124.14461 -9.1439791 -71.634743 -9.1243277 -72.843399 0.04185579 -88.816956
9209875000 -1.0322269 124.1597 -9.1479301 -71.632408 -9.1295967 -72.767555 0.038826335 -88.785347
9209937500 -1.0254468 124.12621 -9.1391678 -71.626389 -9.1308241 -72.828209 0.034338765 -88.79673
9210000000 -1.0271198 124.08933 -9.142601 -71.617317 -9.1270819 -72.849678 0.038062111 -88.743767
9210062500 -1.0302463 124.08321 -9.1457863 -71.658554 -9.127634 -72.794464 0.039360173 -88.756264
9210125000 -1.0252861 124.10832 -9.1521845 -71.648682 -9.1243324 -72.796562 0.039265469 -88.723137
9210187500 -1.0286603 124.05608 -9.1487036 -71.631493 -9.1327486 -72.761116 0.031402633 -88.730423
9210250000 -1.0230873 124.07032 -9.1524887 -71.644928 -9.1293602 -72.792229 0.03458976 -88.69828
9210312500 -1.0216417 124.00481 -9.143342 -71.635422 -9.127037 -72.691628 0.036238723 -88.655968
9210375000 -1.0217654 124.06987 -9.1432581 -71.558708 -9.1201324 -72.787056 0.033436123 -88.656784
9210437500 -1.0172303 124.01304 -9.1431112 -71.652573 -9.1217432 -72.735878 0.040455293 -88.612007
9210500000 -1.0207376 124.00882 -9.1394691 -71.637672 -9.1302805 -72.708801 0.028113054 -88.613258
9210562500 -1.0204937 124.00658 -9.1354733 -71.589554 -9.1151724 -72.69606 0.037330993 -88.580643
9210625000 -1.0203339 124.0289 -9.1322842 -71.560745 -9.1210861 -72.737541 0.029971177 -88.608482
9210687500 -1.018365 124.00337 -9.1400318 -71.604485 -9.1222658 -72.713142 0.025708675 -88.536217
9210750000 -1.0212588 123.99126 -9.1401997 -71.589737 -9.1174994 -72.694298 0.029097896 -88.538223
9210812500 -1.0219557 123.98219 -9.142004 -71.546188 -9.1241083 -72.638657 0.028292933 -88.470085
9210875000 -1.0237479 123.95414 -9.1318302 -71.537613 -9.1224232 -72.695251 0.029102048 -88.47168
9210937500 -1.0209742 123.93472 -9.130909 -71.569702 -9.1136513 -72.698181 0.028536515 -88.455132
9211000000 -1.0225813 123.93836 -9.1373596 -71.541679 -9.125598 -72.694038 0.026261756 -88.447334
9211062500 -1.0217023 123.90585 -9.1304226 -71.55294 -9.1239443 -72.724426 0.027338712 -88.441582
9211125000 -1.0201346 123.85918 -9.127326 -71.594559 -9.1198502 -72.634666 0.029548632 -88.351929
9211187500 -1.0228039 123.86969 -9.1362267 -71.600021 -9.1233892 -72.736107 0.021859702 -88.390205
9211250000 -1.0234249 123.82409 -9.1313562 -71.587738 -9.1212826 -72.683563 0.024679298 -88.341873
9211312500 -1.0216682 123.81915 -9.127634 -71.575821 -9.1244602 -72.684883 0.022443378 -88.325089
9211375000 -1.0237285 123.80025 -9.1318808 -71.570839 -9.1296568 -72.663383 0.025893217 -88.295845
9211437500 -1.022622 123.81139 -9.1322031 -71.515877 -9.1239929 -72.633743 0.030639725 -88.266586
9211500000 -1.0288508 123.81939 -9.1285763 -71.544281 -9.1160965 -72.681129 0.036120888 -88.296173
9211562500 -1.0272745 123.77164 -9.130744 -71.521492 -9.1240911 -72.693428 0.031642925 -88.277664
9211625000 -1.019323 123.78819 -9.1248941 -71.531334 -9.1223993 -72.725815 0.033461012 -88.26017
9211687500 -1.0209694 123.77734 -9.1287804 -71.520241 -9.1181469 -72.746063 0.03880015 -88.27829
9211750000 -1.0214927 123.76165 -9.1189785 -71.557457 -9.1196909 -72.712204 0.031607833 -88.246246
9211812500 -1.0213788 123.74812 -9.1213255 -71.559395 -9.1193085 -72.714508 0.032548934 -88.310616
9211875000 -1.0197093 123.70186 -9.1263227 -71.545471 -9.1197319 -72.696907 0.031777605 -88.233734
9211937500 -1.0130858 123.66302 -9.1287117 -71.56192 -9.1200314 -72.697746 0.02634648 -88.231155
9212000000 -1.0104066 123.65102 -9.1186266 -71.540924 -9.1158123 -72.673798 0.027739465 -88.173241
9212062500 -1.009083 123.63301 -9.1116486 -71.544754 -9.1188507 -72.721497 0.03489368 -88.208412
9212125000 -1.0172921 123.60345 -9.1207104 -71.520439 -9.1034327 -72.684937 0.038266171 -88.179024
9212187500 -1.0171045 123.62905 -9.1213713 -71.573418 -9.1091642 -72.678658 0.03387529 -88.149101
9212250000 -1.0207245 123.61302 -9.1205511 -71.54837 -9.1024542 -72.660339 0.036181845 -88.121002
9212312500 -1.0113629 123.57272 -9.1216612 -71.566444 -9.1095076 -72.650978 0.02980347 -88.123947
