!Agilent Technologies,N5242A,MY51221714,A.09.90.19
!Agilent N5242A: A.09.90.19
!Date: Friday, February 02, 2024 13:11:54
!Correction: S11(Full 2 Port(1,2)) 
!S21(Full 2 Port(1,2)) 
!S12(Full 2 Port(1,2)) 
!S22(Full 2 Port(1,2)) 
!S2P File: Measurements: S11, S21, S12, S22:
# Hz S  dB   R 50
9200000000 -1.0287547 126.30341 -9.2035809 -72.005066 -9.1853914 -73.186722 0.048647758 -91.631462
9200062500 -1.0319029 126.3202 -9.2084017 -71.928764 -9.173934 -73.171539 0.058104884 -91.594597
9200125000 -1.0315055 126.33947 -9.2055855 -71.904678 -9.1716814 -73.18055 0.06249531 -91.556122
9200187500 -1.0326505 126.29516 -9.2026815 -71.879921 -9.1763477 -73.161446 0.056314081 -91.522675
9200250000 -1.0376633 126.2944 -9.2072086 -71.93454 -9.1826706 -73.194023 0.048440937 -91.543243
9200312500 -1.0396481 126.25459 -9.2103643 -71.872406 -9.1732912 -73.195763 0.050481394 -91.538734
9200375000 -1.0328361 126.25019 -9.1970692 -71.912888 -9.1811371 -73.164482 0.047448818 -91.542709
9200437500 -1.0369242 126.20775 -9.2047405 -71.986465 -9.1790047 -73.2229 0.051334631 -91.526955
9200500000 -1.0341498 126.20336 -9.2056332 -71.903702 -9.1814575 -73.16053 0.053339027 -91.450073
9200562500 -1.0365456 126.15805 -9.2066107 -71.968811 -9.1744661 -73.219971 0.06130223 -91.463173
9200625000 -1.033397 126.15704 -9.2007751 -71.965317 -9.1842546 -73.208328 0.04553812 -91.449135
9200687500 -1.0270002 126.19075 -9.1940079 -71.964287 -9.1720324 -73.248489 0.055409677 -91.47525
9200750000 -1.0323938 126.18638 -9.2000456 -71.913528 -9.1685982 -73.241875 0.066249616 -91.434677
9200812500 -1.0314143 126.17376 -9.1949816 -71.952194 -9.1803741 -73.196098 0.057419252 -91.380714
9200875000 -1.0287395 126.16216 -9.1947479 -71.961479 -9.1772394 -73.231216 0.061363097 -91.412132
9200937500 -1.0255288 126.14015 -9.1961584 -71.97007 -9.1763945 -73.174088 0.061834294 -91.378761
9201000000 -1.0348346 126.1152 -9.198267 -71.905479 -9.1767635 -73.149826 0.059759229 -91.343483
9201062500 -1.0344521 126.10853 -9.1932392 -71.971634 -9.18081 -73.191559 0.057463191 -91.392136
9201125000 -1.0379539 126.12904 -9.1936331 -71.951569 -9.181365 -73.158981 0.052656498 -91.32856
9201187500 -1.0401561 126.08523 -9.1985044 -71.912102 -9.186202 -73.19342 0.048908778 -91.333328
9201250000 -1.0364455 125.98022 -9.1930971 -71.983589 -9.1897917 -73.166176 0.045873579 -91.355171
9201312500 -1.0441304 125.99075 -9.2087641 -71.964813 -9.1812096 -73.168747 0.052499905 -91.316757
9201375000 -1.0334467 125.9528 -9.1953945 -72.005951 -9.1808615 -73.189545 0.050734539 -91.328918
9201437500 -1.0399277 125.95535 -9.1945305 -71.964012 -9.1747036 -73.205254 0.054527842 -91.293243
9201500000 -1.03657 125.91916 -9.1969976 -72.007416 -9.1748819 -73.17495 0.051150359 -91.239494
9201562500 -1.0400163 125.93687 -9.1985636 -71.981354 -9.1719742 -73.185371 0.051171292 -91.249916
9201625000 -1.0413545 125.86597 -9.1995306 -71.984917 -9.176405 -73.132622 0.053392429 -91.204124
9201687500 -1.0422678 125.89533 -9.2003117 -71.982307 -9.172884 -73.184143 0.050962608 -91.202087
9201750000 -1.0391796 125.85592 -9.1946173 -72.04792 -9.1731129 -73.172188 0.04559277 -91.214073
9201812500 -1.0408746 125.89729 -9.2050896 -71.931198 -9.1649847 -73.105148 0.048799358 -91.12178
9201875000 -1.0439032 125.84841 -9.2032347 -71.938988 -9.1697512 -73.085434 0.046769932 -91.120598
9201937500 -1.0398638 125.88625 -9.1908607 -71.918068 -9.16084 -73.131691 0.051667165 -91.081589
9202000000 -1.0399849 125.84199 -9.1883736 -71.916962 -9.1602182 -73.053513 0.051546659 -91.042
9202062500 -1.0374098 125.83733 -9.1904926 -71.923424 -9.1656466 -73.110748 0.046805602 -91.039742
9202125000 -1.0421642 125.79282 -9.1956854 -71.958084 -9.1637897 -73.054581 0.043960117 -91.007004
9202187500 -1.0358622 125.83241 -9.1884499 -71.936562 -9.1636295 -73.124969 0.044776231 -91.039009
9202250000 -1.0358298 125.7668 -9.1881523 -71.91391 -9.1728916 -73.106728 0.04009572 -90.948578
9202312500 -1.0359027 125.75683 -9.1885405 -71.906448 -9.1714554 -73.166161 0.043320406 -90.972046
9202375000 -1.0400093 125.75795 -9.1909027 -71.955406 -9.1631927 -73.188164 0.041577864 -90.967674
9202437500 -1.0395882 125.76945 -9.1886368 -71.895439 -9.1660357 -73.1175 0.042561535 -90.919579
9202500000 -1.0417701 125.75149 -9.189559 -71.887062 -9.1646919 -73.103149 0.04377057 -90.933167
9202562500 -1.0474627 125.74712 -9.1812601 -71.891541 -9.1662064 -73.103905 0.039932035 -90.929161
9202625000 -1.0454288 125.72772 -9.187644 -71.853111 -9.1618986 -73.062889 0.045153022 -90.851036
9202687500 -1.0447938 125.70973 -9.1871862 -71.868538 -9.166873 -73.06208 0.044999417 -90.848694
9202750000 -1.038793 125.73466 -9.1762514 -71.926941 -9.1664 -73.13443 0.043119907 -90.890259
9202812500 -1.0427121 125.71869 -9.1904268 -71.865662 -9.1637802 -73.059731 0.044944119 -90.849304
9202875000 -1.0402702 125.7097 -9.1735134 -71.878395 -9.1607141 -73.117401 0.041677322 -90.830566
9202937500 -1.048359 125.70172 -9.1864424 -71.888931 -9.1649418 -73.091026 0.046253335 -90.830734
9203000000 -1.038431 125.69904 -9.1816072 -71.888992 -9.1678886 -73.091255 0.04207541 -90.827415
9203062500 -1.0388546 125.68 -9.181757 -71.926643 -9.1669607 -73.094879 0.043559261 -90.835373
9203125000 -1.0406063 125.65521 -9.1763134 -71.927032 -9.15944 -73.079063 0.04880793 -90.82341
9203187500 -1.040874 125.64386 -9.1725273 -71.889305 -9.1598053 -73.110397 0.046552666 -90.786247
9203250000 -1.0360297 125.65553 -9.174181 -71.901276 -9.1598682 -73.121735 0.04140541 -90.753952
9203312500 -1.0382059 125.63704 -9.1751909 -71.832138 -9.1626415 -73.100159 0.038437229 -90.715477
9203375000 -1.0333465 125.60633 -9.163271 -71.833 -9.1636896 -73.081772 0.037726499 -90.69371
9203437500 -1.0379152 125.60809 -9.1726255 -71.847069 -9.1631622 -73.056328 0.043207578 -90.669029
9203500000 -1.0351158 125.57158 -9.1670904 -71.874191 -9.1585903 -73.055344 0.043014113 -90.631447
9203562500 -1.0329204 125.53886 -9.1674004 -71.876923 -9.148797 -73.083443 0.044017315 -90.633087
9203625000 -1.0353059 125.55919 -9.1759729 -71.869576 -9.1472635 -73.12368 0.043245733 -90.648964
9203687500 -1.0329146 125.56655 -9.1745443 -71.883347 -9.1480131 -73.083603 0.041468717 -90.619179
9203750000 -1.0275136 125.53873 -9.1619463 -71.866821 -9.1477547 -73.170052 0.038601775 -90.676064
9203812500 -1.0279472 125.53942 -9.1692762 -71.889915 -9.1415281 -73.086433 0.040464062 -90.618675
9203875000 -1.0289246 125.53133 -9.1659279 -71.836388 -9.1429071 -73.090424 0.05271842 -90.648102
9203937500 -1.0263833 125.51015 -9.1732731 -71.859947 -9.1432266 -73.111908 0.038633965 -90.621552
9204000000 -1.0292019 125.49477 -9.1744556 -71.860901 -9.1544104 -73.083649 0.031809561 -90.592499
9204062500 -1.0301076 125.51093 -9.173481 -71.824371 -9.1496773 -73.061295 0.028198823 -90.53286
9204125000 -1.0309643 125.45849 -9.173995 -71.825493 -9.1505852 -73.01313 0.0340042 -90.536903
9204187500 -1.0306414 125.47772 -9.1673956 -71.854485 -9.1554756 -73.010727 0.030038696 -90.44931
9204250000 -1.0290676 125.44816 -9.1721935 -71.873146 -9.1496077 -73.052589 0.025590781 -90.490555
9204312500 -1.0320619 125.44382 -9.1692514 -71.818504 -9.1549282 -73.046684 0.030934388 -90.427101
9204375000 -1.0346745 125.40062 -9.164547 -71.862862 -9.1486187 -72.964302 0.041520122 -90.401604
9204437500 -1.0316958 125.36642 -9.1669283 -71.882095 -9.1554155 -73.052895 0.037345741 -90.409531
9204500000 -1.0313816 125.36239 -9.1525526 -71.731148 -9.149086 -73.135216 0.040588502 -90.37661
9204562500 -1.0319903 125.29475 -9.1643591 -71.867302 -9.1384687 -73.000565 0.046476327 -90.316826
9204625000 -1.034534 125.29011 -9.1556005 -71.845123 -9.1391935 -73.046951 0.044292472 -90.33461
9204687500 -1.0261335 125.29395 -9.1545916 -71.881866 -9.1371469 -73.051842 0.049568214 -90.315071
9204750000 -1.0310186 125.28805 -9.1615582 -71.846191 -9.136097 -73.00853 0.042934358 -90.288063
9204812500 -1.0244421 125.24386 -9.1588821 -71.860123 -9.1387234 -73.063622 0.041345634 -90.285629
9204875000 -1.0260655 125.2674 -9.1659822 -71.76992 -9.1468973 -73.006027 0.0320611 -90.252869
9204937500 -1.026765 125.21341 -9.1634483 -71.845985 -9.1453762 -73.012291 0.032914404 -90.225449
9205000000 -1.0282869 125.23965 -9.1548424 -71.823326 -9.1387119 -73.011406 0.039173201 -90.251076
9205062500 -1.0272194 125.26254 -9.1510963 -71.824814 -9.1396799 -73.114868 0.036890764 -90.23838
9205125000 -1.0304056 125.22681 -9.1480436 -71.768066 -9.1466217 -73.023636 0.035757944 -90.199928
9205187500 -1.0371126 125.21047 -9.1554651 -71.828262 -9.1406393 -73.054001 0.036234759 -90.175888
9205250000 -1.0386729 125.18523 -9.1556311 -71.849716 -9.1434593 -73.090118 0.032837365 -90.168701
9205312500 -1.0400016 125.19599 -9.1478977 -71.842072 -9.1370392 -73.096733 0.031795487 -90.146523
9205375000 -1.0402759 125.18269 -9.1446257 -71.829689 -9.1435328 -73.050728 0.034303922 -90.10202
9205437500 -1.0369186 125.14509 -9.1431236 -71.844833 -9.1328735 -73.039963 0.039926112 -90.132004
9205500000 -1.0391204 125.15251 -9.1466942 -71.811302 -9.1331987 -73.103844 0.037361402 -90.098267
9205562500 -1.0371629 125.12324 -9.1503801 -71.833595 -9.1280832 -73.074448 0.043599118 -90.082588
9205625000 -1.0355604 125.12651 -9.1441832 -71.808792 -9.1265984 -73.031754 0.04441176 -90.052742
9205687500 -1.0324769 125.08757 -9.1483879 -71.843864 -9.1305456 -73.042061 0.039442129 -90.037552
9205750000 -1.0347186 125.09863 -9.1507282 -71.782784 -9.1264086 -73.026543 0.045134775 -90.0336
9205812500 -1.0340196 125.07097 -9.1522713 -71.833885 -9.1327906 -73.065834 0.037368335 -90.009583
9205875000 -1.0307868 125.0687 -9.1418629 -71.865051 -9.1227493 -73.016846 0.034897823 -90.012886
9205937500 -1.0297711 125.04389 -9.1540394 -71.832115 -9.1413307 -73.009369 0.031193465 -89.998505
9206000000 -1.0293384 125.03014 -9.1500721 -71.822876 -9.1349716 -73.048737 0.038599554 -89.982155
9206062500 -1.0322623 125.02791 -9.1618824 -71.839272 -9.1350603 -73.047493 0.03564835 -90.00161
9206125000 -1.0317811 125.00098 -9.1502542 -71.813728 -9.1355791 -73.043533 0.035325285 -89.976334
9206187500 -1.0309645 124.98443 -9.1498604 -71.869301 -9.1316957 -72.976639 0.035616148 -89.917297
9206250000 -1.034506 124.97601 -9.1563368 -71.816551 -9.129796 -72.916466 0.036736272 -89.915894
9206312500 -1.0323677 124.9468 -9.1394396 -71.796379 -9.1305752 -72.952736 0.034571748 -89.884758
9206375000 -1.0322845 124.91875 -9.147213 -71.882668 -9.1261663 -72.963669 0.039797939 -89.931572
9206437500 -1.0367157 124.9601 -9.1481857 -71.772301 -9.1229792 -72.949936 0.03763742 -89.841805
9206500000 -1.0369332 124.91676 -9.1535292 -71.832748 -9.1269932 -72.888054 0.033155736 -89.862785
9206562500 -1.0319552 124.89588 -9.1405993 -71.830109 -9.125495 -72.912743 0.040404133 -89.812416
9206625000 -1.0349548 124.90711 -9.1482115 -71.814888 -9.1300964 -72.940018 0.03048957 -89.785881
9206687500 -1.0323045 124.89318 -9.1431284 -71.714241 -9.1245909 -72.943932 0.035805013 -89.758339
9206750000 -1.0287753 124.86018 -9.1412592 -71.739853 -9.1199284 -72.994682 0.032541227 -89.793999
9206812500 -1.0297831 124.86527 -9.1390743 -71.747734 -9.1258459 -72.986832 0.030817248 -89.736
9206875000 -1.0352287 124.84684 -9.1398907 -71.728172 -9.1247597 -72.985527 0.029575353 -89.691772
9206937500 -1.0316867 124.80272 -9.135541 -71.730843 -9.1294508 -72.944763 0.027183311 -89.634666
9207000000 -1.0318817 124.79252 -9.1344776 -71.755127 -9.1181536 -73.006615 0.043102309 -89.661011
9207062500 -1.0372208 124.76245 -9.1454067 -71.839836 -9.1264229 -72.985878 0.038824696 -89.694458
9207125000 -1.035531 124.77538 -9.1325464 -71.757225 -9.1138334 -72.993675 0.040289257 -89.651711
9207187500 -1.0318761 124.78252 -9.1317005 -71.73967 -9.1274443 -73.015045 0.032854542 -89.674179
9207250000 -1.0388212 124.72602 -9.1278305 -71.833618 -9.1167116 -72.951752 0.043267131 -89.639877
9207312500 -1.0323483 124.73301 -9.1303701 -71.757736 -9.1247244 -72.991371 0.033036135 -89.635712
9207375000 -1.0355387 124.74341 -9.1252861 -71.727478 -9.1150761 -73.058083 0.036420371 -89.603508
9207437500 -1.0329635 124.69209 -9.1309528 -71.771759 -9.1130695 -72.971123 0.03645581 -89.598267
9207500000 -1.0375327 124.69949 -9.1304836 -71.862427 -9.1274681 -72.99221 0.028136589 -89.559563
9207562500 -1.0319419 124.68384 -9.1311865 -71.781105 -9.1071529 -73.048553 0.034937453 -89.605499
9207625000 -1.0310067 124.67107 -9.1256695 -71.76886 -9.1263943 -72.980499 0.030188097 -89.523903
9207687500 -1.03219 124.6633 -9.123662 -71.803619 -9.1275311 -73.004044 0.024139546 -89.547119
9207750000 -1.0311959 124.64791 -9.1305666 -71.801666 -9.1186934 -73.005264 0.025711071 -89.50351
9207812500 -1.0306394 124.64888 -9.1343508 -71.783371 -9.1221189 -72.994324 0.030368512 -89.477928
9207875000 -1.0322487 124.60264 -9.1292152 -71.848442 -9.1234465 -72.967606 0.023995042 -89.49958
9207937500 -1.0302815 124.6222 -9.1217346 -71.803818 -9.1249952 -72.954041 0.026362389 -89.437981
9208000000 -1.0339636 124.61818 -9.1266069 -71.827354 -9.1238518 -72.938477 0.022062132 -89.442497
9208062500 -1.0355628 124.59509 -9.1269436 -71.803139 -9.1243992 -72.970474 0.022757549 -89.39785
9208125000 -1.0328872 124.57347 -9.1325264 -71.755325 -9.1195593 -72.961105 0.022458429 -89.367271
9208187500 -1.0304658 124.57082 -9.1195097 -71.743126 -9.1103525 -72.942642 0.030568721 -89.34893
9208250000 -1.0363265 124.56709 -9.1223755 -71.697128 -9.1166344 -72.943916 0.022017851 -89.323471
9208312500 -1.035377 124.50383 -9.1214943 -71.772469 -9.1131506 -72.958656 0.030214552 -89.329002
9208375000 -1.0332966 124.53593 -9.1218729 -71.715973 -9.1166897 -72.946884 0.028945347 -89.331253
9208437500 -1.0324702 124.53236 -9.118309 -71.705017 -9.1192245 -73.023766 0.025378946 -89.290977
9208500000 -1.0307307 124.53167 -9.1137123 -71.658035 -9.1204672 -72.970612 0.025357649 -89.274994
9208562500 -1.0342759 124.4914 -9.1190729 -71.650772 -9.1194792 -72.955284 0.020067982 -89.292206
9208625000 -1.0349326 124.50752 -9.1262426 -71.711319 -9.120923 -72.9431 0.018752677 -89.276398
9208687500 -1.0292935 124.44468 -9.1173735 -71.770805 -9.1158657 -72.932121 0.02849845 -89.256149
9208750000 -1.0345197 124.47179 -9.120739 -71.688072 -9.1148453 -72.955437 0.03121648 -89.251541
9208812500 -1.0305915 124.46983 -9.1142874 -71.684998 -9.1146202 -72.929199 0.025565607 -89.195679
9208875000 -1.0346191 124.4689 -9.1260605 -71.635376 -9.1234465 -72.958656 0.02604758 -89.195282
9208937500 -1.0313395 124.43913 -9.1130657 -71.640518 -9.1147108 -72.947334 0.02312676 -89.159027
9209000000 -1.0295378 124.42368 -9.1147032 -71.72509 -9.1074238 -72.960892 0.026098967 -89.165405
9209062500 -1.0273348 124.40862 -9.1292372 -71.734245 -9.1148062 -72.866753 0.025862496 -89.089836
9209125000 -1.0297607 124.38416 -9.1298943 -71.706581 -9.1090403 -72.847328 0.019543761 -89.064728
9209187500 -1.0279822 124.41919 -9.124301 -71.694458 -9.1072721 -72.921097 0.02450176 -89.100098
9209250000 -1.0275195 124.34998 -9.1236677 -71.757843 -9.1006298 -72.884491 0.026391804 -89.01384
9209312500 -1.02213 124.32789 -9.1092854 -71.724426 -9.1051722 -72.883949 0.013527526 -89.005844
9209375000 -1.0258389 124.2917 -9.1167498 -71.742538 -9.0922384 -72.890259 0.020075217 -88.940849
9209437500 -1.0233724 124.27652 -9.122613 -71.716621 -9.1071615 -72.860199 0.015319148 -88.941177
9209500000 -1.0229125 124.27818 -9.1112614 -71.67511 -9.0944471 -72.897301 0.020948192 -88.941978
9209562500 -1.0299945 124.23198 -9.1149282 -71.723534 -9.089613 -72.89537 0.021476375 -88.910614
9209625000 -1.0290509 124.22236 -9.1103058 -71.743027 -9.1010923 -72.922569 0.015550802 -88.925758
9209687500 -1.0349582 124.2112 -9.1174984 -71.707108 -9.0898876 -72.982727 0.025294475 -88.929512
9209750000 -1.0336187 124.20193 -9.1108122 -71.733543 -9.0937576 -72.910591 0.023546012 -88.895798
9209812500 -1.0329719 124.19234 -9.1101608 -71.666412 -9.095171 -72.946014 0.024884522 -88.861671
9209875000 -1.0389786 124.19113 -9.113205 -71.648071 -9.0990887 -72.874084 0.025745099 -88.832764
9209937500 -1.0310839 124.15883 -9.1032257 -71.670029 -9.1000652 -72.937775 0.023473445 -88.89978
9210000000 -1.031016 124.15761 -9.1079435 -71.744888 -9.0913448 -72.934799 0.021436248 -88.874939
9210062500 -1.0407712 124.1424 -9.1196661 -71.721344 -9.0945702 -72.955246 0.014845331 -88.868507
9210125000 -1.0303798 124.1433 -9.1146755 -71.702255 -9.0796299 -72.939339 0.022215025 -88.859825
9210187500 -1.0270114 124.10511 -9.1099997 -71.747505 -9.0981941 -72.936928 0.017517868 -88.860809
9210250000 -1.0318192 124.07518 -9.1180439 -71.686188 -9.0941095 -72.945137 0.013898473 -88.858467
9210312500 -1.0289707 124.07713 -9.1118698 -71.681381 -9.0939531 -72.894867 0.015514974 -88.790176
9210375000 -1.0282627 124.07046 -9.1126041 -71.731041 -9.0940113 -72.896202 0.017064247 -88.796097
9210437500 -1.0324281 124.06413 -9.1055183 -71.71814 -9.0882244 -72.873924 0.018922878 -88.787254
9210500000 -1.0227276 124.04971 -9.1086273 -71.737656 -9.0974159 -72.829506 0.013921078 -88.739746
9210562500 -1.0264724 124.04443 -9.1064253 -71.679466 -9.0893764 -72.820244 0.018523611 -88.720001
9210625000 -1.0272018 124.05783 -9.1090899 -71.645226 -9.0918007 -72.7967 0.014089299 -88.677216
9210687500 -1.0320208 124.02752 -9.1029453 -71.683144 -9.0886545 -72.802376 0.013379924 -88.642517
9210750000 -1.0306633 124.04405 -9.1006985 -71.59285 -9.0907059 -72.806465 0.014809234 -88.6287
9210812500 -1.0281785 124.00602 -9.1075916 -71.701828 -9.0932102 -72.848145 0.0056444816 -88.656639
9210875000 -1.0265813 123.9727 -9.1078701 -71.661568 -9.0903816 -72.787804 0.0068609049 -88.604294
9210937500 -1.0302045 123.95533 -9.0969515 -71.654808 -9.0928936 -72.821541 0.0091117211 -88.63028
9211000000 -1.0334967 123.9878 -9.1008167 -71.571091 -9.093461 -72.793037 0.0084710335 -88.606003
9211062500 -1.0294558 123.96256 -9.1045008 -71.631775 -9.0937452 -72.773895 0.0069165826 -88.548592
9211125000 -1.0249448 123.89034 -9.0930042 -71.642418 -9.0969753 -72.745872 -0.0011828573 -88.507187
9211187500 -1.032984 123.87088 -9.0991087 -71.681374 -9.0883064 -72.78701 0.010376399 -88.494217
9211250000 -1.0316036 123.87271 -9.0932608 -71.610176 -9.1019936 -72.810303 0.001973931 -88.490288
9211312500 -1.0302265 123.86107 -9.0941648 -71.673195 -9.0944395 -72.820244 0.0091777463 -88.468605
9211375000 -1.0333643 123.85341 -9.0965023 -71.654984 -9.0954618 -72.808556 0.0095781004 -88.431046
9211437500 -1.0341229 123.83022 -9.099474 -71.691055 -9.0912209 -72.752792 0.014686477 -88.396416
9211500000 -1.0372927 123.84028 -9.1084614 -71.669456 -9.0881605 -72.804611 0.017268859 -88.41243
9211562500 -1.0358503 123.84996 -9.0954599 -71.550652 -9.089406 -72.847778 0.016707085 -88.443085
9211625000 -1.036049 123.80435 -9.0944452 -71.634575 -9.0891771 -72.85836 0.015942354 -88.424049
9211687500 -1.0315095 123.80166 -9.0938597 -71.582878 -9.0837307 -72.790558 0.021868583 -88.390297
9211750000 -1.0300368 123.81126 -9.0888929 -71.584785 -9.0814819 -72.891373 0.018548669 -88.422279
9211812500 -1.0275298 123.76867 -9.0970898 -71.705803 -9.080924 -72.849129 0.022142347 -88.393219
9211875000 -1.0268731 123.735 -9.0915699 -71.649315 -9.0763674 -72.8144 0.017150234 -88.372749
9211937500 -1.0240091 123.73039 -9.0838547 -71.67009 -9.0773096 -72.813538 0.023038456 -88.34243
9212000000 -1.0190536 123.70511 -9.0871773 -71.639526 -9.078023 -72.882294 0.015694985 -88.367851
9212062500 -1.0174854 123.63248 -9.0781975 -71.713257 -9.0855236 -72.853233 0.017320717 -88.347054
9212125000 -1.0220008 123.64155 -9.089819 -71.644531 -9.0796499 -72.868942 0.013951894 -88.315681
9212187500 -1.0222206 123.602 -9.0850716 -71.738235 -9.0744762 -72.782295 0.015120646 -88.273941
9212250000 -1.0261451 123.61262 -9.0837946 -71.660744 -9.0832682 -72.810852 0.007396094 -88.246399
9212312500 -1.0256922 123.60868 -9.0849886 -71.687859 -9.0758572 -72.756462 0.01438342 -88.257919
