!Agilent Technologies,N5242A,MY51221714,A.09.90.19
!Agilent N5242A: A.09.90.19
!Date: Friday, February 02, 2024 13:13:10
!Correction: S11(Full 2 Port(1,2)) 
!S21(Full 2 Port(1,2)) 
!S12(Full 2 Port(1,2)) 
!S22(Full 2 Port(1,2)) 
!S2P File: Measurements: S11, S21, S12, S22:
# Hz S  dB   R 50
9200000000 -1.0173194 126.52752 -9.2808199 -71.704491 -9.2572441 -73.000122 0.0724281 -91.610802
9200062500 -1.0176518 126.48444 -9.2834597 -71.743546 -9.263031 -73.022812 0.067230426 -91.62178
9200125000 -1.0201614 126.49301 -9.2809763 -71.759834 -9.2548904 -73.047546 0.07276684 -91.611221
9200187500 -1.0186362 126.45859 -9.2849388 -71.761223 -9.2547235 -73.063034 0.069955267 -91.589226
9200250000 -1.0264348 126.45926 -9.2941599 -71.719589 -9.2546501 -73.038834 0.062508568 -91.571251
9200312500 -1.0180429 126.42255 -9.299407 -71.71653 -9.2612362 -73.018761 0.068733275 -91.566299
9200375000 -1.0221491 126.41678 -9.287077 -71.734016 -9.2513351 -73.0019 0.067873038 -91.531937
9200437500 -1.0216068 126.36572 -9.2924738 -71.77182 -9.2614317 -73.001198 0.064435646 -91.528915
9200500000 -1.0218383 126.35058 -9.2852592 -71.809303 -9.2632627 -73.023407 0.063919082 -91.468674
9200562500 -1.017 126.35165 -9.2825489 -71.749428 -9.2527256 -73.052284 0.073825523 -91.511993
9200625000 -1.0143127 126.33216 -9.2743559 -71.806297 -9.2570019 -73.007568 0.066926859 -91.45134
9200687500 -1.0177989 126.37588 -9.2807512 -71.728462 -9.2488699 -72.984825 0.076139033 -91.444519
9200750000 -1.0212028 126.33066 -9.2862778 -71.741119 -9.2569094 -72.956779 0.070629574 -91.402435
9200812500 -1.01691 126.33047 -9.2692614 -71.753021 -9.2553186 -73.057777 0.081754342 -91.406967
9200875000 -1.0158386 126.37766 -9.2770147 -71.718918 -9.2529707 -73.134583 0.07866703 -91.44413
9200937500 -1.0180938 126.34645 -9.2792301 -71.734116 -9.2506523 -73.10112 0.076845728 -91.448097
9201000000 -1.0211985 126.28019 -9.2749987 -71.693596 -9.2554302 -73.074089 0.07528507 -91.427589
9201062500 -1.025246 126.29341 -9.2823868 -71.7369 -9.2666616 -73.041245 0.069566831 -91.410606
9201125000 -1.0280206 126.26241 -9.2777414 -71.749771 -9.2559671 -73.02623 0.073606677 -91.385818
9201187500 -1.0262779 126.21102 -9.2797356 -71.746323 -9.261404 -73.02343 0.071415052 -91.360168
9201250000 -1.0258313 126.16508 -9.2709103 -71.802803 -9.2654524 -73.004631 0.06710013 -91.385506
9201312500 -1.0215386 126.15116 -9.2738342 -71.819221 -9.2562838 -73.010857 0.07655213 -91.413948
9201375000 -1.027364 126.13334 -9.2856951 -71.808197 -9.2609863 -73.031906 0.068052381 -91.316109
9201437500 -1.031013 126.12901 -9.2864113 -71.806862 -9.2568398 -73.060089 0.073136933 -91.31057
9201500000 -1.0271249 126.09341 -9.2799883 -71.747185 -9.2532396 -73.05249 0.068012938 -91.319527
9201562500 -1.0231929 126.07887 -9.276041 -71.779671 -9.2518187 -73.037071 0.071761094 -91.249153
9201625000 -1.0226324 126.10165 -9.2757578 -71.753815 -9.2497139 -73.02359 0.071293324 -91.243111
9201687500 -1.0268155 126.08378 -9.2702799 -71.761566 -9.245595 -73.062881 0.070186302 -91.230362
9201750000 -1.0246615 126.04232 -9.2772741 -71.741852 -9.2444773 -72.995972 0.061608698 -91.211525
9201812500 -1.0288522 126.06277 -9.2759972 -71.691353 -9.2504063 -72.920418 0.070395939 -91.127304
9201875000 -1.0240636 126.03121 -9.2743769 -71.750572 -9.2530193 -72.991417 0.061357781 -91.132957
9201937500 -1.0264218 126.01083 -9.2687378 -71.717667 -9.2319756 -72.963593 0.074092701 -91.105186
9202000000 -1.0212377 126.02627 -9.2676601 -71.724243 -9.2434216 -72.958847 0.063701682 -91.086601
9202062500 -1.0220729 126.01277 -9.2772913 -71.724274 -9.2500858 -72.903641 0.058810718 -91.026207
9202125000 -1.0244434 125.98096 -9.2719784 -71.725494 -9.2446222 -72.933044 0.065012425 -91.015671
9202187500 -1.0265386 125.9662 -9.2717781 -71.754997 -9.2479515 -72.964378 0.063216813 -91.051483
9202250000 -1.022779 125.96912 -9.2725487 -71.727776 -9.2514353 -72.962044 0.055567507 -91.013466
9202312500 -1.0181811 125.96857 -9.2594299 -71.67971 -9.2433996 -72.970848 0.065125667 -91.042168
9202375000 -1.024088 125.92144 -9.2691097 -71.71492 -9.2419777 -72.986885 0.059493124 -90.987778
9202437500 -1.0227556 125.92818 -9.2676477 -71.675438 -9.2411118 -72.950119 0.063618526 -90.982628
9202500000 -1.0268167 125.92182 -9.2748985 -71.721451 -9.2472544 -72.927414 0.054715056 -90.91362
9202562500 -1.0269723 125.88554 -9.268301 -71.711472 -9.2397432 -72.952812 0.059874833 -90.990578
9202625000 -1.0307772 125.90697 -9.2704763 -71.706741 -9.2540932 -73.018913 0.050614148 -90.919502
9202687500 -1.0287025 125.90513 -9.2638235 -71.647858 -9.2411013 -72.930634 0.064716175 -90.893509
9202750000 -1.0246413 125.85909 -9.265276 -71.703117 -9.250514 -72.961243 0.052309182 -90.873749
9202812500 -1.0219523 125.87708 -9.2614393 -71.711365 -9.2449055 -72.899849 0.060614072 -90.886559
9202875000 -1.030524 125.87823 -9.2648754 -71.664528 -9.2386084 -72.960152 0.066432662 -90.850349
9202937500 -1.0252049 125.87111 -9.2606297 -71.748482 -9.2482405 -72.955368 0.056496475 -90.852081
9203000000 -1.0233353 125.84808 -9.2565937 -71.695801 -9.2399263 -72.943161 0.064422175 -90.820053
9203062500 -1.0177099 125.83366 -9.2622814 -71.728157 -9.2461576 -72.965645 0.055968195 -90.846382
9203125000 -1.0237139 125.84879 -9.2523241 -71.725487 -9.2480669 -72.961586 0.058813393 -90.826736
9203187500 -1.0217177 125.84259 -9.2534533 -71.687607 -9.2353525 -72.943954 0.061117068 -90.774315
9203250000 -1.0236377 125.82058 -9.2492971 -71.660347 -9.2331152 -72.942772 0.064773478 -90.782616
9203312500 -1.024362 125.79044 -9.2493401 -71.685799 -9.2384434 -72.98452 0.060396489 -90.778954
9203375000 -1.0254072 125.77705 -9.2481289 -71.689522 -9.2345552 -72.914978 0.062807292 -90.735146
9203437500 -1.0205499 125.76488 -9.2519178 -71.613289 -9.2378254 -72.925133 0.062222283 -90.706017
9203500000 -1.0204382 125.75896 -9.2441025 -71.582054 -9.2250271 -72.868675 0.063118108 -90.644669
9203562500 -1.0212451 125.75439 -9.247817 -71.633553 -9.2327595 -72.86512 0.059176635 -90.636642
9203625000 -1.0158496 125.73493 -9.2438993 -71.646584 -9.2299557 -72.936958 0.059775144 -90.660004
9203687500 -1.019642 125.73697 -9.2487726 -71.647011 -9.2250948 -72.948433 0.062416896 -90.667137
9203750000 -1.0214932 125.69887 -9.2539063 -71.668823 -9.2249784 -72.942795 0.057271175 -90.659142
9203812500 -1.0149564 125.69539 -9.25348 -71.747444 -9.230402 -73.002884 0.049762506 -90.672577
9203875000 -1.0128663 125.67738 -9.2490997 -71.664436 -9.2262697 -72.948601 0.057410151 -90.622185
9203937500 -1.0122561 125.68742 -9.2460623 -71.722427 -9.2215424 -72.909393 0.058335826 -90.663849
9204000000 -1.0139649 125.68529 -9.2495108 -71.67231 -9.2279358 -72.953293 0.054690905 -90.637611
9204062500 -1.0203969 125.65931 -9.2578669 -71.632423 -9.22264 -72.912247 0.052757803 -90.596375
9204125000 -1.0151484 125.65692 -9.2464237 -71.656075 -9.2313128 -72.905533 0.050443437 -90.590904
9204187500 -1.0131561 125.65995 -9.2420235 -71.625908 -9.2332697 -72.905548 0.042176686 -90.512497
9204250000 -1.0116038 125.61018 -9.2455997 -71.595818 -9.2287035 -72.857185 0.044635743 -90.466942
9204312500 -1.0151987 125.60391 -9.2371292 -71.626381 -9.2280245 -72.921288 0.051311258 -90.501122
9204375000 -1.0195347 125.568 -9.2461958 -71.647896 -9.2338104 -72.855492 0.054074474 -90.429024
9204437500 -1.0173434 125.5428 -9.2417755 -71.627434 -9.2269621 -72.936264 0.058468055 -90.440346
9204500000 -1.0202093 125.51759 -9.2434702 -71.628395 -9.2177935 -72.837341 0.062836371 -90.346809
9204562500 -1.0184855 125.50921 -9.2366314 -71.641747 -9.2240257 -72.898697 0.05589316 -90.345192
9204625000 -1.0221072 125.46039 -9.236742 -71.675613 -9.2252874 -72.865608 0.061644159 -90.328789
9204687500 -1.0153173 125.48315 -9.2322903 -71.605141 -9.2248039 -72.880882 0.05476626 -90.339211
9204750000 -1.0207863 125.44945 -9.2399817 -71.640732 -9.2222691 -72.905441 0.06100741 -90.305122
9204812500 -1.0143342 125.45861 -9.2425985 -71.666016 -9.2170658 -72.837196 0.059950985 -90.302071
9204875000 -1.0177743 125.45425 -9.2430058 -71.655609 -9.2113123 -72.848518 0.060370155 -90.299011
9204937500 -1.0123526 125.4419 -9.2388964 -71.627106 -9.2191744 -72.937294 0.053396773 -90.327713
9205000000 -1.0111468 125.43164 -9.2329388 -71.55574 -9.2203531 -72.884361 0.056081872 -90.250443
9205062500 -1.0173922 125.40934 -9.2357378 -71.670921 -9.2188044 -72.873711 0.051182527 -90.227791
9205125000 -1.0207415 125.38824 -9.2341003 -71.621994 -9.2187061 -72.887733 0.052937366 -90.23774
9205187500 -1.022022 125.381 -9.2260628 -71.650551 -9.2189407 -72.897705 0.049190845 -90.180862
9205250000 -1.0231624 125.37532 -9.2275734 -71.624573 -9.2158566 -72.95092 0.051224489 -90.207726
9205312500 -1.029326 125.3386 -9.2243118 -71.646019 -9.2197037 -72.903725 0.050711159 -90.154747
9205375000 -1.0250766 125.32294 -9.2277317 -71.66008 -9.2060976 -72.922234 0.053703967 -90.159187
9205437500 -1.0229771 125.34442 -9.2292624 -71.574211 -9.2124157 -72.945969 0.056490924 -90.140198
9205500000 -1.0251645 125.30177 -9.225359 -71.601074 -9.2091665 -72.899185 0.060112126 -90.139664
9205562500 -1.0227014 125.26479 -9.2213478 -71.660645 -9.2141323 -72.934616 0.051213454 -90.123909
9205625000 -1.023298 125.28743 -9.2299185 -71.595871 -9.2072601 -72.933884 0.05719471 -90.10955
9205687500 -1.0208738 125.26772 -9.2258015 -71.636681 -9.2088499 -72.879501 0.059390143 -90.068336
9205750000 -1.0221382 125.26899 -9.2272797 -71.634453 -9.2094431 -72.884621 0.053665578 -90.04203
9205812500 -1.0216192 125.22058 -9.234869 -71.60424 -9.2158613 -72.874039 0.054298583 -90.043427
9205875000 -1.0208174 125.22506 -9.2284098 -71.640434 -9.2035389 -72.875732 0.05880459 -90.022194
9205937500 -1.017409 125.21946 -9.2331047 -71.637085 -9.2103691 -72.867447 0.051568851 -90.001427
9206000000 -1.0188646 125.20206 -9.2394276 -71.641785 -9.2105055 -72.832169 0.047507901 -90.02179
9206062500 -1.0189435 125.17252 -9.2336855 -71.665321 -9.2109327 -72.902489 0.051877707 -90.028854
9206125000 -1.0163201 125.17533 -9.2328176 -71.651039 -9.2100391 -72.882416 0.051468201 -89.986938
9206187500 -1.0154431 125.14469 -9.2279806 -71.592903 -9.2083588 -72.818008 0.05996963 -89.965637
9206250000 -1.0179201 125.13422 -9.2264891 -71.597893 -9.2078085 -72.750023 0.050773859 -89.939636
9206312500 -1.0179048 125.13152 -9.2272043 -71.612778 -9.2044487 -72.761917 0.055995263 -89.94104
9206375000 -1.0245868 125.12355 -9.2250404 -71.55999 -9.2143345 -72.78936 0.046376791 -89.942192
9206437500 -1.0178577 125.08765 -9.2192497 -71.636818 -9.2020178 -72.753952 0.048573777 -89.892982
9206500000 -1.0161877 125.11949 -9.2184954 -71.583611 -9.2082005 -72.778061 0.053199481 -89.865227
9206562500 -1.0192677 125.06234 -9.2119503 -71.620453 -9.2103262 -72.777504 0.045921188 -89.860657
9206625000 -1.0159647 125.04704 -9.216383 -71.599762 -9.206296 -72.730934 0.053762976 -89.806938
9206687500 -1.0168225 125.07968 -9.2210703 -71.582146 -9.2016506 -72.785583 0.045415007 -89.795898
9206750000 -1.0182717 125.02085 -9.219533 -71.594002 -9.2057743 -72.813454 0.043889742 -89.770134
9206812500 -1.0214322 125.04119 -9.2262535 -71.57534 -9.204215 -72.828224 0.049144793 -89.764442
9206875000 -1.0178808 125.01966 -9.2186899 -71.590965 -9.199049 -72.82016 0.047875095 -89.724953
9206937500 -1.0190829 124.97442 -9.2220173 -71.60363 -9.2083759 -72.840347 0.042059954 -89.723824
9207000000 -1.0224296 124.96049 -9.2126789 -71.560074 -9.2109289 -72.818733 0.05104585 -89.725403
9207062500 -1.0239556 124.98145 -9.2150478 -71.56028 -9.1985979 -72.806488 0.053918719 -89.689102
9207125000 -1.0179187 124.93103 -9.2164516 -71.585602 -9.1971693 -72.897644 0.056114081 -89.734039
9207187500 -1.0264539 124.94647 -9.2216244 -71.605774 -9.1950169 -72.858383 0.059511017 -89.714935
9207250000 -1.0248868 124.89371 -9.2117443 -71.598236 -9.1925049 -72.828041 0.059776183 -89.676781
9207312500 -1.0223008 124.94112 -9.2129898 -71.550453 -9.1919537 -72.849228 0.060305934 -89.640182
9207375000 -1.0189576 124.92265 -9.2160645 -71.619499 -9.1972866 -72.857819 0.052933671 -89.648232
9207437500 -1.0188142 124.87412 -9.201972 -71.558311 -9.2005844 -72.822289 0.050544467 -89.638603
9207500000 -1.0211021 124.83654 -9.2121096 -71.605415 -9.1958914 -72.841728 0.048006617 -89.583458
9207562500 -1.0179205 124.84963 -9.2090263 -71.611908 -9.1906738 -72.817818 0.05335898 -89.56942
9207625000 -1.0241021 124.82204 -9.2115631 -71.613014 -9.1919565 -72.837349 0.052188296 -89.582703
9207687500 -1.0197408 124.83147 -9.2125931 -71.57737 -9.1995525 -72.830338 0.044667739 -89.556099
9207750000 -1.0179605 124.81751 -9.2160749 -71.602188 -9.2083464 -72.840897 0.037433267 -89.502892
9207812500 -1.0166192 124.79544 -9.2045784 -71.61673 -9.2065153 -72.843346 0.04110685 -89.514954
9207875000 -1.0145668 124.8448 -9.2072525 -71.601944 -9.2011366 -72.884789 0.039938387 -89.524445
9207937500 -1.0188426 124.80968 -9.2085772 -71.593681 -9.1937122 -72.76236 0.044400759 -89.455391
9208000000 -1.0225241 124.76534 -9.223731 -71.656364 -9.1990461 -72.829971 0.035864811 -89.435432
9208062500 -1.0214807 124.74645 -9.204915 -71.572525 -9.2052011 -72.763184 0.039226174 -89.396591
9208125000 -1.016271 124.76029 -9.2008038 -71.505936 -9.1998148 -72.785477 0.03884735 -89.398201
9208187500 -1.0183672 124.79082 -9.210803 -71.477524 -9.1972656 -72.789192 0.038982045 -89.399719
9208250000 -1.0195134 124.71484 -9.2075033 -71.585846 -9.1987696 -72.795914 0.0351834 -89.355942
9208312500 -1.0167373 124.72256 -9.1967897 -71.480225 -9.1940117 -72.807404 0.042494647 -89.346214
9208375000 -1.0150025 124.7094 -9.1935663 -71.506927 -9.1933374 -72.86409 0.045045085 -89.316841
9208437500 -1.0259306 124.69904 -9.2000351 -71.491592 -9.1972456 -72.775185 0.038329795 -89.301163
9208500000 -1.0171013 124.66402 -9.1995649 -71.508812 -9.193881 -72.803139 0.044866927 -89.337646
9208562500 -1.0181149 124.67325 -9.1991405 -71.489555 -9.200139 -72.792542 0.03804262 -89.295357
9208625000 -1.0191581 124.63618 -9.1957102 -71.55162 -9.206213 -72.768936 0.039022267 -89.299103
9208687500 -1.0250467 124.66102 -9.2084274 -71.446556 -9.1984472 -72.766937 0.029355161 -89.308266
9208750000 -1.0183588 124.65925 -9.2031116 -71.51606 -9.1978731 -72.808578 0.044128459 -89.249878
9208812500 -1.0202236 124.61335 -9.1970129 -71.509247 -9.1982059 -72.731659 0.039676055 -89.211617
9208875000 -1.0178227 124.61011 -9.195631 -71.563316 -9.1942568 -72.789665 0.043490823 -89.247223
9208937500 -1.0181862 124.61256 -9.1965408 -71.439713 -9.1960869 -72.731239 0.037959643 -89.135666
9209000000 -1.0175982 124.60343 -9.1968346 -71.471611 -9.1940985 -72.754822 0.041174717 -89.150734
9209062500 -1.0192654 124.60546 -9.2035036 -71.466637 -9.1803303 -72.771255 0.047224019 -89.140068
9209125000 -1.0219643 124.57845 -9.1972532 -71.549866 -9.1855621 -72.785706 0.041053437 -89.136032
9209187500 -1.0126346 124.54755 -9.1961098 -71.511963 -9.173584 -72.708031 0.041893769 -89.09449
9209250000 -1.0117744 124.52994 -9.1982956 -71.488098 -9.1817064 -72.745155 0.038177405 -89.083923
9209312500 -1.0153928 124.50043 -9.1970263 -71.512611 -9.1742411 -72.719917 0.039759532 -88.99601
9209375000 -1.0126934 124.48811 -9.1920795 -71.477829 -9.1765766 -72.705093 0.029184239 -89.001228
9209437500 -1.0097127 124.4515 -9.1988964 -71.553787 -9.178236 -72.765625 0.032169707 -88.987633
9209500000 -1.0100545 124.40007 -9.1946774 -71.496666 -9.1721001 -72.690239 0.033745646 -88.945183
9209562500 -1.0151852 124.42102 -9.1973124 -71.459373 -9.1744356 -72.74614 0.033907685 -88.960419
9209625000 -1.0189373 124.39216 -9.1973495 -71.551689 -9.1829185 -72.756897 0.031496692 -88.952896
9209687500 -1.0147223 124.38857 -9.1888475 -71.50071 -9.1724043 -72.758286 0.036002625 -88.902763
9209750000 -1.0214086 124.40137 -9.1842537 -71.496468 -9.1755791 -72.853424 0.034360737 -88.966362
9209812500 -1.0176322 124.37686 -9.1855164 -71.44371 -9.1730032 -72.79364 0.041307174 -88.951813
9209875000 -1.0206678 124.36897 -9.1790543 -71.562874 -9.176939 -72.814392 0.038315717 -88.939201
9209937500 -1.0227617 124.35895 -9.1896248 -71.49015 -9.1714582 -72.774994 0.040529095 -88.88723
9210000000 -1.0188127 124.30745 -9.1948948 -71.512825 -9.1673946 -72.778214 0.043476272 -88.895813
9210062500 -1.0193561 124.29725 -9.1862984 -71.523529 -9.1698179 -72.799355 0.037101243 -88.923813
9210125000 -1.0146979 124.30966 -9.1878576 -71.499016 -9.1741905 -72.794899 0.038896516 -88.893066
9210187500 -1.0192108 124.26907 -9.1915379 -71.513847 -9.1700401 -72.740402 0.034660313 -88.874146
9210250000 -1.0159372 124.26595 -9.1974621 -71.531815 -9.1751328 -72.764549 0.032359831 -88.878975
9210312500 -1.0121037 124.22099 -9.1875639 -71.54789 -9.1717319 -72.765358 0.038802192 -88.829926
9210375000 -1.0170913 124.24685 -9.1935911 -71.511421 -9.1773052 -72.670143 0.027928626 -88.821831
9210437500 -1.0193655 124.27666 -9.1966457 -71.448586 -9.1665115 -72.724571 0.037079386 -88.782204
9210500000 -1.0163823 124.24921 -9.1949759 -71.471718 -9.1706829 -72.707367 0.028241687 -88.769592
9210562500 -1.013225 124.24313 -9.1811733 -71.446815 -9.163949 -72.638687 0.036557894 -88.685745
9210625000 -1.0119585 124.22464 -9.1825542 -71.473495 -9.1704369 -72.684357 0.031019798 -88.710297
9210687500 -1.0167387 124.21716 -9.1838493 -71.472389 -9.1664324 -72.646278 0.028716031 -88.703064
9210750000 -1.0090618 124.18987 -9.1800003 -71.470146 -9.1793528 -72.620842 0.022912249 -88.675194
9210812500 -1.0124263 124.19621 -9.184001 -71.423462 -9.1663122 -72.601547 0.025628075 -88.629578
9210875000 -1.0099936 124.17765 -9.1764603 -71.435799 -9.1669865 -72.676422 0.026292715 -88.650055
9210937500 -1.0153226 124.14556 -9.178112 -71.369705 -9.1652002 -72.614334 0.026657838 -88.594376
9211000000 -1.0188664 124.1184 -9.1818943 -71.471878 -9.1658468 -72.672432 0.025945652 -88.639427
9211062500 -1.0153213 124.0867 -9.1739283 -71.466003 -9.1689043 -72.690475 0.023477996 -88.621849
9211125000 -1.0205275 124.07588 -9.1783648 -71.460655 -9.171814 -72.664474 0.01966325 -88.538857
9211187500 -1.016567 124.06129 -9.1814022 -71.377701 -9.1779823 -72.65387 0.017690362 -88.50499
9211250000 -1.0207609 124.03258 -9.1799173 -71.411514 -9.1688404 -72.609924 0.021983529 -88.484428
9211312500 -1.0194405 124.00446 -9.176692 -71.466248 -9.1684265 -72.647133 0.021390604 -88.495247
9211375000 -1.0177944 124.04237 -9.1778326 -71.433113 -9.1695337 -72.634804 0.025623303 -88.450401
9211437500 -1.017241 123.97588 -9.1753387 -71.432877 -9.1737375 -72.628906 0.027870474 -88.43708
9211500000 -1.0187576 123.9687 -9.1765451 -71.498459 -9.1680784 -72.645508 0.033119626 -88.427269
9211562500 -1.0159864 123.97787 -9.1722851 -71.399101 -9.1650867 -72.630791 0.033544838 -88.423042
9211625000 -1.0186026 123.99363 -9.1713638 -71.431358 -9.1717072 -72.654152 0.03436644 -88.404541
9211687500 -1.0129385 123.9777 -9.1674652 -71.419861 -9.1590595 -72.67041 0.035554662 -88.451218
9211750000 -1.0142297 124.00956 -9.1705999 -71.383636 -9.1639757 -72.704155 0.028878095 -88.444847
9211812500 -1.0142727 123.929 -9.166523 -71.463142 -9.1607418 -72.736725 0.036149379 -88.451836
9211875000 -1.0119575 123.91652 -9.1709538 -71.423943 -9.1589451 -72.661514 0.030344583 -88.367607
9211937500 -1.0103685 123.87861 -9.1660738 -71.438393 -9.1506186 -72.706963 0.037325464 -88.372269
9212000000 -1.0092064 123.85884 -9.1694975 -71.457375 -9.1593781 -72.694023 0.034205001 -88.373199
9212062500 -1.0051328 123.84192 -9.1677313 -71.467789 -9.1582241 -72.697052 0.033412576 -88.302353
9212125000 -1.0027126 123.83598 -9.1635361 -71.431358 -9.1543055 -72.613808 0.035706919 -88.268326
9212187500 -1.00407 123.83067 -9.1678143 -71.426773 -9.1575928 -72.629784 0.032550998 -88.305084
9212250000 -1.0072306 123.80354 -9.1608315 -71.369225 -9.1539736 -72.614944 0.028893424 -88.260643
9212312500 -1.012653 123.79815 -9.170084 -71.445831 -9.1508818 -72.604935 0.028589033 -88.231682
