!Agilent Technologies,N5242A,MY51221714,A.09.90.19
!Agilent N5242A: A.09.90.19
!Date: Friday, February 02, 2024 13:14:44
!Correction: S11(Full 2 Port(1,2)) 
!S21(Full 2 Port(1,2)) 
!S12(Full 2 Port(1,2)) 
!S22(Full 2 Port(1,2)) 
!S2P File: Measurements: S11, S21, S12, S22:
# Hz S  dB   R 50
9200000000 -1.0425217 126.28222 -9.2334299 -72.115662 -9.2014694 -73.539482 0.034839272 -91.98175
9200062500 -1.0498857 126.30174 -9.2433424 -72.144226 -9.2067137 -73.55146 0.033473887 -91.943596
9200125000 -1.0443392 126.28844 -9.22999 -72.106819 -9.2032251 -73.543106 0.031723168 -91.904434
9200187500 -1.0448847 126.25053 -9.2317247 -72.166138 -9.2056723 -73.483841 0.032970119 -91.893784
9200250000 -1.0479194 126.19408 -9.2295694 -72.211044 -9.2027969 -73.491943 0.034719445 -91.916924
9200312500 -1.0510738 126.17984 -9.2317114 -72.202652 -9.2072496 -73.510834 0.036919922 -91.866188
9200375000 -1.0500227 126.15992 -9.2367563 -72.194656 -9.2042789 -73.562469 0.034717608 -91.904114
9200437500 -1.0503742 126.14988 -9.2334394 -72.228241 -9.1988039 -73.596268 0.035129189 -91.88929
9200500000 -1.0469433 126.11932 -9.2319384 -72.230591 -9.2100992 -73.508194 0.035179876 -91.839561
9200562500 -1.0457323 126.11719 -9.2320471 -72.228981 -9.2005682 -73.515236 0.039147675 -91.815559
9200625000 -1.041072 126.11022 -9.2221813 -72.304031 -9.2039537 -73.600349 0.034094907 -91.824768
9200687500 -1.0459173 126.11255 -9.2287683 -72.197708 -9.1983423 -73.532257 0.042087793 -91.769135
9200750000 -1.0467956 126.09071 -9.2231407 -72.219208 -9.192811 -73.519524 0.042736951 -91.77346
9200812500 -1.0427678 126.15015 -9.2226028 -72.200081 -9.1968861 -73.521851 0.047485717 -91.756905
9200875000 -1.0423543 126.11993 -9.2164984 -72.179054 -9.1920643 -73.53334 0.049805742 -91.742027
9200937500 -1.0469768 126.08646 -9.2202492 -72.178886 -9.2004099 -73.500938 0.046907481 -91.733658
9201000000 -1.0485107 126.04747 -9.22223 -72.216698 -9.2023516 -73.545387 0.045433156 -91.725372
9201062500 -1.0486884 126.05347 -9.2207079 -72.277611 -9.2051115 -73.498398 0.037931036 -91.733055
9201125000 -1.0504349 125.99741 -9.2158051 -72.239563 -9.2052984 -73.58831 0.040285368 -91.779411
9201187500 -1.0519416 125.97836 -9.2148876 -72.229057 -9.2050858 -73.539719 0.041552126 -91.768341
9201250000 -1.0464685 125.95663 -9.2135782 -72.221085 -9.2144346 -73.504654 0.037455291 -91.735924
9201312500 -1.0498915 125.91578 -9.2192221 -72.294518 -9.2022772 -73.482925 0.03719132 -91.733917
9201375000 -1.0515655 125.90617 -9.220088 -72.30117 -9.1976786 -73.496895 0.036169637 -91.698158
9201437500 -1.0493089 125.88615 -9.2246323 -72.235916 -9.2021112 -73.532021 0.034307599 -91.671356
9201500000 -1.0513304 125.85558 -9.2158136 -72.269348 -9.1999693 -73.501457 0.044223554 -91.653526
9201562500 -1.0474149 125.85973 -9.2145853 -72.289574 -9.1922159 -73.515343 0.043403383 -91.611351
9201625000 -1.0510317 125.84771 -9.2169275 -72.280891 -9.1934557 -73.609131 0.035521138 -91.597969
9201687500 -1.0468383 125.85722 -9.2207575 -72.198021 -9.1896152 -73.49144 0.034935061 -91.510406
9201750000 -1.0534693 125.82039 -9.2185049 -72.241409 -9.1896887 -73.513443 0.033060245 -91.542053
9201812500 -1.051879 125.82345 -9.2147589 -72.20118 -9.1895504 -73.458733 0.036392324 -91.514191
9201875000 -1.0497665 125.8387 -9.2183352 -72.174408 -9.1981859 -73.467178 0.023345482 -91.457901
9201937500 -1.0504011 125.81399 -9.2271214 -72.198227 -9.1884508 -73.462677 0.030716434 -91.44326
9202000000 -1.0466524 125.7663 -9.2216749 -72.181122 -9.1891899 -73.451797 0.03056022 -91.439651
9202062500 -1.048092 125.79704 -9.2113867 -72.240669 -9.1945648 -73.405624 0.028418949 -91.410812
9202125000 -1.0480205 125.74435 -9.2178411 -72.172585 -9.1898279 -73.487511 0.028800342 -91.406227
9202187500 -1.0459813 125.75285 -9.2175026 -72.151489 -9.1930885 -73.4618 0.026652507 -91.336716
9202250000 -1.0472853 125.70022 -9.211421 -72.210518 -9.1903267 -73.470467 0.029025745 -91.346237
9202312500 -1.0484456 125.73607 -9.2116098 -72.186234 -9.1884069 -73.469978 0.027327972 -91.363068
9202375000 -1.0449024 125.71495 -9.207695 -72.220886 -9.1904631 -73.426025 0.021996737 -91.335022
9202437500 -1.0541714 125.67368 -9.215395 -72.166008 -9.1883535 -73.490074 0.026872108 -91.32666
9202500000 -1.0481198 125.66068 -9.2087679 -72.171127 -9.1878242 -73.479828 0.028567949 -91.311455
9202562500 -1.0507219 125.689 -9.2180347 -72.153816 -9.1968842 -73.408005 0.025711332 -91.283257
9202625000 -1.0515491 125.68062 -9.2067881 -72.187454 -9.1885719 -73.535835 0.025000311 -91.305115
9202687500 -1.0509713 125.64404 -9.2120266 -72.17495 -9.1885147 -73.395584 0.024763456 -91.202927
9202750000 -1.0429105 125.61374 -9.1933384 -72.186928 -9.187026 -73.406326 0.025799053 -91.226654
9202812500 -1.0540843 125.62565 -9.2063684 -72.24247 -9.1780634 -73.45462 0.029788533 -91.219444
9202875000 -1.0485495 125.67715 -9.2054329 -72.118324 -9.1887283 -73.435257 0.024447763 -91.187027
9202937500 -1.0520658 125.63188 -9.2095509 -72.112167 -9.1898756 -73.432472 0.024247345 -91.18898
9203000000 -1.0522054 125.62566 -9.2008638 -72.200981 -9.1961203 -73.429955 0.023502562 -91.150566
9203062500 -1.0484776 125.61011 -9.2019796 -72.167671 -9.1904135 -73.416504 0.027717004 -91.155441
9203125000 -1.0444182 125.60102 -9.2016315 -72.138145 -9.1794043 -73.460915 0.023803353 -91.183426
9203187500 -1.0493286 125.59479 -9.2041483 -72.149002 -9.1842947 -73.425888 0.023881841 -91.129425
9203250000 -1.0472351 125.56459 -9.1960392 -72.190338 -9.1940079 -73.448296 0.02057015 -91.102509
9203312500 -1.0480552 125.56493 -9.1953878 -72.08992 -9.185112 -73.413017 0.021487828 -91.031631
9203375000 -1.0450362 125.5407 -9.1975451 -72.142685 -9.1935453 -73.437859 0.021309182 -91.078644
9203437500 -1.0502238 125.51833 -9.1918173 -72.117126 -9.1797972 -73.36097 0.027157756 -91.002602
9203500000 -1.046762 125.52198 -9.1920471 -72.152832 -9.1776772 -73.424332 0.021029823 -91.038666
9203562500 -1.0452945 125.48614 -9.1905603 -72.148979 -9.176796 -73.366135 0.030945418 -90.969269
9203625000 -1.0404826 125.47753 -9.1973047 -72.174553 -9.1738205 -73.407455 0.023533517 -91.007698
9203687500 -1.0399432 125.49493 -9.1841555 -72.12487 -9.1783009 -73.424332 0.025493314 -91.00412
9203750000 -1.0407513 125.49805 -9.1952486 -72.13044 -9.1822119 -73.403709 0.02650659 -91.01239
9203812500 -1.0420562 125.44968 -9.200407 -72.142578 -9.1674061 -73.483253 0.024953043 -91.016396
9203875000 -1.0408564 125.50466 -9.1935062 -72.082169 -9.1627932 -73.400421 0.028666236 -90.988625
9203937500 -1.0367593 125.442 -9.194623 -72.132507 -9.1759129 -73.447685 0.017257666 -90.947624
9204000000 -1.0383433 125.44228 -9.1895561 -72.155045 -9.174942 -73.449455 0.01810896 -90.999268
9204062500 -1.0384698 125.43667 -9.1942778 -72.167992 -9.1646929 -73.41925 0.014958935 -90.930618
9204125000 -1.0378926 125.41541 -9.1838417 -72.141762 -9.1741915 -73.408371 0.016550783 -90.899872
9204187500 -1.0424862 125.39155 -9.1958351 -72.081825 -9.1734667 -73.348015 0.018445443 -90.876694
9204250000 -1.040947 125.39371 -9.1899338 -72.088684 -9.178277 -73.339363 0.011533819 -90.861031
9204312500 -1.0466111 125.3721 -9.1919079 -72.051796 -9.1750851 -73.36039 0.016397884 -90.776901
9204375000 -1.0421537 125.35275 -9.1881332 -72.019936 -9.1703749 -73.352699 0.013558502 -90.782074
9204437500 -1.0441729 125.31109 -9.1829863 -72.119934 -9.174325 -73.324623 0.01942342 -90.726379
9204500000 -1.0413307 125.28604 -9.1796865 -72.080589 -9.1658955 -73.427078 0.022526033 -90.794853
9204562500 -1.0460418 125.27483 -9.1900969 -72.150482 -9.1701765 -73.378708 0.02002763 -90.711067
9204625000 -1.0447648 125.24915 -9.1810999 -72.1175 -9.1611853 -73.371017 0.023229914 -90.668724
9204687500 -1.0430832 125.22 -9.1821308 -72.158661 -9.1616907 -73.365311 0.02558914 -90.655609
9204750000 -1.0438113 125.21532 -9.1852989 -72.158051 -9.1689491 -73.401146 0.018124819 -90.655289
9204812500 -1.040046 125.16876 -9.1849203 -72.09536 -9.1580553 -73.359344 0.024957411 -90.658073
9204875000 -1.0394732 125.20558 -9.1807013 -72.137375 -9.1702452 -73.328697 0.019545993 -90.648346
9204937500 -1.0412047 125.20285 -9.1775923 -72.037933 -9.1632681 -73.384697 0.017993128 -90.649628
9205000000 -1.0390182 125.22034 -9.1804667 -72.006325 -9.1643629 -73.365685 0.018102171 -90.608353
9205062500 -1.0417997 125.17223 -9.1731501 -72.102867 -9.1566238 -73.349205 0.027272265 -90.595985
9205125000 -1.0442506 125.17863 -9.1687107 -72.085983 -9.1688843 -73.398102 0.011913192 -90.560089
9205187500 -1.0472946 125.15118 -9.178319 -72.084167 -9.1601229 -73.452835 0.0088964198 -90.588097
9205250000 -1.0459627 125.12172 -9.1708174 -72.08416 -9.1593199 -73.439346 0.01367227 -90.563774
9205312500 -1.0515003 125.10114 -9.1736603 -72.17112 -9.1595287 -73.457893 0.015991969 -90.533897
9205375000 -1.046996 125.1074 -9.1698885 -72.120232 -9.1616774 -73.471619 0.014867797 -90.469597
9205437500 -1.0506142 125.06693 -9.1645031 -72.123192 -9.1669664 -73.446907 0.018922789 -90.498405
9205500000 -1.0507498 125.08508 -9.1761732 -72.105225 -9.157094 -73.417915 0.017455878 -90.452721
9205562500 -1.047372 125.04031 -9.1720934 -72.112473 -9.1529493 -73.442924 0.019255528 -90.488945
9205625000 -1.0475328 125.03381 -9.1735716 -72.140968 -9.1461563 -73.427322 0.019702258 -90.422447
9205687500 -1.0455725 125.05517 -9.167799 -72.076904 -9.1541376 -73.478584 0.022431454 -90.447678
9205750000 -1.0455906 125.03013 -9.1721849 -72.101624 -9.15096 -73.359283 0.028878387 -90.403214
9205812500 -1.043681 125.01156 -9.1677828 -72.07547 -9.1480627 -73.347595 0.020875609 -90.408173
9205875000 -1.0387549 124.98476 -9.1723499 -72.16333 -9.1473131 -73.375702 0.02122758 -90.417381
9205937500 -1.0485786 124.95583 -9.1806879 -72.059761 -9.1420984 -73.372116 0.023552524 -90.342506
9206000000 -1.0444846 124.98387 -9.1776047 -72.085564 -9.158577 -73.378082 0.022011932 -90.402496
9206062500 -1.0362303 124.95313 -9.1756983 -72.062759 -9.1567602 -73.320953 0.015556545 -90.344124
9206125000 -1.0432874 124.89462 -9.1814613 -72.164055 -9.1560707 -73.349998 0.01400655 -90.286552
9206187500 -1.044041 124.90263 -9.1685486 -72.05722 -9.1499748 -73.33905 0.016497163 -90.297997
9206250000 -1.0425639 124.90636 -9.1709919 -72.019447 -9.1597033 -73.309402 0.017315399 -90.293724
9206312500 -1.044747 124.86621 -9.165658 -72.076866 -9.164465 -73.317406 0.018306555 -90.264603
9206375000 -1.0413862 124.87072 -9.167593 -72.089455 -9.1561928 -73.278839 0.013797713 -90.291939
9206437500 -1.0422444 124.84174 -9.1626387 -72.129555 -9.1503248 -73.260948 0.016065957 -90.253792
9206500000 -1.04705 124.85133 -9.1651516 -72.108124 -9.153573 -73.241776 0.0088560851 -90.188286
9206562500 -1.0450592 124.81744 -9.1557112 -72.078438 -9.1529751 -73.268639 0.014680601 -90.18779
9206625000 -1.0399196 124.83611 -9.1621361 -72.076538 -9.1483545 -73.295143 0.013954333 -90.166718
9206687500 -1.0410094 124.78357 -9.1605177 -72.138733 -9.1519804 -73.322243 0.011511195 -90.169106
9206750000 -1.0416467 124.80212 -9.1642628 -72.030533 -9.1413965 -73.368149 0.012886176 -90.170898
9206812500 -1.0412272 124.79024 -9.1607609 -72.050873 -9.152421 -73.286942 0.0041755713 -90.077255
9206875000 -1.0444028 124.78638 -9.1659479 -72.076515 -9.1455765 -73.343216 0.01123498 -90.043976
9206937500 -1.050773 124.78509 -9.1653566 -72.04747 -9.1311512 -73.301704 0.021170085 -90.033737
9207000000 -1.0434123 124.74865 -9.1602879 -72.018776 -9.1406174 -73.368637 0.016333517 -90.042656
9207062500 -1.045416 124.7549 -9.1545219 -72.052994 -9.1513672 -73.324951 0.014750758 -90.028023
9207125000 -1.0487216 124.70898 -9.1642666 -72.103493 -9.1452694 -73.370506 0.019193415 -90.068459
9207187500 -1.0461297 124.69769 -9.1554565 -72.087799 -9.1520519 -73.317482 0.02104017 -90.036255
9207250000 -1.0487218 124.69511 -9.1527224 -72.032608 -9.1397095 -73.326607 0.025672456 -90.019188
9207312500 -1.0436797 124.66886 -9.1445103 -72.085709 -9.1424284 -73.368401 0.017388707 -90.043175
9207375000 -1.0511384 124.66591 -9.161767 -72.074074 -9.1435766 -73.312767 0.025025755 -89.992111
9207437500 -1.0451995 124.6405 -9.1569729 -72.105026 -9.1311884 -73.31356 0.018270826 -89.971169
9207500000 -1.0402793 124.64133 -9.1495581 -72.077309 -9.1393976 -73.358421 0.016504956 -89.949875
9207562500 -1.0396752 124.58007 -9.1504021 -72.122551 -9.1388302 -73.321114 0.0078822244 -89.944748
9207625000 -1.0424711 124.59825 -9.1468744 -72.07943 -9.1373119 -73.349327 0.016526574 -89.911034
9207687500 -1.0440549 124.60053 -9.1588106 -72.001411 -9.1389236 -73.326057 0.011589258 -89.895103
9207750000 -1.0487947 124.57577 -9.1657934 -72.057472 -9.1492472 -73.348343 0.0036673844 -89.889481
9207812500 -1.0449748 124.56051 -9.1592932 -72.028473 -9.145318 -73.318863 0.0040912721 -89.856895
9207875000 -1.0423319 124.57622 -9.1575499 -72.068138 -9.1465616 -73.33828 0.0062548923 -89.816635
9207937500 -1.041159 124.55917 -9.1564522 -72.070229 -9.1430149 -73.340889 0.0066588027 -89.83606
9208000000 -1.0491023 124.55434 -9.1473312 -72.069672 -9.1443014 -73.264999 0.0073796692 -89.802017
9208062500 -1.0428494 124.50385 -9.1479359 -72.040619 -9.1375036 -73.278671 0.0082173236 -89.789192
9208125000 -1.0422682 124.5326 -9.1462069 -72.039108 -9.1376886 -73.276268 0.010845019 -89.754059
9208187500 -1.0392286 124.50127 -9.1482172 -72.035324 -9.1439133 -73.305412 0.0047051501 -89.740105
9208250000 -1.0459793 124.47346 -9.147006 -71.986107 -9.1432762 -73.295433 0.0059756949 -89.67849
9208312500 -1.0451679 124.46681 -9.1516685 -72.025452 -9.1335297 -73.317345 0.012529512 -89.680748
9208375000 -1.0415083 124.45318 -9.1409073 -72.009644 -9.1356182 -73.310844 0.0101544 -89.669655
9208437500 -1.0418507 124.4482 -9.1514616 -71.975868 -9.1415205 -73.272934 0.0048254263 -89.645599
9208500000 -1.0493474 124.46413 -9.1467342 -71.986038 -9.1349983 -73.282112 0.006273773 -89.603271
9208562500 -1.0458422 124.42695 -9.1472778 -72.032005 -9.1421061 -73.318863 -0.0052971933 -89.665741
9208625000 -1.0430509 124.45036 -9.142457 -71.948357 -9.1431217 -73.249931 0.00017367212 -89.639847
9208687500 -1.0410178 124.42418 -9.1379786 -71.985512 -9.1463833 -73.263878 -0.00010366339 -89.591805
9208750000 -1.0489666 124.40177 -9.1435938 -72.021484 -9.1338301 -73.290161 0.0082791578 -89.620064
9208812500 -1.0495273 124.40919 -9.1437254 -71.97039 -9.1351223 -73.273102 0.0138118 -89.569931
9208875000 -1.0480195 124.36434 -9.1509266 -71.984535 -9.1426811 -73.248344 0.0011503715 -89.541115
9208937500 -1.0448222 124.35959 -9.138545 -71.977699 -9.1359425 -73.297066 0.0045127571 -89.557381
9209000000 -1.0382985 124.35495 -9.1334953 -71.965462 -9.1249056 -73.2855 0.011208049 -89.516205
9209062500 -1.0373509 124.34992 -9.1413441 -71.937912 -9.1288996 -73.290131 0.0056329663 -89.45414
9209125000 -1.0428386 124.32431 -9.1433601 -71.987602 -9.1298866 -73.226219 0.0043402663 -89.407494
9209187500 -1.0363313 124.29841 -9.1438885 -71.988739 -9.1277056 -73.221291 0.0065181786 -89.447395
9209250000 -1.0419855 124.2883 -9.1416664 -72.016899 -9.1252413 -73.239761 0.0037135889 -89.415123
9209312500 -1.0356895 124.25362 -9.1409502 -71.992538 -9.1144924 -73.219666 0.0037189806 -89.374268
9209375000 -1.0330542 124.26363 -9.1357107 -71.934753 -9.1205273 -73.260635 -0.0021021964 -89.406128
9209437500 -1.0353601 124.19938 -9.1409473 -71.948723 -9.1173935 -73.222473 -0.0020929296 -89.354675
9209500000 -1.0345548 124.19122 -9.1388426 -72.038521 -9.1176901 -73.265579 -0.0012288954 -89.333633
9209562500 -1.037174 124.17819 -9.1347866 -71.99398 -9.1184359 -73.275421 -9.9799137e-005 -89.326164
9209625000 -1.0351563 124.15406 -9.1332808 -71.986465 -9.1113958 -73.215698 0.012180406 -89.290108
9209687500 -1.0430307 124.19037 -9.136796 -71.95858 -9.1242704 -73.242432 -0.0010877008 -89.276016
9209750000 -1.0398924 124.15208 -9.1294975 -72.002731 -9.1139498 -73.290726 0.0099839792 -89.291641
9209812500 -1.0473595 124.16917 -9.1369801 -71.937843 -9.1158247 -73.273384 0.0075758146 -89.281731
9209875000 -1.0493821 124.12436 -9.133193 -72.015701 -9.118289 -73.271858 0.00063323975 -89.262169
9209937500 -1.0471289 124.12246 -9.1347008 -71.934952 -9.1168985 -73.253563 -8.8103421e-005 -89.278053
9210000000 -1.043416 124.09904 -9.1365509 -71.990929 -9.1202374 -73.265594 -0.0017888257 -89.235764
9210062500 -1.0421346 124.0649 -9.1310043 -72.017456 -9.1180716 -73.280296 0.00053596584 -89.248474
9210125000 -1.0426279 124.043 -9.132988 -72.020958 -9.1178637 -73.262474 0.0027224729 -89.256386
9210187500 -1.0393572 124.04179 -9.1394682 -71.957481 -9.1211061 -73.261459 0.0011567338 -89.24147
9210250000 -1.0409831 124.04103 -9.1325092 -71.982391 -9.1192446 -73.257019 -0.0055303858 -89.223633
9210312500 -1.0439025 124.01112 -9.135952 -72.012482 -9.1135559 -73.247604 -0.0065412405 -89.173538
9210375000 -1.0390927 123.98565 -9.1322813 -71.950371 -9.1152267 -73.235321 -0.0020361852 -89.119308
9210437500 -1.0392538 124.00502 -9.1360159 -71.995041 -9.1158037 -73.210136 -0.003679889 -89.156418
9210500000 -1.0410091 123.97832 -9.1276693 -71.979401 -9.11623 -73.197044 -0.005516367 -89.080452
9210562500 -1.0415326 124.00816 -9.1300602 -71.946358 -9.1090622 -73.178314 -0.002077807 -89.07579
9210625000 -1.0402776 123.96809 -9.1346321 -71.911491 -9.1092072 -73.108612 -0.0043912069 -89.040901
9210687500 -1.0419272 123.98751 -9.1356087 -71.952126 -9.1165934 -73.159058 -0.010939336 -89.065552
9210750000 -1.040131 123.95905 -9.1350746 -71.89888 -9.1134787 -73.098755 -0.011605453 -88.98317
9210812500 -1.0407252 123.96299 -9.1295977 -71.924896 -9.1065712 -73.177071 -0.0081396382 -89.029739
9210875000 -1.0420463 123.90652 -9.1376858 -71.930977 -9.1142149 -73.136604 -0.0085878531 -88.961067
9210937500 -1.0382638 123.91975 -9.1300278 -71.923248 -9.1149302 -73.172073 -0.01225355 -88.944756
9211000000 -1.0385907 123.90949 -9.1205826 -71.877861 -9.1114073 -73.147102 -0.014909312 -88.984291
9211062500 -1.0384352 123.86668 -9.1227922 -71.908821 -9.112422 -73.12925 -0.010206175 -88.895798
9211125000 -1.0408888 123.83781 -9.1218491 -71.925941 -9.1170797 -73.122597 -0.013699421 -88.865654
9211187500 -1.0397979 123.80978 -9.1225567 -71.932709 -9.1160908 -73.140121 -0.011804357 -88.880371
9211250000 -1.0406189 123.81593 -9.1250639 -71.903381 -9.1158733 -73.128876 -0.013925079 -88.875389
9211312500 -1.0397497 123.79303 -9.1249027 -71.960922 -9.1103268 -73.15274 -0.011908835 -88.798729
9211375000 -1.0426466 123.77954 -9.1282911 -71.94162 -9.1208658 -73.114159 -0.013673856 -88.769783
9211437500 -1.0471425 123.75095 -9.1328163 -71.906166 -9.1146593 -73.153557 -0.0081456238 -88.816833
9211500000 -1.0459046 123.77136 -9.1285572 -71.879623 -9.1071463 -73.124992 0.0006698512 -88.773857
9211562500 -1.0406194 123.74287 -9.1161308 -71.900726 -9.1133814 -73.168488 -0.0067461184 -88.789284
9211625000 -1.0425905 123.76482 -9.1211243 -71.890228 -9.1094303 -73.187057 -0.0061745159 -88.780106
9211687500 -1.0432729 123.70567 -9.1170273 -71.919312 -9.1027908 -73.200424 -0.0023542042 -88.821259
9211750000 -1.0420526 123.77605 -9.1130447 -71.854103 -9.1042051 -73.212349 -0.0014816286 -88.79747
9211812500 -1.0422964 123.72314 -9.114418 -71.913742 -9.1036806 -73.195877 0.0019381564 -88.776794
9211875000 -1.0356829 123.6623 -9.1065493 -71.893326 -9.1028099 -73.215683 0.0046300725 -88.719864
9211937500 -1.0349486 123.63448 -9.1096344 -71.90519 -9.0941191 -73.125801 0.001316199 -88.713997
9212000000 -1.0366356 123.63641 -9.1073561 -71.927513 -9.1014662 -73.174995 -0.00071777211 -88.734062
9212062500 -1.0313077 123.57922 -9.1052914 -71.933121 -9.0994263 -73.167068 -0.0015609914 -88.718246
9212125000 -1.0309602 123.59964 -9.1056557 -71.891235 -9.1000471 -73.131325 -0.007640643 -88.656479
9212187500 -1.0331178 123.57278 -9.1031027 -71.880562 -9.0990582 -73.129173 -0.0052027181 -88.596573
9212250000 -1.0315218 123.54897 -9.1007204 -71.902885 -9.1069479 -73.143631 -0.0028178969 -88.631332
