!Agilent Technologies,N5242A,MY51221714,A.09.90.19
!Agilent N5242A: A.09.90.19
!Date: Friday, February 02, 2024 13:16:03
!Correction: S11(Full 2 Port(1,2)) 
!S21(Full 2 Port(1,2)) 
!S12(Full 2 Port(1,2)) 
!S22(Full 2 Port(1,2)) 
!S2P File: Measurements: S11, S21, S12, S22:
# Hz S  dB   R 50
9200000000 -1.1608226 125.07855 -9.1125402 -73.617393 -9.0694599 -74.940712 -0.056512166 -92.114563
9200062500 -1.1621405 125.0672 -9.1015081 -73.582268 -9.0739307 -74.917236 -0.054300357 -92.078407
9200125000 -1.1628159 125.06915 -9.1105242 -73.608727 -9.0778189 -74.97776 -0.059456352 -92.117249
9200187500 -1.1685374 125.0587 -9.1031084 -73.560028 -9.0709524 -74.971939 -0.058838643 -92.099129
9200250000 -1.1645685 125.01331 -9.1070137 -73.627533 -9.0783453 -74.897362 -0.058023471 -92.040009
9200312500 -1.1591883 124.958 -9.0990887 -73.63208 -9.0769167 -74.989555 -0.053329907 -92.087547
9200375000 -1.1683708 124.94582 -9.1137886 -73.701973 -9.0731983 -74.98333 -0.058086306 -92.070831
9200437500 -1.1655101 124.93307 -9.1079397 -73.664803 -9.0718451 -74.981575 -0.056056805 -92.023178
9200500000 -1.1615959 124.95164 -9.0930386 -73.612976 -9.0737085 -75.00486 -0.048380904 -92.045753
9200562500 -1.1580251 124.90023 -9.0976582 -73.702042 -9.0852728 -74.993393 -0.064550057 -91.975006
9200625000 -1.1602054 124.89412 -9.0936308 -73.63501 -9.0710249 -74.988892 -0.05194068 -91.979134
9200687500 -1.1594479 124.9296 -9.0872488 -73.664238 -9.0757093 -74.974525 -0.051471885 -91.956787
9200750000 -1.1641326 124.91541 -9.1011896 -73.637711 -9.0673866 -74.967957 -0.04790087 -91.924866
9200812500 -1.1641004 124.92524 -9.1068211 -73.632187 -9.0649986 -75.010765 -0.044471882 -91.916306
9200875000 -1.1569588 124.92057 -9.0872478 -73.657036 -9.0646391 -75.067055 -0.045751281 -92.000488
9200937500 -1.1622298 124.88844 -9.096159 -73.645943 -9.0669374 -75.003136 -0.044002712 -91.933899
9201000000 -1.1667216 124.86507 -9.0929251 -73.618324 -9.062171 -74.993179 -0.040550303 -91.915337
9201062500 -1.1673445 124.81265 -9.0906553 -73.631081 -9.0765829 -75.031891 -0.054062638 -91.948517
9201125000 -1.1687059 124.78716 -9.085124 -73.62986 -9.0799065 -74.943428 -0.053362243 -91.883438
9201187500 -1.1722192 124.79788 -9.0939255 -73.660225 -9.079999 -74.962936 -0.054001234 -91.919067
9201250000 -1.1684102 124.76612 -9.0938816 -73.671707 -9.0832577 -74.956879 -0.065440468 -91.865852
9201312500 -1.1680074 124.70555 -9.0964203 -73.658264 -9.0808744 -74.936867 -0.056468524 -91.898346
9201375000 -1.1696717 124.72096 -9.0878286 -73.649963 -9.0790396 -74.943169 -0.059575479 -91.871162
9201437500 -1.1710774 124.71474 -9.0926981 -73.636497 -9.075264 -75.017044 -0.060223836 -91.856247
9201500000 -1.1705112 124.67047 -9.0933332 -73.682884 -9.0671291 -74.985527 -0.059870724 -91.801071
9201562500 -1.1690865 124.68173 -9.1028805 -73.647934 -9.0766687 -74.992805 -0.065086678 -91.780174
9201625000 -1.167154 124.65434 -9.092103 -73.654831 -9.0674925 -74.958664 -0.057045214 -91.7771
9201687500 -1.1689981 124.6451 -9.0868635 -73.666702 -9.0670786 -74.948318 -0.060659107 -91.74894
9201750000 -1.1645198 124.63409 -9.085536 -73.620224 -9.0614901 -74.935387 -0.059464511 -91.717613
9201812500 -1.1665419 124.62709 -9.0917063 -73.575356 -9.0595226 -74.938736 -0.062889129 -91.660378
9201875000 -1.1642213 124.63728 -9.0843534 -73.627594 -9.055871 -74.968307 -0.058488112 -91.683945
9201937500 -1.1648636 124.61805 -9.0856581 -73.625595 -9.0508213 -74.955315 -0.055437595 -91.65078
9202000000 -1.167851 124.58855 -9.0832672 -73.59507 -9.0640488 -74.918167 -0.067413844 -91.611946
9202062500 -1.1659156 124.56841 -9.0883894 -73.603836 -9.0602207 -74.898987 -0.060345635 -91.558144
9202125000 -1.1656785 124.52512 -9.0881557 -73.552765 -9.059638 -74.873001 -0.065545179 -91.507721
9202187500 -1.1669278 124.55123 -9.085247 -73.588608 -9.0568867 -74.937714 -0.063532509 -91.5793
9202250000 -1.1636375 124.54494 -9.085515 -73.613289 -9.0621252 -74.895378 -0.071595088 -91.525314
9202312500 -1.1683283 124.51062 -9.0858469 -73.612587 -9.0580225 -74.922195 -0.06323611 -91.523537
9202375000 -1.1658417 124.50831 -9.0790815 -73.611084 -9.0563316 -74.913765 -0.062608801 -91.513611
9202437500 -1.1640314 124.53357 -9.0730486 -73.572678 -9.0559883 -74.925934 -0.061314125 -91.503304
9202500000 -1.1686938 124.46474 -9.0813322 -73.616142 -9.0551376 -74.926208 -0.063537009 -91.494965
9202562500 -1.1700066 124.45361 -9.0808439 -73.668327 -9.0534496 -74.872314 -0.061950702 -91.456497
9202625000 -1.1703776 124.46379 -9.0784407 -73.638725 -9.0525503 -74.918648 -0.06689091 -91.413795
9202687500 -1.1758603 124.42285 -9.086215 -73.652107 -9.0541477 -74.867828 -0.062770002 -91.416191
9202750000 -1.1694412 124.42527 -9.0774431 -73.63118 -9.0626001 -74.916832 -0.068642564 -91.415466
9202812500 -1.1716408 124.44005 -9.0823975 -73.608276 -9.0533419 -74.931641 -0.073905796 -91.438141
9202875000 -1.1679325 124.41694 -9.0782967 -73.593903 -9.0602798 -74.880455 -0.064617299 -91.370773
9202937500 -1.169444 124.37713 -9.0741587 -73.645683 -9.0643311 -74.885437 -0.070002921 -91.386467
9203000000 -1.1612043 124.42173 -9.0663939 -73.598412 -9.0609531 -74.878258 -0.067534126 -91.359406
9203062500 -1.1704661 124.40594 -9.0721235 -73.645638 -9.0562239 -74.844971 -0.072576836 -91.297569
9203125000 -1.1693825 124.39104 -9.0707245 -73.584755 -9.0562754 -74.845627 -0.065200403 -91.302391
9203187500 -1.170185 124.38477 -9.0675764 -73.566101 -9.0517073 -74.913017 -0.067883387 -91.344208
9203250000 -1.1670551 124.36118 -9.0649586 -73.625038 -9.0512753 -74.891449 -0.064370051 -91.289536
9203312500 -1.1661078 124.33833 -9.0574608 -73.581398 -9.051609 -74.856743 -0.06367337 -91.213211
9203375000 -1.1648976 124.32122 -9.0597773 -73.608932 -9.0499277 -74.891251 -0.065927945 -91.210037
9203437500 -1.1628698 124.32623 -9.0590601 -73.549797 -9.0580969 -74.870926 -0.069959641 -91.188988
9203500000 -1.1674435 124.30249 -9.061554 -73.590263 -9.0475512 -74.839279 -0.064751089 -91.200165
9203562500 -1.1626376 124.31175 -9.0682907 -73.539879 -9.0491476 -74.908585 -0.07147985 -91.198097
9203625000 -1.1629474 124.27565 -9.0627785 -73.564812 -9.0500183 -74.905029 -0.072310954 -91.208305
9203687500 -1.164748 124.25095 -9.0663633 -73.575188 -9.0393963 -74.928658 -0.066162489 -91.207024
9203750000 -1.1638105 124.2587 -9.0575809 -73.590607 -9.0452547 -74.864929 -0.06988541 -91.176842
9203812500 -1.1628233 124.27606 -9.0614595 -73.591248 -9.0515375 -74.914398 -0.074765734 -91.190117
9203875000 -1.1547475 124.25154 -9.0658741 -73.603027 -9.0419207 -74.892899 -0.077464998 -91.14183
9203937500 -1.1582298 124.25998 -9.0661097 -73.542549 -9.0415573 -74.854691 -0.074174367 -91.126083
9204000000 -1.1575812 124.21197 -9.0632439 -73.602196 -9.0410357 -74.900398 -0.071140088 -91.143456
9204062500 -1.156952 124.23961 -9.0603762 -73.575729 -9.041851 -74.845718 -0.074461073 -91.098221
9204125000 -1.15747 124.20139 -9.0665436 -73.500694 -9.0413437 -74.832146 -0.074156418 -91.044868
9204187500 -1.1587811 124.18067 -9.0604458 -73.526108 -9.0463848 -74.820854 -0.078284018 -91.04039
9204250000 -1.1636395 124.20356 -9.069768 -73.508179 -9.0407963 -74.770996 -0.080355436 -90.945503
9204312500 -1.1613619 124.14304 -9.0543842 -73.533051 -9.044282 -74.757858 -0.070400238 -90.98439
9204375000 -1.1652509 124.11929 -9.0577211 -73.50824 -9.0461807 -74.817673 -0.07947886 -90.940361
9204437500 -1.166886 124.10503 -9.0472832 -73.519066 -9.0308867 -74.797607 -0.067236215 -90.900124
9204500000 -1.1704339 124.09106 -9.0620308 -73.516212 -9.0333424 -74.839302 -0.067286186 -90.906937
9204562500 -1.1653725 124.05625 -9.0493441 -73.589836 -9.0401325 -74.855942 -0.072161198 -90.882935
9204625000 -1.167467 124.00291 -9.0535059 -73.596626 -9.0385332 -74.841522 -0.071868837 -90.833504
9204687500 -1.1616946 124.01236 -9.0456963 -73.5466 -9.0317497 -74.843346 -0.072788142 -90.806854
9204750000 -1.1599815 123.99102 -9.0503092 -73.589752 -9.0348692 -74.802841 -0.076658025 -90.845543
9204812500 -1.1551175 123.99403 -9.0458651 -73.580772 -9.0388165 -74.877251 -0.071327694 -90.819313
9204875000 -1.1547372 124.04668 -9.0539627 -73.49379 -9.0327816 -74.835533 -0.078573965 -90.790398
9204937500 -1.1569983 123.9835 -9.0518885 -73.555588 -9.036952 -74.825127 -0.077114753 -90.818649
9205000000 -1.1577438 123.98135 -9.0558443 -73.555878 -9.0393915 -74.861168 -0.082177579 -90.803345
9205062500 -1.1576387 123.98008 -9.0454264 -73.572594 -9.0365086 -74.851936 -0.079623945 -90.767197
9205125000 -1.162917 123.94034 -9.0453072 -73.543716 -9.0360107 -74.865768 -0.077902071 -90.753319
9205187500 -1.1670841 123.97535 -9.0495558 -73.511856 -9.0401764 -74.909027 -0.081595317 -90.71846
9205250000 -1.1661824 123.94053 -9.0523462 -73.534447 -9.0393887 -74.89135 -0.084463976 -90.723717
9205312500 -1.1687568 123.89919 -9.0426998 -73.529877 -9.0411711 -74.862152 -0.082334347 -90.639946
9205375000 -1.1708235 123.91125 -9.0413179 -73.583603 -9.0319643 -74.916237 -0.07660313 -90.668495
9205437500 -1.1710486 123.88051 -9.0337477 -73.540092 -9.0186443 -74.882484 -0.070360854 -90.650818
9205500000 -1.1692178 123.85851 -9.0455856 -73.509323 -9.0305176 -74.880821 -0.076461196 -90.60778
9205562500 -1.1680863 123.86335 -9.0367937 -73.555336 -9.0246134 -74.855736 -0.071973681 -90.616684
9205625000 -1.1667539 123.84405 -9.0459204 -73.566055 -9.0203438 -74.898117 -0.073099472 -90.619141
9205687500 -1.1628259 123.84809 -9.0317059 -73.502975 -9.020359 -74.850327 -0.071666583 -90.590622
9205750000 -1.1646197 123.82991 -9.0500059 -73.49115 -9.0268469 -74.851501 -0.07602904 -90.566216
9205812500 -1.1650443 123.77974 -9.0435305 -73.566727 -9.0191479 -74.833282 -0.077024385 -90.575005
9205875000 -1.1627542 123.77912 -9.0376654 -73.570496 -9.0246363 -74.882988 -0.072911434 -90.563461
9205937500 -1.1608874 123.75854 -9.0518389 -73.54425 -9.0204277 -74.79921 -0.073582366 -90.53212
9206000000 -1.1647846 123.77337 -9.0422649 -73.562538 -9.0269279 -74.855415 -0.082012445 -90.504601
9206062500 -1.1611397 123.7041 -9.0443172 -73.591637 -9.0196743 -74.81488 -0.076937117 -90.537399
9206125000 -1.1629174 123.70866 -9.0514002 -73.517677 -9.0267754 -74.810616 -0.079175815 -90.486778
9206187500 -1.1622984 123.70554 -9.0445242 -73.515884 -9.0208845 -74.806458 -0.08065135 -90.482353
9206250000 -1.1623625 123.6907 -9.0400915 -73.533142 -9.0239515 -74.782089 -0.077827938 -90.491615
9206312500 -1.1600957 123.674 -9.0314178 -73.538361 -9.0253649 -74.781464 -0.079881527 -90.452011
9206375000 -1.1650655 123.65119 -9.0371447 -73.563728 -9.0230513 -74.760391 -0.0798366 -90.435997
9206437500 -1.166274 123.67212 -9.037652 -73.564529 -9.0197439 -74.772911 -0.074409038 -90.402382
9206500000 -1.1667974 123.67246 -9.0362587 -73.485832 -9.0243893 -74.770187 -0.081242524 -90.401825
9206562500 -1.1659864 123.62638 -9.0366554 -73.557831 -9.0264397 -74.712486 -0.088691533 -90.365921
9206625000 -1.1621469 123.58801 -9.0348349 -73.571869 -9.023798 -74.738365 -0.080017813 -90.383553
9206687500 -1.162971 123.6097 -9.0329819 -73.515007 -9.0167112 -74.823158 -0.078845926 -90.347862
9206750000 -1.15957 123.60342 -9.0379095 -73.506882 -9.0151329 -74.752457 -0.087466449 -90.24115
9206812500 -1.1640728 123.52975 -9.0320463 -73.528534 -9.0229664 -74.752449 -0.083752014 -90.250145
9206875000 -1.1654477 123.52477 -9.028595 -73.518715 -9.0101309 -74.770401 -0.081247419 -90.20208
9206937500 -1.1638499 123.55129 -9.0350246 -73.469872 -9.0155087 -74.758339 -0.077914551 -90.206757
9207000000 -1.163681 123.49622 -9.0253992 -73.53582 -9.0163212 -74.779381 -0.076983653 -90.206841
9207062500 -1.1675431 123.51801 -9.0219669 -73.538254 -9.0184593 -74.786461 -0.080917396 -90.189491
9207125000 -1.1729858 123.48744 -9.0265598 -73.553337 -9.0193682 -74.782539 -0.079489253 -90.196808
9207187500 -1.1697519 123.50776 -9.0226326 -73.471817 -9.0152645 -74.817337 -0.073126279 -90.198624
9207250000 -1.1724083 123.4891 -9.0309467 -73.566292 -9.0073681 -74.775566 -0.072423905 -90.171242
9207312500 -1.1695338 123.44985 -9.0319805 -73.524864 -9.0105057 -74.766075 -0.075674072 -90.138725
9207375000 -1.1662403 123.42495 -9.0273094 -73.485619 -9.0057449 -74.822304 -0.077378109 -90.144928
9207437500 -1.165181 123.44747 -9.0201187 -73.512947 -9.0099478 -74.82383 -0.076905467 -90.174416
9207500000 -1.1676209 123.39308 -9.0252542 -73.540237 -9.0016842 -74.825661 -0.071948759 -90.12484
9207562500 -1.1681464 123.38835 -9.029068 -73.527039 -9.0019007 -74.788818 -0.068649359 -90.105217
9207625000 -1.160171 123.36864 -9.0192776 -73.506386 -9.0022659 -74.784744 -0.076538339 -90.06572
9207687500 -1.1608452 123.33136 -9.0185108 -73.54892 -9.0169182 -74.788254 -0.081601918 -90.079552
9207750000 -1.1681097 123.36893 -9.0271311 -73.515152 -9.0178299 -74.834106 -0.089582205 -90.048157
9207812500 -1.1641495 123.3723 -9.0144835 -73.51535 -9.0044308 -74.775497 -0.080537662 -90.042595
9207875000 -1.1659616 123.33453 -9.0289011 -73.554146 -9.0156307 -74.81955 -0.08639808 -90.029243
9207937500 -1.1616694 123.34855 -9.0174742 -73.563866 -9.013299 -74.826462 -0.083346367 -89.987732
9208000000 -1.1651491 123.3082 -9.0278816 -73.539703 -9.0173483 -74.800903 -0.088475987 -89.973404
9208062500 -1.1634157 123.29066 -9.0212393 -73.538078 -9.0172234 -74.76371 -0.094649866 -89.934967
9208125000 -1.1631292 123.28686 -9.0182209 -73.471634 -9.0159531 -74.755394 -0.089323945 -89.893654
9208187500 -1.163182 123.29642 -9.0156336 -73.510742 -9.0049343 -74.804626 -0.083189413 -89.914154
9208250000 -1.1678797 123.27915 -9.0161953 -73.482574 -9.0076828 -74.766113 -0.0839682 -89.887901
9208312500 -1.1617266 123.2747 -9.0094709 -73.455917 -9.0048227 -74.756271 -0.089434184 -89.815758
9208375000 -1.1638424 123.2677 -9.0108709 -73.461891 -9.0015984 -74.792946 -0.085292533 -89.864311
9208437500 -1.1599368 123.20737 -9.0262499 -73.465286 -9.015358 -74.746132 -0.092974044 -89.827934
9208500000 -1.1655746 123.21352 -9.0160942 -73.426949 -9.0069551 -74.797691 -0.090915896 -89.835518
9208562500 -1.1655121 123.21977 -9.0116739 -73.440147 -9.0072947 -74.72747 -0.086909361 -89.790161
9208625000 -1.1674426 123.18356 -9.0161924 -73.477852 -9.0077066 -74.804199 -0.08862412 -89.845253
9208687500 -1.165252 123.19757 -9.0129242 -73.424179 -9.0134048 -74.74102 -0.091593876 -89.827156
9208750000 -1.1682715 123.18402 -9.0091162 -73.403915 -9.0192413 -74.758247 -0.091253929 -89.735962
9208812500 -1.1639749 123.15572 -9.0127249 -73.468224 -9.0056257 -74.78228 -0.087007396 -89.763977
9208875000 -1.1670803 123.14872 -9.0185833 -73.446312 -9.0036802 -74.768753 -0.092051953 -89.725838
9208937500 -1.1681259 123.17018 -9.0195827 -73.492477 -8.9986448 -74.775185 -0.081462055 -89.717758
9209000000 -1.1622717 123.1523 -9.0237474 -73.411446 -8.9996605 -74.691452 -0.090146601 -89.643768
9209062500 -1.1612059 123.13781 -9.0112448 -73.446289 -9.0087862 -74.684578 -0.089195222 -89.619232
9209125000 -1.1623136 123.11774 -9.0133362 -73.458801 -8.9932308 -74.704918 -0.090153493 -89.63401
9209187500 -1.1581711 123.05234 -9.0096645 -73.453537 -8.9910898 -74.701736 -0.09043435 -89.585793
9209250000 -1.1585957 123.0215 -9.0058193 -73.44558 -8.9870596 -74.72348 -0.094763644 -89.542389
9209312500 -1.1545076 123.05867 -9.0067453 -73.422195 -8.9922781 -74.72345 -0.096263811 -89.545357
9209375000 -1.1538543 123.02787 -8.9994516 -73.475761 -8.986124 -74.730377 -0.092497736 -89.529327
9209437500 -1.1558539 122.9837 -8.9964981 -73.4375 -8.988595 -74.702538 -0.092874452 -89.522194
9209500000 -1.1621692 122.97021 -9.0113611 -73.414482 -8.9900799 -74.685089 -0.10307178 -89.47332
9209562500 -1.1571867 122.93279 -8.9976349 -73.452324 -8.9893017 -74.725395 -0.093528882 -89.479988
9209625000 -1.1528602 122.92215 -8.9886332 -73.472305 -8.9836025 -74.713997 -0.090703078 -89.473793
9209687500 -1.1569486 122.93558 -8.9991283 -73.42868 -8.9887133 -74.734802 -0.093535602 -89.44532
9209750000 -1.1667818 122.9061 -8.9980965 -73.485497 -8.982316 -74.727119 -0.09349367 -89.419495
9209812500 -1.1697793 122.88367 -9.0031977 -73.437416 -8.982811 -74.715492 -0.089529544 -89.424194
9209875000 -1.1640421 122.89618 -8.9969072 -73.449394 -8.9855232 -74.753098 -0.088485166 -89.429855
9209937500 -1.1678712 122.8949 -9.0024691 -73.418167 -8.9808979 -74.752831 -0.090083294 -89.44751
9210000000 -1.1658534 122.85574 -9.0010834 -73.481499 -8.9921827 -74.750587 -0.096185014 -89.405273
9210062500 -1.1666496 122.84852 -9.0058012 -73.500305 -8.9852057 -74.79184 -0.094756402 -89.413597
9210125000 -1.1644084 122.81988 -9.0047331 -73.540565 -8.989522 -74.818764 -0.099659763 -89.440262
9210187500 -1.1657903 122.80495 -9.0114441 -73.48983 -8.9808121 -74.723595 -0.095358983 -89.375427
9210250000 -1.1597412 122.77286 -9.0011368 -73.49353 -8.9838018 -74.810768 -0.097781524 -89.399086
9210312500 -1.1611742 122.78732 -8.9954948 -73.454567 -8.9773512 -74.746323 -0.094232023 -89.353943
9210375000 -1.1717299 122.7766 -9.0041037 -73.441635 -8.9803381 -74.667191 -0.095430911 -89.305656
9210437500 -1.1610677 122.75828 -8.9983597 -73.428238 -8.9768353 -74.669357 -0.099481165 -89.300095
9210500000 -1.1638746 122.79971 -9.0046091 -73.464333 -8.977705 -74.685387 -0.095736198 -89.299179
9210562500 -1.1588326 122.76231 -8.9971457 -73.380257 -8.9793224 -74.69931 -0.096359201 -89.281349
9210625000 -1.1636584 122.74512 -8.995513 -73.38205 -8.9777269 -74.692299 -0.095964082 -89.241249
9210687500 -1.1620638 122.77251 -8.999402 -73.398308 -8.9781904 -74.600189 -0.1001532 -89.177399
9210750000 -1.159217 122.71834 -8.9978495 -73.403252 -8.980896 -74.657387 -0.10347202 -89.202606
9210812500 -1.1624006 122.7191 -8.9931955 -73.356697 -8.9783773 -74.613182 -0.10210999 -89.149353
9210875000 -1.1640987 122.71628 -8.9906006 -73.374733 -8.9802895 -74.679977 -0.1097524 -89.136208
9210937500 -1.1684266 122.66636 -8.9897032 -73.38559 -8.9874334 -74.631172 -0.11034331 -89.116898
9211000000 -1.1609417 122.6933 -8.9909496 -73.400223 -8.9790154 -74.663933 -0.10588388 -89.104408
9211062500 -1.1622761 122.65092 -8.9931908 -73.394341 -8.977582 -74.642616 -0.10182282 -89.079346
9211125000 -1.166015 122.61598 -8.9900484 -73.404236 -8.9795885 -74.613068 -0.10663318 -89.047714
9211187500 -1.1657338 122.62737 -8.9902916 -73.351112 -8.9762068 -74.634163 -0.10226806 -89.029686
9211250000 -1.1622021 122.58713 -8.9856005 -73.401146 -8.9808531 -74.652725 -0.10582911 -88.996468
9211312500 -1.166549 122.55967 -8.9809904 -73.369865 -8.9876595 -74.576576 -0.1056005 -88.957893
9211375000 -1.1636664 122.54776 -8.9853544 -73.42646 -8.979495 -74.639305 -0.10369292 -88.972664
9211437500 -1.1657593 122.51437 -8.9917679 -73.380737 -8.9810143 -74.602562 -0.10707297 -88.929214
9211500000 -1.1733452 122.5555 -8.9939146 -73.38353 -8.975255 -74.630898 -0.10122515 -88.926117
9211562500 -1.1666043 122.51888 -8.9893227 -73.43251 -8.9753056 -74.644485 -0.098957077 -88.958694
9211625000 -1.1634158 122.52975 -8.9808512 -73.411514 -8.9730797 -74.65464 -0.096494243 -88.986603
9211687500 -1.1637331 122.51199 -8.983263 -73.375298 -8.9788904 -74.631546 -0.097845957 -88.91465
9211750000 -1.1642275 122.50938 -8.980175 -73.37281 -8.9719753 -74.683861 -0.094262302 -88.975082
9211812500 -1.1643847 122.47662 -8.9769459 -73.358559 -8.9742517 -74.668312 -0.10002506 -88.953575
9211875000 -1.157148 122.49352 -8.9754744 -73.283569 -8.9682341 -74.666 -0.097812839 -88.900482
9211937500 -1.1576234 122.44843 -8.9673567 -73.336296 -8.9541864 -74.695862 -0.089637071 -88.899124
9212000000 -1.1553775 122.38766 -8.9770174 -73.366493 -8.9676352 -74.649796 -0.097137056 -88.868279
9212062500 -1.1531881 122.36194 -8.97124 -73.386162 -8.9657822 -74.664673 -0.098450221 -88.861755
9212125000 -1.1522859 122.3606 -8.9727592 -73.399261 -8.9604845 -74.626251 -0.099307023 -88.819061
9212187500 -1.1543275 122.3387 -8.9686079 -73.368805 -8.9622211 -74.673485 -0.099284269 -88.817986
9212250000 -1.1600313 122.32096 -8.9718018 -73.398804 -8.9660826 -74.615784 -0.10443924 -88.78949
