!Agilent Technologies,N5242A,MY51221714,A.09.90.19
!Agilent N5242A: A.09.90.19
!Date: Friday, February 02, 2024 13:18:55
!Correction: S11(Full 2 Port(1,2)) 
!S21(Full 2 Port(1,2)) 
!S12(Full 2 Port(1,2)) 
!S22(Full 2 Port(1,2)) 
!S2P File: Measurements: S11, S21, S12, S22:
# Hz S  dB   R 50
9200000000 -1.0473769 126.37702 -9.2064238 -72.270172 -9.1741695 -73.614693 0.022027124 -92.130836
9200062500 -1.0521585 126.38367 -9.2021179 -72.259552 -9.1638613 -73.622856 0.028089838 -92.18634
9200125000 -1.0541741 126.38618 -9.1938267 -72.208122 -9.167244 -73.668671 0.023886325 -92.160873
9200187500 -1.0535775 126.32856 -9.199728 -72.244957 -9.1644897 -73.594078 0.028700659 -92.123413
9200250000 -1.0542239 126.29491 -9.190937 -72.295547 -9.1679964 -73.689919 0.026437491 -92.174957
9200312500 -1.0502529 126.32442 -9.1992397 -72.266006 -9.1777658 -73.662621 0.022265065 -92.131798
9200375000 -1.0508878 126.27707 -9.2031298 -72.299843 -9.1667051 -73.634453 0.028662996 -92.100235
9200437500 -1.0513328 126.2795 -9.1997585 -72.235275 -9.168829 -73.64949 0.027805628 -92.07666
9200500000 -1.0572187 126.24413 -9.2003765 -72.20681 -9.1737309 -73.640465 0.023633862 -92.090286
9200562500 -1.0522989 126.24627 -9.1918373 -72.328003 -9.1726284 -73.648895 0.027761154 -92.038345
9200625000 -1.0530483 126.24385 -9.1894112 -72.251129 -9.1616468 -73.644112 0.03765659 -92.0541
9200687500 -1.050012 126.22652 -9.1881485 -72.248245 -9.1618233 -73.652306 0.036544427 -92.014824
9200750000 -1.0488787 126.22821 -9.184907 -72.231598 -9.1654587 -73.677589 0.029802149 -91.999985
9200812500 -1.047349 126.26428 -9.194705 -72.16861 -9.1616774 -73.68605 0.031327557 -92.017937
9200875000 -1.0503271 126.22279 -9.1910515 -72.243607 -9.1557045 -73.614571 0.033420309 -91.960983
9200937500 -1.0507458 126.19202 -9.1819553 -72.17865 -9.1624594 -73.606537 0.03811748 -91.963058
9201000000 -1.0561053 126.20651 -9.1854029 -72.259323 -9.1682129 -73.712524 0.027878521 -92.042099
9201062500 -1.0532888 126.14305 -9.1862507 -72.254242 -9.1679344 -73.631508 0.03420271 -91.979813
9201125000 -1.0580127 126.1316 -9.1834326 -72.27459 -9.1728878 -73.65303 0.026991852 -91.98011
9201187500 -1.0575986 126.10751 -9.1868744 -72.274734 -9.1724033 -73.670303 0.021875985 -91.952164
9201250000 -1.0569607 126.05174 -9.1811323 -72.30867 -9.1726799 -73.642342 0.028256962 -91.969833
9201312500 -1.0563166 126.00989 -9.1835442 -72.313713 -9.1725769 -73.632393 0.028754707 -91.944115
9201375000 -1.0566373 126.00429 -9.1841888 -72.346481 -9.1726675 -73.636742 0.020233674 -91.923538
9201437500 -1.0582628 126.00263 -9.1925659 -72.306381 -9.1629524 -73.622192 0.032828122 -91.879402
9201500000 -1.0571498 125.99221 -9.1821337 -72.299446 -9.1599264 -73.678474 0.026418719 -91.920509
9201562500 -1.0557106 125.99188 -9.188199 -72.297478 -9.1653185 -73.624138 0.024267606 -91.823471
9201625000 -1.0593176 125.95351 -9.1834593 -72.30925 -9.1575422 -73.601677 0.027520016 -91.813362
9201687500 -1.0585455 125.93555 -9.1917963 -72.294136 -9.1526461 -73.624321 0.022040471 -91.785049
9201750000 -1.0592746 125.95339 -9.1841373 -72.2799 -9.1574364 -73.577538 0.021845523 -91.736122
9201812500 -1.0576323 125.90212 -9.1851664 -72.290672 -9.1613636 -73.560127 0.015079969 -91.676842
9201875000 -1.0588546 125.89442 -9.1770411 -72.286751 -9.1472044 -73.525078 0.018680179 -91.68457
9201937500 -1.0576731 125.89758 -9.1853743 -72.264427 -9.1569939 -73.548828 0.018150063 -91.626572
9202000000 -1.0611491 125.891 -9.1830549 -72.195885 -9.1545486 -73.533546 0.019090304 -91.619507
9202062500 -1.0561272 125.88827 -9.1800203 -72.199776 -9.1575575 -73.577248 0.021897592 -91.613594
9202125000 -1.0566652 125.88626 -9.1885548 -72.171555 -9.1562576 -73.626358 0.014206376 -91.675499
9202187500 -1.0515006 125.85009 -9.1731396 -72.23642 -9.1532555 -73.579773 0.020381045 -91.575233
9202250000 -1.0518028 125.85733 -9.1741934 -72.194611 -9.1558704 -73.579247 0.021132629 -91.591347
9202312500 -1.0563869 125.8567 -9.1836567 -72.196526 -9.1578636 -73.639481 0.012104035 -91.55761
9202375000 -1.0565897 125.81057 -9.181901 -72.244514 -9.1627312 -73.656654 0.0084853033 -91.605392
9202437500 -1.0572432 125.7924 -9.1815071 -72.250336 -9.1580696 -73.646515 0.014762492 -91.5327
9202500000 -1.0572712 125.81465 -9.1721907 -72.2341 -9.1568375 -73.56176 0.010863303 -91.502319
9202562500 -1.0565233 125.77422 -9.1705427 -72.219398 -9.157856 -73.541115 0.013683483 -91.542755
9202625000 -1.0619738 125.77416 -9.1778326 -72.286446 -9.1516056 -73.593346 0.017868452 -91.475098
9202687500 -1.0592414 125.78237 -9.1623602 -72.233444 -9.1474342 -73.543571 0.017400147 -91.445938
9202750000 -1.0590817 125.78136 -9.1766758 -72.194305 -9.1520252 -73.605614 0.015479582 -91.45005
9202812500 -1.0586095 125.75658 -9.1731691 -72.25396 -9.1448717 -73.533096 0.021237452 -91.45295
9202875000 -1.0608371 125.74947 -9.1673288 -72.219383 -9.1512766 -73.537529 0.017866708 -91.439545
9202937500 -1.0540279 125.70668 -9.1692152 -72.228371 -9.1518755 -73.528542 0.014517394 -91.412498
9203000000 -1.0564424 125.74442 -9.1725712 -72.201897 -9.1488819 -73.589638 0.016172467 -91.428658
9203062500 -1.0593966 125.71884 -9.1648703 -72.226997 -9.1509514 -73.554214 0.01602548 -91.397095
9203125000 -1.0567786 125.7374 -9.1679182 -72.276703 -9.1499615 -73.567253 0.01642121 -91.389458
9203187500 -1.0586083 125.70016 -9.1703176 -72.227554 -9.1521482 -73.512688 0.014351653 -91.358841
9203250000 -1.0572321 125.67088 -9.1632557 -72.217117 -9.1430521 -73.538445 0.016321149 -91.337662
9203312500 -1.0545901 125.67739 -9.159255 -72.228691 -9.143856 -73.571075 0.012787512 -91.31572
9203375000 -1.0574312 125.6623 -9.1573811 -72.18782 -9.1488848 -73.509033 0.013093003 -91.268661
9203437500 -1.050977 125.62282 -9.1496315 -72.234634 -9.1545677 -73.590576 0.014075406 -91.260025
9203500000 -1.0483685 125.61143 -9.1539621 -72.117188 -9.1383162 -73.480431 0.02309397 -91.231651
9203562500 -1.0506679 125.63593 -9.1479321 -72.138695 -9.1314259 -73.557213 0.025392219 -91.21772
9203625000 -1.0536115 125.61076 -9.162468 -72.188271 -9.1420326 -73.518539 0.014735747 -91.208305
9203687500 -1.0503269 125.59923 -9.1580877 -72.162628 -9.1324902 -73.544777 0.019235296 -91.220551
9203750000 -1.0488019 125.58694 -9.1661921 -72.239265 -9.1394892 -73.603477 0.0096999612 -91.239548
9203812500 -1.0520821 125.56703 -9.1587629 -72.21077 -9.1327581 -73.539688 0.01511494 -91.218216
9203875000 -1.0449145 125.5665 -9.1569729 -72.239265 -9.13029 -73.634529 0.014224561 -91.26783
9203937500 -1.0484189 125.56444 -9.1647186 -72.214821 -9.1339035 -73.562447 0.009624294 -91.20755
9204000000 -1.0477087 125.5442 -9.1513195 -72.182892 -9.1301756 -73.539429 0.015053789 -91.184341
9204062500 -1.0425017 125.52934 -9.1559238 -72.177414 -9.1369276 -73.542305 0.0038464337 -91.132942
9204125000 -1.0516222 125.51164 -9.1602249 -72.185562 -9.1335936 -73.518387 0.007685937 -91.146599
9204187500 -1.0481176 125.53104 -9.156004 -72.139496 -9.1408491 -73.522003 1.5759977e-005 -91.110374
9204250000 -1.0527098 125.47246 -9.1593895 -72.177567 -9.1347141 -73.512665 0.0054439311 -91.067657
9204312500 -1.0505649 125.47563 -9.1550007 -72.158875 -9.1392107 -73.444221 0.001953029 -91.044586
9204375000 -1.0511039 125.46494 -9.1531363 -72.128098 -9.145998 -73.433083 0.0042288345 -90.97979
9204437500 -1.052291 125.40549 -9.1551094 -72.211639 -9.1402082 -73.527733 0.004839398 -90.988876
9204500000 -1.0499476 125.38912 -9.1466827 -72.134109 -9.1285963 -73.505554 0.01687807 -90.943794
9204562500 -1.0515292 125.38148 -9.1466475 -72.090935 -9.1249018 -73.533951 0.019159667 -90.963364
9204625000 -1.0539882 125.34837 -9.1464348 -72.213425 -9.1214724 -73.545525 0.01419406 -90.918007
9204687500 -1.0487071 125.32713 -9.1435595 -72.207932 -9.1375952 -73.539841 0.011277917 -90.931908
9204750000 -1.0472081 125.31213 -9.1474457 -72.191368 -9.1246138 -73.523582 0.012521413 -90.909592
9204812500 -1.0475205 125.31602 -9.1389894 -72.145493 -9.1281338 -73.458427 0.011807125 -90.898903
9204875000 -1.0465895 125.3195 -9.1423368 -72.143623 -9.13552 -73.471519 0.0057257568 -90.855919
9204937500 -1.0436172 125.33099 -9.1447325 -72.179817 -9.1425467 -73.460266 0.0073997979 -90.834541
9205000000 -1.0416063 125.30749 -9.1427813 -72.117973 -9.1359339 -73.550301 0.0043508229 -90.858887
9205062500 -1.0500126 125.31741 -9.1418543 -72.112267 -9.1203508 -73.49575 0.013061009 -90.824799
9205125000 -1.0557778 125.24986 -9.1431198 -72.106934 -9.1166172 -73.464867 0.010893926 -90.782692
9205187500 -1.054096 125.23061 -9.1373453 -72.168045 -9.125061 -73.506424 -7.5861812e-005 -90.790436
9205250000 -1.057915 125.22511 -9.1424923 -72.170853 -9.1182976 -73.529213 0.0094297314 -90.759056
9205312500 -1.0535976 125.23338 -9.1319923 -72.156067 -9.125123 -73.512558 0.0089446958 -90.747696
9205375000 -1.0548512 125.1848 -9.1353807 -72.128822 -9.1265745 -73.559578 0.0036258204 -90.719376
9205437500 -1.0580122 125.2027 -9.1391935 -72.182259 -9.1211147 -73.534721 0.013601003 -90.69088
9205500000 -1.0560431 125.18723 -9.1395283 -72.145424 -9.1243448 -73.544891 0.0088970279 -90.68203
9205562500 -1.0549663 125.18419 -9.1281929 -72.166618 -9.1263685 -73.528557 0.0061485711 -90.675407
9205625000 -1.053522 125.16356 -9.1418924 -72.147522 -9.1159687 -73.501602 0.011023831 -90.624733
9205687500 -1.0562989 125.11991 -9.1381378 -72.175865 -9.1104527 -73.512871 0.013424971 -90.654716
9205750000 -1.0530332 125.12068 -9.1328478 -72.145744 -9.1117096 -73.479431 0.014493028 -90.667191
9205812500 -1.0504996 125.09222 -9.1383429 -72.185745 -9.112011 -73.444099 0.010851989 -90.589218
9205875000 -1.0492678 125.15058 -9.1408396 -72.143997 -9.1168079 -73.487762 0.012676379 -90.597282
9205937500 -1.0509894 125.08553 -9.1453238 -72.151123 -9.1139097 -73.449158 0.016174186 -90.569511
9206000000 -1.0501705 125.10542 -9.1370296 -72.140114 -9.1120424 -73.521362 0.011911293 -90.605148
9206062500 -1.0474133 125.07876 -9.1401396 -72.157211 -9.1084585 -73.467331 0.01179523 -90.586624
9206125000 -1.0487628 125.00587 -9.1379147 -72.222961 -9.124486 -73.463844 0.0047114161 -90.561752
9206187500 -1.0526491 125.02089 -9.1419611 -72.182571 -9.1194715 -73.452003 0.0060138409 -90.553024
9206250000 -1.0552477 125.00599 -9.1366949 -72.133438 -9.1147404 -73.419182 0.0089476909 -90.527519
9206312500 -1.0556291 125.01994 -9.1400824 -72.080238 -9.1177597 -73.403748 0.0050617517 -90.478691
9206375000 -1.0500911 124.98398 -9.1260738 -72.155563 -9.1174355 -73.360474 0.0071727126 -90.476295
9206437500 -1.0536382 124.9649 -9.1286669 -72.218002 -9.1136198 -73.417534 0.014636706 -90.527916
9206500000 -1.0489587 124.96584 -9.1311474 -72.150734 -9.109601 -73.411911 0.0085607376 -90.491394
9206562500 -1.0502995 124.92451 -9.1349535 -72.180313 -9.1148958 -73.41465 0.007244871 -90.429451
9206625000 -1.0488595 124.93987 -9.1284847 -72.110252 -9.1069031 -73.444901 0.0076861372 -90.420731
9206687500 -1.0514263 124.92822 -9.1376524 -72.102882 -9.1087189 -73.420296 0.0037570728 -90.383781
9206750000 -1.048278 124.92081 -9.1299305 -72.152298 -9.120676 -73.42662 -0.0021141416 -90.365852
9206812500 -1.0465901 124.88765 -9.1245527 -72.105598 -9.1202364 -73.380875 -0.0025844222 -90.31768
9206875000 -1.0508718 124.88746 -9.1312332 -72.046425 -9.115304 -73.397545 -0.00052037986 -90.26162
9206937500 -1.0553458 124.86379 -9.1324348 -72.143051 -9.1084919 -73.418961 0.0037778418 -90.296455
9207000000 -1.0512183 124.85899 -9.1210461 -72.145332 -9.1003981 -73.446953 0.0078919614 -90.285606
9207062500 -1.0543411 124.82655 -9.1248302 -72.16111 -9.1088324 -73.446411 0.0083334064 -90.28524
9207125000 -1.054971 124.80083 -9.124773 -72.077652 -9.1037245 -73.436195 0.01267431 -90.247627
9207187500 -1.0573808 124.75252 -9.1203232 -72.183075 -9.1109152 -73.468681 0.008772728 -90.263428
9207250000 -1.0536965 124.78255 -9.1194239 -72.11972 -9.1061621 -73.440773 0.0090738628 -90.223488
9207312500 -1.0570816 124.7966 -9.1231232 -72.125206 -9.1049461 -73.458046 0.0018380557 -90.250725
9207375000 -1.0525492 124.77096 -9.1169586 -72.079109 -9.1023674 -73.492653 0.0078752236 -90.239151
9207437500 -1.048936 124.75991 -9.1197157 -72.066124 -9.1031408 -73.466797 0.007646508 -90.216705
9207500000 -1.0505862 124.78046 -9.1198263 -72.137665 -9.0960798 -73.439896 0.0062764357 -90.167358
9207562500 -1.0510107 124.75637 -9.1188211 -72.137947 -9.1022396 -73.441765 0.0036509545 -90.152534
9207625000 -1.0528873 124.70759 -9.1180944 -72.075958 -9.1080103 -73.429237 -0.00049622596 -90.152649
9207687500 -1.0509667 124.72193 -9.1181936 -72.158607 -9.109417 -73.484558 -0.00012678948 -90.15464
9207750000 -1.0502957 124.70804 -9.1223679 -72.125069 -9.1142492 -73.42733 -1.4766576e-005 -90.077827
9207812500 -1.0526108 124.66862 -9.1274891 -72.115166 -9.1045122 -73.459778 0.000191828 -90.064194
9207875000 -1.0527632 124.66564 -9.1227369 -72.057838 -9.1001806 -73.420464 -0.0022025912 -90.056404
9207937500 -1.0515255 124.68324 -9.1232805 -72.137794 -9.1099949 -73.412209 -0.0039273198 -90.043831
9208000000 -1.0466831 124.62277 -9.1154804 -72.149292 -9.1137381 -73.402031 -0.0056354958 -90.010796
9208062500 -1.0445662 124.62927 -9.103754 -72.092934 -9.1056395 -73.434883 -0.0020028665 -90.017838
9208125000 -1.0506338 124.60902 -9.1125994 -72.110001 -9.1020145 -73.468216 -0.0034288946 -89.978043
9208187500 -1.0520287 124.60303 -9.1121273 -72.126984 -9.1059961 -73.48925 -0.0065345708 -89.94799
9208250000 -1.0499603 124.61359 -9.1166143 -72.043228 -9.1049385 -73.450699 -0.0050602392 -89.89576
9208312500 -1.0513843 124.61935 -9.1110458 -72.024307 -9.106245 -73.43692 -0.0077232039 -89.895485
9208375000 -1.0497915 124.59219 -9.1058102 -72.07325 -9.0979633 -73.386162 0.0014665261 -89.883141
9208437500 -1.0475874 124.57081 -9.1038227 -72.075829 -9.1103611 -73.49147 -0.011537572 -89.915047
9208500000 -1.0538342 124.55218 -9.1121044 -72.050659 -9.1050253 -73.384262 -0.0028416016 -89.868446
9208562500 -1.0516126 124.54257 -9.1124296 -72.098076 -9.1073322 -73.415108 -0.0087455241 -89.864174
9208625000 -1.057626 124.53611 -9.119401 -71.967415 -9.1073275 -73.419861 -0.008585861 -89.902657
9208687500 -1.0533864 124.54078 -9.1184282 -72.003174 -9.1109867 -73.424957 -0.0083734114 -89.8517
9208750000 -1.0470963 124.51886 -9.1066666 -72.05114 -9.1082907 -73.398262 -0.0052944515 -89.819038
9208812500 -1.0510906 124.50694 -9.1071291 -72.077316 -9.1036177 -73.39933 -0.0033415023 -89.795364
9208875000 -1.0521646 124.50623 -9.1174908 -72.017838 -9.1024122 -73.394287 -0.0010055911 -89.802399
9208937500 -1.0510725 124.50981 -9.112298 -71.938553 -9.1012135 -73.362854 0.0025594821 -89.740227
9209000000 -1.0525186 124.47079 -9.1095428 -72.095551 -9.1003466 -73.326263 -0.0011801356 -89.682434
9209062500 -1.0488073 124.44154 -9.105772 -72.095894 -9.0962696 -73.341537 -0.00027679771 -89.682022
9209125000 -1.0507367 124.4297 -9.1038742 -72.081665 -9.0869036 -73.35482 0.0026754548 -89.681946
9209187500 -1.049579 124.40514 -9.1043835 -72.096519 -9.0866623 -73.316322 -0.0035014667 -89.630829
9209250000 -1.0493929 124.36034 -9.1098442 -72.082016 -9.0821009 -73.373093 -0.0084975176 -89.64119
9209312500 -1.0394964 124.38193 -9.095418 -72.012093 -9.0919056 -73.370911 -0.0091167642 -89.603271
9209375000 -1.0441283 124.36619 -9.0970936 -72.029175 -9.0764856 -73.351051 -0.0064761802 -89.57666
9209437500 -1.0429496 124.31327 -9.1016474 -72.066841 -9.0898638 -73.357727 -0.013152872 -89.534523
9209500000 -1.039978 124.28069 -9.0949841 -72.064346 -9.0819635 -73.357056 -0.014592541 -89.562424
9209562500 -1.0443709 124.27045 -9.0968332 -72.011871 -9.073554 -73.442352 -0.0053479201 -89.536163
9209625000 -1.0465651 124.25375 -9.0952024 -72.054482 -9.0818367 -73.338638 -0.0093183666 -89.492752
9209687500 -1.0542452 124.24688 -9.1016846 -72.038979 -9.0792904 -73.358498 -0.0031393436 -89.525009
9209750000 -1.0496022 124.2559 -9.0976362 -72.028603 -9.0787001 -73.388855 -0.0041718362 -89.497536
9209812500 -1.0533973 124.23445 -9.0902119 -72.081566 -9.0775948 -73.402458 -0.011060481 -89.482391
9209875000 -1.0482451 124.20451 -9.098175 -72.044762 -9.0739117 -73.393478 -0.00036818819 -89.49881
9209937500 -1.0545789 124.22773 -9.0966778 -72.026199 -9.0809278 -73.439095 -0.013417412 -89.513199
9210000000 -1.0484239 124.23701 -9.0933552 -71.960182 -9.0734301 -73.352882 -0.0015076465 -89.446693
9210062500 -1.0528167 124.19009 -9.0953903 -72.0737 -9.0823088 -73.421379 -0.011502748 -89.4851
9210125000 -1.0479368 124.15743 -9.1034527 -72.07328 -9.0839376 -73.4021 -0.01285166 -89.479317
9210187500 -1.0550913 124.10782 -9.105092 -72.107697 -9.0750771 -73.385178 -0.012113869 -89.460472
9210250000 -1.0474451 124.15336 -9.1011372 -72.0224 -9.0790586 -73.425842 -0.018189771 -89.456467
9210312500 -1.047412 124.12612 -9.1013241 -72.039108 -9.0786438 -73.322952 -0.014187664 -89.405647
9210375000 -1.0502331 124.09505 -9.1065073 -72.059021 -9.0786495 -73.32412 -0.019509058 -89.376671
9210437500 -1.0521089 124.11924 -9.1057577 -72.017395 -9.0792122 -73.334557 -0.015707603 -89.357353
9210500000 -1.0462602 124.07986 -9.0966368 -72.014137 -9.0772419 -73.305672 -0.016369142 -89.338219
9210562500 -1.0496454 124.08349 -9.0936852 -72.009109 -9.0776787 -73.217072 -0.0096164122 -89.273361
9210625000 -1.0518078 124.09309 -9.1026907 -72.045494 -9.067131 -73.254555 -0.012716627 -89.260536
9210687500 -1.045164 124.11461 -9.0931673 -71.918098 -9.0755024 -73.297409 -0.014341993 -89.303772
9210750000 -1.0489813 124.07767 -9.0953665 -71.968239 -9.0750751 -73.247498 -0.018141722 -89.218094
9210812500 -1.0491029 124.0386 -9.0904236 -71.933266 -9.0732327 -73.21888 -0.013738411 -89.226715
9210875000 -1.0433705 124.06159 -9.0885839 -71.964462 -9.0820923 -73.23056 -0.023300733 -89.188599
9210937500 -1.0482004 124.03837 -9.0913858 -71.941635 -9.0835705 -73.263039 -0.022187006 -89.189957
9211000000 -1.0487217 124.01312 -9.0857716 -71.960724 -9.0775681 -73.278381 -0.025211468 -89.189331
9211062500 -1.0476066 123.983 -9.0846786 -71.958511 -9.0766153 -73.272423 -0.020611029 -89.133728
9211125000 -1.0509616 123.94897 -9.0933647 -71.982117 -9.0733471 -73.254921 -0.028824683 -89.138092
9211187500 -1.0471926 123.9521 -9.082799 -71.947556 -9.0851326 -73.262436 -0.026421854 -89.088524
9211250000 -1.0494598 123.90022 -9.080471 -72.003319 -9.0738792 -73.259613 -0.016615935 -89.074783
9211312500 -1.056186 123.91986 -9.0931435 -71.949966 -9.0768595 -73.25956 -0.021952068 -89.023781
9211375000 -1.0463828 123.8689 -9.0815744 -72.042747 -9.0735455 -73.260536 -0.019099623 -89.030869
9211437500 -1.0479072 123.87553 -9.0769463 -71.982742 -9.0784397 -73.283775 -0.01426893 -89.038071
9211500000 -1.0499918 123.89233 -9.0859632 -71.926346 -9.0733986 -73.275314 -0.01225819 -89.011475
9211562500 -1.0506669 123.88428 -9.0902719 -71.952026 -9.0689592 -73.279495 -0.011633627 -89.023735
9211625000 -1.0504822 123.86082 -9.0811043 -72.00589 -9.0743217 -73.343201 -0.010783311 -89.041336
9211687500 -1.0471125 123.87334 -9.080821 -71.92363 -9.0651922 -73.306808 -0.010058613 -88.983047
9211750000 -1.0462309 123.81171 -9.0806332 -71.919228 -9.0736227 -73.326218 -0.0059325872 -89.032982
9211812500 -1.0429267 123.82108 -9.0762119 -71.979515 -9.067667 -73.324921 -0.014831197 -88.992897
9211875000 -1.0483652 123.76131 -9.0737915 -71.998734 -9.0688419 -73.243652 -0.012913678 -88.946426
9211937500 -1.0427021 123.75011 -9.0698013 -72.003952 -9.0668879 -73.314407 -0.010682411 -88.98214
9212000000 -1.0427778 123.73219 -9.0807009 -71.94413 -9.0645809 -73.285828 -0.015315396 -88.930862
9212062500 -1.035224 123.69956 -9.0676088 -71.985954 -9.065299 -73.283386 -0.011683798 -88.923103
9212125000 -1.0418068 123.68494 -9.064374 -72.014801 -9.0628328 -73.318329 -0.0094347112 -88.943459
9212187500 -1.040421 123.65741 -9.0787916 -71.960571 -9.0691299 -73.268776 -0.013072161 -88.904945
9212250000 -1.0433377 123.63085 -9.0713587 -72.008415 -9.062294 -73.224442 -0.01696261 -88.833885
