!Agilent Technologies,N5242A,MY51221714,A.09.90.19
!Agilent N5242A: A.09.90.19
!Date: Friday, February 02, 2024 13:17:35
!Correction: S11(Full 2 Port(1,2)) 
!S21(Full 2 Port(1,2)) 
!S12(Full 2 Port(1,2)) 
!S22(Full 2 Port(1,2)) 
!S2P File: Measurements: S11, S21, S12, S22:
# Hz S  dB   R 50
9200000000 -1.1155454 125.53313 -9.0693178 -72.671539 -9.036726 -74.083206 0.010506095 -91.839394
9200062500 -1.1185712 125.50504 -9.0747156 -72.695946 -9.0405931 -74.058929 0.0055785892 -91.831978
9200125000 -1.115756 125.53191 -9.0745277 -72.64563 -9.0378389 -74.090179 0.011180782 -91.821045
9200187500 -1.1137795 125.5295 -9.0707979 -72.678993 -9.041214 -74.056473 0.0074584717 -91.757454
9200250000 -1.1135088 125.46194 -9.0719128 -72.676552 -9.0362911 -74.036552 0.01360307 -91.75605
9200312500 -1.1195961 125.47591 -9.0725384 -72.717903 -9.0521698 -74.108444 0.00067034271 -91.74633
9200375000 -1.1193507 125.39488 -9.0762491 -72.744606 -9.0450392 -74.044205 0.0028859181 -91.72937
9200437500 -1.1216469 125.3996 -9.0758715 -72.684097 -9.0413361 -74.099525 0.0051936368 -91.733498
9200500000 -1.1207842 125.3824 -9.0701637 -72.778969 -9.043684 -74.06665 0.0075401301 -91.68309
9200562500 -1.1118592 125.35019 -9.065073 -72.756088 -9.0457573 -74.079506 0.0043211533 -91.720657
9200625000 -1.1172414 125.40198 -9.0631227 -72.735176 -9.0387602 -74.102577 0.0095487656 -91.647156
9200687500 -1.1170146 125.3823 -9.0695753 -72.715446 -9.0373688 -74.08387 0.0079346485 -91.625946
9200750000 -1.1175797 125.37466 -9.072319 -72.689667 -9.036788 -74.084259 0.014420882 -91.616966
9200812500 -1.1113169 125.40514 -9.0605812 -72.668175 -9.0326891 -74.062256 0.012761198 -91.657608
9200875000 -1.1148565 125.36322 -9.0555611 -72.703049 -9.0412989 -74.070374 0.013982859 -91.600807
9200937500 -1.1155006 125.34245 -9.0626793 -72.713173 -9.0392237 -74.103607 0.01371293 -91.596161
9201000000 -1.1217079 125.32199 -9.056385 -72.734421 -9.0397177 -74.113045 0.012682712 -91.647942
9201062500 -1.1182853 125.32852 -9.0551996 -72.720558 -9.0428629 -74.057335 0.010468496 -91.600922
9201125000 -1.120479 125.26178 -9.0593939 -72.774307 -9.0422707 -74.089996 0.013662976 -91.615067
9201187500 -1.125421 125.24152 -9.0590229 -72.77845 -9.0410242 -74.166298 0.01070352 -91.632874
9201250000 -1.1200919 125.21544 -9.057723 -72.758949 -9.0422249 -74.117332 0.0064093824 -91.607635
9201312500 -1.1203545 125.21843 -9.0668612 -72.683693 -9.0423365 -74.123314 0.010579006 -91.553535
9201375000 -1.1199282 125.15635 -9.0606613 -72.796288 -9.0422659 -74.053085 0.005317382 -91.540558
9201437500 -1.123471 125.12936 -9.0677776 -72.738609 -9.0470171 -74.105957 0.0032681345 -91.56115
9201500000 -1.1203207 125.14624 -9.0567865 -72.790443 -9.0378685 -74.083481 0.0049775569 -91.519272
9201562500 -1.1167605 125.13483 -9.0601606 -72.705627 -9.0389299 -74.047615 0.0097333668 -91.453598
9201625000 -1.1225674 125.10046 -9.0591002 -72.728447 -9.0391111 -74.06324 0.007831675 -91.461952
9201687500 -1.1205063 125.08646 -9.0542374 -72.756813 -9.0412102 -74.041618 0.0044702599 -91.384834
9201750000 -1.1224612 125.0846 -9.0646229 -72.762146 -9.0331087 -74.042068 -0.00021559733 -91.411354
9201812500 -1.1235586 125.08941 -9.0492277 -72.676079 -9.0285902 -74.021965 -0.0043645436 -91.374046
9201875000 -1.1272513 125.06483 -9.0676365 -72.734619 -9.0281734 -74.008171 -0.0022759205 -91.346939
9201937500 -1.1183842 125.05795 -9.0609474 -72.631531 -9.0310841 -74.008835 0.00046807522 -91.349136
9202000000 -1.1231368 125.05232 -9.0530148 -72.696198 -9.0313826 -73.972031 0.0043604234 -91.26152
9202062500 -1.1201701 125.03738 -9.0571413 -72.697083 -9.0249081 -73.960846 0.0017511973 -91.266258
9202125000 -1.1161014 125.03748 -9.049736 -72.619026 -9.0321798 -74.007385 -0.00084625027 -91.278694
9202187500 -1.1195514 125.00637 -9.0581722 -72.661621 -9.0294371 -74.011887 -0.0040505948 -91.23761
9202250000 -1.1194527 124.99678 -9.0512323 -72.645958 -9.0300941 -73.971275 -0.0024114302 -91.205429
9202312500 -1.119928 124.94517 -9.053009 -72.682068 -9.0276766 -74.064552 -0.0046306169 -91.216782
9202375000 -1.1197875 124.95338 -9.0505886 -72.724518 -9.0334988 -74.060097 -0.0091218743 -91.231621
9202437500 -1.1266351 124.97014 -9.0486612 -72.704292 -9.0230074 -74.026779 0.002617822 -91.180702
9202500000 -1.1211764 124.95475 -9.0483465 -72.746666 -9.0285749 -74.040215 -0.0084034521 -91.15139
9202562500 -1.1273346 124.94133 -9.0476952 -72.696068 -9.0239182 -74.061768 -0.0061673415 -91.162331
9202625000 -1.1233674 124.92735 -9.0500879 -72.714203 -9.0251875 -74.002281 -0.0010277847 -91.130432
9202687500 -1.1281334 124.92327 -9.049449 -72.672607 -9.027153 -73.999008 -0.004044916 -91.083588
9202750000 -1.1263168 124.91019 -9.0520668 -72.711304 -9.0288601 -74.008598 -0.002382379 -91.072243
9202812500 -1.1265659 124.89464 -9.0454884 -72.62616 -9.0251617 -73.985832 -0.0027139103 -91.065819
9202875000 -1.1232243 124.89131 -9.0453758 -72.692619 -9.0240993 -73.985939 -0.0033026456 -91.057045
9202937500 -1.1252142 124.88814 -9.0465374 -72.689926 -9.0296364 -73.974251 -0.0055774194 -91.032333
9203000000 -1.1224946 124.87345 -9.0406466 -72.69957 -9.0273275 -73.996231 -0.0055591785 -91.061913
9203062500 -1.1214104 124.87654 -9.0391178 -72.681976 -9.0195589 -73.990334 -0.0054168799 -91.030975
9203125000 -1.1221536 124.82477 -9.0431042 -72.706467 -9.0196466 -73.99958 -0.0035820743 -91.037338
9203187500 -1.1192504 124.84822 -9.0372934 -72.753761 -9.0186033 -73.915909 -0.00065684633 -90.972069
9203250000 -1.1225073 124.81886 -9.0384884 -72.665947 -9.0241995 -74.022964 -0.008132101 -90.981209
9203312500 -1.1200515 124.80122 -9.0332413 -72.627472 -9.0314903 -74.015984 -0.0094542271 -90.984039
9203375000 -1.1193908 124.7941 -9.0274076 -72.699532 -9.0214634 -73.973297 -0.0050997897 -90.97274
9203437500 -1.1157187 124.7775 -9.0294523 -72.644585 -9.0173788 -74.027328 -0.00034560874 -90.916542
9203500000 -1.1176283 124.78094 -9.0226669 -72.611603 -9.0166473 -73.945419 0.002530446 -90.867241
9203562500 -1.1162654 124.77655 -9.0269518 -72.600227 -9.0139332 -73.967087 -0.0044292281 -90.866577
9203625000 -1.1164709 124.75908 -9.0303288 -72.691307 -9.0076122 -74.016602 -0.0040888772 -90.86454
9203687500 -1.1153315 124.7431 -9.0401144 -72.632523 -9.0168657 -73.967171 -0.0074745077 -90.87883
9203750000 -1.1135583 124.74506 -9.035531 -72.624138 -9.0099907 -74.014359 -0.0027534477 -90.883385
9203812500 -1.1133081 124.72346 -9.0350075 -72.677979 -9.0089951 -74.038155 -0.0050799889 -90.905869
9203875000 -1.1100614 124.72364 -9.0307751 -72.674126 -9.0129118 -73.995735 -0.010528089 -90.883644
9203937500 -1.1162348 124.69537 -9.0347481 -72.671906 -9.0024729 -74.011299 -0.0038837686 -90.894142
9204000000 -1.1105436 124.68912 -9.0354919 -72.64286 -9.0166607 -73.916664 -0.01390571 -90.804199
9204062500 -1.1111097 124.69174 -9.0275173 -72.598862 -9.0049715 -73.908928 -0.0074464087 -90.776421
9204125000 -1.1109551 124.69943 -9.0339031 -72.612305 -9.017086 -73.987991 -0.014688794 -90.764481
9204187500 -1.1163111 124.64384 -9.0332384 -72.652702 -9.0067835 -73.92231 -0.012841773 -90.759506
9204250000 -1.1115942 124.62372 -9.0292778 -72.581612 -9.0121927 -73.970924 -0.015069746 -90.71534
9204312500 -1.1132251 124.63638 -9.0229425 -72.539528 -9.0058489 -73.931877 -0.012658924 -90.67469
9204375000 -1.1174055 124.57298 -9.0292416 -72.642632 -9.0055981 -73.918846 -0.0118903 -90.658348
9204437500 -1.1166525 124.57731 -9.0266314 -72.597694 -9.0109301 -73.903419 -0.0089219566 -90.608658
9204500000 -1.1182187 124.53027 -9.0280962 -72.613007 -9.0079832 -73.946548 -0.0066980901 -90.626534
9204562500 -1.1143824 124.50951 -9.0161219 -72.678925 -9.0059776 -73.955772 -0.00049661635 -90.610008
9204625000 -1.1215484 124.47846 -9.0244102 -72.636993 -8.9970169 -73.935318 -0.00055760262 -90.548241
9204687500 -1.1156528 124.47034 -9.0197725 -72.616074 -8.9995947 -73.943718 -0.0054726652 -90.553589
9204750000 -1.1121472 124.47006 -9.0157518 -72.62809 -9.001708 -73.98204 -0.0097797634 -90.553352
9204812500 -1.110623 124.43208 -9.0260067 -72.617378 -9.0085049 -73.906929 -0.015860962 -90.524521
9204875000 -1.1108515 124.47606 -9.0089712 -72.565857 -9.0051355 -73.921654 -0.010830565 -90.523827
9204937500 -1.108938 124.43526 -9.0198574 -72.613777 -9.0043488 -73.898491 -0.017275719 -90.481918
9205000000 -1.1044749 124.46809 -9.0188551 -72.584465 -9.0054626 -73.944946 -0.009103925 -90.461021
9205062500 -1.1157404 124.45012 -9.0244493 -72.592285 -9.0041103 -73.903908 -0.0096071931 -90.43837
9205125000 -1.1157576 124.39475 -9.0128021 -72.617004 -9.001399 -73.921906 -0.0094279498 -90.387527
9205187500 -1.115992 124.39153 -9.019084 -72.552612 -9.0034275 -73.953667 -0.021636771 -90.43914
9205250000 -1.1257175 124.41609 -9.0148897 -72.586685 -9.0010395 -73.94342 -0.018781232 -90.352226
9205312500 -1.1269733 124.36018 -9.015214 -72.651367 -9.0035362 -73.971802 -0.01875728 -90.345573
9205375000 -1.127005 124.341 -9.0018044 -72.665001 -8.9948883 -73.986969 -0.0076187095 -90.339081
9205437500 -1.1181675 124.33591 -9.0096006 -72.586166 -8.9926281 -74.041496 -0.015481777 -90.367149
9205500000 -1.1208578 124.3324 -9.0118732 -72.625343 -8.9910889 -73.989571 -0.011910799 -90.328568
9205562500 -1.117558 124.29328 -9.005373 -72.624626 -8.9928789 -73.928589 -0.00877681 -90.307091
9205625000 -1.1197931 124.30973 -9.0065689 -72.613342 -8.9978428 -73.929634 -0.0133241 -90.30835
9205687500 -1.1202502 124.30882 -9.0119925 -72.564896 -8.987319 -73.951477 -0.0041657654 -90.296509
9205750000 -1.1181577 124.26987 -9.0053854 -72.572083 -8.9823427 -73.975784 -0.0044350768 -90.293243
9205812500 -1.1138339 124.2667 -9.0106897 -72.628761 -8.9924202 -73.897606 -0.011413644 -90.228699
9205875000 -1.1171074 124.2583 -9.0059376 -72.581284 -8.9878426 -73.978462 -0.0055344398 -90.261307
9205937500 -1.1119246 124.24078 -9.0096302 -72.61245 -8.9879646 -73.93399 -0.011258638 -90.227844
9206000000 -1.1175419 124.21087 -9.0176477 -72.641113 -8.9896507 -73.943314 -0.007305875 -90.224159
9206062500 -1.1153976 124.21307 -9.0145254 -72.608467 -8.9965343 -73.853661 -0.012358814 -90.202202
9206125000 -1.1102177 124.18858 -9.007761 -72.602432 -8.9902697 -73.909485 -0.016197272 -90.157593
9206187500 -1.1143352 124.16645 -9.0122957 -72.589821 -8.9909077 -73.854874 -0.01212765 -90.138863
9206250000 -1.116158 124.16907 -9.0004463 -72.590096 -8.9955902 -73.846138 -0.012887454 -90.136749
9206312500 -1.1211082 124.13113 -9.0165329 -72.610603 -8.9964657 -73.864517 -0.016086081 -90.147797
9206375000 -1.1127774 124.13001 -8.997077 -72.60952 -8.9873705 -73.806503 -0.016208038 -90.070236
9206437500 -1.1214057 124.13436 -8.9972925 -72.65168 -8.9892893 -73.88723 -0.011214991 -90.129326
9206500000 -1.1160654 124.0808 -9.0016947 -72.646019 -8.9890728 -73.854919 -0.015813651 -90.125168
9206562500 -1.1158361 124.07252 -9.0011415 -72.63826 -8.9933128 -73.828049 -0.017856397 -90.086166
9206625000 -1.1183997 124.07725 -8.9988308 -72.6633 -8.9954252 -73.812447 -0.015167856 -90.006844
9206687500 -1.1174598 124.07986 -9.0043192 -72.512535 -8.9789782 -73.90181 -0.015677802 -90.059006
9206750000 -1.1167473 124.09002 -9.0061388 -72.570351 -8.9918213 -73.893036 -0.023101183 -89.959251
9206812500 -1.1169039 124.02109 -9.0181475 -72.613426 -8.9887571 -73.87677 -0.020705607 -89.952499
9206875000 -1.1158838 124.04839 -8.9977655 -72.583069 -8.9838152 -73.89035 -0.015844552 -89.958565
9206937500 -1.1155008 124.01544 -9.0003366 -72.569443 -8.9777555 -73.89817 -0.0090154 -89.927681
9207000000 -1.1193174 123.99171 -9.0010061 -72.567467 -8.9862452 -73.886726 -0.019448662 -89.913681
9207062500 -1.1213238 123.9754 -8.9962168 -72.601616 -8.9818096 -73.929596 -0.014226454 -89.915054
9207125000 -1.1183174 123.9633 -8.9975548 -72.597313 -8.9735193 -73.892891 -0.0066784942 -89.88784
9207187500 -1.1222929 123.96949 -8.9989128 -72.619781 -8.9756041 -73.897995 -0.0074722162 -89.917778
9207250000 -1.1173525 123.9174 -8.9939346 -72.592552 -8.986536 -73.905495 -0.015059738 -89.852386
9207312500 -1.1205177 123.92601 -8.9928722 -72.549843 -8.9841232 -73.891701 -0.019323071 -89.855774
9207375000 -1.1149253 123.89537 -8.9861898 -72.603951 -8.9748259 -73.961143 -0.0069984803 -89.86792
9207437500 -1.1175539 123.89143 -8.9911652 -72.571022 -8.9736996 -73.869301 -0.010655348 -89.808807
9207500000 -1.1163068 123.90365 -8.9950743 -72.590858 -8.9756498 -73.937073 -0.014772183 -89.853081
9207562500 -1.1153638 123.83615 -8.9912186 -72.55748 -8.9771614 -73.883568 -0.016060792 -89.80452
9207625000 -1.1188344 123.87028 -8.9946795 -72.600739 -8.9680367 -73.881813 -0.014674514 -89.788239
9207687500 -1.1150764 123.83595 -8.9859028 -72.559959 -8.9770498 -73.870628 -0.015538884 -89.767632
9207750000 -1.1167042 123.82879 -8.9983902 -72.628128 -8.9811726 -73.949585 -0.022270756 -89.790314
9207812500 -1.1156884 123.83236 -8.9914122 -72.56842 -8.97931 -73.81974 -0.019945065 -89.699417
9207875000 -1.1153764 123.80248 -8.9893894 -72.612366 -8.9754925 -73.934715 -0.021252971 -89.722687
9207937500 -1.1145535 123.80233 -8.994626 -72.581581 -8.9820728 -73.901077 -0.028818516 -89.66555
9208000000 -1.1150746 123.78486 -8.9902391 -72.582596 -8.9727221 -73.918648 -0.02100629 -89.664833
9208062500 -1.1171491 123.76975 -8.9893084 -72.548653 -8.9787321 -73.882225 -0.020640856 -89.661255
9208125000 -1.1160867 123.75795 -8.9801626 -72.60704 -8.9817095 -73.847115 -0.025538797 -89.597374
9208187500 -1.119269 123.74473 -8.9840727 -72.553925 -8.9729557 -73.888802 -0.025284663 -89.57766
9208250000 -1.1189815 123.74364 -8.9871702 -72.496643 -8.9678459 -73.861702 -0.018456902 -89.552582
9208312500 -1.1194931 123.73701 -8.9822168 -72.451279 -8.9699764 -73.876549 -0.02156854 -89.546165
9208375000 -1.1157964 123.7075 -8.9812689 -72.502739 -8.9721918 -73.877113 -0.021599906 -89.534401
9208437500 -1.1200614 123.71075 -8.9722538 -72.522095 -8.9822159 -73.838509 -0.023456663 -89.485939
9208500000 -1.1148826 123.70236 -8.9741335 -72.499062 -8.9691744 -73.840889 -0.024180064 -89.547401
9208562500 -1.1195043 123.67618 -8.9782104 -72.484543 -8.9773474 -73.892433 -0.027974296 -89.514969
9208625000 -1.1169314 123.6585 -8.9758158 -72.520859 -8.9784231 -73.898895 -0.026854612 -89.54554
9208687500 -1.1183718 123.66769 -8.9757042 -72.500343 -8.982029 -73.876305 -0.032547016 -89.500755
9208750000 -1.121887 123.62845 -8.9814205 -72.510033 -8.9808626 -73.839165 -0.026337521 -89.450996
9208812500 -1.1157198 123.62152 -8.9761686 -72.547287 -8.9798136 -73.858521 -0.024884552 -89.441399
9208875000 -1.1240801 123.64884 -8.9794245 -72.47506 -8.9793406 -73.859184 -0.025658619 -89.430862
9208937500 -1.1211982 123.62566 -8.984581 -72.518913 -8.9662218 -73.853767 -0.021211591 -89.373734
9209000000 -1.1199299 123.6092 -8.9896383 -72.510803 -8.9653873 -73.818161 -0.022282079 -89.358383
9209062500 -1.1131147 123.58582 -8.9732294 -72.49424 -8.9695396 -73.801231 -0.027797969 -89.346527
9209125000 -1.1159725 123.589 -8.9801512 -72.516701 -8.9649343 -73.805405 -0.02457387 -89.289452
9209187500 -1.1102513 123.57322 -8.9838228 -72.527306 -8.9548759 -73.786438 -0.021658186 -89.261726
9209250000 -1.1110091 123.54041 -8.9807072 -72.5149 -8.9573984 -73.815796 -0.024735454 -89.250526
9209312500 -1.1102798 123.52504 -8.976552 -72.518616 -8.9615488 -73.815132 -0.029577142 -89.236244
9209375000 -1.1092087 123.47583 -8.9746504 -72.466736 -8.9556417 -73.81942 -0.031560384 -89.206963
9209437500 -1.1096267 123.42912 -8.9747782 -72.577438 -8.9531488 -73.788673 -0.028480478 -89.180687
9209500000 -1.112028 123.44141 -8.9675722 -72.533905 -8.9594278 -73.819344 -0.02968559 -89.202965
9209562500 -1.1120607 123.41932 -8.9700289 -72.543953 -8.9516287 -73.777267 -0.029260218 -89.189346
9209625000 -1.1143783 123.42338 -8.9695415 -72.52565 -8.9516869 -73.776047 -0.03236765 -89.158745
9209687500 -1.1134747 123.39563 -8.9666395 -72.471146 -8.9517527 -73.770493 -0.03216394 -89.166969
9209750000 -1.1143073 123.36053 -8.9632902 -72.542282 -8.9590559 -73.858856 -0.034190949 -89.17691
9209812500 -1.1218359 123.37719 -8.9660873 -72.525269 -8.9586353 -73.879112 -0.029733792 -89.144463
9209875000 -1.119835 123.36156 -8.9605436 -72.514961 -8.9584503 -73.82959 -0.028154578 -89.147255
9209937500 -1.120828 123.36262 -8.9703941 -72.493568 -8.9438915 -73.859039 -0.019286176 -89.152527
9210000000 -1.1220784 123.34588 -8.9729347 -72.539223 -8.9455328 -73.897186 -0.023519633 -89.148392
9210062500 -1.1158774 123.34113 -8.9671745 -72.478386 -8.9539518 -73.838486 -0.032408133 -89.099411
9210125000 -1.1133302 123.31528 -8.9731741 -72.528412 -8.9542837 -73.870537 -0.028180521 -89.153946
9210187500 -1.1149135 123.28145 -8.9696445 -72.494965 -8.9501123 -73.828178 -0.031880278 -89.078995
9210250000 -1.117031 123.26517 -8.967989 -72.514412 -8.955884 -73.840759 -0.032844894 -89.101021
9210312500 -1.1143004 123.23631 -8.9647541 -72.542046 -8.9431019 -73.819839 -0.028269134 -89.087326
9210375000 -1.1151642 123.23759 -8.9650955 -72.542168 -8.9550543 -73.816734 -0.034230847 -89.047829
9210437500 -1.1104698 123.26661 -8.9744539 -72.481903 -8.9469423 -73.782486 -0.034540143 -88.990929
9210500000 -1.115119 123.24046 -8.9651165 -72.454353 -8.9471502 -73.825951 -0.033865351 -89.010368
9210562500 -1.1122141 123.24232 -8.9646444 -72.471214 -8.9476805 -73.709557 -0.032925848 -88.952248
9210625000 -1.118464 123.2332 -8.967206 -72.462929 -8.9512815 -73.756348 -0.033890814 -88.933365
9210687500 -1.1154623 123.20715 -8.9607964 -72.445915 -8.9409342 -73.777634 -0.038221374 -88.917198
9210750000 -1.1154195 123.17715 -8.9661674 -72.467461 -8.9454193 -73.711006 -0.034794644 -88.908531
9210812500 -1.1163144 123.18902 -8.9707937 -72.516373 -8.9415941 -73.729683 -0.041308969 -88.854469
9210875000 -1.1157026 123.19852 -8.9671345 -72.430786 -8.9533167 -73.782692 -0.047506146 -88.855286
9210937500 -1.1128997 123.1319 -8.9637823 -72.438316 -8.9487743 -73.749786 -0.046391908 -88.851311
9211000000 -1.1119498 123.13207 -8.9616461 -72.429169 -8.9416914 -73.732109 -0.041617118 -88.820023
9211062500 -1.117694 123.1132 -8.9635735 -72.470238 -8.9508495 -73.712677 -0.04492031 -88.786842
9211125000 -1.1178728 123.10405 -8.9596291 -72.483925 -8.9500589 -73.793976 -0.050953157 -88.808952
9211187500 -1.1143638 123.07458 -8.9554615 -72.470345 -8.9476042 -73.736755 -0.039865289 -88.731812
9211250000 -1.1157147 123.0502 -8.9499607 -72.468887 -8.9454184 -73.656799 -0.048028138 -88.712494
9211312500 -1.118185 123.02396 -8.9578247 -72.456703 -8.9441538 -73.715462 -0.039869953 -88.713806
9211375000 -1.1138712 123.04787 -8.9490051 -72.454514 -8.9510164 -73.757271 -0.043750074 -88.687737
9211437500 -1.1151518 123.01315 -8.9552021 -72.427788 -8.9548521 -73.763268 -0.04220539 -88.699005
9211500000 -1.1170797 122.97569 -8.9501238 -72.498947 -8.9468107 -73.704414 -0.034411378 -88.645813
9211562500 -1.1137234 122.99575 -8.9595499 -72.464066 -8.9491482 -73.783775 -0.038673759 -88.699142
9211625000 -1.1225809 122.99358 -8.9542456 -72.482574 -8.9420185 -73.792412 -0.039846767 -88.691589
9211687500 -1.1208823 122.9929 -8.9569111 -72.414009 -8.948247 -73.792084 -0.036319491 -88.669327
9211750000 -1.1191922 122.98177 -8.9523792 -72.410492 -8.9415817 -73.742775 -0.025988983 -88.641869
9211812500 -1.1111784 122.9494 -8.9404745 -72.427208 -8.9363298 -73.797829 -0.02194293 -88.661591
9211875000 -1.1108973 122.92538 -8.9472704 -72.487305 -8.9445515 -73.760345 -0.03825926 -88.610466
9211937500 -1.1103737 122.88803 -8.9445553 -72.436852 -8.9382286 -73.750877 -0.029412057 -88.590073
9212000000 -1.1078734 122.87323 -8.9478197 -72.422249 -8.941411 -73.723 -0.035478882 -88.561127
9212062500 -1.1094651 122.8531 -8.9413109 -72.454269 -8.9304037 -73.797127 -0.029939234 -88.582367
9212125000 -1.1012764 122.82217 -8.939188 -72.437408 -8.9363832 -73.720512 -0.038403049 -88.511101
9212187500 -1.1001289 122.81748 -8.9349623 -72.359993 -8.9333916 -73.750755 -0.033776417 -88.507339
