!Agilent Technologies,N5242A,MY51221714,A.09.90.19
!Agilent N5242A: A.09.90.19
!Date: Friday, February 02, 2024 13:20:14
!Correction: S11(Full 2 Port(1,2)) 
!S21(Full 2 Port(1,2)) 
!S12(Full 2 Port(1,2)) 
!S22(Full 2 Port(1,2)) 
!S2P File: Measurements: S11, S21, S12, S22:
# Hz S  dB   R 50
9200000000 -1.0570287 126.85934 -9.1919165 -72.135406 -9.1534767 -73.542374 0.029812967 -92.492577
9200062500 -1.0560001 126.89442 -9.191081 -72.053734 -9.1556845 -73.536591 0.033348721 -92.487717
9200125000 -1.0533547 126.8797 -9.1958961 -72.114861 -9.1528826 -73.481133 0.029137729 -92.434662
9200187500 -1.0615811 126.83944 -9.1886778 -72.12355 -9.1548529 -73.556892 0.030352941 -92.426407
9200250000 -1.0592844 126.82021 -9.1962442 -72.129234 -9.1625595 -73.531319 0.029726597 -92.424728
9200312500 -1.0580109 126.80846 -9.1915855 -72.134621 -9.1615429 -73.58802 0.027487502 -92.414299
9200375000 -1.0612648 126.71037 -9.1937094 -72.187386 -9.159667 -73.579529 0.033561904 -92.417191
9200437500 -1.0577422 126.762 -9.1883888 -72.108681 -9.1625805 -73.566902 0.027277321 -92.409859
9200500000 -1.059889 126.73229 -9.1839294 -72.148254 -9.1717348 -73.569168 0.015329804 -92.366219
9200562500 -1.0528451 126.68702 -9.1826973 -72.172241 -9.164959 -73.550079 0.030607058 -92.331978
9200625000 -1.0552821 126.71655 -9.1796169 -72.153679 -9.1603165 -73.562454 0.027972542 -92.332512
9200687500 -1.0547743 126.72961 -9.1842241 -72.143829 -9.151082 -73.534958 0.036290485 -92.298737
9200750000 -1.056838 126.69799 -9.1839771 -72.126137 -9.1533337 -73.575691 0.044272978 -92.304131
9200812500 -1.0517281 126.70153 -9.1826973 -72.166252 -9.1553183 -73.617783 0.039921675 -92.305588
9200875000 -1.0523064 126.71595 -9.1831989 -72.11731 -9.1524744 -73.563217 0.042326689 -92.269806
9200937500 -1.0545895 126.69508 -9.1762962 -72.130592 -9.162303 -73.553474 0.034323297 -92.2752
9201000000 -1.054037 126.68925 -9.1734838 -72.092255 -9.1595249 -73.568054 0.036244713 -92.273949
9201062500 -1.0607699 126.59721 -9.1801624 -72.213409 -9.1615143 -73.550697 0.033725608 -92.287666
9201125000 -1.0635127 126.64361 -9.1744394 -72.090042 -9.1589899 -73.562462 0.027836809 -92.273315
9201187500 -1.0614482 126.57148 -9.1795626 -72.195076 -9.1654644 -73.557137 0.026517028 -92.265816
9201250000 -1.0601506 126.53182 -9.1843262 -72.162712 -9.1669836 -73.548027 0.022536101 -92.223808
9201312500 -1.063647 126.49498 -9.1792593 -72.210213 -9.1607208 -73.533051 0.029335672 -92.239113
9201375000 -1.0629336 126.52021 -9.1697035 -72.115364 -9.1550837 -73.597351 0.030832924 -92.225822
9201437500 -1.0614389 126.46864 -9.1755238 -72.247238 -9.160018 -73.566383 0.024178237 -92.183601
9201500000 -1.0595921 126.45388 -9.1745348 -72.233788 -9.160903 -73.555756 0.024236012 -92.159676
9201562500 -1.0611413 126.45314 -9.1922665 -72.169868 -9.1572123 -73.548645 0.026720861 -92.124725
9201625000 -1.0626692 126.42934 -9.1865435 -72.176224 -9.1485186 -73.542007 0.032299958 -92.071342
9201687500 -1.062203 126.41381 -9.1847248 -72.169281 -9.1463165 -73.528862 0.027019965 -92.071266
9201750000 -1.0616386 126.4131 -9.1756477 -72.152527 -9.1458254 -73.5373 0.026719596 -92.045525
9201812500 -1.0579357 126.42209 -9.1816225 -72.135971 -9.1503572 -73.48233 0.020475475 -92.010872
9201875000 -1.0658137 126.39802 -9.1839361 -72.127457 -9.1615143 -73.43145 0.018626513 -91.956604
9201937500 -1.0589398 126.38093 -9.1718922 -72.153412 -9.1515732 -73.471893 0.017784806 -91.95359
9202000000 -1.0622299 126.41656 -9.1790028 -72.169296 -9.1440992 -73.426247 0.015835021 -91.948059
9202062500 -1.0588787 126.39202 -9.1826162 -72.119423 -9.1486444 -73.444427 0.014960391 -91.921257
9202125000 -1.062102 126.36906 -9.1734362 -72.120132 -9.1498919 -73.421829 0.022121552 -91.879539
9202187500 -1.0620013 126.34584 -9.1807137 -72.119461 -9.1511335 -73.548599 0.014302003 -91.914619
9202250000 -1.0586909 126.33503 -9.1743708 -72.11219 -9.1511164 -73.494026 0.012111688 -91.877434
9202312500 -1.0597843 126.32996 -9.1714554 -72.128212 -9.1479692 -73.478622 0.026554847 -91.817749
9202375000 -1.0602365 126.31947 -9.1659765 -72.069366 -9.1414766 -73.461746 0.019303212 -91.843475
9202437500 -1.0642031 126.29552 -9.164773 -72.098465 -9.1497374 -73.502327 0.02388449 -91.855339
9202500000 -1.062411 126.30444 -9.1662846 -72.116249 -9.1482134 -73.524712 0.015850283 -91.817055
9202562500 -1.0665252 126.28516 -9.17272 -72.137367 -9.1422462 -73.453262 0.017045334 -91.733383
9202625000 -1.0680106 126.27158 -9.1729832 -72.128639 -9.1462049 -73.475021 0.013741793 -91.776436
9202687500 -1.0690734 126.24805 -9.1754971 -72.055641 -9.1462936 -73.42498 0.019512981 -91.756233
9202750000 -1.0618455 126.21344 -9.1629076 -72.155045 -9.1348019 -73.450821 0.026610652 -91.76416
9202812500 -1.0668823 126.25915 -9.1724758 -72.07589 -9.1513491 -73.443794 0.018638659 -91.73996
9202875000 -1.0620122 126.23407 -9.1670256 -72.096962 -9.146637 -73.468941 0.022426702 -91.729691
9202937500 -1.0604465 126.21535 -9.1661091 -72.118774 -9.1441307 -73.423347 0.021839345 -91.677101
9203000000 -1.065779 126.22803 -9.1663113 -72.13311 -9.1421967 -73.418999 0.018063631 -91.702911
9203062500 -1.0553375 126.20926 -9.1616859 -72.078506 -9.1485777 -73.49646 0.013037353 -91.720314
9203125000 -1.06513 126.2049 -9.1666517 -72.097847 -9.1459093 -73.446945 0.017490199 -91.673134
9203187500 -1.0595082 126.1978 -9.163785 -72.085258 -9.1496143 -73.459671 0.017609948 -91.628136
9203250000 -1.0577735 126.16564 -9.1579962 -72.058434 -9.1457319 -73.455116 0.017080639 -91.60128
9203312500 -1.0608747 126.14365 -9.1574488 -72.032936 -9.1492796 -73.35511 0.018044084 -91.521484
9203375000 -1.0608685 126.12891 -9.1531754 -72.078522 -9.1404696 -73.429039 0.017507875 -91.589104
9203437500 -1.0574563 126.113 -9.1528187 -72.027847 -9.1360483 -73.409386 0.014537186 -91.533241
9203500000 -1.0613544 126.06613 -9.1529646 -72.058846 -9.1387043 -73.415779 0.015983507 -91.536743
9203562500 -1.0536485 126.11394 -9.1527967 -71.989639 -9.1446657 -73.399712 0.014559835 -91.514236
9203625000 -1.0574553 126.12337 -9.1505156 -72.022491 -9.1297684 -73.402718 0.01839542 -91.512962
9203687500 -1.0548177 126.11681 -9.1537333 -72.058479 -9.1256475 -73.397171 0.022176981 -91.498024
9203750000 -1.0503955 126.09061 -9.146389 -72.053001 -9.1365271 -73.45166 0.014194875 -91.520699
9203812500 -1.0490915 126.08057 -9.1489201 -72.052803 -9.1269197 -73.45282 0.013343369 -91.517509
9203875000 -1.052687 126.06384 -9.1490936 -72.015015 -9.1192989 -73.491066 0.01165047 -91.530403
9203937500 -1.050613 126.03307 -9.1486855 -72.071579 -9.129981 -73.421066 0.014322879 -91.475517
9204000000 -1.0509745 126.04173 -9.162261 -72.1241 -9.1367226 -73.455231 0.0070182555 -91.509071
9204062500 -1.0543106 126.01701 -9.157671 -72.039452 -9.1334286 -73.391487 0.011811488 -91.455971
9204125000 -1.0548854 125.99402 -9.1503038 -72.049797 -9.1270132 -73.37088 0.010204237 -91.372292
9204187500 -1.0486288 125.98747 -9.1469631 -71.947235 -9.1340427 -73.342575 0.010979414 -91.374954
9204250000 -1.0510285 125.9924 -9.1511927 -72.035439 -9.1293449 -73.37999 0.0056926017 -91.363724
9204312500 -1.0557929 125.93298 -9.1521721 -72.060699 -9.1314802 -73.337303 0.008398314 -91.3172
9204375000 -1.0561796 125.93456 -9.1421309 -72.009979 -9.1344929 -73.382111 0.0051979874 -91.266205
9204437500 -1.0527201 125.90603 -9.1418009 -72.060127 -9.128973 -73.358368 0.014380527 -91.267776
9204500000 -1.0559988 125.87983 -9.1424427 -72.033478 -9.1210108 -73.354752 0.013766981 -91.238663
9204562500 -1.0606427 125.864 -9.1457891 -72.097275 -9.1212683 -73.446022 0.016599568 -91.235443
9204625000 -1.0533546 125.84692 -9.1461439 -72.033379 -9.1297216 -73.393898 0.015883487 -91.191429
9204687500 -1.054939 125.82147 -9.1400232 -72.065781 -9.1163015 -73.391106 0.018513979 -91.189445
9204750000 -1.0542184 125.85654 -9.1417198 -72.016457 -9.1289186 -73.388069 0.014875163 -91.18045
9204812500 -1.0493847 125.78949 -9.1329985 -72.040794 -9.1269102 -73.359413 0.010067287 -91.190994
9204875000 -1.0512836 125.80468 -9.1437063 -72.076149 -9.1145811 -73.414818 0.010543549 -91.192444
9204937500 -1.0488421 125.80594 -9.1343069 -72.039978 -9.122467 -73.371788 0.008325479 -91.103897
9205000000 -1.0528251 125.79481 -9.145298 -72.019173 -9.1272278 -73.399521 0.0051457835 -91.128197
9205062500 -1.0546098 125.78318 -9.1415291 -71.969078 -9.1257753 -73.412544 0.0053876797 -91.103203
9205125000 -1.0528507 125.80713 -9.1383095 -71.938698 -9.1149912 -73.426369 0.011779499 -91.105682
9205187500 -1.0600712 125.77989 -9.139864 -71.990326 -9.1237383 -73.417877 0.0031926283 -91.082947
9205250000 -1.0600002 125.74963 -9.1418715 -71.96022 -9.1185694 -73.428246 0.0018518915 -91.058838
9205312500 -1.0588813 125.69772 -9.1295404 -72.00766 -9.1189137 -73.420555 0.0086382851 -91.026962
9205375000 -1.0637778 125.67481 -9.1364536 -72.049133 -9.1170797 -73.380997 0.0095634172 -90.949532
9205437500 -1.0624458 125.68392 -9.1384029 -72.019646 -9.1106062 -73.397652 0.0059222891 -90.981064
9205500000 -1.0598971 125.65767 -9.1318235 -72.089127 -9.1177549 -73.393303 0.015218779 -90.968613
9205562500 -1.0619398 125.66593 -9.1332407 -72.016304 -9.1118402 -73.408951 0.015617081 -90.968735
9205625000 -1.0567428 125.66167 -9.1314392 -72.00309 -9.1107063 -73.396912 0.0093601011 -90.943527
9205687500 -1.057076 125.64375 -9.1229019 -72.029205 -9.116271 -73.347404 0.0095341997 -90.931976
9205750000 -1.0573223 125.62786 -9.1235228 -71.986984 -9.1061468 -73.428619 0.0093070632 -90.945068
9205812500 -1.0550128 125.59706 -9.127429 -71.996925 -9.1130552 -73.397217 0.0099819079 -90.904655
9205875000 -1.0607264 125.58982 -9.1425037 -72.013023 -9.1112452 -73.390144 0.010529011 -90.899422
9205937500 -1.0541329 125.5666 -9.1311884 -72.019684 -9.111618 -73.375908 0.0073777926 -90.879143
9206000000 -1.0545336 125.56105 -9.1381588 -72.011497 -9.1098013 -73.386322 0.013239677 -90.854027
9206062500 -1.0496215 125.54111 -9.1339149 -72.065651 -9.1125135 -73.352821 0.010453391 -90.848846
9206125000 -1.0601788 125.54562 -9.1476879 -71.952271 -9.1053514 -73.339706 0.006963572 -90.808556
9206187500 -1.0574282 125.49821 -9.1365633 -72.046364 -9.1176567 -73.302498 0.0030175764 -90.826851
9206250000 -1.0548673 125.49385 -9.1313286 -72.024628 -9.1042376 -73.384026 0.012710648 -90.817261
9206312500 -1.0552135 125.51662 -9.1270361 -71.968048 -9.1068974 -73.313942 0.0068410211 -90.806885
9206375000 -1.0552984 125.49131 -9.1292477 -71.996315 -9.1151114 -73.290947 0.0086624902 -90.77401
9206437500 -1.0581442 125.44357 -9.1324844 -72.044647 -9.1099186 -73.243408 0.01159708 -90.728325
9206500000 -1.0578941 125.44629 -9.1165447 -72.071655 -9.1061449 -73.30497 0.013953242 -90.751396
9206562500 -1.0591325 125.45583 -9.1373043 -71.990646 -9.1032982 -73.273026 0.0059428918 -90.743347
9206625000 -1.0505205 125.43185 -9.1270514 -72.037323 -9.113472 -73.282135 0.00019654693 -90.706543
9206687500 -1.0508287 125.41469 -9.1198597 -72.005081 -9.1099634 -73.329681 0.0010292828 -90.658524
9206750000 -1.0513651 125.36739 -9.1232891 -71.997902 -9.1043844 -73.314827 0.0049972245 -90.608009
9206812500 -1.0526543 125.39837 -9.1220131 -71.878967 -9.1090069 -73.364632 -0.0011033206 -90.567909
9206875000 -1.0543032 125.37791 -9.1248484 -71.959946 -9.0994864 -73.339951 0.0040457812 -90.570633
9206937500 -1.05945 125.3692 -9.1120129 -71.970261 -9.1039963 -73.340256 0.0080087706 -90.595322
9207000000 -1.0525095 125.34908 -9.1231441 -71.967278 -9.0940886 -73.320358 0.0096335672 -90.605545
9207062500 -1.058715 125.35584 -9.1268368 -71.964569 -9.096837 -73.356308 0.011562604 -90.533623
9207125000 -1.0596653 125.34921 -9.1236115 -71.97541 -9.0972519 -73.335342 0.0064891735 -90.521263
9207187500 -1.0590508 125.29829 -9.1158447 -71.993912 -9.1023054 -73.334015 0.0092542982 -90.520363
9207250000 -1.060324 125.24386 -9.1231699 -72.033211 -9.1043777 -73.322884 0.0065159849 -90.538185
9207312500 -1.0608015 125.25812 -9.1170406 -72.011978 -9.0975637 -73.337746 0.011495692 -90.50293
9207375000 -1.0583735 125.23472 -9.10818 -72.027977 -9.0930595 -73.413528 0.012060141 -90.525612
9207437500 -1.0570927 125.25302 -9.1140451 -71.907463 -9.0958185 -73.371429 0.0067852652 -90.450577
9207500000 -1.0579559 125.22166 -9.1190472 -71.993393 -9.0942688 -73.278191 0.0055645816 -90.454292
9207562500 -1.0502173 125.20671 -9.1122227 -71.998825 -9.0950489 -73.358986 0.0043276283 -90.432899
9207625000 -1.0552677 125.19387 -9.1132917 -71.972656 -9.1103163 -73.300201 0.0040907976 -90.432152
9207687500 -1.0537672 125.20538 -9.1098366 -71.988632 -9.1015053 -73.354591 0.0094580632 -90.414101
9207750000 -1.0548751 125.1864 -9.1179352 -71.971359 -9.1008263 -73.302422 -0.0013835988 -90.397026
9207812500 -1.0529765 125.16342 -9.1081839 -71.918915 -9.0945311 -73.359833 0.0036631913 -90.363144
9207875000 -1.0561644 125.17191 -9.1210871 -71.980484 -9.1070642 -73.315216 -0.0076690246 -90.331429
9207937500 -1.0552044 125.1798 -9.1109018 -72.000381 -9.1058683 -73.341385 -0.0028696165 -90.316025
9208000000 -1.0561814 125.13692 -9.1095495 -71.966476 -9.0949173 -73.359146 0.0023315568 -90.362633
9208062500 -1.0597882 125.12402 -9.1137085 -71.984932 -9.0969296 -73.38829 0.00039914311 -90.292732
9208125000 -1.0554909 125.12359 -9.0986528 -71.911514 -9.0963345 -73.307953 0.004358422 -90.245926
9208187500 -1.0543712 125.12608 -9.1037636 -71.914902 -9.095542 -73.317741 -0.002798442 -90.221687
9208250000 -1.0567396 125.06936 -9.1061153 -71.942581 -9.0961809 -73.314514 -0.0060247481 -90.219421
9208312500 -1.0522403 125.07966 -9.0946531 -71.938271 -9.0960579 -73.331276 0.00032266678 -90.257362
9208375000 -1.0535033 125.06993 -9.101264 -71.954643 -9.089077 -73.311485 0.0017370688 -90.180824
9208437500 -1.0561783 125.03358 -9.1017227 -71.92527 -9.0990925 -73.327278 -0.0037445859 -90.143654
9208500000 -1.0543722 125.05186 -9.1043129 -71.892448 -9.0987072 -73.31118 -0.0055377036 -90.160851
9208562500 -1.0592145 125.02987 -9.1050072 -71.910446 -9.0915842 -73.348381 -0.0032971844 -90.167351
9208625000 -1.0557785 125.02085 -9.1036282 -71.908073 -9.1116018 -73.308739 -0.0098598208 -90.166885
9208687500 -1.0562645 124.99683 -9.1006117 -71.90239 -9.1088419 -73.319206 -0.0085435947 -90.138184
9208750000 -1.0564628 125.01935 -9.1026716 -71.843254 -9.0961962 -73.268219 -0.0022525045 -90.118279
9208812500 -1.0568585 124.97803 -9.0994873 -71.895233 -9.0915251 -73.336105 0.007402739 -90.098564
9208875000 -1.0578597 124.99047 -9.1119328 -71.897141 -9.0912142 -73.307312 0.0029594195 -90.07196
9208937500 -1.0543838 124.95145 -9.0955982 -71.892586 -9.0973272 -73.26297 -0.003863428 -90.022224
9209000000 -1.0517976 124.95341 -9.1059294 -71.88961 -9.0927229 -73.319855 -0.0015762366 -90.025787
9209062500 -1.0546528 124.92021 -9.1060028 -71.932083 -9.0865307 -73.252647 -0.0041648359 -89.98835
9209125000 -1.0558639 124.90913 -9.1076641 -71.892212 -9.0846167 -73.194229 -0.0058295396 -89.929367
9209187500 -1.0537442 124.90971 -9.1059561 -71.922607 -9.0856018 -73.276352 -0.0060280925 -89.927322
9209250000 -1.0436424 124.88643 -9.0990791 -71.938896 -9.0862761 -73.233315 -0.0077219615 -89.90657
9209312500 -1.0454128 124.8383 -9.0833921 -71.891563 -9.0767193 -73.236298 -0.0045886151 -89.889458
9209375000 -1.0429823 124.84971 -9.0920048 -71.908295 -9.0761623 -73.243645 -0.0038772305 -89.863464
9209437500 -1.0482197 124.81796 -9.1036558 -71.929565 -9.0743647 -73.27462 -0.0073125549 -89.862328
9209500000 -1.039964 124.76715 -9.0876484 -71.88591 -9.0698996 -73.267792 -0.0097403573 -89.824547
9209562500 -1.0458852 124.7751 -9.0889339 -71.889503 -9.0759096 -73.192703 -0.0065151588 -89.788353
9209625000 -1.0504932 124.76632 -9.088419 -71.931892 -9.069684 -73.24321 -0.0071184072 -89.783134
9209687500 -1.0525857 124.78018 -9.0906115 -71.921143 -9.066102 -73.276566 0.00081622851 -89.795708
9209750000 -1.0537961 124.75175 -9.0870266 -71.878487 -9.0728922 -73.305672 -0.00068881718 -89.802597
9209812500 -1.0562146 124.72544 -9.0908527 -71.890205 -9.0663481 -73.262962 -0.00053870422 -89.765511
9209875000 -1.0564574 124.72151 -9.0879688 -71.884209 -9.076889 -73.332535 -0.001311099 -89.785332
9209937500 -1.0548359 124.71277 -9.0857048 -71.92588 -9.0693417 -73.367157 -0.0020566129 -89.772675
9210000000 -1.0502124 124.69031 -9.087409 -71.956108 -9.0763388 -73.303909 -0.010081104 -89.783936
9210062500 -1.0522759 124.66042 -9.0862713 -71.948799 -9.0752773 -73.318573 -0.0042835642 -89.752754
9210125000 -1.0517191 124.67214 -9.0948353 -71.9319 -9.0711451 -73.300476 -0.0080202073 -89.747528
9210187500 -1.0548193 124.62399 -9.0956717 -71.864677 -9.0697193 -73.210548 -0.0077778217 -89.678139
9210250000 -1.0510615 124.58792 -9.0890093 -71.950836 -9.0689583 -73.240868 -0.016372105 -89.727585
9210312500 -1.0494032 124.59436 -9.0814886 -71.90844 -9.0792456 -73.279251 -0.013887863 -89.692429
9210375000 -1.0505071 124.61714 -9.0935469 -71.909538 -9.0750113 -73.258331 -0.013432861 -89.656624
9210437500 -1.0508807 124.59216 -9.0919456 -71.914261 -9.073638 -73.212173 -0.013912079 -89.623497
9210500000 -1.0507035 124.59877 -9.089077 -71.848717 -9.0716267 -73.228233 -0.018344456 -89.604836
9210562500 -1.0509694 124.56804 -9.0887032 -71.879234 -9.0670576 -73.110306 -0.010300152 -89.552742
9210625000 -1.0483263 124.58202 -9.0926313 -71.859062 -9.0742073 -73.204422 -0.014686804 -89.577812
9210687500 -1.0502081 124.56602 -9.0886059 -71.837059 -9.0660143 -73.183266 -0.0065534743 -89.550713
9210750000 -1.05091 124.52272 -9.0842552 -71.851936 -9.0736904 -73.144035 -0.010780025 -89.503639
9210812500 -1.0518023 124.55762 -9.0856256 -71.81234 -9.072753 -73.155312 -0.01756396 -89.517517
9210875000 -1.0521438 124.53667 -9.0846815 -71.839363 -9.0706749 -73.128662 -0.027295202 -89.47625
9210937500 -1.0493164 124.5194 -9.0826826 -71.882629 -9.07164 -73.231216 -0.021952495 -89.51432
9211000000 -1.0526847 124.47858 -9.0894508 -71.856728 -9.0659437 -73.191917 -0.020251056 -89.452324
9211062500 -1.0534465 124.45238 -9.0788364 -71.824699 -9.066659 -73.161263 -0.016179329 -89.45739
9211125000 -1.0562637 124.42957 -9.0834932 -71.81282 -9.0776472 -73.101463 -0.022539772 -89.377769
9211187500 -1.0523766 124.41605 -9.0815973 -71.778435 -9.0733232 -73.114151 -0.024346916 -89.371796
9211250000 -1.0519593 124.39105 -9.0758371 -71.836342 -9.0641794 -73.123238 -0.015569868 -89.334114
9211312500 -1.0513099 124.37714 -9.0815487 -71.837868 -9.0780306 -73.141808 -0.027185775 -89.297127
9211375000 -1.0522711 124.35489 -9.079874 -71.882713 -9.0743313 -73.142868 -0.021637317 -89.336395
9211437500 -1.0545595 124.3732 -9.0780268 -71.801636 -9.0694742 -73.119507 -0.0141557 -89.279366
9211500000 -1.056499 124.35329 -9.0791445 -71.825928 -9.0747614 -73.199051 -0.015557394 -89.323303
9211562500 -1.055493 124.36414 -9.0764208 -71.815292 -9.0518589 -73.145348 -0.010099005 -89.279594
9211625000 -1.0609592 124.33585 -9.0836048 -71.857193 -9.0576687 -73.163872 -0.0078152344 -89.243439
9211687500 -1.0566176 124.36124 -9.0753222 -71.834976 -9.0660572 -73.180618 -0.010445278 -89.273094
9211750000 -1.0544332 124.37875 -9.0807095 -71.776352 -9.0629635 -73.238449 -0.014324217 -89.302284
9211812500 -1.0512977 124.32212 -9.0801783 -71.818405 -9.0675259 -73.215111 -0.01298662 -89.237495
9211875000 -1.0501497 124.28839 -9.077631 -71.804802 -9.0588875 -73.235718 -0.01715884 -89.287521
9211937500 -1.049247 124.23442 -9.0710011 -71.868828 -9.0589848 -73.193588 -0.013326862 -89.253372
9212000000 -1.0439321 124.24107 -9.0642576 -71.833725 -9.0582209 -73.201324 -0.016268171 -89.246353
9212062500 -1.044504 124.20857 -9.0590248 -71.837288 -9.0571699 -73.166466 -0.01315067 -89.190224
9212125000 -1.0422261 124.1958 -9.0677586 -71.834419 -9.0610523 -73.12484 -0.015690096 -89.139389
9212187500 -1.0471951 124.16763 -9.0644369 -71.82692 -9.0541821 -73.189873 -0.016791647 -89.178421
9212250000 -1.0465294 124.14741 -9.0713081 -71.830147 -9.0560122 -73.138733 -0.016430298 -89.130753
