!Agilent Technologies,N5242A,MY51221714,A.09.90.19
!Agilent N5242A: A.09.90.19
!Date: Friday, February 02, 2024 13:21:54
!Correction: S11(Full 2 Port(1,2)) 
!S21(Full 2 Port(1,2)) 
!S12(Full 2 Port(1,2)) 
!S22(Full 2 Port(1,2)) 
!S2P File: Measurements: S11, S21, S12, S22:
# Hz S  dB   R 50
9200000000 -1.0400537 127.27901 -9.2509193 -71.97039 -9.2225084 -73.402298 0.036321457 -92.789818
9200062500 -1.0451355 127.27398 -9.2614851 -71.996529 -9.2127352 -73.378891 0.033729758 -92.738579
9200125000 -1.0461481 127.30066 -9.2547703 -71.964516 -9.218646 -73.427841 0.038854338 -92.7342
9200187500 -1.0435872 127.22543 -9.2480536 -72.004066 -9.2206364 -73.394478 0.036015257 -92.680977
9200250000 -1.0449921 127.23947 -9.2583103 -72.030754 -9.221158 -73.379005 0.032741539 -92.660866
9200312500 -1.0422367 127.22618 -9.2552042 -71.997192 -9.2212429 -73.466484 0.031208463 -92.696472
9200375000 -1.0447975 127.18816 -9.2523069 -72.019913 -9.2236671 -73.390388 0.032396749 -92.651482
9200437500 -1.0454596 127.18723 -9.247118 -72.040573 -9.2228403 -73.425217 0.033945434 -92.640549
9200500000 -1.0431057 127.13705 -9.259161 -72.056473 -9.2268553 -73.435661 0.034060903 -92.638748
9200562500 -1.042618 127.12913 -9.2504892 -72.066452 -9.217411 -73.420692 0.036439266 -92.597786
9200625000 -1.0436101 127.12906 -9.2431965 -72.053429 -9.2224226 -73.457603 0.035854209 -92.613678
9200687500 -1.0391494 127.15331 -9.244729 -72.023354 -9.224885 -73.506828 0.036629066 -92.588745
9200750000 -1.0415556 127.13042 -9.2473125 -72.00296 -9.2190752 -73.531143 0.039857827 -92.59008
9200812500 -1.0382808 127.13708 -9.2404747 -72.051666 -9.2224102 -73.42852 0.045731734 -92.551155
9200875000 -1.0368607 127.1153 -9.23808 -72.017502 -9.2133331 -73.499908 0.049389869 -92.578438
9200937500 -1.0381017 127.11259 -9.2354269 -72.002014 -9.2131929 -73.418625 0.043864366 -92.528618
9201000000 -1.0448343 127.05968 -9.2434444 -72.03791 -9.214613 -73.420494 0.040513616 -92.540352
9201062500 -1.0464308 127.05947 -9.2423735 -72.000259 -9.2302742 -73.418877 0.031693377 -92.523026
9201125000 -1.0474646 127.03155 -9.2464151 -72.077927 -9.2248592 -73.450684 0.033133958 -92.55957
9201187500 -1.0479012 127.00433 -9.2414837 -72.044395 -9.2236986 -73.424973 0.034262523 -92.548592
9201250000 -1.0454969 126.9463 -9.235734 -72.006424 -9.2209091 -73.383469 0.038763952 -92.538223
9201312500 -1.0494146 126.97412 -9.2497559 -72.010529 -9.2215185 -73.384712 0.040950466 -92.454781
9201375000 -1.0534365 126.92266 -9.2410965 -72.03875 -9.2289343 -73.387466 0.033823006 -92.465424
9201437500 -1.0534573 126.89877 -9.2494507 -72.041336 -9.2223282 -73.455452 0.030771295 -92.49366
9201500000 -1.0493922 126.91542 -9.2496424 -72.077942 -9.2195883 -73.482697 0.037443437 -92.429848
9201562500 -1.0469311 126.89116 -9.2423239 -72.044304 -9.2228146 -73.431633 0.029878082 -92.362907
9201625000 -1.0477585 126.85529 -9.2428007 -72.091034 -9.2153959 -73.414536 0.030228971 -92.374069
9201687500 -1.0472341 126.8753 -9.2494678 -72.042007 -9.2137785 -73.435951 0.02708552 -92.379768
9201750000 -1.0421426 126.83759 -9.2336416 -72.068413 -9.2138844 -73.409752 0.027850902 -92.33773
9201812500 -1.0476186 126.8558 -9.2422552 -72.044563 -9.2060556 -73.402115 0.032834485 -92.323486
9201875000 -1.0466987 126.85252 -9.2445393 -71.96273 -9.2146044 -73.40889 0.023146305 -92.28347
9201937500 -1.0476247 126.79506 -9.2377892 -72.036797 -9.2037735 -73.343979 0.029818088 -92.235474
9202000000 -1.0463324 126.81667 -9.236764 -71.997612 -9.2073221 -73.359596 0.028837223 -92.173927
9202062500 -1.0460451 126.7906 -9.2438173 -72.060661 -9.2102413 -73.350891 0.024755612 -92.169937
9202125000 -1.0413272 126.77913 -9.2315645 -72.010818 -9.2098274 -73.338287 0.022748098 -92.175911
9202187500 -1.0440927 126.76447 -9.2383299 -71.984253 -9.2136936 -73.365402 0.017500447 -92.196434
9202250000 -1.0462617 126.7671 -9.2348804 -71.991249 -9.2103033 -73.380547 0.030934697 -92.159927
9202312500 -1.0436963 126.73986 -9.2191601 -72.023491 -9.2147617 -73.371208 0.024781896 -92.143402
9202375000 -1.0448772 126.71183 -9.2342482 -72.055382 -9.2097406 -73.418892 0.024536764 -92.170868
9202437500 -1.0470037 126.69507 -9.2332907 -71.9702 -9.2164278 -73.386528 0.028154923 -92.124802
9202500000 -1.0520347 126.7235 -9.2358341 -71.994225 -9.2248459 -73.379128 0.016322741 -92.07933
9202562500 -1.045625 126.68925 -9.2333097 -72.017647 -9.2117004 -73.349358 0.016678361 -92.043686
9202625000 -1.0532434 126.67432 -9.2384577 -72.017311 -9.2068768 -73.325333 0.022798516 -92.068062
9202687500 -1.0519665 126.678 -9.2394514 -71.999832 -9.2092247 -73.370659 0.017497646 -92.032433
9202750000 -1.0508024 126.66359 -9.2293329 -71.970612 -9.20086 -73.314392 0.029802157 -92.034782
9202812500 -1.0471871 126.66322 -9.2262239 -71.94931 -9.2041283 -73.311195 0.021274613 -92.031189
9202875000 -1.0462725 126.6414 -9.2268076 -71.986816 -9.2070065 -73.327431 0.022429768 -92.005608
9202937500 -1.048656 126.6356 -9.2302065 -71.976006 -9.2004185 -73.342606 0.024883483 -91.963066
9203000000 -1.0456429 126.63506 -9.2281647 -71.979836 -9.20504 -73.337044 0.024060955 -91.96463
9203062500 -1.0440172 126.65811 -9.2273436 -71.931145 -9.210495 -73.312164 0.023355881 -91.952194
9203125000 -1.0452437 126.63547 -9.2265253 -72.001366 -9.210784 -73.361816 0.019540144 -91.954376
9203187500 -1.0394973 126.62004 -9.2140093 -71.92807 -9.2104635 -73.38839 0.020206796 -91.954956
9203250000 -1.0440582 126.60284 -9.2192068 -71.96991 -9.20751 -73.315651 0.026389088 -91.876999
9203312500 -1.0442909 126.58311 -9.2076235 -71.977867 -9.1998081 -73.355568 0.031131165 -91.903717
9203375000 -1.0464325 126.595 -9.2095175 -71.949028 -9.1967354 -73.338356 0.030001318 -91.857162
9203437500 -1.0454236 126.58717 -9.2154408 -71.934677 -9.203989 -73.350395 0.021244723 -91.845268
9203500000 -1.0460162 126.53868 -9.209177 -71.919685 -9.2044783 -73.340927 0.023480661 -91.800049
9203562500 -1.0443925 126.55783 -9.214263 -71.944901 -9.1955147 -73.331169 0.021217331 -91.821739
9203625000 -1.0390584 126.50697 -9.2153759 -71.91967 -9.2063675 -73.312462 0.019010693 -91.792564
9203687500 -1.0350387 126.51592 -9.2128487 -71.917282 -9.1972818 -73.274132 0.0224151 -91.742233
9203750000 -1.037006 126.5086 -9.2150822 -71.955231 -9.180357 -73.389885 0.030877803 -91.860527
9203812500 -1.0416048 126.52337 -9.2191048 -71.879189 -9.1902018 -73.358192 0.016273759 -91.818672
9203875000 -1.0390499 126.48914 -9.2171068 -71.961189 -9.1908503 -73.34597 0.023743227 -91.797043
9203937500 -1.0413444 126.49071 -9.2251339 -71.934273 -9.1859951 -73.360374 0.021818867 -91.758064
9204000000 -1.0385095 126.46764 -9.2152729 -71.982521 -9.1923304 -73.323425 0.015409112 -91.760124
9204062500 -1.0382128 126.44768 -9.2141571 -71.910164 -9.1874428 -73.309189 0.017128356 -91.730972
9204125000 -1.0374786 126.42798 -9.2083492 -71.875175 -9.1820126 -73.270821 0.014652743 -91.70179
9204187500 -1.0424917 126.41564 -9.2207432 -71.918617 -9.1857624 -73.263268 0.017885434 -91.660789
9204250000 -1.0356587 126.40697 -9.2094784 -71.878189 -9.2005367 -73.26255 0.011445262 -91.593124
9204312500 -1.0400096 126.37334 -9.2089949 -71.873543 -9.1914349 -73.238556 0.018254519 -91.588196
9204375000 -1.039749 126.37152 -9.2035341 -71.881195 -9.1922026 -73.229958 0.01494503 -91.569359
9204437500 -1.0462623 126.34159 -9.2075071 -71.929909 -9.1900387 -73.283173 0.019593526 -91.520226
9204500000 -1.0408616 126.32256 -9.2064257 -71.938034 -9.1910162 -73.322968 0.014997882 -91.574112
9204562500 -1.0417229 126.29068 -9.2071247 -71.909386 -9.1899176 -73.31488 0.020796005 -91.517815
9204625000 -1.0411932 126.29395 -9.2040834 -71.909157 -9.1939726 -73.278473 0.014753166 -91.482414
9204687500 -1.0411664 126.22008 -9.2005758 -71.949715 -9.1917849 -73.268135 0.019728374 -91.478683
9204750000 -1.0391299 126.21975 -9.2042446 -71.930847 -9.1878119 -73.312256 0.020358723 -91.449074
9204812500 -1.0359972 126.22873 -9.2058859 -71.913666 -9.1848068 -73.319595 0.015690994 -91.446404
9204875000 -1.0351589 126.25587 -9.2056618 -71.885574 -9.1890783 -73.323357 0.012583678 -91.471878
9204937500 -1.0311863 126.2298 -9.2039814 -71.904015 -9.1871862 -73.280357 0.01347297 -91.396362
9205000000 -1.0322726 126.2198 -9.199522 -71.863243 -9.1898308 -73.300201 0.01612068 -91.419853
9205062500 -1.0339488 126.18888 -9.1995401 -71.905403 -9.1847401 -73.286659 0.01690523 -91.397644
9205125000 -1.0440365 126.22184 -9.2045546 -71.874916 -9.1760578 -73.27092 0.017610764 -91.344818
9205187500 -1.0429999 126.1908 -9.1940479 -71.877434 -9.1786385 -73.333321 0.016312826 -91.36425
9205250000 -1.0475284 126.14803 -9.1998396 -71.9189 -9.1798534 -73.291077 0.017229047 -91.301041
9205312500 -1.0481787 126.14523 -9.2015152 -71.926918 -9.1767778 -73.305023 0.013834708 -91.289215
9205375000 -1.0487068 126.12991 -9.2065268 -71.937302 -9.1745453 -73.315903 0.018129403 -91.287788
9205437500 -1.0484502 126.08613 -9.1906452 -71.918983 -9.1802597 -73.316971 0.012291215 -91.279015
9205500000 -1.0472755 126.08746 -9.1964321 -71.910957 -9.1737728 -73.325531 0.019226676 -91.247032
9205562500 -1.0482091 126.09503 -9.1915808 -71.877731 -9.178525 -73.284027 0.018591069 -91.228401
9205625000 -1.0451756 126.09548 -9.1997375 -71.882393 -9.1719952 -73.360718 0.019906325 -91.239716
9205687500 -1.0439966 126.06483 -9.1984758 -71.891312 -9.1764679 -73.285103 0.020661321 -91.198624
9205750000 -1.0408143 126.05743 -9.1908484 -71.889633 -9.1728334 -73.277901 0.021492073 -91.187859
9205812500 -1.043133 126.04405 -9.1965809 -71.840767 -9.17624 -73.265968 0.015549364 -91.180824
9205875000 -1.0392045 126.01964 -9.1933689 -71.872871 -9.1800776 -73.30722 0.0077005429 -91.150383
9205937500 -1.04215 126.02356 -9.2021904 -71.940628 -9.1770897 -73.291153 0.0095679117 -91.147964
9206000000 -1.0386719 125.97851 -9.197319 -71.927055 -9.1726141 -73.266098 0.012768341 -91.12571
9206062500 -1.0354896 125.95789 -9.1929293 -71.934647 -9.1722298 -73.254944 0.017526124 -91.137131
9206125000 -1.0399283 125.93527 -9.2015991 -71.950638 -9.1652889 -73.231003 0.019860001 -91.113327
9206187500 -1.0405489 125.91897 -9.1959181 -71.945831 -9.175868 -73.204453 0.016777553 -91.066498
9206250000 -1.0385926 125.92934 -9.1928902 -71.904915 -9.1730556 -73.214989 0.021158474 -91.09343
9206312500 -1.0477899 125.92906 -9.2049198 -71.906288 -9.1708822 -73.246964 0.017578069 -91.093086
9206375000 -1.0425588 125.9203 -9.1968536 -71.896317 -9.1735239 -73.159988 0.009358407 -91.072792
9206437500 -1.0367526 125.9015 -9.1812344 -71.860756 -9.1810579 -73.153633 0.0045154961 -91.028839
9206500000 -1.040427 125.86167 -9.1965551 -71.929497 -9.1669331 -73.166664 0.012349665 -91.042114
9206562500 -1.0417359 125.87341 -9.1844444 -71.882599 -9.1729012 -73.220818 0.014214206 -91.015594
9206625000 -1.0439317 125.83978 -9.1928692 -71.881554 -9.1758556 -73.174614 0.0010817079 -91.01918
9206687500 -1.0412866 125.87118 -9.1903486 -71.856247 -9.1660957 -73.138756 0.012800046 -90.947243
9206750000 -1.0390849 125.82187 -9.1840668 -71.878296 -9.1764803 -73.225029 0.0033873806 -90.922241
9206812500 -1.0437373 125.80271 -9.1908045 -71.885391 -9.1763983 -73.160393 0.0054094773 -90.897141
9206875000 -1.037446 125.82561 -9.1868496 -71.797539 -9.1683226 -73.2024 0.0090033421 -90.820831
9206937500 -1.0372728 125.76482 -9.1891537 -71.871628 -9.162261 -73.246857 0.013777518 -90.846764
9207000000 -1.0438577 125.78564 -9.1851368 -71.878052 -9.1716576 -73.188477 0.0090502463 -90.85733
9207062500 -1.0436301 125.75677 -9.1719646 -71.835541 -9.1597319 -73.206635 0.020790381 -90.83403
9207125000 -1.0430564 125.76529 -9.1795654 -71.771866 -9.1678209 -73.246849 0.019513063 -90.829185
9207187500 -1.0393337 125.74426 -9.1708107 -71.873047 -9.1627865 -73.204742 0.011102832 -90.79557
9207250000 -1.0460542 125.73981 -9.1844873 -71.786469 -9.1685076 -73.210701 0.010192512 -90.775589
9207312500 -1.0445229 125.73559 -9.1791124 -71.842484 -9.1641989 -73.220467 0.017102022 -90.797882
9207375000 -1.0418172 125.7196 -9.1748743 -71.855789 -9.1581469 -73.27655 0.016688183 -90.817032
9207437500 -1.0416744 125.65312 -9.17204 -71.896286 -9.1608334 -73.222847 0.010087518 -90.730682
9207500000 -1.0380908 125.65838 -9.1644211 -71.878059 -9.1613417 -73.249329 0.0077564283 -90.769554
9207562500 -1.0397251 125.65947 -9.1804657 -71.872849 -9.1639051 -73.272385 0.010219517 -90.758827
9207625000 -1.0415519 125.6285 -9.1802225 -71.852005 -9.1630383 -73.234276 0.0080408445 -90.714165
9207687500 -1.0454525 125.62099 -9.1814451 -71.874184 -9.1656761 -73.311035 0.0057024439 -90.731491
9207750000 -1.040271 125.61176 -9.1830854 -71.894577 -9.16154 -73.238846 0.0052643921 -90.684937
9207812500 -1.0425096 125.58789 -9.1854734 -71.878128 -9.1659384 -73.248329 0.0036071427 -90.620049
9207875000 -1.0409185 125.60629 -9.184721 -71.852226 -9.1663618 -73.146667 0.0054987692 -90.6026
9207937500 -1.0391381 125.59199 -9.1745405 -71.858322 -9.1661358 -73.219681 0.0030922163 -90.601822
9208000000 -1.043187 125.59556 -9.1890574 -71.877151 -9.1647367 -73.277229 -0.0001269597 -90.598984
9208062500 -1.0382897 125.61844 -9.169486 -71.819908 -9.1693869 -73.257362 0.0029620065 -90.575378
9208125000 -1.0362123 125.56337 -9.1741114 -71.772949 -9.1698198 -73.199005 0.0080704568 -90.528992
9208187500 -1.0379409 125.56915 -9.1652336 -71.734077 -9.1568527 -73.22805 0.0039680707 -90.52784
9208250000 -1.0400627 125.51541 -9.1654844 -71.803909 -9.1581049 -73.198341 0.0029480115 -90.477654
9208312500 -1.040987 125.48966 -9.1713095 -71.834717 -9.1571484 -73.281616 0.0042512775 -90.53273
9208375000 -1.0444387 125.53071 -9.1725197 -71.792061 -9.1529093 -73.21067 0.0074660187 -90.446198
9208437500 -1.0463064 125.49359 -9.1732454 -71.747299 -9.1589298 -73.180565 -0.0019452459 -90.42067
9208500000 -1.0419226 125.48425 -9.169302 -71.769974 -9.1672659 -73.221497 0.0016010435 -90.474228
9208562500 -1.0422937 125.44703 -9.1649733 -71.833336 -9.1618299 -73.182961 0.0018975559 -90.460342
9208625000 -1.0417455 125.47546 -9.1706266 -71.710854 -9.1710787 -73.188644 0.00010685389 -90.43808
9208687500 -1.0457379 125.44917 -9.1697083 -71.786041 -9.1594276 -73.219688 -0.0010034769 -90.429291
9208750000 -1.041398 125.40032 -9.161685 -71.733124 -9.164217 -73.138252 0.0045061843 -90.346054
9208812500 -1.0429209 125.39709 -9.1632471 -71.792534 -9.1529455 -73.166077 0.01109507 -90.34716
9208875000 -1.0366361 125.42018 -9.1641054 -71.754379 -9.1550198 -73.172394 0.0040924023 -90.347397
9208937500 -1.0389032 125.3772 -9.1570215 -71.811539 -9.1532822 -73.189079 0.0065042195 -90.327286
9209000000 -1.0413523 125.37003 -9.1693106 -71.776291 -9.1540346 -73.144691 0.005869715 -90.312347
9209062500 -1.0392028 125.41916 -9.1684093 -71.732826 -9.1501446 -73.119904 0.0041430756 -90.264206
9209125000 -1.0385711 125.341 -9.1635838 -71.833252 -9.1451893 -73.174919 0.0038027179 -90.261452
9209187500 -1.0356879 125.33826 -9.164752 -71.750427 -9.1421204 -73.188316 0.0003358917 -90.227966
9209250000 -1.0298828 125.29627 -9.1566811 -71.764648 -9.1409969 -73.142097 0.008747641 -90.200676
9209312500 -1.036631 125.31183 -9.1719093 -71.768387 -9.1449919 -73.139603 -0.0017984476 -90.177589
9209375000 -1.0341245 125.26533 -9.1679239 -71.743965 -9.1423988 -73.086136 0.0010010392 -90.121407
9209437500 -1.0297294 125.25641 -9.1576729 -71.725464 -9.1399202 -73.123322 -0.0076111113 -90.095345
9209500000 -1.0369617 125.23721 -9.1676283 -71.819107 -9.1398315 -73.195869 0.00085504667 -90.139381
9209562500 -1.031428 125.21339 -9.151577 -71.723846 -9.1369286 -73.147224 -0.0025985213 -90.096077
9209625000 -1.0401982 125.16087 -9.1551342 -71.837494 -9.1411076 -73.108147 -0.0071218642 -90.084923
9209687500 -1.0377682 125.21578 -9.1692533 -71.798096 -9.1391878 -73.189194 0.00025813995 -90.075638
9209750000 -1.0412393 125.15979 -9.1458645 -71.790665 -9.1402731 -73.161926 0.0022559301 -90.083923
9209812500 -1.0436336 125.16138 -9.1491766 -71.766136 -9.1335115 -73.166611 -0.0019246907 -90.043251
9209875000 -1.0451871 125.16229 -9.1545744 -71.783821 -9.1335354 -73.18026 0.0048663695 -90.084511
9209937500 -1.0444494 125.1506 -9.1494961 -71.819809 -9.1390057 -73.186722 0.00025865799 -90.046883
9210000000 -1.040105 125.13902 -9.1568518 -71.756233 -9.1455612 -73.185287 -0.0048218179 -90.034332
9210062500 -1.0422429 125.10699 -9.1631527 -71.758698 -9.1378145 -73.213341 -0.0068827029 -90.019714
9210125000 -1.038934 125.09654 -9.155509 -71.791206 -9.1311474 -73.154449 -0.00077305478 -90.055511
9210187500 -1.0393897 125.07638 -9.1635418 -71.756706 -9.1382866 -73.215111 0.0011605086 -90.054993
9210250000 -1.0336173 125.06853 -9.1589136 -71.827873 -9.1405668 -73.169945 -0.0062072403 -90.016533
9210312500 -1.0392638 125.04126 -9.1571283 -71.795731 -9.1282072 -73.180115 -0.001520972 -90.012909
9210375000 -1.0388576 125.0191 -9.1596127 -71.764236 -9.137825 -73.120499 -0.0040359446 -89.946945
9210437500 -1.0367486 125.04178 -9.1545372 -71.708389 -9.1425152 -73.093689 -0.0052608242 -89.949402
9210500000 -1.0358675 125.04873 -9.1558313 -71.727791 -9.130723 -73.105186 -0.0055177137 -89.91925
9210562500 -1.0311856 125.00204 -9.1562166 -71.770012 -9.1321306 -73.071381 -0.0093867565 -89.825394
9210625000 -1.0325128 125.02132 -9.1464262 -71.734619 -9.1362352 -73.058655 -0.0064830235 -89.809776
9210687500 -1.0355976 124.99075 -9.149004 -71.766701 -9.1303358 -73.083138 -0.0064782752 -89.859283
9210750000 -1.0392699 125.00935 -9.1564865 -71.707558 -9.1268702 -73.02243 -0.010219641 -89.78418
9210812500 -1.0383435 125.00458 -9.1508322 -71.656906 -9.1339417 -73.052147 -0.0061223232 -89.786308
9210875000 -1.0319487 124.99905 -9.1517601 -71.674164 -9.1300249 -73.028572 -0.0092259804 -89.76915
9210937500 -1.0398707 124.93565 -9.1517467 -71.746986 -9.1331215 -73.050148 -0.012319829 -89.772964
9211000000 -1.0355762 124.90668 -9.1512909 -71.728554 -9.1355209 -73.028755 -0.0096682329 -89.742897
9211062500 -1.0371586 124.91852 -9.1477776 -71.738785 -9.1282816 -73.071991 -0.0069584134 -89.687164
9211125000 -1.0376794 124.90051 -9.1378603 -71.685165 -9.1328449 -73.086479 -0.014973409 -89.656464
9211187500 -1.034042 124.87329 -9.1413145 -71.671257 -9.1339788 -73.018524 -0.015408286 -89.65789
9211250000 -1.0389514 124.84208 -9.1379242 -71.688248 -9.1330032 -73.056335 -0.011374136 -89.626144
9211312500 -1.0363011 124.81448 -9.1413412 -71.691635 -9.131278 -73.026772 -0.015257264 -89.59922
9211375000 -1.0385842 124.79376 -9.1439066 -71.689026 -9.1391735 -73.052002 -0.013146866 -89.58078
9211437500 -1.0410763 124.80824 -9.1293125 -71.696625 -9.1333075 -73.024544 -0.012115608 -89.558044
9211500000 -1.0381514 124.77787 -9.1410303 -71.67437 -9.1329746 -73.001572 -0.0092288358 -89.541542
9211562500 -1.0404507 124.77853 -9.1373978 -71.721992 -9.1287441 -73.096283 -0.0095962435 -89.58123
9211625000 -1.0391521 124.77477 -9.1503086 -71.684959 -9.1297245 -73.096268 -0.0060850838 -89.587036
9211687500 -1.0391622 124.76376 -9.1449003 -71.672394 -9.1317072 -73.089607 -0.006828757 -89.595818
9211750000 -1.0408766 124.7633 -9.1337309 -71.698555 -9.1223383 -73.077881 -0.0091139479 -89.568085
9211812500 -1.0373853 124.73114 -9.1449137 -71.696678 -9.1327333 -73.085876 -0.011033416 -89.548622
9211875000 -1.0309485 124.70698 -9.1325579 -71.691292 -9.1301146 -73.096222 -0.0091739884 -89.533562
9211937500 -1.0272909 124.69903 -9.1310205 -71.670792 -9.1243191 -73.033974 -0.0097535262 -89.469566
9212000000 -1.032221 124.67684 -9.1407213 -71.707153 -9.1179886 -73.083298 -0.0025773032 -89.530731
9212062500 -1.0270779 124.62381 -9.1372766 -71.75473 -9.1225529 -73.060822 -0.0023106209 -89.468552
9212125000 -1.0287911 124.57827 -9.130311 -71.716835 -9.1109123 -73.03212 0.0048671993 -89.424812
9212187500 -1.0254015 124.61703 -9.1307659 -71.678596 -9.1215706 -73.057312 -0.0071250144 -89.43248
9212250000 -1.0306091 124.58462 -9.1297445 -71.727425 -9.1168156 -73.05143 -0.0093987081 -89.419968
