!Agilent Technologies,N5242A,MY51221714,A.09.90.19
!Agilent N5242A: A.09.90.19
!Date: Friday, February 02, 2024 13:23:37
!Correction: S11(Full 2 Port(1,2)) 
!S21(Full 2 Port(1,2)) 
!S12(Full 2 Port(1,2)) 
!S22(Full 2 Port(1,2)) 
!S2P File: Measurements: S11, S21, S12, S22:
# Hz S  dB   R 50
9200000000 -1.0435283 127.00974 -9.2139902 -72.074898 -9.1832294 -73.51207 0.055366702 -92.705978
9200062500 -1.046687 126.9857 -9.2073469 -72.028702 -9.1828957 -73.47007 0.059650887 -92.643829
9200125000 -1.0444471 127.00393 -9.2191095 -72.031197 -9.1764107 -73.552673 0.064584598 -92.694489
9200187500 -1.0501775 126.97243 -9.2220173 -72.110023 -9.1833811 -73.545982 0.055602737 -92.636398
9200250000 -1.0498499 126.94751 -9.2176876 -72.034058 -9.1894064 -73.47493 0.04814399 -92.611183
9200312500 -1.0504478 126.94077 -9.2202969 -72.004349 -9.1885853 -73.582817 0.057764087 -92.604164
9200375000 -1.0469676 126.85473 -9.2204828 -72.115654 -9.1822548 -73.51889 0.051759135 -92.571983
9200437500 -1.0458187 126.86577 -9.2094002 -72.084808 -9.1833878 -73.485847 0.056493603 -92.59552
9200500000 -1.0552952 126.84507 -9.2198849 -72.1045 -9.1884985 -73.460701 0.057572082 -92.563911
9200562500 -1.0473449 126.83858 -9.2115393 -72.164063 -9.1866016 -73.546989 0.054072425 -92.550331
9200625000 -1.0494472 126.85542 -9.2162342 -72.078171 -9.178216 -73.587082 0.061467111 -92.56282
9200687500 -1.0430299 126.87373 -9.2081156 -72.067421 -9.1910048 -73.543373 0.053697284 -92.4645
9200750000 -1.0410661 126.83858 -9.2007704 -72.093414 -9.1822472 -73.525528 0.059297621 -92.462753
9200812500 -1.0410328 126.8666 -9.2031803 -72.068871 -9.1693974 -73.52021 0.073605701 -92.494011
9200875000 -1.0424049 126.85468 -9.2040434 -72.092712 -9.1825085 -73.538132 0.067535326 -92.434937
9200937500 -1.048263 126.81602 -9.1995173 -72.105217 -9.1777706 -73.611031 0.060513593 -92.496521
9201000000 -1.0493814 126.8145 -9.2075005 -72.081383 -9.1868458 -73.497993 0.057349291 -92.45681
9201062500 -1.0520205 126.76295 -9.2165956 -72.143219 -9.1868353 -73.551758 0.055057656 -92.4534
9201125000 -1.0528399 126.72331 -9.2019091 -72.078316 -9.1912327 -73.521637 0.05408147 -92.483368
9201187500 -1.0565001 126.71222 -9.2057981 -72.109917 -9.191268 -73.512794 0.063199475 -92.467552
9201250000 -1.0543053 126.66763 -9.2068176 -72.108253 -9.1828871 -73.544777 0.059968062 -92.454422
9201312500 -1.0548831 126.62868 -9.2031422 -72.149544 -9.1891642 -73.47377 0.054899424 -92.428436
9201375000 -1.055827 126.64159 -9.1984987 -72.158997 -9.1848211 -73.534538 0.060914543 -92.401367
9201437500 -1.0503697 126.61153 -9.2080622 -72.069664 -9.1924562 -73.54142 0.048777219 -92.390999
9201500000 -1.0564026 126.62585 -9.2197371 -72.095322 -9.1842365 -73.500389 0.052608665 -92.344452
9201562500 -1.0497332 126.60236 -9.2102728 -72.058487 -9.1838589 -73.517326 0.05661593 -92.326347
9201625000 -1.049883 126.56918 -9.2068176 -72.086708 -9.1762838 -73.528084 0.055613942 -92.323639
9201687500 -1.054722 126.57174 -9.2145338 -72.105743 -9.1801958 -73.472206 0.049846265 -92.258484
9201750000 -1.0529642 126.55505 -9.2074928 -72.042 -9.1723547 -73.460449 0.053913582 -92.220886
9201812500 -1.051475 126.53312 -9.2108727 -72.071175 -9.1770935 -73.468033 0.049871832 -92.231049
9201875000 -1.0544717 126.51986 -9.2067299 -72.082024 -9.1647549 -73.420212 0.052242357 -92.198753
9201937500 -1.0478058 126.53148 -9.2023268 -72.082787 -9.176981 -73.430862 0.044753525 -92.144661
9202000000 -1.0519634 126.50054 -9.2002182 -72.063446 -9.1728315 -73.403503 0.049579311 -92.140793
9202062500 -1.0538102 126.53629 -9.2021379 -72.083778 -9.1734495 -73.414825 0.043142281 -92.103424
9202125000 -1.0512156 126.47253 -9.1981125 -72.061806 -9.1683903 -73.409142 0.051178589 -92.061241
9202187500 -1.0504205 126.47509 -9.1996717 -72.043266 -9.1734962 -73.414879 0.046725288 -92.09507
9202250000 -1.05065 126.45076 -9.199481 -72.066956 -9.1775742 -73.42749 0.043297753 -92.103943
9202312500 -1.056754 126.48304 -9.201231 -72.022537 -9.1765413 -73.512444 0.04979755 -92.093895
9202375000 -1.0446025 126.43164 -9.193223 -72.073006 -9.1780653 -73.486107 0.046024911 -92.040924
9202437500 -1.0543065 126.43347 -9.1928825 -72.033493 -9.1716566 -73.462128 0.048003055 -92.038177
9202500000 -1.0534209 126.4304 -9.1894369 -72.074646 -9.1792059 -73.45916 0.043458384 -92.012115
9202562500 -1.0558803 126.40909 -9.1948547 -72.079918 -9.1672087 -73.47467 0.048534863 -92.033234
9202625000 -1.0511961 126.37434 -9.1889906 -72.043541 -9.164506 -73.461517 0.046396684 -91.989876
9202687500 -1.0614332 126.38374 -9.1982765 -72.037827 -9.1694031 -73.434967 0.044278748 -91.984016
9202750000 -1.0565251 126.38388 -9.1914606 -72.074112 -9.1734009 -73.338142 0.041386619 -91.911766
9202812500 -1.0529815 126.33077 -9.186203 -72.039757 -9.1713781 -73.426102 0.044516783 -91.926033
9202875000 -1.0490185 126.35483 -9.1839476 -72.086647 -9.1712341 -73.414413 0.049999114 -91.908287
9202937500 -1.052678 126.34962 -9.1937809 -72.055023 -9.1647892 -73.444717 0.047180228 -91.908051
9203000000 -1.0546225 126.33179 -9.1969671 -72.102966 -9.1649151 -73.379356 0.049758364 -91.865654
9203062500 -1.0481559 126.34465 -9.1921549 -71.98774 -9.1734095 -73.439888 0.044269495 -91.91185
9203125000 -1.0515283 126.32462 -9.1906719 -72.041809 -9.1722603 -73.389786 0.038975827 -91.896675
9203187500 -1.0496078 126.35061 -9.1827641 -72.023308 -9.1696539 -73.405693 0.048061311 -91.872032
9203250000 -1.0493277 126.31382 -9.178134 -72.031677 -9.1672993 -73.443253 0.04501738 -91.835709
9203312500 -1.0525784 126.28349 -9.1810064 -72.024269 -9.1650171 -73.386276 0.05206012 -91.804352
9203375000 -1.0452422 126.26288 -9.1701937 -72.040771 -9.1641235 -73.406654 0.046130002 -91.788795
9203437500 -1.0504339 126.24496 -9.1762686 -72.014473 -9.1698828 -73.39402 0.040790901 -91.739616
9203500000 -1.0504805 126.23209 -9.1811237 -71.943214 -9.1616268 -73.415665 0.045751963 -91.748543
9203562500 -1.0415639 126.22109 -9.1818762 -72.044205 -9.1606102 -73.409012 0.047644392 -91.736404
9203625000 -1.0492312 126.22609 -9.1853609 -72.014305 -9.1592607 -73.464973 0.041057236 -91.730263
9203687500 -1.0489632 126.24349 -9.1798544 -71.943054 -9.1505489 -73.378151 0.04270833 -91.703621
9203750000 -1.0442343 126.21845 -9.1790371 -72.026756 -9.1572695 -73.475609 0.038030397 -91.751251
9203812500 -1.0423321 126.19191 -9.1764555 -72.005104 -9.1584578 -73.467957 0.04152244 -91.749565
9203875000 -1.0464025 126.19171 -9.1828346 -72.081688 -9.1472931 -73.452118 0.040499792 -91.739998
9203937500 -1.0452681 126.15017 -9.1809664 -72.026573 -9.1493549 -73.410431 0.040291961 -91.685036
9204000000 -1.0420368 126.18432 -9.1834478 -71.982498 -9.1517363 -73.399025 0.039067846 -91.705696
9204062500 -1.0404683 126.16064 -9.1828976 -71.977669 -9.1534214 -73.377106 0.039365228 -91.664627
9204125000 -1.0446551 126.15176 -9.1824274 -71.956947 -9.1632156 -73.36924 0.035926089 -91.572037
9204187500 -1.0441955 126.13903 -9.1806622 -71.917915 -9.1558437 -73.339767 0.032876629 -91.605736
9204250000 -1.0462065 126.11641 -9.1745615 -71.969048 -9.1597328 -73.296425 0.032338072 -91.544373
9204312500 -1.0461026 126.06264 -9.1803741 -71.97982 -9.1513586 -73.331108 0.035776965 -91.507851
9204375000 -1.0439165 126.07517 -9.175806 -71.930161 -9.1548157 -73.330109 0.033766892 -91.484558
9204437500 -1.0484935 126.04993 -9.1751509 -71.990959 -9.1482878 -73.328461 0.043167099 -91.475533
9204500000 -1.0483814 125.98933 -9.1675501 -71.988899 -9.1603622 -73.374763 0.037164006 -91.464256
9204562500 -1.0465477 125.98006 -9.1642237 -72.050064 -9.1476259 -73.367973 0.043492481 -91.468582
9204625000 -1.0464488 125.96974 -9.1720953 -72.007988 -9.1400671 -73.351959 0.052092157 -91.411705
9204687500 -1.0465589 125.95993 -9.1640339 -72.00518 -9.1479216 -73.351021 0.044202439 -91.393181
9204750000 -1.0421578 125.94261 -9.1697721 -72.036377 -9.1455956 -73.390312 0.047089051 -91.40699
9204812500 -1.0438452 125.9352 -9.1725998 -71.980446 -9.1532927 -73.33033 0.037366796 -91.353798
9204875000 -1.0433685 125.9556 -9.1720896 -71.964828 -9.147191 -73.384407 0.042827759 -91.348312
9204937500 -1.0371995 125.93156 -9.1690245 -71.941757 -9.155632 -73.330856 0.036097139 -91.290695
9205000000 -1.0436401 125.94623 -9.1660671 -71.935692 -9.1519403 -73.326416 0.032908998 -91.336266
9205062500 -1.0453655 125.92278 -9.1635513 -71.884369 -9.1432667 -73.365097 0.035341214 -91.306648
9205125000 -1.0459148 125.9428 -9.1613817 -71.933769 -9.1459885 -73.335106 0.036805887 -91.289848
9205187500 -1.0469111 125.86028 -9.1587763 -71.974892 -9.1440802 -73.356331 0.034345672 -91.256119
9205250000 -1.0469515 125.86864 -9.1592922 -71.930748 -9.1480951 -73.407234 0.03339674 -91.253067
9205312500 -1.0523944 125.86312 -9.1527348 -71.975113 -9.1424227 -73.398407 0.030063683 -91.249336
9205375000 -1.0566816 125.85326 -9.1546459 -71.932487 -9.1434031 -73.398323 0.040206283 -91.183296
9205437500 -1.0522292 125.81513 -9.1586771 -71.953072 -9.141201 -73.378357 0.039275397 -91.185944
9205500000 -1.0518237 125.826 -9.1619444 -71.947861 -9.1430988 -73.407539 0.039602153 -91.20256
9205562500 -1.0517473 125.76923 -9.154748 -71.984612 -9.1289921 -73.374916 0.039929956 -91.197029
9205625000 -1.0501308 125.77822 -9.1604786 -71.964203 -9.140337 -73.349701 0.041682452 -91.134933
9205687500 -1.0502073 125.75726 -9.1522942 -71.996918 -9.1290264 -73.3871 0.044253215 -91.148438
9205750000 -1.0436194 125.7822 -9.1528864 -71.950417 -9.1322365 -73.362228 0.041901991 -91.104324
9205812500 -1.0502424 125.73194 -9.1657629 -71.994957 -9.1330166 -73.336555 0.03881548 -91.133156
9205875000 -1.0469536 125.74471 -9.158886 -71.946175 -9.1369514 -73.373878 0.035547361 -91.095673
9205937500 -1.0431248 125.71497 -9.1650028 -71.951492 -9.1357613 -73.379189 0.042950917 -91.106018
9206000000 -1.0460814 125.69278 -9.1653996 -71.924583 -9.1393251 -73.353264 0.033154953 -91.06929
9206062500 -1.0433831 125.66178 -9.1592216 -72.02195 -9.1390495 -73.345215 0.03981258 -91.073181
9206125000 -1.0440017 125.64734 -9.151494 -72.020836 -9.1375122 -73.256508 0.039815534 -91.029404
9206187500 -1.0467372 125.64483 -9.1581173 -71.972336 -9.1359844 -73.291794 0.031774171 -91.001389
9206250000 -1.0421981 125.61972 -9.1514807 -71.941483 -9.1400318 -73.27858 0.035393648 -91.016685
9206312500 -1.0456004 125.61585 -9.1530037 -71.974976 -9.1299391 -73.287308 0.034522135 -90.981598
9206375000 -1.0427978 125.57539 -9.1439142 -71.970375 -9.1399136 -73.269234 0.038826972 -90.964165
9206437500 -1.0487207 125.56715 -9.1544943 -71.955788 -9.1411123 -73.221718 0.034419876 -90.970757
9206500000 -1.0476807 125.57726 -9.1503572 -71.934731 -9.1342239 -73.264839 0.03811368 -90.911896
9206562500 -1.0436974 125.54771 -9.1469316 -71.970505 -9.1355658 -73.248894 0.024406837 -90.934402
9206625000 -1.0498453 125.54683 -9.1579762 -71.928688 -9.1274605 -73.267204 0.039591018 -90.929245
9206687500 -1.04096 125.56422 -9.1494818 -71.9431 -9.1312799 -73.225594 0.033445418 -90.828789
9206750000 -1.0453035 125.53568 -9.1527615 -71.914131 -9.1319761 -73.264862 0.028469974 -90.847504
9206812500 -1.043173 125.50769 -9.1421213 -71.904755 -9.1250391 -73.261871 0.032059569 -90.806702
9206875000 -1.0453397 125.50107 -9.1536608 -71.920395 -9.1382408 -73.356789 0.027977943 -90.79541
9206937500 -1.0478551 125.49596 -9.1427145 -71.906586 -9.1218796 -73.301598 0.039672572 -90.76564
9207000000 -1.046954 125.45543 -9.1363535 -71.957809 -9.1252699 -73.285622 0.034482174 -90.798164
9207062500 -1.047698 125.46992 -9.1415501 -71.854591 -9.1233921 -73.273682 0.036494981 -90.766632
9207125000 -1.0482246 125.45616 -9.1424332 -71.94249 -9.1310911 -73.35466 0.031357255 -90.776306
9207187500 -1.0507152 125.44342 -9.154151 -71.933586 -9.1335363 -73.307373 0.034221705 -90.742752
9207250000 -1.0520538 125.40102 -9.1481113 -71.927422 -9.1278086 -73.313881 0.039850045 -90.728706
9207312500 -1.0507867 125.40523 -9.1451559 -71.955574 -9.1224298 -73.280228 0.040110715 -90.734505
9207375000 -1.0485735 125.39079 -9.1441889 -71.947701 -9.1132565 -73.276924 0.0398601 -90.694633
9207437500 -1.0449264 125.38035 -9.1408472 -71.931328 -9.1165428 -73.360497 0.042514767 -90.733788
9207500000 -1.0466236 125.35725 -9.1390295 -71.942047 -9.1225519 -73.33815 0.036293931 -90.671249
9207562500 -1.0445822 125.36569 -9.139822 -71.893456 -9.1286077 -73.295616 0.032579716 -90.643913
9207625000 -1.0466278 125.3065 -9.1433735 -71.935715 -9.1184969 -73.28318 0.030112309 -90.620209
9207687500 -1.0457649 125.33158 -9.1403055 -71.954689 -9.1142817 -73.296028 0.036009826 -90.606903
9207750000 -1.0439018 125.3133 -9.1340199 -71.904678 -9.1254025 -73.315323 0.032395732 -90.615211
9207812500 -1.0447937 125.3204 -9.1374674 -71.902069 -9.1247978 -73.270332 0.034675803 -90.535568
9207875000 -1.0411726 125.28774 -9.1397562 -71.974495 -9.1255503 -73.246262 0.02773032 -90.524818
9207937500 -1.0472386 125.3003 -9.1492834 -71.901215 -9.1268034 -73.287636 0.020455947 -90.513062
9208000000 -1.0465747 125.25312 -9.1413946 -71.927467 -9.1338654 -73.273659 0.019860132 -90.497032
9208062500 -1.04696 125.26865 -9.1377163 -71.910194 -9.1217899 -73.277641 0.025528893 -90.49456
9208125000 -1.0480018 125.26201 -9.1412506 -71.902748 -9.121439 -73.291916 0.026969865 -90.465134
9208187500 -1.0416551 125.22691 -9.1306686 -71.959023 -9.1245956 -73.3246 0.02364107 -90.436447
9208250000 -1.0434011 125.20415 -9.1274939 -71.930687 -9.1217871 -73.302261 0.026601912 -90.424393
9208312500 -1.0470558 125.19793 -9.1349382 -71.844666 -9.1220961 -73.272514 0.02222058 -90.356216
9208375000 -1.0482267 125.18916 -9.131176 -71.824608 -9.1185036 -73.371803 0.031287987 -90.458549
9208437500 -1.0499293 125.16634 -9.1340179 -71.863327 -9.1148825 -73.270248 0.027389383 -90.333687
9208500000 -1.0489984 125.17636 -9.125411 -71.850113 -9.1186972 -73.30793 0.030492244 -90.372986
9208562500 -1.0433362 125.15601 -9.12708 -71.890488 -9.124938 -73.27137 0.025958601 -90.395699
9208625000 -1.0447736 125.18382 -9.1312342 -71.788414 -9.1250572 -73.280182 0.021649897 -90.361076
9208687500 -1.0516509 125.14728 -9.136528 -71.86937 -9.1311293 -73.277641 0.018388595 -90.395271
9208750000 -1.0501217 125.11657 -9.1265602 -71.839127 -9.1206617 -73.226051 0.020291151 -90.285767
9208812500 -1.041082 125.15495 -9.129755 -71.727188 -9.1195374 -73.23613 0.031935051 -90.293968
9208875000 -1.0416026 125.1173 -9.1290159 -71.801865 -9.120965 -73.262314 0.027799988 -90.285568
9208937500 -1.0508482 125.09525 -9.1293898 -71.841812 -9.1200447 -73.181793 0.026865575 -90.179398
9209000000 -1.0449709 125.07805 -9.1255922 -71.794304 -9.1180019 -73.289291 0.021960359 -90.222801
9209062500 -1.045526 125.05272 -9.1189499 -71.857277 -9.1056175 -73.23436 0.030886201 -90.197853
9209125000 -1.0442007 125.07173 -9.1352606 -71.774292 -9.1054039 -73.164185 0.02722824 -90.154495
9209187500 -1.0431699 125.04634 -9.1274147 -71.871727 -9.1043367 -73.231651 0.028341323 -90.142479
9209250000 -1.0404019 124.99615 -9.1389732 -71.85437 -9.1020308 -73.185173 0.023280587 -90.11837
9209312500 -1.040653 124.97207 -9.1252527 -71.795395 -9.107686 -73.20443 0.019218307 -90.049156
9209375000 -1.0366577 124.94318 -9.1280489 -71.899345 -9.0960484 -73.272667 0.02059971 -90.093842
9209437500 -1.0348338 124.94614 -9.1185942 -71.835228 -9.0971279 -73.224022 0.020331379 -90.034439
9209500000 -1.0330396 124.90284 -9.1112442 -71.86248 -9.1031399 -73.215912 0.019457493 -90.05999
9209562500 -1.0411742 124.8937 -9.1236353 -71.912643 -9.0961323 -73.247002 0.020371964 -90.025131
9209625000 -1.0419967 124.87428 -9.1210938 -71.871643 -9.099246 -73.261642 0.024441022 -90.046318
9209687500 -1.0443149 124.88655 -9.1112833 -71.870453 -9.0971098 -73.247322 0.028369742 -89.979156
9209750000 -1.0423186 124.85579 -9.1224394 -71.844772 -9.0985146 -73.254929 0.01979579 -90.007217
9209812500 -1.0448495 124.85523 -9.1185637 -71.887657 -9.1012802 -73.265305 0.02587658 -90.012375
9209875000 -1.0486639 124.85036 -9.117609 -71.861206 -9.0986738 -73.268433 0.019753454 -90.008194
9209937500 -1.0473133 124.86901 -9.1137743 -71.880005 -9.0909977 -73.21312 0.023587624 -89.985298
9210000000 -1.0508746 124.8353 -9.1236925 -71.916077 -9.0958166 -73.233688 0.021541601 -90.010513
9210062500 -1.0476243 124.79235 -9.1222477 -71.906425 -9.0984344 -73.229111 0.020080937 -89.959641
9210125000 -1.0427845 124.77877 -9.1182213 -71.878448 -9.1015682 -73.245171 0.017568721 -89.978561
9210187500 -1.0418249 124.76659 -9.1198263 -71.901123 -9.0927429 -73.278809 0.019333763 -89.952858
9210250000 -1.045577 124.77294 -9.1242609 -71.853333 -9.1019115 -73.230301 0.014493188 -89.94529
9210312500 -1.0466272 124.72964 -9.1224222 -71.813599 -9.0943203 -73.244362 0.021057487 -89.948112
9210375000 -1.037536 124.73143 -9.1139994 -71.813713 -9.0971575 -73.220665 0.019748494 -89.906128
9210437500 -1.040043 124.72883 -9.1119442 -71.88279 -9.092947 -73.250946 0.02138455 -89.884483
9210500000 -1.0378287 124.71146 -9.1126575 -71.852715 -9.0981464 -73.164818 0.014272599 -89.831261
9210562500 -1.0456123 124.72027 -9.1176996 -71.808426 -9.097784 -73.129303 0.012607611 -89.776443
9210625000 -1.0436085 124.71409 -9.1107998 -71.816589 -9.088275 -73.118217 0.020252805 -89.77565
9210687500 -1.0439705 124.70119 -9.113431 -71.79821 -9.0984564 -73.109665 0.0039472524 -89.781509
9210750000 -1.0377409 124.68497 -9.1198606 -71.80777 -9.0951424 -73.09623 0.010976117 -89.765831
9210812500 -1.0435081 124.68788 -9.1152143 -71.78743 -9.092597 -73.126419 0.013548264 -89.73661
9210875000 -1.0415517 124.64542 -9.111783 -71.780441 -9.0853376 -73.065147 0.015549863 -89.681175
9210937500 -1.0424353 124.61489 -9.1065531 -71.809502 -9.0930166 -73.112244 0.0024243745 -89.666992
9211000000 -1.0444109 124.62624 -9.1112795 -71.767632 -9.0909157 -73.124985 0.0098527176 -89.674049
9211062500 -1.0450304 124.59414 -9.1125641 -71.721024 -9.1031466 -73.113747 0.0052934461 -89.625992
9211125000 -1.0427927 124.57921 -9.1093969 -71.806412 -9.0949345 -73.122215 0.0034219187 -89.594231
9211187500 -1.044547 124.54003 -9.1009398 -71.820251 -9.0902023 -73.134521 0.012455902 -89.580452
9211250000 -1.0460604 124.50359 -9.1011457 -71.812546 -9.1045303 -73.128616 0.0042546308 -89.56398
9211312500 -1.0413454 124.55569 -9.1061411 -71.748207 -9.0916262 -73.069054 0.012992536 -89.527855
9211375000 -1.0457312 124.52678 -9.1040268 -71.777374 -9.0962353 -73.108376 0.013246685 -89.513329
9211437500 -1.0434537 124.48964 -9.0966997 -71.73349 -9.08916 -73.118416 0.015488301 -89.498787
9211500000 -1.0470444 124.48048 -9.109973 -71.740974 -9.0887623 -73.107742 0.016283335 -89.48555
9211562500 -1.0482996 124.49332 -9.1048727 -71.756752 -9.0854778 -73.151634 0.017099794 -89.534164
9211625000 -1.0466515 124.50331 -9.1074362 -71.695099 -9.0806122 -73.174492 0.017901193 -89.538788
9211687500 -1.0434453 124.46856 -9.1000881 -71.752235 -9.0785675 -73.129044 0.024758469 -89.505592
9211750000 -1.0427917 124.46234 -9.0998201 -71.783012 -9.085228 -73.127235 0.024438854 -89.473145
9211812500 -1.0384036 124.44775 -9.0887804 -71.769287 -9.0809412 -73.204414 0.021597749 -89.47168
9211875000 -1.0410992 124.4205 -9.1005697 -71.778038 -9.0890255 -73.133919 0.01983613 -89.442429
9211937500 -1.036158 124.40344 -9.0907555 -71.77475 -9.0844688 -73.163391 0.019163756 -89.457909
9212000000 -1.0342968 124.38791 -9.0927029 -71.694542 -9.0761595 -73.144096 0.020290071 -89.398376
9212062500 -1.0378892 124.33601 -9.0919638 -71.750534 -9.0805101 -73.200256 0.014012109 -89.432976
9212125000 -1.028972 124.31136 -9.0847378 -71.764893 -9.0779123 -73.13501 0.018401872 -89.370796
9212187500 -1.037275 124.28513 -9.0941143 -71.768196 -9.0839758 -73.109993 0.015453067 -89.342422
9212250000 -1.033304 124.28123 -9.0849924 -71.771179 -9.0814581 -73.074776 0.016390495 -89.335953
9212312500 -1.0356513 124.27697 -9.0911798 -71.764549 -9.0841475 -73.110458 0.012870405 -89.345497
