!Agilent Technologies,N5242A,MY51221714,A.09.90.19
!Agilent N5242A: A.09.90.19
!Date: Friday, February 02, 2024 13:25:02
!Correction: S11(Full 2 Port(1,2)) 
!S21(Full 2 Port(1,2)) 
!S12(Full 2 Port(1,2)) 
!S22(Full 2 Port(1,2)) 
!S2P File: Measurements: S11, S21, S12, S22:
# Hz S  dB   R 50
9200000000 -1.0399072 127.16964 -9.2635984 -72.077988 -9.227066 -73.514824 0.052998219 -92.671371
9200062500 -1.0395292 127.12923 -9.2608776 -72.070282 -9.2220325 -73.447754 0.052495655 -92.663528
9200125000 -1.0419737 127.1393 -9.2617569 -72.104759 -9.2342634 -73.479271 0.045304511 -92.658592
9200187500 -1.0369163 127.14829 -9.254159 -72.012543 -9.2233334 -73.478577 0.051558498 -92.645561
9200250000 -1.0390567 127.09389 -9.2615499 -72.090431 -9.2283344 -73.531616 0.049837813 -92.654121
9200312500 -1.0413269 127.10843 -9.2638702 -72.066345 -9.233716 -73.532639 0.047353715 -92.647514
9200375000 -1.0429698 127.07145 -9.2601395 -72.066673 -9.2337141 -73.509827 0.049722735 -92.601288
9200437500 -1.0426131 127.01059 -9.2605019 -72.112366 -9.2333431 -73.528923 0.045885272 -92.606407
9200500000 -1.0398911 127.02585 -9.2551012 -72.060501 -9.2332363 -73.519913 0.047575407 -92.595543
9200562500 -1.0420295 126.99151 -9.2557478 -72.126022 -9.2305832 -73.498825 0.050629031 -92.593864
9200625000 -1.0365903 127.03977 -9.2473011 -72.059563 -9.2229137 -73.53923 0.052046165 -92.570854
9200687500 -1.0408688 127.00375 -9.2603531 -72.106667 -9.2257061 -73.543053 0.058002125 -92.514549
9200750000 -1.039362 127.02444 -9.2573566 -72.109276 -9.2179031 -73.501099 0.059005342 -92.50518
9200812500 -1.0364052 127.02569 -9.2501974 -72.037003 -9.2240858 -73.485825 0.054024935 -92.473656
9200875000 -1.0386612 127.05138 -9.2480907 -71.989212 -9.2217798 -73.482208 0.059920434 -92.472534
9200937500 -1.0421506 126.9809 -9.2562256 -72.06958 -9.2237577 -73.517159 0.058917154 -92.498077
9201000000 -1.0413213 126.94311 -9.2400875 -72.011414 -9.2308683 -73.497787 0.054471351 -92.50544
9201062500 -1.0455307 126.93588 -9.2531805 -72.11911 -9.2410288 -73.514534 0.043887153 -92.510849
9201125000 -1.044974 126.92942 -9.2450132 -72.121529 -9.2268305 -73.531723 0.055068117 -92.498512
9201187500 -1.0458057 126.91161 -9.2481089 -72.111984 -9.2365189 -73.54818 0.053147115 -92.496323
9201250000 -1.0483804 126.83335 -9.2492008 -72.132668 -9.2243509 -73.496155 0.054425288 -92.483025
9201312500 -1.0458603 126.82761 -9.2501488 -72.049286 -9.233429 -73.533852 0.050488975 -92.48098
9201375000 -1.0411825 126.81141 -9.2451401 -72.102287 -9.2311373 -73.526321 0.052677285 -92.440025
9201437500 -1.0494227 126.81258 -9.2539558 -72.109436 -9.2245293 -73.536583 0.048181258 -92.446167
9201500000 -1.045591 126.75755 -9.2523108 -72.088081 -9.2222767 -73.508278 0.054092076 -92.386429
9201562500 -1.0435072 126.78811 -9.2445984 -72.070015 -9.2263508 -73.467804 0.050757498 -92.336807
9201625000 -1.0445615 126.76158 -9.243907 -72.097084 -9.2251625 -73.461662 0.046027813 -92.29689
9201687500 -1.0465219 126.71631 -9.252368 -72.084267 -9.2233353 -73.492775 0.045887168 -92.327301
9201750000 -1.0463012 126.71918 -9.2429581 -72.057976 -9.2057419 -73.422935 0.056550737 -92.264793
9201812500 -1.0430645 126.68306 -9.2476816 -72.067268 -9.2191744 -73.425362 0.047799159 -92.227646
9201875000 -1.046344 126.70853 -9.2442236 -72.040855 -9.2161312 -73.44944 0.043794718 -92.208702
9201937500 -1.045131 126.71645 -9.2446918 -72.015221 -9.2159204 -73.427208 0.043369073 -92.189957
9202000000 -1.048261 126.67845 -9.247344 -72.11235 -9.2175074 -73.412605 0.040507562 -92.149933
9202062500 -1.0456737 126.70382 -9.2424278 -72.038139 -9.2160044 -73.401749 0.046587523 -92.126671
9202125000 -1.0376281 126.65127 -9.238452 -72.066772 -9.2166414 -73.488731 0.043096263 -92.162117
9202187500 -1.0447496 126.64638 -9.2567596 -72.015419 -9.2095804 -73.443939 0.043445587 -92.153587
9202250000 -1.0422487 126.64197 -9.2415667 -72.037247 -9.2163973 -73.411057 0.045133684 -92.077484
9202312500 -1.0448252 126.61985 -9.2450972 -72.017982 -9.2162228 -73.40609 0.043702811 -92.071083
9202375000 -1.0453715 126.59704 -9.2442408 -72.058357 -9.2138081 -73.460243 0.041336756 -92.061508
9202437500 -1.0484052 126.60353 -9.2441721 -72.072159 -9.2197838 -73.465027 0.037136219 -92.049088
9202500000 -1.0485239 126.56573 -9.2468033 -72.030716 -9.2163715 -73.398491 0.039548963 -92.048706
9202562500 -1.0479981 126.54901 -9.2475977 -72.051895 -9.2198877 -73.411995 0.035788693 -92.01358
9202625000 -1.0497227 126.55294 -9.2423 -72.025841 -9.2160482 -73.435982 0.045191046 -92.025017
9202687500 -1.0452819 126.56367 -9.2383251 -71.985657 -9.21626 -73.405838 0.041087668 -91.969193
9202750000 -1.0481895 126.55569 -9.2361326 -71.979637 -9.2194738 -73.392853 0.042049341 -91.929161
9202812500 -1.0484971 126.50697 -9.2329197 -71.993919 -9.2106638 -73.427536 0.045543768 -91.945435
9202875000 -1.048108 126.53113 -9.235342 -72.065407 -9.2141438 -73.42598 0.042468961 -91.938225
9202937500 -1.0466021 126.51357 -9.2387943 -72.046486 -9.218214 -73.384026 0.035331409 -91.92202
9203000000 -1.0446947 126.50591 -9.2285891 -72.049049 -9.2185526 -73.379158 0.037142564 -91.913788
9203062500 -1.046535 126.50807 -9.229723 -71.99321 -9.2090168 -73.390564 0.044099879 -91.930389
9203125000 -1.0458281 126.51355 -9.2382565 -72.016975 -9.2220182 -73.389938 0.039216947 -91.939491
9203187500 -1.0455437 126.48544 -9.2296762 -72.050674 -9.2147017 -73.389534 0.041885808 -91.889244
9203250000 -1.0440598 126.47744 -9.2275095 -71.96022 -9.2107973 -73.382187 0.042246252 -91.862587
9203312500 -1.0454071 126.45311 -9.2263975 -71.997971 -9.2114935 -73.380951 0.040016863 -91.814667
9203375000 -1.0434196 126.46091 -9.2301235 -71.942619 -9.2095804 -73.365143 0.03951738 -91.776398
9203437500 -1.0457451 126.44262 -9.2169056 -72.006752 -9.2015553 -73.447639 0.044007879 -91.803078
9203500000 -1.0407126 126.42023 -9.2115049 -71.984238 -9.2035446 -73.40387 0.041546181 -91.797668
9203562500 -1.0401888 126.40224 -9.2275963 -71.959404 -9.1929359 -73.387047 0.045165274 -91.753586
9203625000 -1.0376645 126.38675 -9.2200575 -71.939499 -9.204319 -73.380989 0.039397057 -91.702095
9203687500 -1.0399641 126.39761 -9.2258892 -71.993263 -9.1966915 -73.41526 0.042990591 -91.760025
9203750000 -1.0368772 126.37617 -9.2166395 -71.999817 -9.196476 -73.422707 0.038465153 -91.73819
9203812500 -1.0322171 126.3785 -9.2223549 -72.03746 -9.2007246 -73.435562 0.037169714 -91.770187
9203875000 -1.0361518 126.34458 -9.2171326 -72.065475 -9.1945486 -73.433762 0.038079295 -91.767067
9203937500 -1.033199 126.35204 -9.2183571 -72.037125 -9.2025194 -73.436363 0.029423049 -91.716331
9204000000 -1.0364059 126.34123 -9.222517 -72.012291 -9.2015362 -73.383202 0.035407059 -91.671974
9204062500 -1.0391932 126.30999 -9.2290421 -71.988907 -9.2074833 -73.353943 0.028919617 -91.641365
9204125000 -1.035309 126.32386 -9.2249727 -71.95826 -9.2023706 -73.409805 0.024497377 -91.622169
9204187500 -1.0370767 126.30991 -9.2233191 -71.881004 -9.2034702 -73.33371 0.029426569 -91.590202
9204250000 -1.0339501 126.31252 -9.2176685 -71.861847 -9.198596 -73.351395 0.026267022 -91.55722
9204312500 -1.0402347 126.2356 -9.2115698 -71.928009 -9.1984596 -73.320869 0.031120138 -91.545853
9204375000 -1.0383412 126.21938 -9.2233572 -71.997635 -9.1963453 -73.287498 0.035161167 -91.511993
9204437500 -1.0418338 126.19396 -9.2202883 -71.985641 -9.1961765 -73.344238 0.034103181 -91.50515
9204500000 -1.039734 126.19832 -9.2140017 -71.981438 -9.1962204 -73.392639 0.040572505 -91.488136
9204562500 -1.039319 126.14398 -9.2133217 -71.998154 -9.1900244 -73.317307 0.037860177 -91.44767
9204625000 -1.0381935 126.12061 -9.2052708 -71.963058 -9.1940966 -73.363487 0.046576306 -91.42028
9204687500 -1.0397166 126.13699 -9.2087393 -72.008537 -9.192009 -73.382996 0.037550569 -91.436256
9204750000 -1.0357789 126.1314 -9.2153292 -71.93959 -9.195487 -73.341743 0.036331005 -91.406235
9204812500 -1.0374501 126.10098 -9.2097788 -71.998238 -9.1970568 -73.317833 0.034853444 -91.39415
9204875000 -1.0321423 126.10766 -9.2097454 -71.958397 -9.1981716 -73.341003 0.029776314 -91.375229
9204937500 -1.0310746 126.12344 -9.2112236 -71.948212 -9.1891317 -73.296227 0.032325018 -91.331306
9205000000 -1.0346363 126.08694 -9.2133627 -71.927017 -9.1892471 -73.299873 0.033335887 -91.333847
9205062500 -1.035686 126.11554 -9.2016668 -71.914177 -9.1929827 -73.369858 0.031990103 -91.350914
9205125000 -1.0378243 126.08379 -9.1995926 -71.953743 -9.1912985 -73.359924 0.025514582 -91.339638
9205187500 -1.0434359 126.04867 -9.2035065 -71.977745 -9.1912546 -73.356697 0.033373799 -91.265991
9205250000 -1.0433232 126.02409 -9.2060423 -71.946266 -9.1964741 -73.416672 0.024232723 -91.243164
9205312500 -1.0432508 126.02971 -9.2077494 -71.922829 -9.1755733 -73.331238 0.030997735 -91.22316
9205375000 -1.047093 126.03028 -9.1951637 -71.975304 -9.1833696 -73.375389 0.033928107 -91.20195
9205437500 -1.0418092 125.97754 -9.1959438 -71.968925 -9.188323 -73.397598 0.030598424 -91.208107
9205500000 -1.0431427 126.01363 -9.199254 -71.894501 -9.1811142 -73.393829 0.033915449 -91.223083
9205562500 -1.0424826 125.97529 -9.2061586 -71.889862 -9.1853981 -73.373062 0.033097312 -91.170639
9205625000 -1.0476458 125.94446 -9.1954412 -71.925835 -9.1835976 -73.378746 0.032914851 -91.168022
9205687500 -1.0430024 125.94144 -9.2058792 -71.913803 -9.1777067 -73.390488 0.036943067 -91.199043
9205750000 -1.0388532 125.88268 -9.199585 -71.974243 -9.1742458 -73.333878 0.036481913 -91.143417
9205812500 -1.0359244 125.91984 -9.203393 -71.966461 -9.1714621 -73.305504 0.038853433 -91.138245
9205875000 -1.0390786 125.89022 -9.2038441 -71.958755 -9.1801891 -73.293823 0.042491943 -91.1101
9205937500 -1.0397276 125.90026 -9.2133064 -71.940552 -9.1739416 -73.307785 0.033488654 -91.073822
9206000000 -1.039348 125.86858 -9.1978149 -71.943672 -9.1857061 -73.345795 0.033232622 -91.14782
9206062500 -1.0421275 125.85876 -9.2083273 -71.94841 -9.1881523 -73.312126 0.030343883 -91.073174
9206125000 -1.036288 125.82443 -9.206708 -71.89444 -9.1820393 -73.291672 0.03302373 -91.080101
9206187500 -1.0412602 125.80473 -9.2047777 -71.984779 -9.1763525 -73.3125 0.030102247 -91.091148
9206250000 -1.0384409 125.79946 -9.1986752 -71.951561 -9.1834059 -73.284454 0.037806425 -91.051605
9206312500 -1.0421714 125.80046 -9.2030754 -71.965637 -9.188446 -73.282951 0.034744415 -91.011902
9206375000 -1.0423357 125.7806 -9.2012196 -71.955093 -9.1800652 -73.286133 0.039786998 -91.041565
9206437500 -1.0431205 125.76666 -9.201005 -71.975471 -9.1770744 -73.274574 0.032993503 -90.997803
9206500000 -1.0421466 125.77837 -9.1942234 -71.939362 -9.1724329 -73.186478 0.035743728 -90.933731
9206562500 -1.0413948 125.76637 -9.196228 -71.92527 -9.1739607 -73.206894 0.032297306 -90.944908
9206625000 -1.0359259 125.74155 -9.1944647 -71.91671 -9.1844006 -73.23407 0.027899738 -90.909897
9206687500 -1.0378791 125.70583 -9.2028427 -71.897736 -9.1814804 -73.238228 0.026585931 -90.886147
9206750000 -1.0357375 125.66814 -9.1966467 -71.968674 -9.1748037 -73.2752 0.028501302 -90.836082
9206812500 -1.0352788 125.68216 -9.1911545 -71.871323 -9.1724749 -73.266243 0.029454578 -90.811279
9206875000 -1.0350473 125.67178 -9.19561 -71.886673 -9.1699295 -73.27179 0.031479273 -90.796768
9206937500 -1.0368694 125.70332 -9.1972094 -71.860039 -9.1810017 -73.3311 0.021893999 -90.792931
9207000000 -1.0427337 125.65479 -9.1893959 -71.90387 -9.171339 -73.345436 0.031140102 -90.820053
9207062500 -1.0408397 125.63809 -9.1904316 -71.902588 -9.1707649 -73.253723 0.032892555 -90.753426
9207125000 -1.0404372 125.6233 -9.1878328 -71.911026 -9.1706161 -73.266846 0.03245049 -90.761909
9207187500 -1.0430373 125.59577 -9.1826677 -71.930496 -9.1602821 -73.249947 0.035049457 -90.727135
9207250000 -1.0458134 125.57187 -9.1940088 -71.927376 -9.1666164 -73.321655 0.042523883 -90.778519
9207312500 -1.0406742 125.56276 -9.1828918 -71.936684 -9.1652527 -73.338974 0.037167639 -90.720695
9207375000 -1.0381713 125.56546 -9.1867514 -71.941368 -9.1665392 -73.293427 0.03130354 -90.732338
9207437500 -1.043331 125.56826 -9.190649 -71.901489 -9.1696272 -73.256813 0.03029336 -90.655342
9207500000 -1.0345317 125.4985 -9.1825342 -71.956635 -9.1578283 -73.307983 0.036725719 -90.733253
9207562500 -1.0382695 125.53534 -9.1881809 -71.946877 -9.1630249 -73.337097 0.030176591 -90.695099
9207625000 -1.0396404 125.49255 -9.1929235 -71.894089 -9.1599226 -73.2845 0.029340362 -90.643028
9207687500 -1.0333151 125.51247 -9.1827106 -71.917496 -9.1631107 -73.341377 0.028827913 -90.655327
9207750000 -1.0354455 125.46632 -9.1831169 -71.963005 -9.1715059 -73.335243 0.02095625 -90.631935
9207812500 -1.0393823 125.47488 -9.1872911 -71.84201 -9.1759262 -73.280327 0.018481612 -90.598785
9207875000 -1.0395681 125.49283 -9.1810513 -71.901184 -9.1683912 -73.264008 0.021766096 -90.531258
9207937500 -1.0390096 125.43972 -9.1812725 -71.938957 -9.1679258 -73.265366 0.020734685 -90.556725
9208000000 -1.038795 125.41901 -9.1810446 -71.951553 -9.171566 -73.321121 0.019576926 -90.552017
9208062500 -1.0376248 125.43539 -9.1844139 -71.89901 -9.1771297 -73.234604 0.016005866 -90.499451
9208125000 -1.0402558 125.40696 -9.174201 -71.923454 -9.1740847 -73.243279 0.02286721 -90.478783
9208187500 -1.0408491 125.37276 -9.1716356 -71.889977 -9.1585102 -73.233986 0.025909657 -90.454948
9208250000 -1.0364941 125.40894 -9.1756334 -71.8255 -9.1662674 -73.233414 0.018822106 -90.418839
9208312500 -1.0346824 125.39578 -9.1732121 -71.838608 -9.1613703 -73.274712 0.022180593 -90.409523
9208375000 -1.039237 125.37618 -9.1739931 -71.817429 -9.1650496 -73.28804 0.02232985 -90.388504
9208437500 -1.0405214 125.38781 -9.1723232 -71.767136 -9.1649055 -73.300438 0.021398308 -90.394577
9208500000 -1.0405209 125.36379 -9.1716681 -71.794601 -9.1700754 -73.229553 0.022969592 -90.374641
9208562500 -1.0401577 125.33231 -9.1730776 -71.879234 -9.166194 -73.243507 0.014874362 -90.390923
9208625000 -1.0373751 125.33158 -9.1724081 -71.873505 -9.1798077 -73.237038 0.013197845 -90.398132
9208687500 -1.0406185 125.29895 -9.1688232 -71.797897 -9.1697922 -73.292664 0.019705109 -90.433182
9208750000 -1.0402 125.26003 -9.1706352 -71.860916 -9.1614847 -73.212425 0.02448984 -90.306068
9208812500 -1.0399674 125.29865 -9.1789818 -71.847626 -9.1668644 -73.275414 0.02485285 -90.311859
9208875000 -1.0392356 125.27882 -9.1708603 -71.820251 -9.1582832 -73.226494 0.026365569 -90.27916
9208937500 -1.039911 125.26059 -9.1642418 -71.818748 -9.1585588 -73.257881 0.026813813 -90.298378
9209000000 -1.0357373 125.28745 -9.1722279 -71.848206 -9.1550026 -73.228516 0.023719173 -90.25708
9209062500 -1.038759 125.25432 -9.1824541 -71.784256 -9.1555815 -73.15567 0.020094881 -90.188667
9209125000 -1.0344158 125.22798 -9.1750479 -71.849457 -9.1560192 -73.199158 0.01499332 -90.157295
9209187500 -1.032107 125.19334 -9.166153 -71.807938 -9.1504421 -73.254707 0.021563353 -90.158562
9209250000 -1.0308943 125.19995 -9.1637392 -71.800659 -9.1517324 -73.181458 0.013178171 -90.117935
9209312500 -1.0329132 125.19328 -9.167696 -71.848824 -9.1469164 -73.177551 0.022001579 -90.116859
9209375000 -1.035381 125.15284 -9.1737328 -71.853569 -9.1451387 -73.225761 0.011392022 -90.070389
9209437500 -1.0286359 125.13792 -9.1689005 -71.760651 -9.1450462 -73.180794 0.016695563 -90.060272
9209500000 -1.0282003 125.10067 -9.1645813 -71.857208 -9.1434851 -73.214264 0.013407996 -90.079544
9209562500 -1.0343014 125.07493 -9.164609 -71.799896 -9.145504 -73.244576 0.014304926 -90.03656
9209625000 -1.035156 125.04682 -9.156703 -71.820877 -9.1487627 -73.187508 0.021174788 -89.997017
9209687500 -1.0345592 125.06072 -9.1567745 -71.806229 -9.1529388 -73.228149 0.014600344 -90.034157
9209750000 -1.0403311 125.04532 -9.1704664 -71.788071 -9.1409321 -73.196899 0.019895645 -89.976242
9209812500 -1.0406946 125.03471 -9.1617727 -71.809868 -9.1440916 -73.203453 0.019250441 -90.012405
9209875000 -1.04232 125.0081 -9.159503 -71.830284 -9.1447382 -73.237404 0.016331121 -90.003128
9209937500 -1.038842 125.02544 -9.1591415 -71.771866 -9.1454611 -73.237938 0.017815199 -90.009483
9210000000 -1.0409385 125.00291 -9.166523 -71.842026 -9.1508913 -73.295006 0.016587107 -90.036507
9210062500 -1.0400683 124.98534 -9.177721 -71.913307 -9.1404209 -73.272926 0.015519248 -89.980492
9210125000 -1.0370964 124.97337 -9.1650209 -71.834015 -9.1438169 -73.257553 0.010937737 -89.971504
9210187500 -1.0334346 124.92909 -9.1633873 -71.870056 -9.143672 -73.236687 0.014830646 -89.984947
9210250000 -1.0386647 124.91392 -9.1697645 -71.92923 -9.146451 -73.255318 0.013176554 -89.94973
9210312500 -1.0340375 124.91434 -9.1608334 -71.899147 -9.1449919 -73.238564 0.0067675491 -89.934586
9210375000 -1.0339115 124.9109 -9.1692753 -71.837593 -9.1493635 -73.208733 0.012521027 -89.898415
9210437500 -1.0309112 124.88947 -9.1527119 -71.853897 -9.1368198 -73.156845 0.015293657 -89.877426
9210500000 -1.0370858 124.90037 -9.1612539 -71.798576 -9.1324024 -73.110481 0.02100029 -89.820915
9210562500 -1.0318526 124.90856 -9.1575794 -71.739799 -9.1443615 -73.175415 0.011670508 -89.811104
9210625000 -1.034366 124.91218 -9.1638069 -71.790848 -9.144165 -73.159843 0.010877671 -89.806389
9210687500 -1.0359182 124.88186 -9.157114 -71.761314 -9.1248474 -73.113716 0.012123455 -89.745773
9210750000 -1.0345339 124.85883 -9.1426897 -71.800835 -9.1406803 -73.12516 0.0048936326 -89.773682
9210812500 -1.0320506 124.85606 -9.1548653 -71.751541 -9.140604 -73.133743 0.0044125766 -89.741173
9210875000 -1.0331984 124.85473 -9.1610479 -71.77948 -9.1363573 -73.123444 0.0089137265 -89.714752
9210937500 -1.0393983 124.80108 -9.1611271 -71.819046 -9.1395245 -73.062523 0.0018740406 -89.674866
9211000000 -1.0339012 124.76808 -9.1535692 -71.752441 -9.1350775 -73.103401 0.004944664 -89.67289
9211062500 -1.0338571 124.77327 -9.1559439 -71.7118 -9.1383781 -73.159889 0.0065142401 -89.661339
9211125000 -1.0345738 124.74357 -9.151185 -71.745262 -9.1459732 -73.093224 0.0042522568 -89.631348
9211187500 -1.0337678 124.7402 -9.144084 -71.753075 -9.1409473 -73.135239 0.0085680885 -89.603638
9211250000 -1.0396087 124.72842 -9.1701517 -71.730103 -9.138443 -73.124138 -0.00060820486 -89.594925
9211312500 -1.0349048 124.70667 -9.1523809 -71.731071 -9.1454401 -73.104103 0.0032628104 -89.525536
9211375000 -1.0366408 124.68885 -9.1481571 -71.714233 -9.1434269 -73.074272 0.0091470741 -89.520828
9211437500 -1.035814 124.65469 -9.1489668 -71.82618 -9.1449108 -73.128456 0.0098928073 -89.552925
9211500000 -1.0383918 124.65078 -9.1522579 -71.752716 -9.1458521 -73.148575 0.0028016826 -89.525932
9211562500 -1.04258 124.659 -9.1455011 -71.797653 -9.1349382 -73.135475 0.011723325 -89.567123
9211625000 -1.0392002 124.64166 -9.1453228 -71.772766 -9.1385651 -73.144966 0.01300176 -89.555191
9211687500 -1.0376182 124.62113 -9.1462469 -71.81192 -9.1391964 -73.178032 0.015623348 -89.556107
9211750000 -1.036953 124.65395 -9.1373692 -71.730438 -9.1330128 -73.187592 0.018922215 -89.547218
9211812500 -1.0353231 124.59013 -9.1451378 -71.73423 -9.1313267 -73.156685 0.018665865 -89.479118
9211875000 -1.0314282 124.61643 -9.1424112 -71.731743 -9.1305962 -73.210411 0.011566818 -89.494919
9211937500 -1.0274608 124.54482 -9.1371374 -71.778183 -9.1296062 -73.146454 0.012055524 -89.471024
9212000000 -1.0270346 124.53622 -9.133214 -71.782959 -9.1249046 -73.112099 0.013519898 -89.469345
9212062500 -1.0262713 124.49889 -9.1359797 -71.802315 -9.1223545 -73.13974 0.015088538 -89.424576
9212125000 -1.0295799 124.49998 -9.1394062 -71.767624 -9.1401863 -73.132439 0.0031605908 -89.409294
9212187500 -1.0301168 124.48544 -9.1417685 -71.73632 -9.1267185 -73.086449 0.013651831 -89.365639
9212250000 -1.0242776 124.46292 -9.1310778 -71.766685 -9.129529 -73.084061 0.012904596 -89.377907
9212312500 -1.0328342 124.43258 -9.1421881 -71.847916 -9.128994 -73.104523 0.01005496 -89.372017
