!Agilent Technologies,N5242A,MY51221714,A.09.90.19
!Agilent N5242A: A.09.90.19
!Date: Saturday, March 16, 2024 09:48:43
!Correction: S11(Full 2 Port(1,2)) 
!S21(Full 2 Port(1,2)) 
!S12(Full 2 Port(1,2)) 
!S22(Full 2 Port(1,2)) 
!S2P File: Measurements: S11, S21, S12, S22:
# Hz S  dB   R 50
9200000000 -0.89864951 126.94979 -8.9473886 -72.565208 -8.9384155 -73.187721 -0.17895366 -92.346405
9200062500 -0.89837396 126.93176 -8.9486408 -72.607803 -8.9375963 -73.234428 -0.17998563 -92.385605
9200125000 -0.90355319 126.93495 -8.9592485 -72.590508 -8.9333668 -73.241051 -0.17277548 -92.374107
9200187500 -0.90162778 126.92455 -8.9551973 -72.574135 -8.9400129 -73.223122 -0.17786141 -92.308044
9200250000 -0.8931129 126.90975 -8.9464779 -72.559845 -8.9363737 -73.217545 -0.17866375 -92.32692
9200312500 -0.89731526 126.91136 -8.9413023 -72.568985 -8.9332247 -73.230209 -0.17689879 -92.320328
9200375000 -0.90046459 126.87367 -8.9516735 -72.588806 -8.9182377 -73.177986 -0.17218842 -92.300102
9200437500 -0.89455956 126.88811 -8.9544392 -72.56279 -8.930335 -73.279793 -0.1777333 -92.315323
9200500000 -0.89515591 126.81739 -8.9454002 -72.616959 -8.9269276 -73.249664 -0.17680079 -92.288719
9200562500 -0.89679331 126.87217 -8.9476995 -72.542839 -8.9297295 -73.229271 -0.17424613 -92.256279
9200625000 -0.8964141 126.85717 -8.950099 -72.514252 -8.9222193 -73.190727 -0.18361226 -92.216728
9200687500 -0.89882618 126.80353 -8.9518738 -72.519814 -8.9189453 -73.217293 -0.18542178 -92.191498
9200750000 -0.89383489 126.78917 -8.9529457 -72.530678 -8.9235973 -73.195091 -0.18398498 -92.144646
9200812500 -0.90279418 126.7854 -8.947443 -72.51709 -8.9177389 -73.166199 -0.18039533 -92.135109
9200875000 -0.89733481 126.79629 -8.9436893 -72.493752 -8.928669 -73.206551 -0.19420697 -92.107506
9200937500 -0.89448214 126.78275 -8.943326 -72.497498 -8.9238958 -73.164795 -0.18546315 -92.057564
9201000000 -0.89516795 126.77965 -8.94382 -72.477821 -8.9168053 -73.157806 -0.18033215 -92.028519
9201062500 -0.89527291 126.76361 -8.938323 -72.483276 -8.9216309 -73.223038 -0.18853922 -92.080925
9201125000 -0.89320081 126.71012 -8.9392538 -72.498856 -8.9219723 -73.184021 -0.18518551 -92.031219
9201187500 -0.89157814 126.69308 -8.9374304 -72.490036 -8.925024 -73.160881 -0.18993334 -92.016975
9201250000 -0.89273387 126.7143 -8.9290123 -72.517769 -8.9281206 -73.141205 -0.18793426 -91.972244
9201312500 -0.89384037 126.67709 -8.9430504 -72.553078 -8.9324045 -73.124496 -0.18765877 -91.972588
9201375000 -0.89533728 126.65054 -8.935092 -72.542229 -8.9172134 -73.109543 -0.18031205 -91.971565
9201437500 -0.89250177 126.65649 -8.9380207 -72.487823 -8.920867 -73.144691 -0.18623146 -91.954941
9201500000 -0.89968473 126.67365 -8.946064 -72.447502 -8.9126892 -73.174255 -0.18029901 -91.950439
9201562500 -0.90079975 126.64485 -8.9427004 -72.491478 -8.9233379 -73.196594 -0.18726681 -92.014671
9201625000 -0.89847308 126.6048 -8.9422073 -72.589325 -8.9187927 -73.074585 -0.18018804 -91.930756
9201687500 -0.8955127 126.62343 -8.9423494 -72.524857 -8.9236631 -73.111931 -0.18827958 -91.889877
9201750000 -0.89525265 126.59097 -8.9424973 -72.465591 -8.9149437 -73.169075 -0.18458441 -91.891991
9201812500 -0.89841694 126.58875 -8.9418373 -72.485916 -8.9121208 -73.203194 -0.18172495 -91.904518
9201875000 -0.8957485 126.55745 -8.9358768 -72.489494 -8.9134855 -73.131798 -0.18409541 -91.830696
9201937500 -0.8993662 126.5335 -8.9380198 -72.488243 -8.918232 -73.135597 -0.1877106 -91.840431
9202000000 -0.89297199 126.52213 -8.9154339 -72.479919 -8.9133739 -73.16629 -0.18987611 -91.805794
9202062500 -0.89071596 126.49126 -8.9277163 -72.522919 -8.9108219 -73.119743 -0.18248023 -91.800652
9202125000 -0.89766335 126.45551 -8.9232321 -72.577782 -8.913105 -73.12365 -0.18554775 -91.816795
9202187500 -0.89437532 126.47009 -8.9163141 -72.498978 -8.908226 -73.129959 -0.18269473 -91.759842
9202250000 -0.89360434 126.47189 -8.9239683 -72.553116 -8.9174328 -73.17234 -0.18719523 -91.772995
9202312500 -0.89816797 126.4566 -8.9188948 -72.518776 -8.901947 -73.2146 -0.18089716 -91.763878
9202375000 -0.89504677 126.43954 -8.9194527 -72.5047 -8.9195156 -73.216774 -0.18576051 -91.742065
9202437500 -0.89428467 126.45943 -8.9132633 -72.474525 -8.9134445 -73.150406 -0.18628803 -91.6894
9202500000 -0.89891773 126.43415 -8.9265976 -72.54007 -8.9136362 -73.143539 -0.1802458 -91.691322
9202562500 -0.89791042 126.41 -8.916091 -72.50959 -8.91714 -73.115952 -0.18999316 -91.652145
9202625000 -0.8999241 126.42207 -8.929492 -72.490189 -8.9124651 -73.181 -0.19834496 -91.627144
9202687500 -0.90097904 126.40283 -8.9243641 -72.489929 -8.9183216 -73.110939 -0.19173628 -91.605919
9202750000 -0.89871937 126.38445 -8.9249115 -72.45945 -8.9069691 -73.143753 -0.18996844 -91.608803
9202812500 -0.89484823 126.35965 -8.9260912 -72.503128 -8.9109373 -73.126801 -0.19484085 -91.559853
9202875000 -0.89423692 126.34109 -8.9226875 -72.469955 -8.9051056 -73.147644 -0.19239762 -91.580048
9202937500 -0.89538616 126.33305 -8.921298 -72.45224 -8.9075699 -73.146805 -0.19336145 -91.538849
9203000000 -0.89944077 126.28188 -8.9142847 -72.502037 -8.9014683 -73.134819 -0.18587147 -91.515511
9203062500 -0.89151716 126.28046 -8.9132919 -72.510353 -8.9021549 -73.090179 -0.18651432 -91.482574
9203125000 -0.89749497 126.28297 -8.9190693 -72.46386 -8.9061317 -73.111862 -0.18960845 -91.450455
9203187500 -0.89601332 126.2934 -8.912219 -72.465805 -8.9041328 -73.185204 -0.18648778 -91.487717
9203250000 -0.89773899 126.21437 -8.9225693 -72.503471 -8.9012575 -73.140785 -0.18724716 -91.457016
9203312500 -0.89861929 126.27048 -8.9158697 -72.446136 -8.900691 -73.123924 -0.18650366 -91.416382
9203375000 -0.90385562 126.22015 -8.9253092 -72.563835 -8.9057808 -73.170341 -0.1884101 -91.408218
9203437500 -0.89855945 126.23962 -8.9117594 -72.491455 -8.9014683 -73.123901 -0.18706742 -91.381882
9203500000 -0.89479214 126.20023 -8.9284067 -72.481354 -8.9006062 -73.12233 -0.18951064 -91.401474
9203562500 -0.89535797 126.16936 -8.9134712 -72.49501 -8.9055567 -73.094704 -0.19057158 -91.332664
9203625000 -0.89778554 126.16348 -8.9183674 -72.534904 -8.906723 -73.129913 -0.19684932 -91.350845
9203687500 -0.89626706 126.16538 -8.9101734 -72.542854 -8.9042015 -73.118217 -0.19029771 -91.340202
9203750000 -0.8959592 126.12423 -8.9126062 -72.546471 -8.9014225 -73.147537 -0.19569229 -91.311501
9203812500 -0.90061277 126.09035 -8.920846 -72.511185 -8.8941584 -73.137466 -0.19396971 -91.279144
9203875000 -0.89998472 126.07909 -8.9138937 -72.531189 -8.8949318 -73.174316 -0.19750224 -91.308922
9203937500 -0.89486438 126.09351 -8.9094782 -72.471413 -8.9044209 -73.131752 -0.20627578 -91.284531
9204000000 -0.89124072 126.06997 -8.9146709 -72.521385 -8.8902292 -73.102753 -0.2021711 -91.253944
9204062500 -0.89498562 126.07903 -8.9077044 -72.508171 -8.8909187 -73.074631 -0.20655976 -91.2314
9204125000 -0.89591688 126.04355 -8.9134645 -72.488914 -8.8836985 -73.082253 -0.20184599 -91.201309
9204187500 -0.89323378 126.06393 -8.9161158 -72.454811 -8.8897753 -73.116776 -0.20689994 -91.208817
9204250000 -0.89310938 126.03676 -8.9155979 -72.446815 -8.8880415 -73.08429 -0.20213421 -91.149376
9204312500 -0.89203864 126.02919 -8.9097271 -72.439034 -8.8910818 -73.122559 -0.2027418 -91.166611
9204375000 -0.88994086 125.99591 -8.9015951 -72.438972 -8.8887987 -73.074448 -0.19508505 -91.147339
9204437500 -0.88733697 125.99556 -8.9036407 -72.405167 -8.891942 -73.085205 -0.19538799 -91.104858
9204500000 -0.88771975 125.95029 -8.90446 -72.47184 -8.887517 -73.023521 -0.19102944 -91.091743
9204562500 -0.8859753 125.91037 -8.9006939 -72.439316 -8.8875456 -73.065804 -0.19187608 -91.039093
9204625000 -0.88601589 125.92429 -8.8991508 -72.434723 -8.8869324 -73.050537 -0.18956286 -91.028717
9204687500 -0.88802916 125.93417 -8.8978319 -72.461884 -8.8902082 -73.077095 -0.19332664 -91.023003
9204750000 -0.89404619 125.92419 -8.909605 -72.392921 -8.8812132 -73.074028 -0.19134843 -91.008972
9204812500 -0.89050686 125.93092 -8.9024687 -72.38781 -8.8835125 -73.054459 -0.19383065 -91.004066
9204875000 -0.8947286 125.90639 -8.904562 -72.455254 -8.8833523 -73.098656 -0.1954769 -90.987411
9204937500 -0.89428264 125.91551 -8.9047117 -72.457397 -8.8834085 -73.149467 -0.19727686 -91.0214
9205000000 -0.89801508 125.88251 -8.9061852 -72.418518 -8.8725042 -73.060371 -0.19486351 -90.958679
9205062500 -0.89399832 125.89323 -8.897974 -72.376083 -8.890028 -73.06955 -0.1975985 -90.944366
9205125000 -0.89557374 125.8716 -8.9031582 -72.372063 -8.8856392 -73.080467 -0.19326714 -90.909615
9205187500 -0.89769983 125.81477 -8.899971 -72.41349 -8.8878927 -73.111946 -0.1919965 -90.918404
9205250000 -0.90252435 125.75603 -8.8920889 -72.403854 -8.8794765 -73.123405 -0.19023727 -90.901848
9205312500 -0.89461386 125.78761 -8.9007292 -72.404137 -8.8909998 -73.092926 -0.19408141 -90.88102
9205375000 -0.89716828 125.74858 -8.8869896 -72.30925 -8.8907623 -73.064819 -0.20425449 -90.886665
9205437500 -0.8945021 125.7139 -8.8874588 -72.451515 -8.8938198 -73.073387 -0.1945909 -90.887306
9205500000 -0.89862764 125.6997 -8.899992 -72.443604 -8.8918447 -73.072868 -0.19902113 -90.809303
9205562500 -0.89970511 125.72746 -8.8950481 -72.367882 -8.8909426 -73.114151 -0.2011281 -90.856522
9205625000 -0.89580011 125.7327 -8.8959665 -72.405548 -8.8904819 -73.060059 -0.19907227 -90.843819
9205687500 -0.8907252 125.71162 -8.885849 -72.430984 -8.8843107 -73.003304 -0.19994986 -90.763214
9205750000 -0.89459771 125.69819 -8.8884401 -72.400467 -8.8806677 -73.058769 -0.19433089 -90.769966
9205812500 -0.89051735 125.65216 -8.8901072 -72.426727 -8.883914 -73.013481 -0.199497 -90.729355
9205875000 -0.88999867 125.67058 -8.8870306 -72.422432 -8.8935957 -73.015289 -0.20245549 -90.704971
9205937500 -0.89124691 125.67715 -8.8980665 -72.424561 -8.8842802 -73.017792 -0.20314005 -90.712692
9206000000 -0.89144099 125.66022 -8.8863115 -72.395851 -8.8886824 -73.075432 -0.20140582 -90.71756
9206062500 -0.8930639 125.62689 -8.8864193 -72.388412 -8.8794832 -73.052399 -0.19963768 -90.66787
9206125000 -0.89118546 125.64065 -8.8888788 -72.319138 -8.8900471 -72.972687 -0.20142634 -90.592957
9206187500 -0.89106566 125.6505 -8.8868008 -72.341835 -8.8784933 -73.048813 -0.19913773 -90.609451
9206250000 -0.89124578 125.62514 -8.8876877 -72.378441 -8.8767052 -73.0476 -0.19845957 -90.638397
9206312500 -0.89806938 125.60484 -8.8872108 -72.374001 -8.8755951 -73.012573 -0.20107169 -90.599762
9206375000 -0.89328843 125.62553 -8.8888941 -72.36882 -8.8699379 -73.058899 -0.19721882 -90.571716
9206437500 -0.89016402 125.5732 -8.8776417 -72.391144 -8.8689518 -72.985855 -0.19820218 -90.546455
9206500000 -0.89263779 125.54315 -8.8725986 -72.359032 -8.8683167 -73.030914 -0.19389513 -90.524879
9206562500 -0.89087832 125.56642 -8.8794022 -72.359604 -8.8637352 -73.028252 -0.18617338 -90.534142
9206625000 -0.89598751 125.52576 -8.8728418 -72.387299 -8.8563442 -73.072464 -0.1852341 -90.552109
9206687500 -0.8960163 125.54173 -8.8768148 -72.33168 -8.8548555 -73.051941 -0.18273516 -90.50502
9206750000 -0.89814967 125.48051 -8.8722 -72.391342 -8.8603897 -73.045364 -0.18715358 -90.424461
9206812500 -0.90180445 125.48932 -8.8812408 -72.336304 -8.8507509 -72.974686 -0.18540941 -90.422745
9206875000 -0.90164781 125.48884 -8.8735867 -72.346039 -8.8606586 -72.976013 -0.1889787 -90.352539
9206937500 -0.89903677 125.46435 -8.8642931 -72.329941 -8.8577185 -73.007797 -0.19255975 -90.351631
9207000000 -0.89069039 125.45187 -8.8674564 -72.337845 -8.8591433 -72.969574 -0.19020259 -90.342789
9207062500 -0.89301366 125.38133 -8.8776522 -72.3703 -8.8642597 -72.987862 -0.19306532 -90.356682
9207125000 -0.89160514 125.41442 -8.8734484 -72.373398 -8.8620205 -73.013397 -0.198587 -90.400856
9207187500 -0.89246619 125.37801 -8.8827152 -72.429878 -8.867651 -73.018608 -0.20896277 -90.362457
9207250000 -0.89040583 125.36523 -8.8666382 -72.366302 -8.8680019 -73.026741 -0.20499229 -90.353737
9207312500 -0.8947975 125.33115 -8.8733072 -72.414307 -8.8659945 -72.976006 -0.20447616 -90.35128
9207375000 -0.88617325 125.31825 -8.8755722 -72.317421 -8.8575735 -73.027977 -0.20070016 -90.291649
9207437500 -0.89221144 125.25869 -8.8694744 -72.404556 -8.8554287 -72.990402 -0.20527896 -90.269684
9207500000 -0.88947445 125.256 -8.8649664 -72.412384 -8.8575401 -72.945694 -0.20437022 -90.292053
9207562500 -0.89331317 125.26029 -8.8738117 -72.433838 -8.8519068 -73.012253 -0.20298341 -90.305176
9207625000 -0.89117253 125.27552 -8.8746433 -72.397209 -8.8543758 -73.019966 -0.2066426 -90.261246
9207687500 -0.89683491 125.20248 -8.8567877 -72.386055 -8.8512716 -72.993698 -0.20300911 -90.215546
9207750000 -0.89653122 125.22195 -8.8721771 -72.4347 -8.8633604 -73.019958 -0.19996297 -90.260033
9207812500 -0.90016514 125.20902 -8.8706646 -72.348701 -8.8513155 -73.046959 -0.20197454 -90.240395
9207875000 -0.89948833 125.18827 -8.863061 -72.351654 -8.8468304 -73.049591 -0.19054307 -90.183731
9207937500 -0.895863 125.19341 -8.8624792 -72.369987 -8.8541498 -73.066849 -0.19719195 -90.187912
9208000000 -0.89411581 125.17882 -8.857007 -72.369682 -8.8522043 -73.078468 -0.18974575 -90.169792
9208062500 -0.89341706 125.18953 -8.8615904 -72.312653 -8.8580313 -73.031204 -0.19662271 -90.128258
9208125000 -0.89974838 125.18706 -8.8694649 -72.314209 -8.8554516 -73.062897 -0.19651194 -90.12851
9208187500 -0.89110518 125.15554 -8.8666716 -72.346481 -8.8619337 -73.026871 -0.20482117 -90.087502
9208250000 -0.89836764 125.15443 -8.8678436 -72.348106 -8.8521051 -73.012848 -0.20564768 -90.027992
9208312500 -0.89729726 125.16988 -8.8652802 -72.297882 -8.8551311 -72.974709 -0.21118961 -90.035965
9208375000 -0.89775944 125.16807 -8.8724928 -72.279633 -8.8564606 -73.022377 -0.21353386 -90.032166
9208437500 -0.89472842 125.07577 -8.8604193 -72.362984 -8.8568258 -72.964729 -0.2059363 -90.014511
9208500000 -0.89512056 125.11049 -8.8588457 -72.266235 -8.8448687 -72.969604 -0.20597573 -90.007713
9208562500 -0.89680994 125.07866 -8.8625002 -72.350929 -8.8491516 -72.975319 -0.19527856 -89.986191
9208625000 -0.89750493 125.05127 -8.8614111 -72.383369 -8.8476324 -73.006073 -0.19650784 -89.998566
9208687500 -0.89618838 125.02476 -8.8601809 -72.356186 -8.8456678 -72.989212 -0.20386389 -89.936165
9208750000 -0.89677471 124.98149 -8.8560944 -72.371941 -8.8410807 -73.030441 -0.21094254 -89.996475
9208812500 -0.89779335 125.03127 -8.8567924 -72.376869 -8.8440294 -72.983498 -0.20444363 -89.942154
9208875000 -0.89896744 125.01391 -8.8543196 -72.37426 -8.8379402 -73.018036 -0.19656141 -89.93721
9208937500 -0.89502817 125.02338 -8.8516083 -72.369987 -8.8425064 -73.004288 -0.20196885 -89.930695
9209000000 -0.90613389 125.00765 -8.8659325 -72.368996 -8.8527269 -72.943542 -0.21088248 -89.872986
9209062500 -0.89887267 125.03954 -8.8533545 -72.299919 -8.855464 -72.963165 -0.20591517 -89.869675
9209125000 -0.89946395 125.02153 -8.8562708 -72.331291 -8.8502522 -72.979485 -0.20492071 -89.863754
9209187500 -0.8978703 125.01215 -8.8540955 -72.312508 -8.8446426 -72.974182 -0.20755139 -89.845863
9209250000 -0.89828485 124.99922 -8.8426371 -72.330505 -8.8469982 -72.996162 -0.2073174 -89.805305
9209312500 -0.89238781 124.96767 -8.8421259 -72.329727 -8.8511925 -72.968346 -0.20437045 -89.808594
9209375000 -0.88976443 124.91753 -8.8419704 -72.302681 -8.8493681 -72.94162 -0.20536341 -89.75386
9209437500 -0.88836497 124.89178 -8.8474684 -72.293777 -8.8528376 -72.924629 -0.20544167 -89.74398
9209500000 -0.89356244 124.89719 -8.8463755 -72.322868 -8.844615 -72.91909 -0.20349655 -89.71254
9209562500 -0.89545208 124.88941 -8.8561773 -72.322189 -8.8365221 -72.950127 -0.19904582 -89.701767
9209625000 -0.8968038 124.90536 -8.8476181 -72.370499 -8.8404427 -72.975388 -0.2018837 -89.667709
9209687500 -0.89531845 124.83823 -8.8432732 -72.356522 -8.8448391 -72.970352 -0.2030312 -89.650269
9209750000 -0.89825201 124.82683 -8.8463011 -72.331093 -8.8379145 -72.934669 -0.20228283 -89.642838
9209812500 -0.90023053 124.83981 -8.8511944 -72.340218 -8.8277674 -72.98951 -0.1931777 -89.661926
9209875000 -0.89699215 124.79826 -8.8358078 -72.381371 -8.829565 -73.022522 -0.19110215 -89.650146
9209937500 -0.90322238 124.80132 -8.8400536 -72.291748 -8.8328466 -72.911423 -0.19604099 -89.615891
9210000000 -0.89687288 124.84504 -8.8416433 -72.291077 -8.8300686 -72.886208 -0.20016573 -89.539253
9210062500 -0.89363909 124.79601 -8.8467636 -72.328171 -8.827939 -72.909691 -0.19378932 -89.522285
9210125000 -0.89092988 124.72682 -8.8347063 -72.352295 -8.8368177 -72.867714 -0.19937795 -89.502892
9210187500 -0.894683 124.76002 -8.8353777 -72.281021 -8.8290854 -72.906891 -0.19818096 -89.487175
9210250000 -0.89002949 124.75003 -8.8273392 -72.282516 -8.8277044 -72.94355 -0.19854695 -89.505424
9210312500 -0.89475608 124.71863 -8.8450327 -72.268555 -8.8250961 -72.931206 -0.19622236 -89.493042
9210375000 -0.89322859 124.69819 -8.834631 -72.270325 -8.8318901 -72.890648 -0.20693935 -89.484688
9210437500 -0.89262867 124.68553 -8.8371458 -72.281502 -8.8353205 -72.893074 -0.21000278 -89.479492
9210500000 -0.89273 124.69524 -8.8451815 -72.270081 -8.8285065 -72.853172 -0.20400797 -89.42289
9210562500 -0.89072382 124.67348 -8.8309307 -72.284706 -8.8352919 -72.935257 -0.21221933 -89.452606
9210625000 -0.88970441 124.61235 -8.8399105 -72.333389 -8.8259907 -72.847717 -0.21229346 -89.39975
9210687500 -0.89151615 124.60661 -8.842885 -72.295235 -8.845191 -72.858116 -0.22081459 -89.372231
9210750000 -0.89095068 124.60973 -8.8386536 -72.221802 -8.8348942 -72.916451 -0.21222897 -89.387001
9210812500 -0.89219135 124.59079 -8.8409901 -72.215233 -8.8247919 -72.929657 -0.21551631 -89.347649
9210875000 -0.89138514 124.59495 -8.8375387 -72.223625 -8.8337412 -72.873123 -0.22022574 -89.287804
9210937500 -0.89274454 124.55163 -8.834403 -72.246925 -8.8297558 -72.892479 -0.21325183 -89.319061
9211000000 -0.89857018 124.52059 -8.8394327 -72.302032 -8.8182621 -72.89669 -0.20869061 -89.285957
9211062500 -0.90268606 124.52457 -8.8405094 -72.264687 -8.8229256 -72.955162 -0.21493177 -89.327553
9211125000 -0.89781076 124.52787 -8.831399 -72.273064 -8.8305092 -72.958656 -0.21636921 -89.314613
9211187500 -0.89820743 124.51884 -8.8345871 -72.288383 -8.8256578 -72.969513 -0.21095791 -89.34713
9211250000 -0.89854336 124.49142 -8.8338718 -72.343628 -8.8252277 -72.934868 -0.20654865 -89.336494
9211312500 -0.90331668 124.48071 -8.8339357 -72.354408 -8.819766 -72.917046 -0.20523456 -89.337219
9211375000 -0.90082955 124.52558 -8.8265324 -72.303802 -8.8242321 -72.957359 -0.19682443 -89.224792
9211437500 -0.90213048 124.50277 -8.83113 -72.290291 -8.8244333 -72.909714 -0.20560083 -89.199196
9211500000 -0.89948958 124.47172 -8.8265476 -72.315308 -8.8146296 -72.898376 -0.20325558 -89.210236
9211562500 -0.90241945 124.44247 -8.8271952 -72.255516 -8.8162231 -72.834152 -0.21146555 -89.172401
9211625000 -0.89571607 124.47058 -8.827404 -72.274796 -8.8267546 -72.86721 -0.21445814 -89.148682
9211687500 -0.89904547 124.42751 -8.8292294 -72.212013 -8.8143635 -72.868927 -0.21202016 -89.14978
9211750000 -0.89479625 124.37921 -8.8237534 -72.263199 -8.8227758 -72.810486 -0.21780492 -89.151497
9211812500 -0.90080172 124.3473 -8.827713 -72.246223 -8.8173208 -72.804298 -0.21110155 -89.056252
9211875000 -0.89953583 124.35335 -8.8297005 -72.275032 -8.815547 -72.813293 -0.21226744 -89.073929
9211937500 -0.89978743 124.33002 -8.8245687 -72.301239 -8.8210888 -72.765549 -0.22054045 -88.992645
9212000000 -0.90243709 124.31857 -8.8235016 -72.255241 -8.8136606 -72.829605 -0.21610242 -89.010689
9212062500 -0.90223259 124.31566 -8.8233995 -72.241539 -8.8122931 -72.777771 -0.21108864 -88.935768
9212125000 -0.90268713 124.23444 -8.8150978 -72.293343 -8.81674 -72.85601 -0.21369463 -88.973396
9212187500 -0.90420562 124.22673 -8.8211012 -72.267738 -8.8152952 -72.841286 -0.21880007 -88.933395
