!Agilent Technologies,N5242A,MY51221714,A.09.90.19
!Agilent N5242A: A.09.90.19
!Date: Saturday, March 16, 2024 09:47:49
!Correction: S11(Full 2 Port(1,2)) 
!S21(Full 2 Port(1,2)) 
!S12(Full 2 Port(1,2)) 
!S22(Full 2 Port(1,2)) 
!S2P File: Measurements: S11, S21, S12, S22:
# Hz S  dB   R 50
9200000000 -0.91658515 125.96269 -8.8379908 -72.639488 -8.8212204 -73.220146 -0.1988893 -91.58725
9200062500 -0.91585213 125.99641 -8.8365078 -72.648071 -8.8313351 -73.319374 -0.20536743 -91.612885
9200125000 -0.91388845 125.95441 -8.8366966 -72.63382 -8.8200512 -73.287872 -0.19806917 -91.606026
9200187500 -0.91277349 125.97056 -8.8265991 -72.667671 -8.8272018 -73.277954 -0.20074394 -91.575912
9200250000 -0.91637814 125.96559 -8.8419065 -72.644897 -8.8199883 -73.23587 -0.20230946 -91.518768
9200312500 -0.91612762 125.91911 -8.8412189 -72.631294 -8.8233194 -73.234818 -0.20303696 -91.482285
9200375000 -0.91487217 125.95715 -8.8309822 -72.647224 -8.8132076 -73.372536 -0.19637264 -91.567307
9200437500 -0.91395545 125.93335 -8.831912 -72.606674 -8.814517 -73.289314 -0.20092177 -91.494843
9200500000 -0.90876377 125.84605 -8.8290291 -72.679718 -8.8182039 -73.278671 -0.20541038 -91.48764
9200562500 -0.91097456 125.86983 -8.8271322 -72.648796 -8.8068924 -73.28038 -0.19679724 -91.4701
9200625000 -0.9130156 125.89008 -8.8392429 -72.637566 -8.8153248 -73.332207 -0.20835648 -91.452629
9200687500 -0.91772336 125.84226 -8.843668 -72.622559 -8.8120861 -73.236252 -0.2083308 -91.38459
9200750000 -0.9120971 125.83498 -8.8392916 -72.597443 -8.8074865 -73.249504 -0.20647201 -91.398499
9200812500 -0.91281295 125.80819 -8.8305006 -72.610397 -8.8075924 -73.246979 -0.21707973 -91.369087
9200875000 -0.91478193 125.81045 -8.8357735 -72.570023 -8.8141727 -73.254524 -0.2134925 -91.280426
9200937500 -0.91426635 125.80326 -8.8263006 -72.555321 -8.8070555 -73.222343 -0.21035218 -91.289009
9201000000 -0.9139415 125.77464 -8.8275156 -72.601875 -8.8052721 -73.247604 -0.2137346 -91.300606
9201062500 -0.91251391 125.77715 -8.8227205 -72.604324 -8.805624 -73.243553 -0.20176491 -91.289902
9201125000 -0.90580845 125.73346 -8.8180161 -72.590508 -8.8047962 -73.19088 -0.20342308 -91.259544
9201187500 -0.90967786 125.73552 -8.8196468 -72.583298 -8.7985325 -73.237144 -0.21209204 -91.231888
9201250000 -0.90527785 125.7149 -8.8196859 -72.602943 -8.8139353 -73.220665 -0.21498531 -91.252312
9201312500 -0.90834075 125.69228 -8.8234091 -72.634842 -8.806077 -73.203224 -0.20974563 -91.203979
9201375000 -0.90836245 125.68653 -8.822835 -72.598564 -8.8123255 -73.254433 -0.21283157 -91.236176
9201437500 -0.91687483 125.70066 -8.8286486 -72.602577 -8.806201 -73.231171 -0.20720826 -91.212898
9201500000 -0.91644233 125.69384 -8.8281574 -72.603943 -8.8080359 -73.202667 -0.20634058 -91.187378
9201562500 -0.91425389 125.66605 -8.8274574 -72.563202 -8.8111115 -73.263618 -0.21277484 -91.213234
9201625000 -0.91782904 125.66349 -8.8361883 -72.612114 -8.7988853 -73.237495 -0.20188871 -91.200874
9201687500 -0.91349053 125.64291 -8.8224621 -72.588745 -8.807476 -73.250313 -0.20800745 -91.190567
9201750000 -0.91457707 125.63092 -8.8217249 -72.541878 -8.8026953 -73.22007 -0.20856366 -91.136177
9201812500 -0.90872282 125.59843 -8.8220186 -72.60453 -8.8013077 -73.139267 -0.21222319 -91.083969
9201875000 -0.90503728 125.57555 -8.8194818 -72.58165 -8.7935877 -73.201118 -0.20425627 -91.077339
9201937500 -0.90513027 125.53306 -8.810462 -72.631279 -8.8040972 -73.140945 -0.20805353 -91.015419
9202000000 -0.91157907 125.55005 -8.8203135 -72.586456 -8.7986879 -73.272987 -0.21492773 -91.073708
9202062500 -0.91093254 125.54131 -8.8138466 -72.566116 -8.7977562 -73.262711 -0.2126843 -91.026978
9202125000 -0.91475487 125.5334 -8.812542 -72.566589 -8.7988892 -73.207031 -0.21028079 -91.020531
9202187500 -0.90695411 125.48804 -8.8039675 -72.593246 -8.7918873 -73.207138 -0.20317717 -90.998535
9202250000 -0.91079479 125.48711 -8.8121405 -72.560524 -8.8027716 -73.283882 -0.20948815 -91.003937
9202312500 -0.91043168 125.51242 -8.8110332 -72.606125 -8.8076944 -73.219109 -0.21123597 -90.968422
9202375000 -0.91105002 125.46329 -8.7963743 -72.589622 -8.799015 -73.264038 -0.20933324 -90.964653
9202437500 -0.91725761 125.4463 -8.8073511 -72.559761 -8.7957001 -73.236832 -0.20683017 -90.957497
9202500000 -0.91389573 125.46787 -8.8074026 -72.558357 -8.8026485 -73.23288 -0.21937604 -90.897034
9202562500 -0.91408175 125.45663 -8.8082047 -72.599297 -8.8002253 -73.295853 -0.21688201 -90.918541
9202625000 -0.91475463 125.42847 -8.8148308 -72.579124 -8.8001099 -73.232651 -0.21433927 -90.880043
9202687500 -0.91284972 125.42419 -8.8091316 -72.553642 -8.796257 -73.220062 -0.21550471 -90.86026
9202750000 -0.91618037 125.38026 -8.8104849 -72.57811 -8.7946081 -73.197716 -0.22194232 -90.831787
9202812500 -0.91689056 125.36668 -8.8162136 -72.583679 -8.8057404 -73.192772 -0.22619675 -90.80291
9202875000 -0.91711247 125.39465 -8.8104296 -72.647537 -8.7924166 -73.242821 -0.21871369 -90.830917
9202937500 -0.91566062 125.3658 -8.8009796 -72.541695 -8.7919559 -73.202835 -0.21254689 -90.75325
9203000000 -0.91126704 125.3176 -8.8034487 -72.620415 -8.791338 -73.212654 -0.21291563 -90.766983
9203062500 -0.90827453 125.31094 -8.8038683 -72.625496 -8.7902946 -73.235695 -0.21283595 -90.763092
9203125000 -0.91557777 125.28696 -8.8078012 -72.604149 -8.7959299 -73.235352 -0.2155451 -90.730606
9203187500 -0.91591096 125.30428 -8.8073483 -72.530266 -8.7889643 -73.18808 -0.21043685 -90.696342
9203250000 -0.91342741 125.28746 -8.7933941 -72.534607 -8.795496 -73.19413 -0.21231215 -90.717094
9203312500 -0.91491324 125.30224 -8.8038759 -72.588928 -8.7940617 -73.237442 -0.21285084 -90.672569
9203375000 -0.91146988 125.2436 -8.8092175 -72.578995 -8.7945442 -73.19294 -0.21470436 -90.638329
9203437500 -0.91797292 125.23622 -8.8063021 -72.632195 -8.7931366 -73.213814 -0.2179386 -90.650139
9203500000 -0.91518927 125.23488 -8.8053656 -72.565483 -8.784688 -73.23362 -0.21368751 -90.584572
9203562500 -0.91064459 125.18759 -8.8012285 -72.631416 -8.7849865 -73.217506 -0.21995072 -90.608192
9203625000 -0.91220921 125.17551 -8.8016844 -72.555252 -8.7954006 -73.179466 -0.21869867 -90.553963
9203687500 -0.91709566 125.15891 -8.803647 -72.609192 -8.7872715 -73.207191 -0.21976987 -90.545418
9203750000 -0.9148404 125.12552 -8.7918758 -72.611664 -8.7835531 -73.20874 -0.21901637 -90.538399
9203812500 -0.91551965 125.16653 -8.7998867 -72.532677 -8.7918587 -73.187943 -0.22371459 -90.526291
9203875000 -0.91463012 125.10223 -8.7921734 -72.571251 -8.7897358 -73.166077 -0.22180378 -90.521774
9203937500 -0.91194254 125.12205 -8.8023977 -72.530479 -8.785821 -73.125237 -0.23037772 -90.451691
9204000000 -0.90983504 125.08218 -8.7967129 -72.583008 -8.782279 -73.211517 -0.23061377 -90.467865
9204062500 -0.90807474 125.12934 -8.8013458 -72.569283 -8.7803516 -73.152817 -0.23351182 -90.457886
9204125000 -0.90994006 125.09162 -8.7993288 -72.549736 -8.7744799 -73.168152 -0.22882773 -90.458618
9204187500 -0.90911722 125.07736 -8.7989979 -72.531944 -8.771595 -73.166794 -0.22204563 -90.45462
9204250000 -0.90886647 125.06271 -8.8001232 -72.520447 -8.7749519 -73.122803 -0.23417841 -90.391998
9204312500 -0.90653497 125.0227 -8.7919292 -72.484581 -8.7702656 -73.146423 -0.22571097 -90.379807
9204375000 -0.90176046 125.01009 -8.7918911 -72.516197 -8.7772074 -73.160042 -0.22455534 -90.360268
9204437500 -0.90881968 125.01488 -8.7907648 -72.481812 -8.7777481 -73.129532 -0.22551982 -90.36731
9204500000 -0.90640283 124.98095 -8.7890434 -72.540604 -8.7716494 -73.162857 -0.22608571 -90.311729
9204562500 -0.90272719 124.98051 -8.7882977 -72.509903 -8.7716312 -73.164894 -0.2144959 -90.324547
9204625000 -0.90049744 124.96375 -8.778944 -72.555229 -8.78263 -73.18885 -0.22252159 -90.288765
9204687500 -0.90524715 124.97335 -8.7860403 -72.497032 -8.7760201 -73.201866 -0.22119299 -90.291191
9204750000 -0.9101606 124.9314 -8.793787 -72.502914 -8.774766 -73.162292 -0.22255543 -90.268799
9204812500 -0.90664238 124.95346 -8.7852125 -72.483475 -8.7751694 -73.122803 -0.22126444 -90.241837
9204875000 -0.90590107 124.92871 -8.7844257 -72.515511 -8.7695112 -73.184059 -0.22238898 -90.24894
9204937500 -0.91180378 124.92606 -8.7911644 -72.499893 -8.7670574 -73.149559 -0.21925561 -90.217316
9205000000 -0.91354424 124.9015 -8.7840223 -72.51535 -8.7693434 -73.209305 -0.22113946 -90.196327
9205062500 -0.91106498 124.90911 -8.7781849 -72.474518 -8.7677889 -73.141663 -0.21984993 -90.193604
9205125000 -0.91248697 124.85114 -8.7814589 -72.511589 -8.7725391 -73.142982 -0.21762639 -90.181885
9205187500 -0.91593516 124.85892 -8.7761726 -72.458107 -8.7707243 -73.141884 -0.22336532 -90.140671
9205250000 -0.91885453 124.81248 -8.7845783 -72.5261 -8.7798901 -73.137917 -0.22404303 -90.099266
9205312500 -0.91405761 124.82005 -8.7849636 -72.432045 -8.7763472 -73.144287 -0.21835928 -90.074722
9205375000 -0.91464561 124.78072 -8.7804394 -72.487015 -8.7629843 -73.157494 -0.21643756 -90.12355
9205437500 -0.91206604 124.72308 -8.7820835 -72.491386 -8.766325 -73.155731 -0.22026819 -90.122986
9205500000 -0.91741276 124.77104 -8.7809267 -72.478874 -8.7729712 -73.12883 -0.22103991 -90.042442
9205562500 -0.91310507 124.73444 -8.771513 -72.515358 -8.7775602 -73.154015 -0.22259279 -90.126175
9205625000 -0.9112426 124.75877 -8.7710533 -72.504463 -8.7669649 -73.118065 -0.21838947 -90.03495
9205687500 -0.91173762 124.74615 -8.7884235 -72.484909 -8.7757483 -73.139671 -0.22398002 -89.978836
9205750000 -0.91223156 124.73221 -8.7726202 -72.512207 -8.7663403 -73.115585 -0.22136375 -90.062363
9205812500 -0.9073875 124.69176 -8.7736616 -72.528503 -8.768363 -73.133148 -0.22567321 -89.977982
9205875000 -0.91447097 124.70669 -8.7777777 -72.505379 -8.7727842 -73.106354 -0.22611257 -89.969307
9205937500 -0.90709311 124.67558 -8.7693424 -72.526306 -8.767889 -73.110863 -0.21964544 -89.945213
9206000000 -0.90975481 124.6856 -8.7782488 -72.490906 -8.7746496 -73.096481 -0.22874323 -89.926476
9206062500 -0.90859377 124.70669 -8.7733545 -72.473618 -8.7727699 -73.056664 -0.2229715 -89.869133
9206125000 -0.90781802 124.65065 -8.7716513 -72.454605 -8.7676487 -73.088257 -0.22476406 -89.833122
9206187500 -0.90854448 124.65332 -8.7756157 -72.41008 -8.7669382 -73.121284 -0.22551049 -89.864899
9206250000 -0.90694243 124.65116 -8.7736225 -72.466087 -8.7566957 -73.148903 -0.21375671 -89.87886
9206312500 -0.90815639 124.63251 -8.77211 -72.427628 -8.7529087 -73.132622 -0.22162722 -89.847946
9206375000 -0.90963346 124.63017 -8.7674522 -72.442398 -8.757082 -73.107071 -0.22776693 -89.831963
9206437500 -0.91127563 124.60805 -8.775486 -72.494698 -8.7584848 -73.133415 -0.22170559 -89.821861
9206500000 -0.90467829 124.63272 -8.7629576 -72.447113 -8.7589293 -73.163666 -0.22464298 -89.792465
9206562500 -0.91391879 124.61989 -8.7690525 -72.39109 -8.7437677 -73.097748 -0.21265316 -89.745537
9206625000 -0.91157562 124.56165 -8.7653608 -72.436081 -8.7480249 -73.14212 -0.21280219 -89.747818
9206687500 -0.91585529 124.51532 -8.760087 -72.479523 -8.7421303 -73.102592 -0.21485797 -89.714424
9206750000 -0.91293174 124.52923 -8.7548628 -72.444313 -8.7543058 -73.146469 -0.21484792 -89.718719
9206812500 -0.91771215 124.49136 -8.75348 -72.448158 -8.7375307 -73.139763 -0.2102426 -89.722832
9206875000 -0.92175621 124.4697 -8.7621698 -72.432983 -8.7342176 -73.12645 -0.20720693 -89.637474
9206937500 -0.91278434 124.47167 -8.7589378 -72.40728 -8.7372808 -73.077904 -0.21425883 -89.591362
9207000000 -0.9134981 124.46076 -8.7574825 -72.445412 -8.7470169 -73.128662 -0.21949966 -89.620392
9207062500 -0.90924793 124.42429 -8.756341 -72.45903 -8.7499151 -73.088348 -0.22697686 -89.610352
9207125000 -0.90977716 124.44308 -8.7607746 -72.43782 -8.7474995 -73.143715 -0.22280751 -89.616447
9207187500 -0.91218573 124.38943 -8.7686329 -72.458496 -8.7549658 -73.036842 -0.2283316 -89.551857
9207250000 -0.90594828 124.38187 -8.7579575 -72.466408 -8.7443466 -73.065094 -0.22839332 -89.553253
9207312500 -0.90347588 124.34882 -8.7563896 -72.456757 -8.7512007 -73.100151 -0.22879879 -89.605721
9207375000 -0.91038561 124.3529 -8.7606344 -72.430077 -8.7504082 -73.103294 -0.22761557 -89.579041
9207437500 -0.91226935 124.32687 -8.7575369 -72.479721 -8.7459736 -73.131226 -0.23710024 -89.583878
9207500000 -0.90793031 124.29272 -8.7524099 -72.498726 -8.7411718 -73.089828 -0.22982731 -89.522652
9207562500 -0.91626221 124.26928 -8.7669735 -72.467354 -8.7458105 -73.08873 -0.23196375 -89.52066
9207625000 -0.91532826 124.24132 -8.7571287 -72.488396 -8.7445116 -73.101357 -0.23164231 -89.464989
9207687500 -0.91379839 124.22944 -8.7592869 -72.534966 -8.7436609 -73.100098 -0.2323382 -89.499802
9207750000 -0.91293538 124.25668 -8.7528448 -72.458679 -8.7373028 -73.115799 -0.22336526 -89.513115
9207812500 -0.91872346 124.22937 -8.7485838 -72.426079 -8.7399635 -73.09861 -0.2164574 -89.440338
9207875000 -0.91345203 124.29119 -8.746376 -72.397903 -8.7395163 -73.109222 -0.21706904 -89.414841
9207937500 -0.91491097 124.22665 -8.7433014 -72.450089 -8.7329578 -73.149132 -0.21375053 -89.415001
9208000000 -0.9179492 124.20136 -8.7556124 -72.47303 -8.7437019 -73.102753 -0.22127771 -89.361465
9208062500 -0.91658521 124.20522 -8.7443657 -72.445869 -8.744997 -73.126755 -0.22366999 -89.364822
9208125000 -0.91800225 124.20929 -8.7421408 -72.41729 -8.7384701 -73.058517 -0.22216733 -89.33194
9208187500 -0.90811127 124.20924 -8.7420034 -72.397629 -8.7424326 -73.081177 -0.23354831 -89.316254
9208250000 -0.9120543 124.1646 -8.7471304 -72.46804 -8.7350025 -73.061401 -0.22948542 -89.313408
9208312500 -0.91057718 124.18038 -8.7524385 -72.37175 -8.7462769 -73.049492 -0.23651826 -89.263336
9208375000 -0.91149706 124.17568 -8.7501659 -72.440361 -8.7430954 -73.052811 -0.23583806 -89.258575
9208437500 -0.91025794 124.12 -8.7420607 -72.410973 -8.7438889 -73.113327 -0.23962173 -89.245773
9208500000 -0.90986234 124.10993 -8.7425547 -72.416573 -8.7366056 -73.101959 -0.23345111 -89.232132
9208562500 -0.91262656 124.06545 -8.7443647 -72.432907 -8.7345724 -73.035728 -0.23469143 -89.202301
9208625000 -0.91101021 124.05801 -8.7459641 -72.462166 -8.7295923 -73.069237 -0.23376402 -89.198906
9208687500 -0.91359514 124.03304 -8.7382441 -72.435417 -8.7273932 -73.024445 -0.22009115 -89.150925
9208750000 -0.91291708 123.98791 -8.7424994 -72.526199 -8.7292194 -73.018387 -0.2327574 -89.170883
9208812500 -0.91227579 124.00319 -8.7405024 -72.501053 -8.735054 -73.023804 -0.23302197 -89.151588
9208875000 -0.91503185 124.0056 -8.7366838 -72.477142 -8.7279472 -73.086815 -0.22937621 -89.150108
9208937500 -0.91395807 124.06911 -8.7452259 -72.416298 -8.7432318 -73.06543 -0.23271629 -89.177872
9209000000 -0.90729254 124.06374 -8.7295942 -72.420494 -8.7285366 -73.030746 -0.2281917 -89.120323
9209062500 -0.91320473 124.08633 -8.7420521 -72.387108 -8.7324114 -73.08725 -0.23189364 -89.122559
9209125000 -0.91333079 124.08302 -8.7374516 -72.373695 -8.7389536 -73.010315 -0.22884093 -89.08699
9209187500 -0.92063713 124.02959 -8.7387037 -72.422874 -8.7333298 -73.061211 -0.23475775 -89.050354
9209250000 -0.91436607 124.00718 -8.7370586 -72.41481 -8.7369013 -72.995193 -0.2314423 -89.040146
9209312500 -0.90854806 123.98296 -8.7297611 -72.380508 -8.73347 -73.0298 -0.23453161 -89.028351
9209375000 -0.9093709 123.95212 -8.7296658 -72.425461 -8.7374706 -72.98243 -0.23040208 -88.964172
9209437500 -0.91480547 123.91336 -8.726222 -72.393234 -8.7318106 -73.007469 -0.23683973 -88.962364
9209500000 -0.91246545 123.89703 -8.7219238 -72.46254 -8.7356758 -72.988007 -0.23465112 -88.96711
9209562500 -0.9080888 123.92725 -8.7312517 -72.350914 -8.7281132 -73.003761 -0.23127396 -88.945839
9209625000 -0.91767269 123.8888 -8.7323179 -72.460381 -8.7238531 -73.029045 -0.22846214 -88.88752
9209687500 -0.91510445 123.87629 -8.7269726 -72.429771 -8.7273378 -73.044426 -0.23083699 -88.896339
9209750000 -0.91890788 123.88966 -8.7366047 -72.399475 -8.7253275 -72.987419 -0.23009515 -88.877899
9209812500 -0.91905141 123.83786 -8.7235203 -72.48687 -8.7106504 -73.022957 -0.22334027 -88.852463
9209875000 -0.91950923 123.84491 -8.7344332 -72.476608 -8.7279644 -72.999191 -0.23164263 -88.827126
9209937500 -0.91776752 123.80119 -8.7237091 -72.432777 -8.7175322 -73.035477 -0.22153029 -88.815453
9210000000 -0.92171222 123.81696 -8.7329788 -72.416443 -8.7185516 -73.005997 -0.22847001 -88.797913
9210062500 -0.91312325 123.80413 -8.7271404 -72.422447 -8.714962 -72.9729 -0.22365533 -88.766937
9210125000 -0.91165847 123.79531 -8.7268085 -72.41497 -8.7158899 -72.985031 -0.22181967 -88.792084
9210187500 -0.90737021 123.79849 -8.7172794 -72.38308 -8.7065611 -73.015846 -0.22193719 -88.752708
9210250000 -0.91044629 123.76796 -8.7292271 -72.384026 -8.7165518 -73.004456 -0.22208048 -88.761383
9210312500 -0.90917003 123.73863 -8.7251415 -72.368767 -8.715703 -72.939629 -0.22420202 -88.696762
9210375000 -0.9125731 123.71236 -8.732029 -72.448921 -8.7173576 -72.938652 -0.23453344 -88.680901
9210437500 -0.90653688 123.71843 -8.7244177 -72.375099 -8.7188168 -72.951599 -0.23213625 -88.659828
9210500000 -0.90772957 123.72359 -8.7276735 -72.374634 -8.7097807 -72.973946 -0.23066801 -88.673294
9210562500 -0.90790749 123.65895 -8.720747 -72.393929 -8.7166729 -72.89386 -0.23899944 -88.625793
9210625000 -0.90757221 123.66448 -8.7202597 -72.345879 -8.7230301 -72.985123 -0.24000333 -88.625771
9210687500 -0.90553707 123.66084 -8.718277 -72.366005 -8.7097569 -72.951622 -0.2413398 -88.574341
9210750000 -0.90509075 123.62745 -8.7214203 -72.375992 -8.7177954 -72.991203 -0.24176265 -88.602295
9210812500 -0.91102469 123.62234 -8.7286406 -72.392036 -8.6998692 -72.989944 -0.2360893 -88.598289
9210875000 -0.90844768 123.55855 -8.7282972 -72.368874 -8.7129364 -72.955879 -0.238849 -88.551178
9210937500 -0.91395414 123.57968 -8.7250662 -72.405182 -8.7105198 -72.983841 -0.23765546 -88.551979
9211000000 -0.90974218 123.5512 -8.7200975 -72.323631 -8.7096357 -73.030418 -0.23454525 -88.552589
9211062500 -0.91594857 123.5547 -8.7201347 -72.351563 -8.7203007 -73.004662 -0.23979726 -88.542221
9211125000 -0.91423887 123.5642 -8.7182198 -72.327042 -8.7058535 -73.01091 -0.23603287 -88.537354
9211187500 -0.91673523 123.54908 -8.7191963 -72.412613 -8.7123423 -73.008759 -0.23531687 -88.535904
9211250000 -0.91686475 123.52418 -8.7138519 -72.393761 -8.7084894 -72.988983 -0.22636883 -88.563919
9211312500 -0.91612881 123.57215 -8.7022505 -72.36676 -8.7027636 -73.080681 -0.2323855 -88.5811
9211375000 -0.91921139 123.52717 -8.7204571 -72.394188 -8.7035465 -73.080299 -0.22784366 -88.509186
9211437500 -0.91779912 123.47054 -8.7189598 -72.426743 -8.7054176 -73.033943 -0.23229639 -88.458679
9211500000 -0.92204106 123.49257 -8.721406 -72.326004 -8.6983461 -72.953484 -0.2307598 -88.397827
9211562500 -0.91343367 123.43801 -8.7211151 -72.400375 -8.7019835 -72.942085 -0.2337542 -88.384216
9211625000 -0.92056251 123.46928 -8.7159996 -72.353859 -8.7128639 -72.958984 -0.23749927 -88.4048
9211687500 -0.91824883 123.42587 -8.7217045 -72.350044 -8.7056284 -72.96241 -0.23875402 -88.406212
9211750000 -0.91373092 123.39823 -8.7106638 -72.348976 -8.7036247 -72.949829 -0.24132732 -88.362503
9211812500 -0.91680133 123.3709 -8.7144766 -72.41713 -8.7000008 -72.942696 -0.24089713 -88.338379
9211875000 -0.91291499 123.38541 -8.7118406 -72.295799 -8.7058048 -72.950485 -0.24187084 -88.320244
9211937500 -0.91994148 123.37665 -8.7024002 -72.336281 -8.70121 -72.932457 -0.2438232 -88.261772
9212000000 -0.92476428 123.33155 -8.709384 -72.369942 -8.6955347 -72.974579 -0.23969747 -88.243614
9212062500 -0.92331672 123.34874 -8.7053699 -72.378494 -8.6937866 -72.918167 -0.23382524 -88.201721
9212125000 -0.92221451 123.30497 -8.7097082 -72.363899 -8.6989498 -73.013939 -0.24780111 -88.200043
9212187500 -0.92211419 123.27302 -8.7064819 -72.382751 -8.6946096 -72.918571 -0.24082656 -88.143524
