!Agilent Technologies,N5242A,MY51221714,A.09.90.19
!Agilent N5242A: A.09.90.19
!Date: Saturday, March 16, 2024 09:57:56
!Correction: S11(Full 2 Port(1,2)) 
!S21(Full 2 Port(1,2)) 
!S12(Full 2 Port(1,2)) 
!S22(Full 2 Port(1,2)) 
!S2P File: Measurements: S11, S21, S12, S22:
# Hz S  dB   R 50
9200000000 -0.99648643 125.78086 -8.913516 -74.768173 -8.9023657 -75.349411 -0.26770389 -93.826233
9200062500 -0.99594957 125.74516 -8.9128542 -74.788986 -8.8931446 -75.43383 -0.26286477 -93.859207
9200125000 -0.99531704 125.75806 -8.9144125 -74.771912 -8.8993082 -75.440948 -0.26150995 -93.859795
9200187500 -0.99491268 125.75268 -8.9058008 -74.77459 -8.9004936 -75.440872 -0.26380646 -93.848801
9200250000 -0.99829668 125.74169 -8.9158916 -74.767525 -8.8959637 -75.434555 -0.26405153 -93.811218
9200312500 -0.99353296 125.67745 -8.9114771 -74.867546 -8.8860416 -75.444588 -0.26019266 -93.808411
9200375000 -0.98903108 125.67313 -8.9004745 -74.86599 -8.8962574 -75.456924 -0.2679356 -93.811745
9200437500 -0.99253947 125.68808 -8.9141312 -74.82917 -8.8865814 -75.429192 -0.26161385 -93.741425
9200500000 -0.98770505 125.65501 -8.8965597 -74.781143 -8.8856754 -75.415535 -0.26655984 -93.76683
9200562500 -0.99084044 125.68581 -8.896389 -74.741264 -8.8842506 -75.434967 -0.26898828 -93.760216
9200625000 -0.98907673 125.63029 -8.9045744 -74.777679 -8.891655 -75.4067 -0.27132222 -93.68232
9200687500 -0.99328923 125.59739 -8.9095964 -74.780609 -8.885479 -75.381897 -0.27762488 -93.676727
9200750000 -0.9957453 125.60818 -8.9099407 -74.725433 -8.8798752 -75.40683 -0.27593753 -93.650719
9200812500 -0.99123549 125.65102 -8.9158506 -74.65123 -8.8843565 -75.417152 -0.27806321 -93.647728
9200875000 -1.0031662 125.60322 -8.9088354 -74.731522 -8.8752489 -75.363747 -0.27524045 -93.595703
9200937500 -0.98942047 125.59508 -8.8938332 -74.697792 -8.8796949 -75.404976 -0.27627936 -93.596313
9201000000 -0.99195772 125.55284 -8.8938646 -74.732048 -8.8793621 -75.38636 -0.27558929 -93.54792
9201062500 -0.9903186 125.51899 -8.8939362 -74.781212 -8.8826876 -75.40493 -0.27542895 -93.528755
9201125000 -0.98888743 125.50899 -8.888134 -74.748413 -8.8795013 -75.400475 -0.27067158 -93.558273
9201187500 -0.98616719 125.50178 -8.8902636 -74.693642 -8.8819151 -75.414116 -0.27878737 -93.534172
9201250000 -0.98711556 125.51425 -8.8901291 -74.726051 -8.887701 -75.359329 -0.2790373 -93.477272
9201312500 -0.99058336 125.5051 -8.8932009 -74.77549 -8.8737593 -75.372971 -0.26906544 -93.471779
9201375000 -0.99206603 125.47417 -8.8916626 -74.752487 -8.8759546 -75.397934 -0.27278429 -93.497421
9201437500 -0.99146849 125.47604 -8.8976889 -74.766647 -8.8780136 -75.369225 -0.26473698 -93.501175
9201500000 -0.99133605 125.47142 -8.8925686 -74.74437 -8.8867598 -75.40126 -0.27615482 -93.470963
9201562500 -0.9955743 125.45458 -8.8982992 -74.797211 -8.8815422 -75.379204 -0.27105877 -93.450386
9201625000 -0.99018556 125.42091 -8.897419 -74.737534 -8.8829746 -75.359398 -0.27218956 -93.430954
9201687500 -0.99746215 125.43413 -8.9033155 -74.706657 -8.8910913 -75.343178 -0.27619243 -93.407776
9201750000 -0.99878973 125.38805 -8.9038534 -74.709183 -8.8762083 -75.369072 -0.27600086 -93.413689
9201812500 -0.9899053 125.3886 -8.8871069 -74.764977 -8.8704538 -75.305962 -0.27216485 -93.347214
9201875000 -0.99327677 125.35125 -8.8937626 -74.76017 -8.8722401 -75.34346 -0.27122384 -93.348572
9201937500 -0.98950142 125.37794 -8.8871565 -74.660973 -8.8708124 -75.330452 -0.27560914 -93.344955
9202000000 -0.98941201 125.33127 -8.8889322 -74.752693 -8.8720245 -75.293221 -0.28208533 -93.293945
9202062500 -0.99018145 125.31734 -8.880599 -74.730965 -8.8693695 -75.3265 -0.273013 -93.296677
9202125000 -0.9936071 125.27699 -8.8853903 -74.754707 -8.8755589 -75.411507 -0.28019682 -93.29528
9202187500 -0.99017745 125.28194 -8.8751402 -74.753571 -8.8748035 -75.389679 -0.27225611 -93.279816
9202250000 -0.9917748 125.26349 -8.8720226 -74.707413 -8.8739147 -75.41217 -0.27458221 -93.230919
9202312500 -0.99042714 125.25414 -8.8755522 -74.728615 -8.8745489 -75.422798 -0.27153948 -93.26873
9202375000 -0.98636299 125.25346 -8.8697042 -74.697395 -8.8732309 -75.353531 -0.27659571 -93.218597
9202437500 -0.99593478 125.22921 -8.8788805 -74.722572 -8.8791494 -75.402077 -0.28371799 -93.220581
9202500000 -0.99468064 125.22778 -8.8770275 -74.733276 -8.8742085 -75.393112 -0.2808421 -93.156387
9202562500 -0.99219626 125.20118 -8.8753996 -74.71814 -8.8684998 -75.401314 -0.27757257 -93.201424
9202625000 -0.9908663 125.19499 -8.8744583 -74.779823 -8.8695278 -75.385635 -0.28109306 -93.176598
9202687500 -1.0003563 125.17799 -8.8913097 -74.753952 -8.8742647 -75.374603 -0.28605869 -93.114075
9202750000 -0.99707401 125.17856 -8.8819456 -74.684738 -8.8648033 -75.347046 -0.28366631 -93.09951
9202812500 -0.99725986 125.15079 -8.8759842 -74.743042 -8.861248 -75.36451 -0.28894818 -93.098923
9202875000 -0.99424702 125.15041 -8.8721972 -74.678238 -8.8661003 -75.320862 -0.27710065 -93.041718
9202937500 -0.99161875 125.12367 -8.8764076 -74.722771 -8.8568354 -75.321602 -0.27843565 -93.027069
9203000000 -0.99276805 125.09981 -8.8720894 -74.745529 -8.8663654 -75.317848 -0.27799553 -93.034821
9203062500 -0.99042493 125.08379 -8.8767633 -74.76767 -8.8634224 -75.38179 -0.28386274 -93.024681
9203125000 -0.99002314 125.07807 -8.8687887 -74.71524 -8.8598719 -75.355247 -0.28284872 -92.966499
9203187500 -0.98909092 125.07937 -8.8673725 -74.646935 -8.8652382 -75.361298 -0.27943784 -92.976158
9203250000 -0.98949224 125.04481 -8.8705263 -74.730064 -8.8653126 -75.325989 -0.2815634 -92.962212
9203312500 -1.0022945 125.04123 -8.8860693 -74.746025 -8.8580399 -75.31839 -0.2760447 -92.944969
9203375000 -0.9917649 125.02902 -8.8737946 -74.756119 -8.8617344 -75.324829 -0.27963421 -92.894905
9203437500 -0.9959054 125.01926 -8.8759813 -74.718018 -8.8598967 -75.372864 -0.2830233 -92.884727
9203500000 -0.98759162 125.00465 -8.8664827 -74.718979 -8.8681211 -75.393547 -0.28345653 -92.909653
9203562500 -0.99142557 124.95816 -8.8710661 -74.701469 -8.8666296 -75.334908 -0.29020056 -92.889755
9203625000 -0.99485219 124.99506 -8.86938 -74.706268 -8.858057 -75.304535 -0.28367922 -92.844002
9203687500 -0.99449927 124.91371 -8.8734941 -74.74427 -8.8698702 -75.332573 -0.28957585 -92.797127
9203750000 -0.99516225 124.91176 -8.8680296 -74.660362 -8.8573875 -75.321587 -0.28107551 -92.792953
9203812500 -0.99797535 124.90602 -8.8654957 -74.741699 -8.8568707 -75.3349 -0.28193957 -92.824348
9203875000 -0.9935447 124.89814 -8.863246 -74.711182 -8.8578367 -75.294868 -0.29233178 -92.760284
9203937500 -0.99098378 124.88736 -8.8534508 -74.737854 -8.857235 -75.357903 -0.28867775 -92.806648
9204000000 -0.99078006 124.88485 -8.865242 -74.701622 -8.8607874 -75.348846 -0.29860821 -92.735863
9204062500 -0.98955703 124.8597 -8.8707199 -74.71006 -8.8412914 -75.357407 -0.29581708 -92.758339
9204125000 -0.99035037 124.89602 -8.8709612 -74.614906 -8.8447742 -75.326591 -0.29665869 -92.705833
9204187500 -0.98812449 124.83225 -8.8711367 -74.693001 -8.853303 -75.316811 -0.29441419 -92.727051
9204250000 -0.98977345 124.83492 -8.8664207 -74.69503 -8.8475046 -75.2789 -0.29693377 -92.664192
9204312500 -0.98473632 124.82053 -8.8628101 -74.678963 -8.8371572 -75.333626 -0.29052329 -92.665077
9204375000 -0.98558652 124.81129 -8.8642073 -74.654961 -8.839057 -75.295357 -0.28975844 -92.627617
9204437500 -0.98843974 124.77425 -8.866971 -74.653282 -8.8392324 -75.263229 -0.28386676 -92.589928
9204500000 -0.98594469 124.75537 -8.8569355 -74.721306 -8.8409967 -75.261559 -0.28009865 -92.585136
9204562500 -0.98513013 124.73705 -8.8593998 -74.74118 -8.8399744 -75.277718 -0.282756 -92.559105
9204625000 -0.98255146 124.71877 -8.8504496 -74.709435 -8.8318672 -75.363914 -0.2784518 -92.55748
9204687500 -0.98378974 124.73891 -8.8550787 -74.636467 -8.8457136 -75.297287 -0.28721949 -92.533928
9204750000 -0.98692888 124.71159 -8.854517 -74.646553 -8.8392086 -75.290024 -0.28102833 -92.516106
9204812500 -0.98949909 124.73151 -8.8572893 -74.601089 -8.8340855 -75.31617 -0.28331071 -92.521126
9204875000 -0.99188334 124.71405 -8.8538742 -74.632156 -8.8371639 -75.298462 -0.28698844 -92.503189
9204937500 -0.99042559 124.70072 -8.8573427 -74.649101 -8.8372059 -75.318542 -0.28981268 -92.468513
9205000000 -0.9924041 124.7178 -8.8573284 -74.585754 -8.8362656 -75.37867 -0.28640163 -92.525124
9205062500 -0.99524248 124.71441 -8.854455 -74.607834 -8.8396254 -75.273361 -0.28992587 -92.447914
9205125000 -0.99113464 124.63404 -8.8426027 -74.649353 -8.8430023 -75.33889 -0.29331222 -92.459778
9205187500 -0.9950943 124.6133 -8.8490982 -74.623108 -8.8454475 -75.321564 -0.2920981 -92.447266
9205250000 -0.99430472 124.60331 -8.8394699 -74.617424 -8.8417273 -75.313744 -0.27966496 -92.417389
9205312500 -0.99647504 124.55935 -8.8421869 -74.605362 -8.8397026 -75.305969 -0.2828387 -92.351357
9205375000 -0.9986189 124.5114 -8.8441515 -74.680534 -8.8362799 -75.259666 -0.28259775 -92.398705
9205437500 -0.99827349 124.53101 -8.8356953 -74.626007 -8.8401546 -75.330292 -0.28421745 -92.352097
9205500000 -0.99461645 124.54051 -8.8359423 -74.593178 -8.8424721 -75.322281 -0.29072058 -92.377686
9205562500 -0.99237204 124.54337 -8.8428736 -74.618774 -8.8434505 -75.279076 -0.28652108 -92.333519
9205625000 -0.99495912 124.52892 -8.8484678 -74.559387 -8.8382034 -75.260796 -0.29272184 -92.281616
9205687500 -0.99146444 124.48297 -8.8442411 -74.666443 -8.8348103 -75.328484 -0.28819579 -92.295853
9205750000 -0.9961099 124.48306 -8.8462772 -74.677666 -8.8383799 -75.270607 -0.28424612 -92.323753
9205812500 -0.99317235 124.47617 -8.8466864 -74.631004 -8.8383541 -75.257118 -0.2886053 -92.281044
9205875000 -0.98878604 124.46591 -8.8456316 -74.676888 -8.8421345 -75.287491 -0.29263917 -92.223953
9205937500 -0.9873088 124.48136 -8.8410559 -74.608925 -8.8372355 -75.307831 -0.29106694 -92.266609
9206000000 -0.98897845 124.45035 -8.8459158 -74.647423 -8.8323107 -75.270721 -0.29015952 -92.197037
9206062500 -0.99252075 124.44519 -8.8495359 -74.660973 -8.8510237 -75.260513 -0.29975545 -92.202103
9206125000 -0.98965269 124.40203 -8.8458023 -74.629517 -8.828063 -75.277153 -0.29017046 -92.160591
9206187500 -0.98469096 124.4135 -8.8377266 -74.603203 -8.8301992 -75.228775 -0.28847894 -92.119843
9206250000 -0.9868086 124.40583 -8.8373442 -74.593018 -8.8231249 -75.320045 -0.28678706 -92.13755
9206312500 -0.98437363 124.42418 -8.8256702 -74.625252 -8.8257761 -75.256691 -0.28835469 -92.107491
9206375000 -0.989272 124.39001 -8.8404646 -74.608612 -8.8241844 -75.283569 -0.28660557 -92.108292
9206437500 -0.98726696 124.39893 -8.8287849 -74.595184 -8.8267822 -75.29158 -0.29593322 -92.06395
9206500000 -0.98817217 124.35297 -8.8311844 -74.616524 -8.8216801 -75.304161 -0.29024941 -92.082138
9206562500 -0.98652792 124.34168 -8.8249464 -74.63961 -8.8200798 -75.25985 -0.28359833 -92.025749
9206625000 -0.9936896 124.36482 -8.8283834 -74.540924 -8.8067427 -75.276772 -0.28250808 -92.015556
9206687500 -0.99203563 124.32274 -8.8246603 -74.588013 -8.8170519 -75.270332 -0.28208289 -91.965637
9206750000 -0.99445915 124.32201 -8.8224125 -74.56974 -8.8188906 -75.269226 -0.28465146 -91.965515
9206812500 -0.99393892 124.28429 -8.8238173 -74.550308 -8.8067818 -75.262321 -0.28096253 -91.993294
9206875000 -0.99394715 124.27168 -8.8226252 -74.597336 -8.8115034 -75.272903 -0.27674767 -91.937698
9206937500 -0.99209267 124.2532 -8.8193407 -74.575363 -8.8085842 -75.287666 -0.28308576 -91.913101
9207000000 -0.98965317 124.2362 -8.8229494 -74.595856 -8.8019829 -75.258255 -0.28400657 -91.889961
9207062500 -0.98965496 124.18503 -8.8182964 -74.600395 -8.8155527 -75.243759 -0.29097256 -91.909882
9207125000 -0.9891457 124.15823 -8.8264675 -74.664886 -8.8167582 -75.262466 -0.29013172 -91.901047
9207187500 -0.98867065 124.17233 -8.8195782 -74.621002 -8.8119469 -75.265945 -0.29282171 -91.922058
9207250000 -0.98733741 124.14824 -8.8309259 -74.643837 -8.8144093 -75.189941 -0.29641289 -91.8424
9207312500 -0.9848364 124.15057 -8.8154697 -74.621735 -8.8204813 -75.262421 -0.30590716 -91.848816
9207375000 -0.98966479 124.06859 -8.819788 -74.629555 -8.8119383 -75.23214 -0.29296994 -91.829285
9207437500 -0.99836439 124.08573 -8.8224211 -74.676979 -8.7988586 -75.226196 -0.2929298 -91.822182
9207500000 -0.98909402 124.03707 -8.8254604 -74.61071 -8.8107367 -75.233086 -0.29916954 -91.833092
9207562500 -0.99201322 124.04939 -8.8185129 -74.675064 -8.8063593 -75.272507 -0.29948068 -91.792259
9207625000 -0.99279547 124.00253 -8.8153706 -74.658905 -8.8022146 -75.290092 -0.29685616 -91.818939
9207687500 -0.99069798 124.01103 -8.8203802 -74.628052 -8.8056154 -75.254517 -0.28963208 -91.794937
9207750000 -0.99446058 123.98019 -8.8153811 -74.631195 -8.8067141 -75.264488 -0.2894254 -91.769043
9207812500 -0.99685544 124.00262 -8.8118992 -74.666985 -8.800848 -75.257034 -0.28273505 -91.742798
9207875000 -0.99686629 123.98595 -8.8175564 -74.68103 -8.8088522 -75.300072 -0.29093277 -91.719086
9207937500 -1.0002341 124.01752 -8.8140001 -74.646912 -8.806962 -75.283852 -0.28334585 -91.663086
9208000000 -0.99715889 124.00742 -8.8129578 -74.569839 -8.8007326 -75.300964 -0.28488943 -91.639648
9208062500 -1.0006973 123.98537 -8.8156748 -74.595901 -8.8131285 -75.258545 -0.29859748 -91.623924
9208125000 -0.99580938 123.96498 -8.80828 -74.623795 -8.7999878 -75.254791 -0.30058905 -91.624435
9208187500 -0.99839276 123.9464 -8.8160229 -74.589317 -8.8093424 -75.265518 -0.30198619 -91.593254
9208250000 -0.99131954 123.94182 -8.810998 -74.655525 -8.8140011 -75.188499 -0.30195567 -91.542847
9208312500 -0.99383551 123.93401 -8.8172712 -74.594765 -8.8053837 -75.165535 -0.30046016 -91.518654
9208375000 -0.99177802 123.92333 -8.8056059 -74.613159 -8.807847 -75.199654 -0.30022496 -91.570038
9208437500 -0.99899465 123.92423 -8.8188868 -74.591728 -8.7971954 -75.193268 -0.29932398 -91.527481
9208500000 -0.99413389 123.89582 -8.8059864 -74.563187 -8.7951832 -75.239624 -0.29162681 -91.52272
9208562500 -0.99066877 123.86354 -8.7989521 -74.545853 -8.8051538 -75.176872 -0.29956967 -91.447922
9208625000 -0.98711222 123.82981 -8.8012943 -74.568581 -8.8030653 -75.231819 -0.29860696 -91.48616
9208687500 -0.99218184 123.81014 -8.7965069 -74.671333 -8.7944527 -75.208748 -0.2885046 -91.474602
9208750000 -0.99749053 123.76815 -8.8031788 -74.666214 -8.7897158 -75.200844 -0.28990763 -91.469872
9208812500 -0.99551529 123.80169 -8.7991486 -74.607872 -8.7888136 -75.161743 -0.29367915 -91.388451
9208875000 -0.99761581 123.81111 -8.8036623 -74.65641 -8.7965765 -75.259705 -0.29867324 -91.463272
9208937500 -0.99727058 123.82198 -8.7981424 -74.597519 -8.8054371 -75.182877 -0.30093786 -91.395607
9209000000 -0.99322158 123.80852 -8.7984676 -74.594177 -8.795743 -75.199013 -0.29607511 -91.419724
9209062500 -0.99273431 123.82838 -8.7989702 -74.58799 -8.7962732 -75.229294 -0.29718775 -91.411095
9209125000 -0.98982334 123.82362 -8.7928505 -74.547836 -8.7990332 -75.154282 -0.30134913 -91.350746
9209187500 -0.99590921 123.78173 -8.7999477 -74.625633 -8.8031187 -75.224403 -0.30067682 -91.364777
9209250000 -0.99354678 123.78952 -8.7965221 -74.564194 -8.8007126 -75.266312 -0.30302441 -91.375374
9209312500 -0.99644494 123.76613 -8.7918606 -74.572914 -8.7986593 -75.224243 -0.3003189 -91.307564
9209375000 -0.98986137 123.73877 -8.7854834 -74.57637 -8.7953091 -75.159065 -0.29874438 -91.266876
9209437500 -0.99282748 123.70397 -8.7961464 -74.601479 -8.7945032 -75.196411 -0.30402347 -91.263405
9209500000 -0.99227864 123.66746 -8.7878246 -74.598389 -8.7941837 -75.184189 -0.29454669 -91.220787
9209562500 -0.99689734 123.66985 -8.7955303 -74.604523 -8.7852039 -75.201752 -0.2966508 -91.188133
9209625000 -0.99416685 123.63977 -8.7891254 -74.599174 -8.7857113 -75.153252 -0.29662132 -91.189835
9209687500 -1.0039312 123.67992 -8.7958918 -74.591499 -8.7811756 -75.257393 -0.29409492 -91.197922
9209750000 -1.0024935 123.61342 -8.7939796 -74.639114 -8.7840929 -75.173103 -0.29194981 -91.165398
9209812500 -0.99700475 123.66223 -8.798707 -74.607521 -8.7868137 -75.160744 -0.29801366 -91.133125
9209875000 -0.99668616 123.57455 -8.7827406 -74.610641 -8.7810078 -75.178833 -0.29247615 -91.124779
9209937500 -0.99901599 123.57983 -8.7926817 -74.590843 -8.781601 -75.18586 -0.29158884 -91.088181
9210000000 -0.99535888 123.59286 -8.7861567 -74.587425 -8.7765417 -75.151817 -0.2902168 -91.064003
9210062500 -0.9963938 123.5692 -8.7837648 -74.585304 -8.7838211 -75.105591 -0.29818889 -91.058647
9210125000 -0.99611026 123.56294 -8.7828417 -74.509987 -8.775774 -75.129387 -0.2876749 -91.033592
9210187500 -0.98869735 123.55048 -8.785059 -74.612747 -8.7743683 -75.182137 -0.28992862 -91.034554
9210250000 -0.99357122 123.5525 -8.7868366 -74.58831 -8.7706127 -75.130829 -0.28717482 -91.057655
9210312500 -0.99283272 123.52718 -8.7943239 -74.512032 -8.7786388 -75.133858 -0.29530925 -90.986885
9210375000 -0.99481612 123.49387 -8.7919931 -74.559654 -8.7751436 -75.071602 -0.29682872 -90.927834
9210437500 -0.99521768 123.47681 -8.7944002 -74.589996 -8.7825165 -75.143425 -0.30705565 -90.989502
9210500000 -0.99337655 123.42957 -8.7967834 -74.565926 -8.7910013 -75.102425 -0.31401125 -90.902794
9210562500 -0.9925741 123.43623 -8.7818785 -74.561989 -8.7894974 -75.118439 -0.30915871 -90.958679
9210625000 -0.99040037 123.39435 -8.7932224 -74.499275 -8.7884684 -75.078987 -0.31299132 -90.891953
9210687500 -0.99374181 123.3898 -8.7904949 -74.563797 -8.7824621 -75.084419 -0.31107306 -90.915298
9210750000 -0.99224079 123.38416 -8.7961216 -74.563431 -8.7741566 -75.148361 -0.30993274 -90.847641
9210812500 -0.99122339 123.3982 -8.7863741 -74.51767 -8.7655897 -75.138817 -0.30269343 -90.88578
9210875000 -0.99337006 123.32737 -8.7813187 -74.487663 -8.7702322 -75.164925 -0.30706716 -90.858414
9210937500 -0.99301499 123.32224 -8.778573 -74.535004 -8.7845316 -75.149094 -0.31317455 -90.825966
9211000000 -0.99614757 123.32384 -8.7804003 -74.512672 -8.7759619 -75.182449 -0.30894423 -90.820251
9211062500 -0.99403471 123.30134 -8.7798958 -74.508293 -8.772891 -75.149796 -0.30146515 -90.835663
9211125000 -0.99570721 123.31296 -8.7735596 -74.596619 -8.7695494 -75.152893 -0.30567446 -90.774895
9211187500 -1.0020247 123.29218 -8.781558 -74.572754 -8.7745857 -75.232231 -0.30785632 -90.870811
9211250000 -1.0024583 123.29594 -8.7786207 -74.591583 -8.7673502 -75.207405 -0.30297282 -90.876541
9211312500 -0.99984068 123.30009 -8.7763166 -74.578499 -8.7756271 -75.192001 -0.30346346 -90.887329
9211375000 -1.0022269 123.27917 -8.7781 -74.547562 -8.7649345 -75.114143 -0.29731989 -90.719711
9211437500 -1.0007902 123.24563 -8.7792454 -74.597343 -8.770752 -75.079903 -0.30097148 -90.67289
9211500000 -1.0065089 123.29277 -8.7731638 -74.566711 -8.7603989 -75.13591 -0.30380198 -90.674461
9211562500 -0.99363416 123.2924 -8.7660627 -74.495735 -8.7756443 -75.186455 -0.3109307 -90.710251
9211625000 -1.0038195 123.23236 -8.7709522 -74.54718 -8.7641401 -75.115059 -0.30270216 -90.683807
9211687500 -0.99978173 123.21202 -8.770318 -74.506508 -8.7686005 -75.142593 -0.3087371 -90.669479
9211750000 -1.000442 123.17868 -8.7840052 -74.590614 -8.7771349 -75.097115 -0.31245023 -90.664696
9211812500 -0.99529904 123.15568 -8.7742023 -74.528496 -8.7644634 -75.115395 -0.31213841 -90.61953
9211875000 -1.0047741 123.14144 -8.772789 -74.532303 -8.7659216 -75.107498 -0.30628389 -90.585594
9211937500 -1.0072063 123.10876 -8.7726536 -74.554283 -8.7640486 -75.111397 -0.30483118 -90.546158
9212000000 -1.0010194 123.10054 -8.7678299 -74.534081 -8.7651558 -75.076065 -0.3128753 -90.534843
9212062500 -1.0033467 123.08398 -8.7653408 -74.613121 -8.7608633 -75.13176 -0.31265602 -90.488686
9212125000 -1.0033135 123.05881 -8.7634439 -74.564919 -8.7713757 -75.146538 -0.31459722 -90.485176
9212187500 -1.0035501 123.05533 -8.7735844 -74.582695 -8.7640944 -75.172684 -0.31347021 -90.49408
