!Agilent Technologies,N5242A,MY51221714,A.09.90.19
!Agilent N5242A: A.09.90.19
!Date: Saturday, March 16, 2024 09:59:01
!Correction: S11(Full 2 Port(1,2)) 
!S21(Full 2 Port(1,2)) 
!S12(Full 2 Port(1,2)) 
!S22(Full 2 Port(1,2)) 
!S2P File: Measurements: S11, S21, S12, S22:
# Hz S  dB   R 50
9200000000 -2.5226026 123.3433 -8.5722885 -96.289825 -8.5612488 -96.948601 -1.660599 -95.88723
9200062500 -2.5290263 123.30972 -8.5797062 -96.325073 -8.5593128 -96.936607 -1.6597809 -95.831726
9200125000 -2.5293951 123.31651 -8.570075 -96.28846 -8.5587635 -96.946121 -1.6626 -95.813507
9200187500 -2.5251081 123.31035 -8.5704746 -96.305664 -8.5540495 -96.922234 -1.6539962 -95.816299
9200250000 -2.5291431 123.26149 -8.5782337 -96.359314 -8.559701 -96.901573 -1.6671402 -95.788872
9200312500 -2.5245883 123.25907 -8.5676994 -96.305435 -8.5537167 -96.986176 -1.6630381 -95.777992
9200375000 -2.5231972 123.25008 -8.568717 -96.37648 -8.5476179 -96.941994 -1.6602191 -95.746696
9200437500 -2.520462 123.26799 -8.5700846 -96.328308 -8.5503159 -96.979126 -1.6628851 -95.763664
9200500000 -2.5216086 123.2011 -8.5618324 -96.371338 -8.5439758 -96.97274 -1.6650259 -95.713898
9200562500 -2.5237219 123.23298 -8.5687637 -96.323097 -8.5524569 -96.927086 -1.674029 -95.678619
9200625000 -2.5260918 123.18345 -8.5621891 -96.300468 -8.5431261 -96.967819 -1.6700072 -95.680397
9200687500 -2.5267549 123.16605 -8.5612125 -96.358879 -8.5487614 -96.989594 -1.682489 -95.67984
9200750000 -2.5283027 123.20343 -8.5673704 -96.303703 -8.5436354 -96.964439 -1.6805507 -95.609436
9200812500 -2.5240717 123.16251 -8.5612535 -96.289268 -8.5407982 -96.932533 -1.6765633 -95.566383
9200875000 -2.5295048 123.16512 -8.5721531 -96.305016 -8.5439606 -96.982727 -1.6826783 -95.559761
9200937500 -2.5243297 123.13489 -8.5617075 -96.28788 -8.542326 -96.981697 -1.6762357 -95.561394
9201000000 -2.5317171 123.10517 -8.5573416 -96.328644 -8.5470581 -96.985954 -1.6787188 -95.501678
9201062500 -2.5283191 123.11848 -8.5562849 -96.333557 -8.5441351 -96.96804 -1.6765766 -95.477356
9201125000 -2.5324552 123.08775 -8.5621328 -96.343674 -8.5417633 -96.95295 -1.6830252 -95.444481
9201187500 -2.5329683 123.07291 -8.5482044 -96.38102 -8.5406733 -97.037247 -1.6792177 -95.544106
9201250000 -2.5277724 123.0718 -8.5580454 -96.317146 -8.5396948 -96.973457 -1.6753495 -95.440674
9201312500 -2.5346508 123.07425 -8.5591831 -96.319679 -8.5528898 -96.983391 -1.6848893 -95.4562
9201375000 -2.5324655 123.07191 -8.5532942 -96.324387 -8.5391359 -96.962135 -1.6800995 -95.455421
9201437500 -2.5344937 123.02927 -8.556798 -96.365776 -8.5416088 -97.022507 -1.6802959 -95.475067
9201500000 -2.5339441 123.03052 -8.5517712 -96.364357 -8.5421515 -97.008369 -1.6818492 -95.44558
9201562500 -2.5390525 123.02951 -8.5567331 -96.296951 -8.5307035 -96.98336 -1.6745404 -95.463295
9201625000 -2.5416851 122.98773 -8.5676317 -96.366867 -8.5385714 -96.920143 -1.6758813 -95.409431
9201687500 -2.5401089 122.96107 -8.562356 -96.377068 -8.5486374 -96.895325 -1.6834358 -95.39183
9201750000 -2.5404601 122.96324 -8.551136 -96.347923 -8.5336123 -96.959251 -1.6768759 -95.355026
9201812500 -2.529196 122.96682 -8.5531864 -96.383781 -8.5386944 -96.955978 -1.6852236 -95.321655
9201875000 -2.53722 122.94817 -8.5489445 -96.33522 -8.5323648 -96.96653 -1.6840082 -95.297577
9201937500 -2.5384562 122.913 -8.5464773 -96.375435 -8.5342493 -96.959312 -1.6839879 -95.251358
9202000000 -2.5326471 122.91527 -8.5461397 -96.380508 -8.540823 -96.93055 -1.6860771 -95.224556
9202062500 -2.5411882 122.91428 -8.5515404 -96.324089 -8.5384836 -97.00222 -1.6840749 -95.225891
9202125000 -2.5396442 122.85576 -8.5512981 -96.396469 -8.5320053 -96.975243 -1.6851573 -95.215363
9202187500 -2.5427821 122.88683 -8.5374403 -96.364525 -8.5403166 -96.946831 -1.6865605 -95.16964
9202250000 -2.5402687 122.84513 -8.5432911 -96.394196 -8.5336752 -96.988724 -1.6872656 -95.180252
9202312500 -2.5423467 122.81924 -8.5377283 -96.377541 -8.5348282 -97.031296 -1.6822948 -95.210426
9202375000 -2.5416124 122.85643 -8.5353012 -96.374397 -8.5370779 -97.065422 -1.6928129 -95.186722
9202437500 -2.5445974 122.83189 -8.5501766 -96.457123 -8.530405 -96.994141 -1.6920356 -95.129242
9202500000 -2.5412033 122.81665 -8.5489988 -96.461662 -8.5351725 -96.995735 -1.6879666 -95.134705
9202562500 -2.5433393 122.78835 -8.5446968 -96.436012 -8.5394249 -96.998695 -1.6976982 -95.085594
9202625000 -2.5454657 122.83501 -8.5417814 -96.450073 -8.531024 -97.018211 -1.6949941 -95.078072
9202687500 -2.5415072 122.80666 -8.5407085 -96.36879 -8.5336924 -96.979965 -1.701329 -95.024055
9202750000 -2.5462577 122.76581 -8.5422268 -96.409805 -8.5332222 -97.009369 -1.7026124 -95.004959
9202812500 -2.5442708 122.73716 -8.5396137 -96.4104 -8.5247202 -97.031837 -1.6977428 -95.030457
9202875000 -2.546535 122.72672 -8.5458555 -96.441032 -8.5264254 -97.037239 -1.6993285 -95.006432
9202937500 -2.5439641 122.71518 -8.5393076 -96.414322 -8.5326395 -97.053673 -1.7037818 -94.983498
9203000000 -2.5409367 122.71877 -8.5389519 -96.40213 -8.5266237 -96.987534 -1.6937246 -94.93364
9203062500 -2.5452375 122.66171 -8.5333557 -96.406723 -8.5292034 -97.055588 -1.6994874 -94.916031
9203125000 -2.5469747 122.63438 -8.542057 -96.452286 -8.5254631 -97.025749 -1.699836 -94.953278
9203187500 -2.5446808 122.66397 -8.5426502 -96.461937 -8.5255527 -97.070885 -1.6962823 -94.882881
9203250000 -2.5528903 122.65379 -8.540453 -96.43264 -8.5251389 -97.047318 -1.7027264 -94.856354
9203312500 -2.5462921 122.65865 -8.5428753 -96.462921 -8.5240574 -97.054291 -1.697847 -94.848862
9203375000 -2.5476577 122.63442 -8.539279 -96.481583 -8.5274067 -97.047974 -1.7002554 -94.863106
9203437500 -2.5483515 122.6563 -8.5315504 -96.412956 -8.5219908 -97.008659 -1.692719 -94.763893
9203500000 -2.545558 122.60455 -8.5382414 -96.444801 -8.5264425 -97.049431 -1.6997875 -94.774025
9203562500 -2.5467896 122.58661 -8.5218458 -96.469696 -8.5276232 -97.015976 -1.7038056 -94.729027
9203625000 -2.5490603 122.56713 -8.5305967 -96.454773 -8.523304 -97.068573 -1.703267 -94.780258
9203687500 -2.5473473 122.57344 -8.5357428 -96.433342 -8.5252829 -97.02388 -1.7069776 -94.745399
9203750000 -2.5458617 122.52973 -8.5328979 -96.430267 -8.5221319 -97.107002 -1.7025664 -94.768753
9203812500 -2.55071 122.53719 -8.5322905 -96.465721 -8.5215664 -97.0205 -1.7068095 -94.710403
9203875000 -2.5517807 122.48073 -8.5267525 -96.47435 -8.5188656 -97.043152 -1.7139354 -94.672935
9203937500 -2.5510998 122.50516 -8.5374699 -96.481812 -8.519063 -97.077164 -1.7165306 -94.69059
9204000000 -2.5467997 122.50803 -8.5268383 -96.472076 -8.5159388 -97.056519 -1.7216859 -94.630615
9204062500 -2.5405982 122.5007 -8.5321112 -96.412376 -8.5131149 -97.086418 -1.7164118 -94.639091
9204125000 -2.5485997 122.48812 -8.5290432 -96.463303 -8.5082464 -97.075989 -1.7168231 -94.632507
9204187500 -2.5483615 122.4748 -8.5369844 -96.4487 -8.5085068 -97.083954 -1.7193681 -94.580818
9204250000 -2.5420079 122.42325 -8.5259809 -96.529449 -8.5117083 -97.081261 -1.721 -94.625153
9204312500 -2.5486178 122.43793 -8.5317087 -96.417107 -8.5119572 -97.12101 -1.7163718 -94.596519
9204375000 -2.5469828 122.38877 -8.5206385 -96.49572 -8.5093536 -97.093483 -1.7119545 -94.559082
9204437500 -2.5493503 122.36552 -8.5215158 -96.42598 -8.5041819 -97.029213 -1.7130409 -94.509163
9204500000 -2.5520635 122.34554 -8.5186024 -96.475372 -8.5059338 -97.068291 -1.7117265 -94.47876
9204562500 -2.5453477 122.38493 -8.5241146 -96.420937 -8.5030918 -97.045853 -1.7108394 -94.455894
9204625000 -2.5430236 122.35925 -8.5129652 -96.421616 -8.5107603 -97.096931 -1.7126156 -94.429008
9204687500 -2.5548015 122.34528 -8.5212507 -96.474648 -8.5080032 -97.04303 -1.7111998 -94.441055
9204750000 -2.5501084 122.35075 -8.5165043 -96.440529 -8.496789 -97.072998 -1.7017676 -94.430794
9204812500 -2.5485244 122.37212 -8.5212297 -96.405991 -8.509613 -97.071617 -1.7185885 -94.379753
9204875000 -2.5508595 122.32933 -8.5234947 -96.442848 -8.5057173 -97.058632 -1.7164595 -94.375259
9204937500 -2.550298 122.35271 -8.518158 -96.402527 -8.5033722 -97.109917 -1.7167075 -94.379356
9205000000 -2.5504675 122.31428 -8.512248 -96.437157 -8.5008526 -97.073845 -1.7129185 -94.350166
9205062500 -2.5563655 122.31858 -8.5091152 -96.503723 -8.510148 -97.106796 -1.7271632 -94.365005
9205125000 -2.5629752 122.28607 -8.5167351 -96.471794 -8.5001936 -97.128143 -1.7119215 -94.375404
9205187500 -2.5625269 122.22852 -8.5177431 -96.470718 -8.4987001 -97.152496 -1.7125102 -94.356117
9205250000 -2.5640726 122.24232 -8.5152216 -96.434669 -8.5004244 -97.07872 -1.7155594 -94.306808
9205312500 -2.5614469 122.20561 -8.5103416 -96.467247 -8.5125093 -97.134872 -1.7172769 -94.304764
9205375000 -2.5563509 122.1734 -8.5123596 -96.472595 -8.5101137 -97.094574 -1.7196246 -94.248993
9205437500 -2.5610452 122.14857 -8.5073013 -96.470757 -8.5045815 -97.149216 -1.715541 -94.270653
9205500000 -2.565707 122.10938 -8.5016975 -96.49939 -8.5000267 -97.144806 -1.7180376 -94.255569
9205562500 -2.5620995 122.17625 -8.5076971 -96.457123 -8.4956188 -97.134613 -1.7092761 -94.166832
9205625000 -2.5603535 122.17249 -8.5034809 -96.474289 -8.5094013 -97.131767 -1.7249372 -94.185738
9205687500 -2.5552435 122.14622 -8.5043774 -96.467529 -8.5040264 -97.119812 -1.7186567 -94.195091
9205750000 -2.5621588 122.14802 -8.5114708 -96.539528 -8.50595 -97.098595 -1.7233901 -94.17115
9205812500 -2.5607162 122.07977 -8.5095243 -96.557556 -8.4971943 -97.06424 -1.7199939 -94.134941
9205875000 -2.5611069 122.12026 -8.5137415 -96.525887 -8.5049152 -97.077637 -1.7270093 -94.101768
9205937500 -2.5586593 122.09869 -8.5091734 -96.534668 -8.4991245 -97.052437 -1.7208595 -94.131073
9206000000 -2.5586119 122.12778 -8.5061731 -96.502914 -8.4920979 -97.150688 -1.7226775 -94.097893
9206062500 -2.563437 122.08645 -8.5111141 -96.484299 -8.4983025 -97.175713 -1.7303686 -94.086121
9206125000 -2.5585401 122.06443 -8.5038576 -96.483681 -8.4949999 -97.130913 -1.7307281 -94.030777
9206187500 -2.5633857 122.04117 -8.5093489 -96.514763 -8.4988184 -97.129654 -1.7272418 -93.988899
9206250000 -2.5583425 122.0504 -8.498559 -96.500504 -8.4947157 -97.066078 -1.7269512 -93.967148
9206312500 -2.5645547 122.04444 -8.5076742 -96.552086 -8.489439 -97.199211 -1.7226416 -94.034874
9206375000 -2.5593884 122.0679 -8.4969826 -96.444244 -8.4925652 -97.18457 -1.7254248 -94.018959
9206437500 -2.5646937 122.06044 -8.5006905 -96.451607 -8.4938631 -97.170738 -1.7261201 -93.968948
9206500000 -2.5587664 122.00031 -8.4994478 -96.497086 -8.4827099 -97.191788 -1.7251461 -93.950226
9206562500 -2.56954 122.00087 -8.4956694 -96.525429 -8.4832964 -97.203117 -1.7231368 -93.909622
9206625000 -2.5664968 121.99749 -8.4868317 -96.452797 -8.4924879 -97.151031 -1.7223411 -93.894966
9206687500 -2.5697205 121.98807 -8.4854546 -96.457268 -8.4824018 -97.143265 -1.7197944 -93.802528
9206750000 -2.5742576 121.95277 -8.4922924 -96.487228 -8.472621 -97.151611 -1.7163714 -93.815063
9206812500 -2.5774782 121.9518 -8.4872866 -96.47052 -8.4808035 -97.172951 -1.719316 -93.827827
9206875000 -2.5711558 121.9453 -8.4829283 -96.503258 -8.4824467 -97.163078 -1.7271951 -93.754898
9206937500 -2.5682371 121.89915 -8.4840364 -96.554245 -8.4815741 -97.181 -1.7274808 -93.780006
9207000000 -2.567138 121.88789 -8.4868994 -96.514526 -8.4824276 -97.150352 -1.7340232 -93.777756
9207062500 -2.5704412 121.87064 -8.4850159 -96.502274 -8.4789762 -97.172554 -1.7318261 -93.77021
9207125000 -2.5639901 121.85577 -8.4805412 -96.568573 -8.4869404 -97.177132 -1.7283684 -93.766068
9207187500 -2.5663381 121.83183 -8.4888544 -96.60759 -8.4752026 -97.216728 -1.7332796 -93.760887
9207250000 -2.5618908 121.79936 -8.4873104 -96.635757 -8.4880476 -97.176521 -1.7445859 -93.707428
9207312500 -2.5687637 121.77782 -8.4919567 -96.564056 -8.4903507 -97.184258 -1.744518 -93.690987
9207375000 -2.5659971 121.78741 -8.4815054 -96.564011 -8.4723301 -97.196503 -1.7327893 -93.698914
9207437500 -2.5694056 121.73198 -8.4883394 -96.626205 -8.4776249 -97.159218 -1.739632 -93.643654
9207500000 -2.5712442 121.72034 -8.4791288 -96.605354 -8.4836121 -97.143684 -1.738638 -93.690193
9207562500 -2.5715158 121.70395 -8.4878607 -96.621078 -8.4755135 -97.223129 -1.7416972 -93.678436
9207625000 -2.5750265 121.65698 -8.4842863 -96.653526 -8.4769268 -97.249779 -1.7415438 -93.663574
9207687500 -2.5748932 121.66359 -8.4869204 -96.632057 -8.4773235 -97.212563 -1.743034 -93.634293
9207750000 -2.5810583 121.66165 -8.4843607 -96.630104 -8.4752598 -97.140808 -1.7416779 -93.546852
9207812500 -2.5807519 121.71233 -8.4807482 -96.571732 -8.4730215 -97.227638 -1.7287605 -93.59359
9207875000 -2.5772665 121.70605 -8.4885416 -96.560562 -8.4713173 -97.2425 -1.7239305 -93.573647
9207937500 -2.5851221 121.61466 -8.4786959 -96.649048 -8.4664593 -97.26236 -1.7324992 -93.556122
9208000000 -2.5827341 121.64846 -8.4686813 -96.613556 -8.4700403 -97.263245 -1.7297772 -93.496925
9208062500 -2.5847642 121.68399 -8.4802065 -96.563225 -8.4643803 -97.217934 -1.7309771 -93.446999
9208125000 -2.5810354 121.66791 -8.4755774 -96.561836 -8.4741936 -97.286049 -1.7454541 -93.463966
9208187500 -2.5765622 121.66828 -8.4819956 -96.602737 -8.4693079 -97.221306 -1.7486826 -93.427795
9208250000 -2.5790107 121.64357 -8.4851341 -96.593567 -8.4734554 -97.192101 -1.7505941 -93.417068
9208312500 -2.5782969 121.59536 -8.4742565 -96.606651 -8.476119 -97.189835 -1.7481461 -93.366325
9208375000 -2.5819788 121.58294 -8.4836531 -96.583206 -8.4823246 -97.201035 -1.7543377 -93.35836
9208437500 -2.5796461 121.61601 -8.4789515 -96.562111 -8.4655743 -97.196472 -1.7515616 -93.321098
9208500000 -2.5792282 121.58009 -8.4701777 -96.617386 -8.470253 -97.237206 -1.7499827 -93.371483
9208562500 -2.5812874 121.57827 -8.4728432 -96.60759 -8.4650631 -97.215584 -1.7473772 -93.307388
9208625000 -2.5846751 121.53688 -8.4715166 -96.613983 -8.4564505 -97.238007 -1.7441986 -93.327606
9208687500 -2.5859399 121.51981 -8.480443 -96.602455 -8.4655113 -97.204567 -1.7476461 -93.281715
9208750000 -2.5815291 121.49924 -8.4659443 -96.660835 -8.4529324 -97.196175 -1.7395973 -93.28894
9208812500 -2.5844853 121.45461 -8.4694948 -96.662994 -8.4582472 -97.272797 -1.7489603 -93.296265
9208875000 -2.5896468 121.5073 -8.4686794 -96.655411 -8.4625845 -97.202301 -1.7446445 -93.268501
9208937500 -2.5858519 121.51198 -8.4628534 -96.606613 -8.460803 -97.271469 -1.7539979 -93.260506
9209000000 -2.5830233 121.51217 -8.4579802 -96.677979 -8.466651 -97.260048 -1.7489666 -93.222366
9209062500 -2.5822144 121.51508 -8.4655828 -96.628326 -8.4654102 -97.259735 -1.751933 -93.225594
9209125000 -2.5832787 121.5163 -8.4654779 -96.584023 -8.4666195 -97.285797 -1.7529283 -93.25312
9209187500 -2.585144 121.50991 -8.4600897 -96.640419 -8.468605 -97.209282 -1.7511411 -93.186012
9209250000 -2.5880821 121.43023 -8.4637527 -96.66301 -8.4604921 -97.227242 -1.7515879 -93.138199
9209312500 -2.5866225 121.46068 -8.4629726 -96.617393 -8.4641638 -97.225288 -1.7545305 -93.123032
9209375000 -2.5874908 121.38811 -8.4570942 -96.665588 -8.4563961 -97.193886 -1.7518805 -93.118042
9209437500 -2.5846364 121.36611 -8.4586506 -96.673935 -8.4553871 -97.247002 -1.749558 -93.110016
9209500000 -2.5854516 121.38396 -8.4621677 -96.667015 -8.4648809 -97.264671 -1.7558748 -93.088531
9209562500 -2.5905128 121.34021 -8.4576454 -96.636696 -8.4577293 -97.241364 -1.7575123 -93.01564
9209625000 -2.5896556 121.35701 -8.4649725 -96.63768 -8.4607639 -97.243217 -1.7541134 -93.02002
9209687500 -2.587445 121.35663 -8.455265 -96.682205 -8.4500122 -97.264282 -1.7474502 -92.975403
9209750000 -2.5930247 121.33647 -8.4660349 -96.651375 -8.4531507 -97.253563 -1.7500262 -92.956123
9209812500 -2.593888 121.31346 -8.4662409 -96.72551 -8.4557133 -97.299782 -1.753772 -92.974319
9209875000 -2.5955062 121.29494 -8.4717274 -96.700203 -8.4482584 -97.281921 -1.7478998 -92.979248
9209937500 -2.5900714 121.29761 -8.4630165 -96.678177 -8.4512014 -97.275307 -1.7606981 -92.892174
9210000000 -2.5969446 121.24135 -8.4537439 -96.764084 -8.4454136 -97.26503 -1.7450387 -92.932419
9210062500 -2.5922441 121.26096 -8.4506578 -96.711952 -8.4484329 -97.236053 -1.7501894 -92.878868
9210125000 -2.5899711 121.28259 -8.4525099 -96.682793 -8.4436636 -97.239548 -1.7453893 -92.880203
9210187500 -2.5859704 121.25313 -8.4479876 -96.685486 -8.4408112 -97.179024 -1.7510909 -92.837494
9210250000 -2.5837026 121.22849 -8.4488983 -96.695572 -8.4488306 -97.251457 -1.7575421 -92.834755
9210312500 -2.5911622 121.21354 -8.4529371 -96.688881 -8.4444389 -97.210434 -1.7578373 -92.799355
9210375000 -2.5881608 121.20111 -8.4538364 -96.687195 -8.4491167 -97.231361 -1.7659609 -92.811142
9210437500 -2.5938163 121.19638 -8.4509983 -96.705948 -8.4405584 -97.253479 -1.7588146 -92.799873
9210500000 -2.5932808 121.17723 -8.4581089 -96.683807 -8.4495773 -97.250336 -1.7701674 -92.768181
9210562500 -2.5912807 121.16277 -8.4554749 -96.750389 -8.446497 -97.238152 -1.7689022 -92.748161
9210625000 -2.5869029 121.11684 -8.4525833 -96.651703 -8.4534054 -97.25502 -1.7674898 -92.756363
9210687500 -2.5887728 121.05884 -8.4559774 -96.677902 -8.4446802 -97.241707 -1.7713342 -92.703957
9210750000 -2.5879455 121.11684 -8.4538097 -96.725639 -8.4455214 -97.283752 -1.7737627 -92.707626
9210812500 -2.59254 121.06306 -8.4502506 -96.677956 -8.4336967 -97.294006 -1.7662097 -92.686661
9210875000 -2.5938385 121.0553 -8.4548006 -96.667297 -8.4370918 -97.32917 -1.7692562 -92.661285
9210937500 -2.5939951 121.05891 -8.4537468 -96.706284 -8.4402952 -97.301285 -1.7722929 -92.625465
9211000000 -2.5929976 121.07587 -8.4454727 -96.685951 -8.4434118 -97.389755 -1.7725 -92.672676
9211062500 -2.6001596 121.00235 -8.4502831 -96.722855 -8.4432077 -97.342964 -1.7726327 -92.635078
9211125000 -2.59936 121.00523 -8.4507704 -96.72525 -8.4402771 -97.35392 -1.7663705 -92.674919
9211187500 -2.6021764 121.07404 -8.4477072 -96.654549 -8.4426889 -97.3526 -1.7696924 -92.641342
9211250000 -2.5990148 121.0103 -8.4425459 -96.79248 -8.4393387 -97.324661 -1.7669688 -92.661346
9211312500 -2.6017938 121.04025 -8.4392891 -96.781029 -8.4378748 -97.361038 -1.7698157 -92.667542
9211375000 -2.6043081 121.01633 -8.4394627 -96.742104 -8.4309492 -97.355637 -1.7609534 -92.494926
9211437500 -2.6014462 121.01196 -8.4414606 -96.73098 -8.4386501 -97.349365 -1.7685484 -92.488258
9211500000 -2.6020017 120.98215 -8.4445581 -96.781837 -8.4380913 -97.322426 -1.7707349 -92.497528
9211562500 -2.6146502 120.96445 -8.453145 -96.764023 -8.4364376 -97.286842 -1.7783641 -92.442513
9211625000 -2.6029031 120.94569 -8.4382219 -96.736748 -8.4317627 -97.32753 -1.7742015 -92.467087
9211687500 -2.6105442 120.89452 -8.4369221 -96.772781 -8.4292755 -97.313126 -1.7787793 -92.469231
9211750000 -2.6047318 120.9207 -8.4406328 -96.705627 -8.4266176 -97.317932 -1.7791524 -92.444122
9211812500 -2.6068976 120.92198 -8.4467096 -96.750526 -8.4311943 -97.286278 -1.7852372 -92.399841
9211875000 -2.612545 120.88564 -8.4418678 -96.738792 -8.43153 -97.33548 -1.7820768 -92.3629
9211937500 -2.6131558 120.83908 -8.4351082 -96.777664 -8.4283009 -97.295044 -1.7827097 -92.347092
9212000000 -2.612551 120.80994 -8.438179 -96.785408 -8.4234562 -97.300522 -1.7802176 -92.282715
9212062500 -2.6183918 120.81008 -8.4331388 -96.774788 -8.4352617 -97.350548 -1.7844411 -92.275101
9212125000 -2.6157434 120.79047 -8.434701 -96.791824 -8.4324341 -97.326942 -1.7828921 -92.232635
9212187500 -2.6132193 120.79494 -8.4395828 -96.767937 -8.4307423 -97.325844 -1.7811773 -92.222366
9212250000 -2.6152651 120.78492 -8.4374371 -96.813316 -8.4284344 -97.310509 -1.7896812 -92.178024
9212312500 -2.6131735 120.75603 -8.4250631 -96.762421 -8.4283428 -97.324455 -1.7842292 -92.191498
9212375000 -2.6122484 120.72902 -8.4387255 -96.773506 -8.4237585 -97.326332 -1.7880447 -92.1399
9212437500 -2.6161165 120.74518 -8.4351997 -96.720543 -8.4194756 -97.351021 -1.7834247 -92.196587
