!Agilent Technologies,N5242A,MY51221714,A.09.90.19
!Agilent N5242A: A.09.90.19
!Date: Saturday, March 16, 2024 09:59:52
!Correction: S11(Full 2 Port(1,2)) 
!S21(Full 2 Port(1,2)) 
!S12(Full 2 Port(1,2)) 
!S22(Full 2 Port(1,2)) 
!S2P File: Measurements: S11, S21, S12, S22:
# Hz S  dB   R 50
9200000000 -0.96071678 126.25289 -8.9137917 -73.895325 -8.8903189 -74.511612 -0.23374128 -93.3395
9200062500 -0.96038622 126.24825 -8.9134817 -73.888046 -8.8911104 -74.529655 -0.23218597 -93.349281
9200125000 -0.96435517 126.23329 -8.9079504 -73.908905 -8.8893127 -74.543915 -0.23204261 -93.326103
9200187500 -0.95932978 126.2382 -8.9018221 -73.909561 -8.8900251 -74.524178 -0.23021498 -93.276207
9200250000 -0.96058154 126.21121 -8.8995209 -73.928413 -8.882947 -74.580109 -0.23246607 -93.301338
9200312500 -0.95762897 126.18715 -8.9065714 -73.966454 -8.8857889 -74.541023 -0.23532264 -93.303223
9200375000 -0.95385689 126.21192 -8.9076328 -73.899689 -8.8811445 -74.518448 -0.23288943 -93.229675
9200437500 -0.95561135 126.2041 -8.8921909 -73.896278 -8.8778296 -74.55706 -0.23164345 -93.252281
9200500000 -0.95231676 126.13562 -8.8925228 -73.927238 -8.8800888 -74.584152 -0.23275487 -93.222542
9200562500 -0.95456803 126.15391 -8.8972454 -73.899536 -8.8836622 -74.511337 -0.2405937 -93.199493
9200625000 -0.95736432 126.12508 -8.9046917 -73.907974 -8.8768034 -74.502579 -0.23436533 -93.178467
9200687500 -0.95569474 126.13544 -8.8955908 -73.862694 -8.8781271 -74.547798 -0.23970354 -93.132294
9200750000 -0.95642483 126.11725 -8.8974361 -73.879295 -8.8778076 -74.484459 -0.24868301 -93.094551
9200812500 -0.95860833 126.12247 -8.8981495 -73.825676 -8.8765993 -74.483559 -0.24576695 -93.099327
9200875000 -0.95925438 126.11967 -8.9021769 -73.799965 -8.8698492 -74.491943 -0.2407387 -93.023544
9200937500 -0.96277934 126.06349 -8.9014359 -73.845619 -8.8737507 -74.525192 -0.24551019 -93.053207
9201000000 -0.95806468 126.05428 -8.9002705 -73.897659 -8.8765841 -74.507446 -0.24278988 -93.019691
9201062500 -0.9525615 126.05333 -8.8932791 -73.90786 -8.8756123 -74.528336 -0.24819617 -93.066338
9201125000 -0.95358711 126.02541 -8.8872929 -73.849815 -8.8811064 -74.527832 -0.24354486 -93.008125
9201187500 -0.95151442 125.9845 -8.8894243 -73.849136 -8.8762922 -74.511681 -0.24135847 -92.963181
9201250000 -0.94898546 125.9798 -8.8840551 -73.892143 -8.8824635 -74.524643 -0.24337053 -92.984276
9201312500 -0.95326614 126.00301 -8.8844681 -73.848022 -8.8767929 -74.536865 -0.24265377 -92.969292
9201375000 -0.9595924 125.97538 -8.8869143 -73.819344 -8.8732224 -74.52121 -0.23765033 -93.005005
9201437500 -0.95654339 125.93819 -8.8914585 -73.887024 -8.8733749 -74.484344 -0.23538294 -92.965118
9201500000 -0.95711321 125.94921 -8.8852463 -73.878822 -8.8708916 -74.476349 -0.23788637 -92.96347
9201562500 -0.9651804 125.93678 -8.9012022 -73.881592 -8.8684664 -74.484772 -0.2381449 -92.950737
9201625000 -0.9633131 125.91277 -8.894598 -73.900841 -8.8776827 -74.504883 -0.24200875 -92.931427
9201687500 -0.9582147 125.9226 -8.8911629 -73.893471 -8.8706846 -74.463806 -0.242424 -92.909439
9201750000 -0.96014035 125.89462 -8.9012012 -73.813057 -8.8710852 -74.382042 -0.24215616 -92.845535
9201812500 -0.95437658 125.85154 -8.8927174 -73.912361 -8.8634481 -74.493652 -0.23985147 -92.886292
9201875000 -0.95775449 125.86312 -8.8854284 -73.847084 -8.8651018 -74.483246 -0.24612436 -92.840637
9201937500 -0.95270395 125.85632 -8.8813238 -73.840492 -8.8673687 -74.418861 -0.24728552 -92.815903
9202000000 -0.95587635 125.84145 -8.8801374 -73.808929 -8.8698692 -74.499565 -0.24971773 -92.769524
9202062500 -0.9562242 125.79019 -8.8823605 -73.884995 -8.8661795 -74.440933 -0.2468337 -92.804596
9202125000 -0.9524157 125.81655 -8.8794088 -73.845734 -8.8635969 -74.48954 -0.23793508 -92.750786
9202187500 -0.95485854 125.8064 -8.8704853 -73.851219 -8.8668528 -74.484329 -0.24232352 -92.73848
9202250000 -0.95365834 125.75899 -8.8716908 -73.902527 -8.8656397 -74.522682 -0.24191417 -92.741348
9202312500 -0.95879292 125.77791 -8.8728075 -73.822929 -8.8677664 -74.477104 -0.23901579 -92.691513
9202375000 -0.95535678 125.76289 -8.8712826 -73.822006 -8.8610535 -74.494659 -0.23679298 -92.682449
9202437500 -0.95590115 125.74566 -8.876317 -73.870461 -8.8694735 -74.531532 -0.25084239 -92.696678
9202500000 -0.96195364 125.72805 -8.8796864 -73.82988 -8.8632841 -74.47242 -0.24547918 -92.665466
9202562500 -0.95671791 125.70234 -8.8811092 -73.893562 -8.865057 -74.502441 -0.24784394 -92.678658
9202625000 -0.96017724 125.6993 -8.8699417 -73.867241 -8.8622561 -74.468239 -0.24831402 -92.575821
9202687500 -0.9574663 125.68461 -8.875577 -73.833191 -8.8723631 -74.494675 -0.25740418 -92.603836
9202750000 -0.96324915 125.67136 -8.8846865 -73.86335 -8.8653269 -74.460724 -0.25009218 -92.577065
9202812500 -0.95668471 125.68224 -8.8756027 -73.766464 -8.8600807 -74.468422 -0.24947903 -92.546837
9202875000 -0.96086055 125.63258 -8.8770218 -73.881676 -8.8603916 -74.436356 -0.25075716 -92.544037
9202937500 -0.95510536 125.62311 -8.8719454 -73.825569 -8.857502 -74.476677 -0.2529642 -92.535469
9203000000 -0.95234293 125.59598 -8.865613 -73.806541 -8.8543949 -74.461784 -0.25158858 -92.510025
9203062500 -0.95947301 125.57904 -8.8621235 -73.892021 -8.8567877 -74.490105 -0.25084442 -92.474457
9203125000 -0.95888186 125.57272 -8.8753538 -73.833534 -8.8514347 -74.472336 -0.24128722 -92.452141
9203187500 -0.95488179 125.56224 -8.8656197 -73.840248 -8.8575974 -74.479584 -0.24834965 -92.454758
9203250000 -0.95761204 125.54484 -8.8609362 -73.878891 -8.8565063 -74.507896 -0.24559708 -92.420807
9203312500 -0.95726657 125.5081 -8.8667965 -73.817574 -8.857276 -74.441719 -0.25037438 -92.372658
9203375000 -0.95598364 125.54377 -8.8721848 -73.850006 -8.8558464 -74.513237 -0.25001973 -92.407722
9203437500 -0.95722443 125.53807 -8.8677874 -73.879524 -8.8501816 -74.502884 -0.2427341 -92.372849
9203500000 -0.95521593 125.53873 -8.8717155 -73.847748 -8.863102 -74.489639 -0.25347459 -92.346092
9203562500 -0.95614111 125.5032 -8.8611364 -73.814102 -8.8573818 -74.50325 -0.24952401 -92.331512
9203625000 -0.95800835 125.46036 -8.8658667 -73.85257 -8.8535194 -74.451851 -0.25563768 -92.266113
9203687500 -0.95446348 125.44338 -8.8590364 -73.81115 -8.8596735 -74.404266 -0.25542825 -92.270683
9203750000 -0.95539665 125.44499 -8.8590221 -73.856667 -8.8584299 -74.428459 -0.25550622 -92.27449
9203812500 -0.95852739 125.39291 -8.8581429 -73.944496 -8.8528595 -74.386635 -0.2534411 -92.268867
9203875000 -0.95121968 125.38935 -8.8578959 -73.820908 -8.854785 -74.450142 -0.25689381 -92.255684
9203937500 -0.95198756 125.41351 -8.8597422 -73.837143 -8.8494902 -74.480782 -0.26537848 -92.247635
9204000000 -0.95454425 125.35712 -8.8610153 -73.898102 -8.8421965 -74.463882 -0.25727385 -92.25264
9204062500 -0.94995117 125.3805 -8.8605375 -73.81321 -8.8537302 -74.439102 -0.27164072 -92.225914
9204125000 -0.95668685 125.36064 -8.8706865 -73.862495 -8.839591 -74.487915 -0.26569846 -92.224075
9204187500 -0.9496665 125.30991 -8.8599405 -73.815575 -8.8321657 -74.435219 -0.25342742 -92.180984
9204250000 -0.9516378 125.32593 -8.8650503 -73.803452 -8.8378458 -74.495468 -0.25948843 -92.167229
9204312500 -0.95139813 125.28971 -8.8585176 -73.85112 -8.839201 -74.395462 -0.26003882 -92.102043
9204375000 -0.95265633 125.26851 -8.8596277 -73.849159 -8.8414364 -74.429382 -0.25700796 -92.073631
9204437500 -0.94435698 125.27583 -8.84828 -73.782043 -8.841095 -74.416679 -0.25669566 -92.105194
9204500000 -0.94745219 125.2824 -8.8508062 -73.777237 -8.8348532 -74.406624 -0.24741633 -92.056137
9204562500 -0.94875896 125.23457 -8.8507595 -73.763596 -8.837966 -74.401695 -0.25127715 -92.046158
9204625000 -0.9520489 125.23865 -8.8481312 -73.794266 -8.8369493 -74.43576 -0.25180176 -92.001678
9204687500 -0.95107263 125.25294 -8.8537035 -73.778854 -8.8440847 -74.383522 -0.25467438 -91.996048
9204750000 -0.95589113 125.21842 -8.8481789 -73.81086 -8.8336678 -74.371666 -0.25576237 -92.009796
9204812500 -0.95233369 125.22301 -8.8528042 -73.770531 -8.8288193 -74.403107 -0.25110069 -92.04023
9204875000 -0.95309103 125.20789 -8.8537083 -73.773376 -8.834301 -74.419212 -0.25300208 -91.985947
9204937500 -0.95568091 125.20895 -8.8547831 -73.799728 -8.8400364 -74.409279 -0.25646684 -91.945129
9205000000 -0.95468867 125.1887 -8.8549614 -73.787766 -8.8353004 -74.453552 -0.2616069 -91.967911
9205062500 -0.94730055 125.19257 -8.8445206 -73.766708 -8.8394632 -74.427101 -0.25801879 -91.950356
9205125000 -0.95831788 125.11961 -8.8493834 -73.815231 -8.8381414 -74.430885 -0.25764602 -91.933495
9205187500 -0.95999628 125.08595 -8.8415623 -73.771393 -8.8315573 -74.379021 -0.2530176 -91.876816
9205250000 -0.96055645 125.06747 -8.849123 -73.81395 -8.843627 -74.423653 -0.25567284 -91.876381
9205312500 -0.96147686 125.05407 -8.8518133 -73.738228 -8.8317375 -74.456436 -0.2519471 -91.833969
9205375000 -0.95789599 125.04771 -8.8358393 -73.812531 -8.8416681 -74.434372 -0.25377986 -91.862991
9205437500 -0.96121973 125.0616 -8.8371325 -73.760529 -8.8371658 -74.492729 -0.25392935 -91.896843
9205500000 -0.9562974 125.04358 -8.8338957 -73.742584 -8.8319769 -74.407684 -0.25190347 -91.824921
9205562500 -0.95641088 125.00926 -8.8429804 -73.835129 -8.8303661 -74.380333 -0.25228789 -91.838242
9205625000 -0.95771742 124.98586 -8.8396101 -73.807793 -8.8313951 -74.372879 -0.25521427 -91.784058
9205687500 -0.9529137 124.99597 -8.8452387 -73.815643 -8.8381624 -74.374847 -0.25705361 -91.731781
9205750000 -0.95224845 124.9466 -8.8320732 -73.747002 -8.8413286 -74.373306 -0.2592566 -91.778122
9205812500 -0.95493996 124.97249 -8.8367739 -73.81678 -8.8358927 -74.353935 -0.25498566 -91.744827
9205875000 -0.95397735 124.94643 -8.8314524 -73.850792 -8.8361359 -74.366928 -0.25883982 -91.693687
9205937500 -0.95061314 124.9856 -8.8296709 -73.759735 -8.8416729 -74.40329 -0.26403174 -91.708527
9206000000 -0.9522357 124.97626 -8.8393087 -73.748817 -8.8385687 -74.367928 -0.26265582 -91.652367
9206062500 -0.94832265 124.94686 -8.8300219 -73.740433 -8.8299389 -74.418747 -0.25613609 -91.657791
9206125000 -0.95404184 124.94043 -8.83461 -73.75045 -8.8268385 -74.3582 -0.25508693 -91.610802
9206187500 -0.9511621 124.94535 -8.8344355 -73.696999 -8.828577 -74.374146 -0.26159805 -91.604378
9206250000 -0.95047611 124.87605 -8.8334494 -73.794235 -8.8318672 -74.338333 -0.25688535 -91.588814
9206312500 -0.95672005 124.93439 -8.8310604 -73.714211 -8.8183527 -74.388229 -0.25381026 -91.588608
9206375000 -0.95680726 124.91743 -8.8311901 -73.720627 -8.8146639 -74.432381 -0.25329712 -91.588142
9206437500 -0.95135629 124.86858 -8.8302288 -73.715912 -8.825984 -74.386467 -0.25941044 -91.547455
9206500000 -0.95369971 124.86764 -8.8229637 -73.735657 -8.8243923 -74.396851 -0.26113987 -91.493378
9206562500 -0.96131128 124.86242 -8.8309431 -73.747795 -8.8221121 -74.400993 -0.25250742 -91.513443
9206625000 -0.95849657 124.81724 -8.8208876 -73.720886 -8.8118019 -74.364677 -0.24887803 -91.493141
9206687500 -0.95657486 124.81013 -8.8226357 -73.7173 -8.8150587 -74.390648 -0.25180143 -91.457458
9206750000 -0.96013194 124.80009 -8.823451 -73.701454 -8.8081703 -74.379562 -0.24900062 -91.42411
9206812500 -0.96289408 124.79362 -8.8197498 -73.729713 -8.7977123 -74.391922 -0.24225365 -91.442474
9206875000 -0.95628005 124.79008 -8.8134441 -73.672165 -8.80336 -74.410164 -0.25121993 -91.415779
9206937500 -0.96322805 124.75423 -8.8249292 -73.731773 -8.8054123 -74.353348 -0.25010169 -91.395409
9207000000 -0.95344019 124.73121 -8.8201418 -73.747154 -8.8114586 -74.334465 -0.26138148 -91.357452
9207062500 -0.95255536 124.7323 -8.8212347 -73.732849 -8.8204002 -74.330154 -0.26279408 -91.309563
9207125000 -0.94929588 124.69912 -8.8114738 -73.684319 -8.81182 -74.351105 -0.25876001 -91.3871
9207187500 -0.94937217 124.66015 -8.8230791 -73.741028 -8.8145533 -74.316422 -0.26316878 -91.300758
9207250000 -0.95264417 124.64 -8.8186178 -73.773628 -8.8112173 -74.285347 -0.26160559 -91.329544
9207312500 -0.95397162 124.65607 -8.8230085 -73.7752 -8.8103046 -74.333504 -0.26215741 -91.307068
9207375000 -0.95356894 124.58484 -8.8179522 -73.743454 -8.8119421 -74.380226 -0.26527074 -91.295876
9207437500 -0.9517054 124.58685 -8.8172083 -73.807144 -8.8099213 -74.331993 -0.26735619 -91.295334
9207500000 -0.95867586 124.55947 -8.8185339 -73.758415 -8.8045511 -74.326225 -0.2599782 -91.253128
9207562500 -0.95848387 124.56075 -8.8185511 -73.742256 -8.7997684 -74.366959 -0.2654767 -91.283249
9207625000 -0.95730507 124.51839 -8.8183384 -73.811256 -8.8085737 -74.40358 -0.27104357 -91.272972
9207687500 -0.95517242 124.50644 -8.8206701 -73.810028 -8.8103228 -74.330795 -0.26528132 -91.238434
9207750000 -0.9561727 124.47736 -8.8189478 -73.783463 -8.7994223 -74.310776 -0.25302052 -91.198555
9207812500 -0.96303612 124.52895 -8.809 -73.7108 -8.8089819 -74.387383 -0.25974417 -91.206512
9207875000 -0.9593299 124.52278 -8.8065901 -73.744125 -8.8039303 -74.381355 -0.25415039 -91.163734
9207937500 -0.9599036 124.55827 -8.8120203 -73.682121 -8.7969971 -74.380333 -0.2509042 -91.122009
9208000000 -0.96432823 124.49811 -8.8090973 -73.7929 -8.8004446 -74.388748 -0.24577294 -91.119499
9208062500 -0.96486902 124.49055 -8.814311 -73.7062 -8.8027267 -74.362358 -0.25560582 -91.050621
9208125000 -0.95902658 124.47468 -8.8101044 -73.65731 -8.7999401 -74.327271 -0.25906509 -91.051079
9208187500 -0.9648329 124.48921 -8.8136339 -73.741203 -8.8073282 -74.350182 -0.2684485 -91.025139
9208250000 -0.95820987 124.44727 -8.8204069 -73.728714 -8.8125811 -74.28598 -0.271925 -91.008797
9208312500 -0.95469427 124.45403 -8.8047199 -73.673409 -8.797081 -74.325203 -0.26390365 -91.024994
9208375000 -0.95407742 124.4317 -8.8063393 -73.720787 -8.8011999 -74.340256 -0.26579925 -91.010948
9208437500 -0.95896494 124.39283 -8.8123178 -73.67617 -8.8041515 -74.308113 -0.27405012 -90.962669
9208500000 -0.95140833 124.39622 -8.8040237 -73.685066 -8.803153 -74.313477 -0.26757529 -90.945702
9208562500 -0.95356703 124.35428 -8.8017464 -73.720604 -8.796319 -74.310318 -0.26158598 -90.943588
9208625000 -0.95489264 124.36351 -8.8039484 -73.691101 -8.7947016 -74.334076 -0.26538995 -90.962204
9208687500 -0.95692623 124.31443 -8.8010225 -73.772148 -8.7866468 -74.361366 -0.26230481 -90.916252
9208750000 -0.95881081 124.28708 -8.8035164 -73.755592 -8.7872829 -74.249496 -0.26028982 -90.876717
9208812500 -0.95663166 124.29324 -8.7973824 -73.762848 -8.7944708 -74.340698 -0.2637549 -90.917564
9208875000 -0.95374167 124.30406 -8.7944365 -73.736336 -8.7944412 -74.393951 -0.26090574 -90.934952
9208937500 -0.96097749 124.29424 -8.7990818 -73.722198 -8.794282 -74.297638 -0.25993198 -90.88739
9209000000 -0.95808494 124.31734 -8.7930384 -73.645905 -8.7863092 -74.322166 -0.26051211 -90.883438
9209062500 -0.96159226 124.32376 -8.8057232 -73.720993 -8.7965355 -74.320656 -0.26981154 -90.876297
9209125000 -0.95858866 124.30798 -8.7952433 -73.720596 -8.7908306 -74.31424 -0.26379761 -90.849052
9209187500 -0.96121842 124.32104 -8.7972231 -73.710381 -8.7958288 -74.279053 -0.26746306 -90.820038
9209250000 -0.96159387 124.27313 -8.7995577 -73.724106 -8.7935505 -74.278702 -0.26186395 -90.832314
9209312500 -0.96060866 124.26044 -8.7914639 -73.692955 -8.7970362 -74.308678 -0.26984793 -90.788483
9209375000 -0.95559651 124.20686 -8.7968941 -73.75592 -8.7935944 -74.267891 -0.26585123 -90.758133
9209437500 -0.95460874 124.22227 -8.785078 -73.67955 -8.7930069 -74.336479 -0.26840809 -90.743965
9209500000 -0.95552456 124.17388 -8.784359 -73.693665 -8.7925491 -74.255379 -0.25911525 -90.699623
9209562500 -0.95613003 124.18269 -8.7919064 -73.698929 -8.7932806 -74.266167 -0.26310718 -90.688377
9209625000 -0.9595452 124.15507 -8.7953596 -73.716164 -8.7886629 -74.242188 -0.26539084 -90.616806
9209687500 -0.95556021 124.15282 -8.7858009 -73.71537 -8.787569 -74.254593 -0.25923231 -90.623924
9209750000 -0.9620468 124.12782 -8.788291 -73.744698 -8.7821436 -74.286324 -0.25696173 -90.660973
9209812500 -0.96331275 124.07936 -8.7924604 -73.742767 -8.7810469 -74.223717 -0.26357028 -90.582428
9209875000 -0.9556185 124.09821 -8.7853556 -73.72747 -8.7839327 -74.261223 -0.26336008 -90.585846
9209937500 -0.96301866 124.1006 -8.8023882 -73.753098 -8.7816496 -74.321548 -0.26195547 -90.569115
9210000000 -0.95787901 124.08945 -8.7843342 -73.702881 -8.7850914 -74.306786 -0.26274657 -90.581207
9210062500 -0.9585312 124.04991 -8.7915249 -73.737114 -8.7817726 -74.230316 -0.25909638 -90.508514
9210125000 -0.95559365 124.08708 -8.7777147 -73.697128 -8.7674332 -74.275398 -0.2525481 -90.506027
9210187500 -0.95843315 124.04613 -8.7773256 -73.698959 -8.7796793 -74.25032 -0.26200718 -90.516006
9210250000 -0.95542264 124.02677 -8.7851143 -73.709335 -8.7770386 -74.260788 -0.25969288 -90.466667
9210312500 -0.9540233 123.99345 -8.7863712 -73.669647 -8.7788076 -74.276466 -0.26347655 -90.531235
9210375000 -0.95484573 123.9716 -8.7813253 -73.692238 -8.7769823 -74.212097 -0.26677302 -90.423622
9210437500 -0.95879406 123.96444 -8.7855682 -73.713722 -8.7812624 -74.309761 -0.2719875 -90.47435
9210500000 -0.95579761 123.9649 -8.7828465 -73.636497 -8.7755232 -74.192368 -0.26469269 -90.410095
9210562500 -0.95531321 123.96669 -8.7931051 -73.664192 -8.7791195 -74.225357 -0.27281949 -90.403839
9210625000 -0.94950408 123.93478 -8.7877655 -73.659332 -8.7788363 -74.263893 -0.27211586 -90.384956
9210687500 -0.95636028 123.89587 -8.7912092 -73.672836 -8.7800093 -74.253922 -0.27139291 -90.401062
9210750000 -0.95420873 123.9046 -8.7893858 -73.659721 -8.7731676 -74.294464 -0.27748168 -90.352982
9210812500 -0.94987833 123.86861 -8.7697964 -73.623924 -8.7701769 -74.219894 -0.27625668 -90.269119
9210875000 -0.95111597 123.87398 -8.7779016 -73.641113 -8.7761993 -74.243614 -0.2793465 -90.282906
9210937500 -0.95800096 123.84705 -8.7853765 -73.596802 -8.7742958 -74.268639 -0.276032 -90.279007
9211000000 -0.95828193 123.8208 -8.7864513 -73.607468 -8.7671165 -74.262527 -0.27735046 -90.259666
9211062500 -0.9591819 123.8299 -8.7785883 -73.632324 -8.7596455 -74.31826 -0.26415944 -90.29924
9211125000 -0.95780367 123.82674 -8.7740936 -73.644989 -8.7683687 -74.267075 -0.26968935 -90.293884
9211187500 -0.962888 123.81525 -8.770628 -73.674332 -8.7772188 -74.325005 -0.27280876 -90.315125
9211250000 -0.96596807 123.80461 -8.7810287 -73.708656 -8.7670918 -74.258636 -0.27204195 -90.30027
9211312500 -0.96288335 123.81287 -8.7730055 -73.675186 -8.7682819 -74.265541 -0.26561496 -90.308601
9211375000 -0.966488 123.82244 -8.7683973 -73.674263 -8.7648945 -74.282616 -0.26604697 -90.203613
9211437500 -0.96352416 123.77541 -8.7644405 -73.695358 -8.757391 -74.260178 -0.26713142 -90.173241
9211500000 -0.96289152 123.75915 -8.7757006 -73.703842 -8.7626524 -74.228607 -0.26767406 -90.188469
9211562500 -0.96612114 123.7038 -8.7787542 -73.703079 -8.7595835 -74.184761 -0.26691365 -90.140968
9211625000 -0.96308804 123.77076 -8.7763968 -73.640808 -8.7699108 -74.244835 -0.27900386 -90.134758
9211687500 -0.96030331 123.70747 -8.7651281 -73.64817 -8.7684851 -74.207886 -0.27970865 -90.135864
9211750000 -0.95735294 123.67732 -8.7733908 -73.650772 -8.7676077 -74.249031 -0.27755043 -90.121902
9211812500 -0.961393 123.66763 -8.7673559 -73.607704 -8.7668972 -74.199677 -0.28387937 -90.08255
9211875000 -0.96238089 123.64125 -8.7646809 -73.660011 -8.7704611 -74.22049 -0.27844283 -90.067757
9211937500 -0.96354711 123.61378 -8.7663622 -73.669441 -8.7678614 -74.225212 -0.28004375 -90.048882
9212000000 -0.9658072 123.59169 -8.762743 -73.691643 -8.768178 -74.203384 -0.28357399 -89.982277
9212062500 -0.96712631 123.5946 -8.7638645 -73.685936 -8.7617474 -74.205978 -0.27248573 -89.952667
9212125000 -0.964149 123.54166 -8.7532511 -73.760857 -8.7605162 -74.199821 -0.27720276 -89.926933
9212187500 -0.9652018 123.54179 -8.7637777 -73.652336 -8.7582331 -74.235863 -0.27670699 -89.937279
