!Agilent Technologies,N5242A,MY51221714,A.09.90.19
!Agilent N5242A: A.09.90.19
!Date: Saturday, March 16, 2024 10:00:43
!Correction: S11(Full 2 Port(1,2)) 
!S21(Full 2 Port(1,2)) 
!S12(Full 2 Port(1,2)) 
!S22(Full 2 Port(1,2)) 
!S2P File: Measurements: S11, S21, S12, S22:
# Hz S  dB   R 50
9200000000 -1.7645472 122.58533 -8.4563923 -85.089859 -8.4475985 -85.650925 -0.90687811 -96.040749
9200062500 -1.7668687 122.58445 -8.4613733 -84.981522 -8.4465361 -85.656898 -0.90394014 -96.054047
9200125000 -1.7661226 122.59103 -8.4590349 -85.00576 -8.4509287 -85.697411 -0.91269505 -96.077072
9200187500 -1.7671467 122.59731 -8.4541063 -85.044609 -8.4451866 -85.648987 -0.90837449 -96.020966
9200250000 -1.7690004 122.54402 -8.4543591 -85.043098 -8.4419823 -85.703728 -0.90947205 -96.017685
9200312500 -1.7611867 122.53425 -8.4536295 -85.081375 -8.4437647 -85.693741 -0.91487694 -96.003654
9200375000 -1.7597572 122.54985 -8.4565964 -84.983215 -8.438118 -85.675987 -0.90841705 -95.977882
9200437500 -1.7650204 122.5016 -8.454257 -85.092506 -8.4336586 -85.718262 -0.90818799 -95.998543
9200500000 -1.7616948 122.48174 -8.4468775 -85.067322 -8.4390411 -85.661949 -0.91275167 -95.963394
9200562500 -1.7585763 122.4632 -8.455617 -85.055397 -8.4335222 -85.654999 -0.91482377 -95.895477
9200625000 -1.7641376 122.47361 -8.4514265 -85.04261 -8.4392595 -85.688797 -0.91830933 -95.903557
9200687500 -1.7697408 122.4118 -8.4580297 -85.063583 -8.4369259 -85.653984 -0.92260891 -95.836029
9200750000 -1.7596301 122.45804 -8.4452257 -85.035225 -8.4295378 -85.690514 -0.92050391 -95.849304
9200812500 -1.7671365 122.42684 -8.4511337 -85.016418 -8.4223146 -85.693741 -0.92127055 -95.802467
9200875000 -1.7665768 122.41058 -8.4496746 -85.003464 -8.425745 -85.668221 -0.93030536 -95.742012
9200937500 -1.7665139 122.39816 -8.4501066 -85.023773 -8.4347305 -85.67437 -0.93029761 -95.766747
9201000000 -1.7645216 122.38919 -8.4455929 -84.985359 -8.4337158 -85.644295 -0.92210025 -95.736328
9201062500 -1.7608689 122.37488 -8.441493 -85.024529 -8.4380274 -85.668991 -0.92982787 -95.714767
9201125000 -1.7677583 122.37008 -8.4409466 -85.070282 -8.4221354 -85.676071 -0.9201768 -95.722504
9201187500 -1.7664615 122.32516 -8.4377708 -85.065361 -8.4277887 -85.673225 -0.92148983 -95.664337
9201250000 -1.7643539 122.31708 -8.4384174 -85.007187 -8.4345665 -85.648956 -0.92857873 -95.68869
9201312500 -1.7695152 122.26805 -8.4356241 -85.083923 -8.4331484 -85.669983 -0.9225477 -95.697197
9201375000 -1.7667159 122.27835 -8.4395609 -85.051361 -8.4317122 -85.648056 -0.92504215 -95.696747
9201437500 -1.7707963 122.29527 -8.4497461 -84.987488 -8.4312878 -85.641563 -0.92521292 -95.676231
9201500000 -1.7723794 122.29361 -8.4460506 -85.055275 -8.4321766 -85.670921 -0.9214465 -95.654045
9201562500 -1.770733 122.26682 -8.4397821 -85.048378 -8.4258137 -85.625801 -0.91357142 -95.66185
9201625000 -1.7738816 122.27346 -8.444376 -84.986938 -8.4233913 -85.599968 -0.92012089 -95.647484
9201687500 -1.7736344 122.25661 -8.447094 -85.044998 -8.4183559 -85.635674 -0.91987115 -95.587669
9201750000 -1.7671348 122.21455 -8.4372063 -85.084908 -8.4270992 -85.700516 -0.92763942 -95.620399
9201812500 -1.7726712 122.1982 -8.4388571 -85.064224 -8.4197206 -85.690552 -0.92466068 -95.590408
9201875000 -1.7734523 122.15877 -8.4382095 -85.042046 -8.4146452 -85.640678 -0.91976297 -95.514793
9201937500 -1.7691876 122.12678 -8.42869 -85.072472 -8.431838 -85.622772 -0.93183112 -95.475906
9202000000 -1.7685134 122.13567 -8.4368353 -85.091835 -8.4236345 -85.626732 -0.93060857 -95.534851
9202062500 -1.7745928 122.14108 -8.4356518 -85.01619 -8.417654 -85.664215 -0.92681134 -95.473099
9202125000 -1.7683371 122.11973 -8.4268723 -85.04467 -8.419796 -85.685677 -0.93119526 -95.441025
9202187500 -1.7657393 122.10599 -8.4253893 -85.106499 -8.4202061 -85.698662 -0.92475593 -95.441078
9202250000 -1.7742335 122.11044 -8.421689 -85.034637 -8.4188452 -85.685303 -0.9284218 -95.414413
9202312500 -1.7746571 122.10507 -8.4182081 -85.056236 -8.4209528 -85.731438 -0.92800277 -95.451134
9202375000 -1.7702599 122.07205 -8.4222002 -85.065659 -8.4224558 -85.640854 -0.92802566 -95.380699
9202437500 -1.7772158 122.07235 -8.4262543 -85.04847 -8.4099197 -85.665108 -0.92868143 -95.368759
9202500000 -1.7761445 122.05231 -8.4244547 -85.054062 -8.4249859 -85.68499 -0.93238235 -95.361847
9202562500 -1.7769991 122.03763 -8.4335136 -85.066788 -8.4153757 -85.669487 -0.92855054 -95.364464
9202625000 -1.7764045 122.01748 -8.4229612 -85.070854 -8.4143076 -85.672798 -0.93644917 -95.353485
9202687500 -1.778007 122.00371 -8.4211254 -85.078522 -8.4101267 -85.653992 -0.93641877 -95.302383
9202750000 -1.7736176 121.99417 -8.4290257 -85.081894 -8.4081287 -85.713722 -0.93608719 -95.289749
9202812500 -1.7785392 121.96629 -8.4262524 -85.031944 -8.404974 -85.695435 -0.9339363 -95.274666
9202875000 -1.7761836 121.94048 -8.4281549 -85.058388 -8.4077549 -85.677841 -0.93482476 -95.247017
9202937500 -1.77811 121.94363 -8.4286814 -85.092827 -8.4057159 -85.703392 -0.93011665 -95.238029
9203000000 -1.7717307 121.91241 -8.4148798 -85.110558 -8.4062595 -85.71669 -0.93330234 -95.219696
9203062500 -1.7694587 121.93137 -8.4161654 -85.075462 -8.4077291 -85.704765 -0.93525118 -95.252106
9203125000 -1.7737534 121.87153 -8.4155006 -85.121529 -8.4131012 -85.638687 -0.93755949 -95.15609
9203187500 -1.778722 121.87194 -8.4222441 -85.092987 -8.407897 -85.702629 -0.93370944 -95.184502
9203250000 -1.7736387 121.88495 -8.4105663 -85.10955 -8.4051218 -85.730057 -0.93320084 -95.146851
9203312500 -1.7727547 121.85996 -8.4106264 -85.063255 -8.4045544 -85.699699 -0.9338553 -95.111435
9203375000 -1.7784975 121.85696 -8.4270468 -85.091553 -8.4096203 -85.741539 -0.93578428 -95.104622
9203437500 -1.7755374 121.85207 -8.4162254 -85.033264 -8.4091749 -85.692909 -0.93908769 -95.082237
9203500000 -1.771708 121.83781 -8.4167328 -85.079308 -8.3986835 -85.695244 -0.93514079 -95.07769
9203562500 -1.7722216 121.82596 -8.4101353 -85.093803 -8.406889 -85.709015 -0.94048303 -95.085365
9203625000 -1.7772338 121.79459 -8.4083176 -85.117264 -8.4004745 -85.729904 -0.9343968 -95.062561
9203687500 -1.7758833 121.81412 -8.3997717 -85.081833 -8.4005709 -85.734581 -0.94183034 -95.096176
9203750000 -1.7790955 121.75894 -8.4067764 -85.079033 -8.4062738 -85.687111 -0.94628817 -94.993011
9203812500 -1.7736417 121.75662 -8.4130697 -85.047485 -8.4005785 -85.712532 -0.9484629 -94.981995
9203875000 -1.7783651 121.70904 -8.4081335 -85.126106 -8.398283 -85.681061 -0.94692814 -95.000992
9203937500 -1.7746192 121.69286 -8.4065504 -85.088036 -8.3994331 -85.710823 -0.95060468 -94.99884
9204000000 -1.777374 121.70285 -8.4086866 -85.054985 -8.3916969 -85.650009 -0.95059156 -94.934875
9204062500 -1.7719989 121.70295 -8.4051933 -85.083298 -8.3972321 -85.660515 -0.95456409 -94.876686
9204125000 -1.7750807 121.68615 -8.4201727 -85.06356 -8.3900681 -85.680954 -0.95362663 -94.854691
9204187500 -1.7757212 121.63331 -8.4073839 -85.13929 -8.3812132 -85.675819 -0.95225447 -94.870399
9204250000 -1.7715482 121.65852 -8.4065523 -85.079491 -8.3886576 -85.677223 -0.94842643 -94.852554
9204312500 -1.7742006 121.60836 -8.402709 -85.109818 -8.3875866 -85.731468 -0.94463909 -94.883087
9204375000 -1.7716054 121.60912 -8.4097834 -85.126114 -8.3856888 -85.660461 -0.95014697 -94.829636
9204437500 -1.7686808 121.5933 -8.401145 -85.126762 -8.3957396 -85.725716 -0.94886518 -94.805946
9204500000 -1.7682803 121.55072 -8.3909702 -85.098137 -8.3839464 -85.631554 -0.94247741 -94.75573
9204562500 -1.7717247 121.55366 -8.3883247 -85.05719 -8.3862743 -85.729362 -0.94670135 -94.79567
9204625000 -1.7733305 121.53551 -8.3980932 -85.076035 -8.3838263 -85.710892 -0.94196755 -94.771568
9204687500 -1.77022 121.55159 -8.3918877 -85.073959 -8.3835201 -85.719887 -0.94638759 -94.703339
9204750000 -1.7722306 121.53267 -8.3969545 -85.084442 -8.3926792 -85.682304 -0.95079011 -94.706627
9204812500 -1.7756836 121.52399 -8.3956146 -85.06424 -8.3862782 -85.697845 -0.95135289 -94.689041
9204875000 -1.7758209 121.53387 -8.3933096 -85.049065 -8.3741417 -85.737686 -0.94191641 -94.725418
9204937500 -1.7814871 121.52406 -8.3946886 -85.055611 -8.3835192 -85.689606 -0.94881243 -94.652596
9205000000 -1.7785883 121.51269 -8.3977966 -85.025337 -8.3927164 -85.68576 -0.95430666 -94.655792
9205062500 -1.7763742 121.45533 -8.3904619 -85.034485 -8.3809061 -85.686127 -0.94753349 -94.65802
9205125000 -1.7918169 121.46463 -8.4061928 -85.069519 -8.3826876 -85.723999 -0.94927639 -94.664803
9205187500 -1.7820984 121.43078 -8.3947659 -85.056107 -8.3741074 -85.683098 -0.94241273 -94.616875
9205250000 -1.7844398 121.41139 -8.3927584 -85.022507 -8.389513 -85.694809 -0.94947839 -94.601768
9205312500 -1.7835939 121.32578 -8.3867874 -85.07132 -8.3840446 -85.737671 -0.94290805 -94.577423
9205375000 -1.7851498 121.35786 -8.3908472 -85.015068 -8.3860245 -85.713188 -0.95169711 -94.554405
9205437500 -1.7894809 121.33307 -8.3900366 -85.025719 -8.3841457 -85.697701 -0.94757545 -94.50164
9205500000 -1.7809397 121.32853 -8.3788738 -85.089645 -8.3756771 -85.743645 -0.94870377 -94.556625
9205562500 -1.7841334 121.3527 -8.3801432 -85.084496 -8.3832169 -85.736496 -0.94801122 -94.552101
9205625000 -1.7820337 121.31436 -8.3908005 -85.152779 -8.3836231 -85.750877 -0.95722812 -94.527176
9205687500 -1.7824776 121.31494 -8.3853016 -85.06176 -8.3763371 -85.66449 -0.94469565 -94.51844
9205750000 -1.7833122 121.29823 -8.3896227 -85.091484 -8.3806553 -85.713264 -0.95032728 -94.490921
9205812500 -1.7846462 121.31073 -8.3947134 -85.134422 -8.3837004 -85.76107 -0.95482886 -94.530815
9205875000 -1.7819515 121.27991 -8.3788633 -85.137199 -8.3836899 -85.739021 -0.95463789 -94.457718
9205937500 -1.7813413 121.29628 -8.3797112 -85.024162 -8.3771496 -85.728554 -0.94827121 -94.427544
9206000000 -1.7777532 121.28586 -8.3722601 -85.053284 -8.3768654 -85.683487 -0.95379502 -94.399933
9206062500 -1.7795079 121.26929 -8.3808651 -85.086472 -8.3774347 -85.705315 -0.95641267 -94.365746
9206125000 -1.7799586 121.25665 -8.3812389 -85.089821 -8.3785305 -85.683945 -0.96217102 -94.329933
9206187500 -1.7833378 121.20749 -8.3785963 -85.085335 -8.3675747 -85.695724 -0.95670527 -94.327271
9206250000 -1.7842058 121.22522 -8.3734207 -85.055183 -8.3706703 -85.702904 -0.94977152 -94.304115
9206312500 -1.7890531 121.17996 -8.3804359 -85.084229 -8.370245 -85.660873 -0.95528823 -94.293228
9206375000 -1.7799509 121.2178 -8.3705568 -85.06385 -8.370286 -85.805328 -0.95702863 -94.317818
9206437500 -1.7815008 121.19787 -8.3665075 -85.080551 -8.360467 -85.721306 -0.94952983 -94.261284
9206500000 -1.7812964 121.1829 -8.3694677 -85.092514 -8.3703918 -85.766113 -0.95604801 -94.275162
9206562500 -1.7803289 121.1579 -8.364377 -85.043633 -8.357646 -85.749077 -0.94736594 -94.270386
9206625000 -1.78794 121.16569 -8.358798 -85.052948 -8.3564816 -85.717484 -0.95265919 -94.215927
9206687500 -1.7922978 121.11774 -8.3667984 -85.099518 -8.3590889 -85.757584 -0.94806087 -94.181267
9206750000 -1.7892833 121.11348 -8.3587303 -85.035828 -8.3588247 -85.697617 -0.95154333 -94.160957
9206812500 -1.7901965 121.0683 -8.3581095 -85.093224 -8.3559694 -85.690079 -0.94925439 -94.110909
9206875000 -1.7899107 121.06086 -8.359272 -85.116852 -8.357605 -85.702705 -0.94422472 -94.095444
9206937500 -1.7906964 121.06027 -8.3645458 -85.080276 -8.3522196 -85.766663 -0.94670522 -94.146164
9207000000 -1.7862297 121.02933 -8.3643379 -85.064842 -8.350935 -85.69664 -0.95832086 -94.062012
9207062500 -1.7853508 121.00738 -8.3578415 -85.115387 -8.353632 -85.679359 -0.95495671 -94.06797
9207125000 -1.7876728 121.00572 -8.3674107 -85.140846 -8.35252 -85.714409 -0.96010995 -94.102478
9207187500 -1.782326 120.96423 -8.3710699 -85.168648 -8.3566008 -85.733383 -0.95783395 -94.080284
9207250000 -1.7842363 120.98683 -8.3598337 -85.104469 -8.360527 -85.742088 -0.96991944 -94.079918
9207312500 -1.7798512 120.92223 -8.3562117 -85.177162 -8.3512602 -85.636375 -0.95529723 -94.028885
9207375000 -1.7902869 120.88377 -8.3596954 -85.138191 -8.354538 -85.722206 -0.96730608 -94.0466
9207437500 -1.789215 120.85025 -8.3635015 -85.153885 -8.3523464 -85.638474 -0.97078317 -93.972641
9207500000 -1.7859905 120.87344 -8.3657675 -85.121353 -8.3449497 -85.733368 -0.96600491 -94.022621
9207562500 -1.7930013 120.82413 -8.3598824 -85.157867 -8.3572264 -85.721619 -0.96802604 -93.984344
9207625000 -1.7926587 120.78732 -8.35394 -85.167786 -8.3547859 -85.690277 -0.96132934 -93.962181
9207687500 -1.7957752 120.81258 -8.3571129 -85.183846 -8.349124 -85.711449 -0.97021443 -93.919487
9207750000 -1.7991093 120.8 -8.3598986 -85.181076 -8.3481731 -85.723419 -0.95932388 -93.955826
9207812500 -1.7951627 120.8222 -8.3503551 -85.107277 -8.3468399 -85.797012 -0.95533174 -93.93309
9207875000 -1.798236 120.79168 -8.356391 -85.128654 -8.346179 -85.803017 -0.95491904 -93.914452
9207937500 -1.80301 120.79916 -8.3534431 -85.14109 -8.3396072 -85.75589 -0.94942045 -93.872147
9208000000 -1.8005993 120.79157 -8.3573055 -85.137878 -8.3426104 -85.808327 -0.95207751 -93.846008
9208062500 -1.797483 120.75897 -8.35116 -85.130119 -8.3404379 -85.727386 -0.96027386 -93.758087
9208125000 -1.7921635 120.73576 -8.3433409 -85.194138 -8.3528004 -85.706856 -0.96789193 -93.739082
9208187500 -1.7973377 120.78746 -8.3556271 -85.08728 -8.3498726 -85.711716 -0.96775192 -93.758781
9208250000 -1.7967668 120.75658 -8.3508949 -85.098221 -8.3487911 -85.687683 -0.97039032 -93.733803
9208312500 -1.793229 120.72871 -8.3584805 -85.097046 -8.3433237 -85.745735 -0.96934444 -93.737724
9208375000 -1.7929684 120.72231 -8.3496866 -85.089203 -8.3461161 -85.671593 -0.97665823 -93.718094
9208437500 -1.797099 120.7002 -8.3465672 -85.155586 -8.3367109 -85.724609 -0.9730649 -93.680901
9208500000 -1.7972064 120.68461 -8.3412352 -85.118515 -8.3362646 -85.712708 -0.9729076 -93.714432
9208562500 -1.796553 120.65615 -8.3469324 -85.18235 -8.338973 -85.771812 -0.97262388 -93.673813
9208625000 -1.7965443 120.5929 -8.3439417 -85.203056 -8.3397999 -85.74382 -0.9728514 -93.662231
9208687500 -1.7989795 120.60896 -8.3376274 -85.169922 -8.335556 -85.720131 -0.96922523 -93.686684
9208750000 -1.7971107 120.58098 -8.3454247 -85.176445 -8.3366899 -85.759216 -0.967336 -93.629868
9208812500 -1.8012133 120.59322 -8.3501072 -85.155899 -8.3371811 -85.75193 -0.97533745 -93.65416
9208875000 -1.8006574 120.57822 -8.3461466 -85.181236 -8.3334017 -85.737198 -0.96670628 -93.654625
9208937500 -1.7973752 120.60135 -8.3413172 -85.198479 -8.3374147 -85.763077 -0.97619355 -93.691093
9209000000 -1.8020328 120.62348 -8.3394032 -85.182632 -8.3286285 -85.746887 -0.96862411 -93.607841
9209062500 -1.7943418 120.59399 -8.3295383 -85.169693 -8.3424635 -85.695999 -0.97138709 -93.600822
9209125000 -1.7983853 120.63764 -8.3351622 -85.100662 -8.3363085 -85.754959 -0.97808039 -93.570435
9209187500 -1.7987869 120.57023 -8.3363218 -85.144287 -8.3380108 -85.728951 -0.97707444 -93.54406
9209250000 -1.8005742 120.56015 -8.3366337 -85.144783 -8.3298264 -85.712715 -0.97046196 -93.510666
9209312500 -1.8018571 120.54869 -8.3341818 -85.129539 -8.3317537 -85.738419 -0.96719283 -93.522331
9209375000 -1.795321 120.50198 -8.3271179 -85.213387 -8.333168 -85.695656 -0.9822585 -93.477364
9209437500 -1.8032767 120.48108 -8.3301249 -85.160828 -8.3343143 -85.744705 -0.97624642 -93.509308
9209500000 -1.7973658 120.50414 -8.3267622 -85.171616 -8.3263874 -85.759438 -0.97458315 -93.42971
9209562500 -1.7976426 120.41254 -8.3326368 -85.212494 -8.3345356 -85.712082 -0.97970909 -93.408119
9209625000 -1.8000139 120.43659 -8.3290167 -85.227921 -8.330162 -85.71907 -0.9744001 -93.411865
9209687500 -1.805743 120.46673 -8.3363323 -85.15567 -8.3212261 -85.725639 -0.97305334 -93.373032
9209750000 -1.8056176 120.43105 -8.3358736 -85.197495 -8.3222837 -85.765099 -0.97160596 -93.369537
9209812500 -1.8044966 120.42707 -8.328227 -85.176994 -8.32973 -85.756187 -0.97798622 -93.354324
9209875000 -1.8087796 120.39935 -8.3305254 -85.188454 -8.3243723 -85.721054 -0.96951669 -93.311256
9209937500 -1.8055482 120.40901 -8.3340101 -85.207855 -8.3193521 -85.791924 -0.97141862 -93.292908
9210000000 -1.7994952 120.35726 -8.3251286 -85.183701 -8.3172007 -85.658127 -0.96812618 -93.236275
9210062500 -1.7956671 120.36147 -8.3192043 -85.18277 -8.3214512 -85.750946 -0.96813875 -93.259071
9210125000 -1.8020853 120.35023 -8.3259859 -85.185295 -8.3146591 -85.685226 -0.97183859 -93.225655
9210187500 -1.8015203 120.35653 -8.3237534 -85.132607 -8.3228178 -85.731651 -0.97483289 -93.231049
9210250000 -1.8050884 120.32323 -8.3244267 -85.165306 -8.3152227 -85.702888 -0.97122204 -93.187019
9210312500 -1.7970704 120.32556 -8.3194742 -85.139938 -8.3166866 -85.706451 -0.97679633 -93.216644
9210375000 -1.7945298 120.27137 -8.3244762 -85.169533 -8.3122721 -85.733086 -0.97825372 -93.203094
9210437500 -1.8067582 120.31572 -8.327364 -85.134598 -8.3123178 -85.741669 -0.9790411 -93.204285
9210500000 -1.8012455 120.26282 -8.3165607 -85.21154 -8.3201103 -85.729927 -0.98305696 -93.145348
9210562500 -1.802852 120.23854 -8.3267813 -85.144569 -8.3142262 -85.712814 -0.98301256 -93.138123
9210625000 -1.7951725 120.17097 -8.323411 -85.198036 -8.3172188 -85.68972 -0.98608059 -93.108063
9210687500 -1.794641 120.20741 -8.3189211 -85.159798 -8.311161 -85.774117 -0.98413903 -93.138054
9210750000 -1.7999263 120.17982 -8.3198652 -85.150459 -8.3137617 -85.728844 -0.99318326 -93.089592
9210812500 -1.8014163 120.1779 -8.3235378 -85.066673 -8.313693 -85.736259 -0.98531884 -93.080963
9210875000 -1.8025783 120.1562 -8.324296 -85.128052 -8.310359 -85.742958 -0.99222982 -93.046837
9210937500 -1.7988312 120.13114 -8.3094368 -85.100426 -8.3107214 -85.783569 -0.9861722 -93.06588
9211000000 -1.8026603 120.12385 -8.317832 -85.116028 -8.2946825 -85.777611 -0.98239195 -93.071465
9211062500 -1.8108456 120.07014 -8.3176985 -85.183556 -8.3128338 -85.705215 -0.99314016 -93.043861
9211125000 -1.8046378 120.14391 -8.314805 -85.160416 -8.3117428 -85.704216 -0.98320466 -92.964622
9211187500 -1.8096887 120.11653 -8.3105402 -85.188324 -8.3097191 -85.803734 -0.9863084 -93.029869
9211250000 -1.8112563 120.07304 -8.301465 -85.232765 -8.3048267 -85.791901 -0.98212773 -93.056519
9211312500 -1.8066578 120.10075 -8.3055487 -85.216934 -8.3024549 -85.807152 -0.9800719 -93.061584
9211375000 -1.8122025 120.08131 -8.3025303 -85.234573 -8.3053751 -85.811729 -0.98011506 -92.926224
9211437500 -1.8119923 120.06124 -8.3108606 -85.204239 -8.3104553 -85.76326 -0.98211783 -92.936035
9211500000 -1.8127788 120.05616 -8.3056517 -85.17807 -8.2940893 -85.782265 -0.982952 -92.881622
9211562500 -1.8104259 120.04108 -8.3057775 -85.171303 -8.3002119 -85.758774 -0.98418164 -92.892166
9211625000 -1.8097841 120.02137 -8.3065109 -85.190712 -8.3012381 -85.75032 -0.98768693 -92.877235
9211687500 -1.8128831 120.01674 -8.3012371 -85.141632 -8.2964878 -85.74749 -0.98789316 -92.865845
9211750000 -1.8099022 119.97506 -8.3123512 -85.189034 -8.2958689 -85.728165 -0.98616672 -92.85672
9211812500 -1.8121781 119.97438 -8.301116 -85.196587 -8.2941046 -85.728256 -0.99106944 -92.805206
9211875000 -1.8092159 119.9099 -8.2993813 -85.161758 -8.300971 -85.713737 -0.99190664 -92.765984
9211937500 -1.8211838 119.90521 -8.3025703 -85.169601 -8.2978354 -85.737007 -0.99390221 -92.748055
9212000000 -1.8159311 119.87172 -8.2967348 -85.230324 -8.2977934 -85.740913 -0.99345571 -92.708908
9212062500 -1.8241366 119.86777 -8.3036718 -85.20858 -8.2919884 -85.691078 -0.99133605 -92.665482
9212125000 -1.8194622 119.86311 -8.294445 -85.256577 -8.2994909 -85.799942 -0.99555653 -92.702843
9212187500 -1.819261 119.83417 -8.3039808 -85.195419 -8.2940865 -85.78521 -1.0002786 -92.660759
9212250000 -1.8178358 119.82391 -8.2945662 -85.200935 -8.2922344 -85.777229 -0.99165738 -92.667862
9212312500 -1.8221672 119.80389 -8.2957458 -85.23101 -8.287982 -85.777618 -0.98992723 -92.623032
