!Agilent Technologies,N5242A,MY51221714,A.09.90.19
!Agilent N5242A: A.09.90.19
!Date: Saturday, March 16, 2024 10:01:34
!Correction: S11(Full 2 Port(1,2)) 
!S21(Full 2 Port(1,2)) 
!S12(Full 2 Port(1,2)) 
!S22(Full 2 Port(1,2)) 
!S2P File: Measurements: S11, S21, S12, S22:
# Hz S  dB   R 50
9200000000 -0.9266063 126.93488 -9.0095673 -73.532494 -8.9969025 -74.143494 -0.20642851 -93.421745
9200062500 -0.92857963 126.92005 -9.017662 -73.594353 -9.0017157 -74.127357 -0.20723057 -93.398987
9200125000 -0.92568934 126.88158 -9.0106525 -73.581612 -9.0036726 -74.077934 -0.20286585 -93.359512
9200187500 -0.92669731 126.88317 -9.0062704 -73.50795 -8.9956551 -74.145218 -0.20558782 -93.351654
9200250000 -0.92309201 126.87616 -9.0098162 -73.586403 -8.9919176 -74.142166 -0.20078072 -93.339676
9200312500 -0.92401212 126.88757 -9.0129871 -73.541695 -8.9995461 -74.19931 -0.20532005 -93.353226
9200375000 -0.92606461 126.84809 -9.0110559 -73.54631 -8.9840908 -74.118492 -0.20047754 -93.298943
9200437500 -0.92384905 126.86354 -9.0032539 -73.52919 -8.9960289 -74.154045 -0.21183735 -93.273491
9200500000 -0.9217087 126.82626 -9.0062571 -73.549095 -8.9853725 -74.153816 -0.20323652 -93.245285
9200562500 -0.91638446 126.81004 -9.0009356 -73.517342 -8.986577 -74.059608 -0.21204787 -93.218109
9200625000 -0.92662781 126.79147 -9.0049973 -73.563164 -8.9836168 -74.118988 -0.21595979 -93.219574
9200687500 -0.92479557 126.79537 -9.0066433 -73.529907 -8.9963121 -74.095169 -0.21409713 -93.197823
9200750000 -0.92842197 126.73254 -9.0017052 -73.504211 -8.9889193 -74.090904 -0.2149068 -93.144646
9200812500 -0.92951602 126.77871 -9.0105991 -73.436478 -8.9867907 -74.103065 -0.21998096 -93.109055
9200875000 -0.92469716 126.75936 -9.0036402 -73.450302 -8.9833164 -74.184143 -0.21343498 -93.143654
9200937500 -0.92476463 126.75054 -9.0043316 -73.502731 -8.9883175 -74.103264 -0.22081067 -93.095451
9201000000 -0.92294753 126.72971 -9.0002441 -73.412651 -8.9849501 -74.04129 -0.21721493 -93.029816
9201062500 -0.92242885 126.70297 -9.006093 -73.491837 -8.9824371 -74.128677 -0.21588597 -93.083672
9201125000 -0.92223984 126.67155 -8.9926748 -73.487015 -8.9859161 -74.131737 -0.21364288 -93.069557
9201187500 -0.91996485 126.67039 -8.9910145 -73.441841 -8.9816914 -74.095604 -0.21614669 -93.041565
9201250000 -0.92229378 126.64615 -8.9925537 -73.491089 -8.9838705 -74.093422 -0.2137066 -93.009895
9201312500 -0.91948754 126.6738 -8.9923992 -73.455811 -8.9883442 -74.12796 -0.21422218 -93.041908
9201375000 -0.93048221 126.654 -9.0068007 -73.484528 -8.9739532 -74.098808 -0.20626141 -93.046501
9201437500 -0.92574316 126.63 -8.993041 -73.511307 -8.9861202 -74.108253 -0.21357767 -93.051117
9201500000 -0.92946088 126.61127 -9.0061321 -73.486305 -8.9861269 -74.11808 -0.22289501 -93.043312
9201562500 -0.92557991 126.60049 -8.9959879 -73.470978 -8.9877386 -74.10994 -0.21649116 -93.010986
9201625000 -0.93504763 126.61475 -9.0008459 -73.502197 -8.977807 -74.059418 -0.20897429 -92.956909
9201687500 -0.92973953 126.5807 -8.9981775 -73.450218 -8.9837036 -74.044441 -0.21424049 -92.932045
9201750000 -0.92983675 126.5678 -8.9984913 -73.508011 -8.9818878 -74.036522 -0.21761476 -92.916725
9201812500 -0.92225343 126.56151 -8.9958811 -73.436813 -8.9746723 -74.052872 -0.21631834 -92.890121
9201875000 -0.92598748 126.52087 -8.9950333 -73.461838 -8.9772911 -74.030289 -0.21485618 -92.816818
9201937500 -0.92009544 126.48846 -8.9875116 -73.426384 -8.9803667 -74.099129 -0.21666953 -92.843163
9202000000 -0.92555439 126.4815 -8.9867573 -73.477325 -8.9777899 -74.027367 -0.21607086 -92.818031
9202062500 -0.92471176 126.45579 -8.9858513 -73.493675 -8.9717121 -74.087059 -0.2164696 -92.820213
9202125000 -0.92105389 126.43822 -8.9801388 -73.501167 -8.9813395 -74.079041 -0.21882084 -92.798225
9202187500 -0.92090356 126.44732 -8.97124 -73.513321 -8.9825592 -74.061829 -0.21632957 -92.78466
9202250000 -0.92210025 126.43761 -8.9781704 -73.46122 -8.9726801 -74.136116 -0.21400292 -92.775627
9202312500 -0.91912496 126.43239 -8.9748573 -73.438515 -8.9734144 -74.12661 -0.2164599 -92.79155
9202375000 -0.92760324 126.3982 -8.9775743 -73.471977 -8.9806089 -74.063965 -0.21036999 -92.729866
9202437500 -0.92401415 126.40895 -8.9780064 -73.476753 -8.9806395 -74.084045 -0.22193299 -92.701263
9202500000 -0.93027246 126.37824 -8.984827 -73.51194 -8.9817104 -74.065254 -0.21791771 -92.688103
9202562500 -0.92719561 126.41238 -8.9879608 -73.488091 -8.9840021 -74.115234 -0.22343665 -92.689735
9202625000 -0.92442107 126.37408 -8.983448 -73.424171 -8.9671764 -74.063919 -0.22268794 -92.665947
9202687500 -0.92804068 126.37019 -8.9816189 -73.46273 -8.9725285 -74.065903 -0.22468175 -92.640274
9202750000 -0.92993236 126.34567 -8.9847898 -73.429886 -8.9630833 -74.066681 -0.22500491 -92.639542
9202812500 -0.92948288 126.36201 -8.9810839 -73.409973 -8.9712057 -74.079956 -0.22551635 -92.594749
9202875000 -0.92809129 126.31521 -8.9821386 -73.45015 -8.9685335 -74.062767 -0.22024801 -92.591812
9202937500 -0.92745602 126.31327 -8.9760656 -73.428268 -8.9616461 -74.060028 -0.21760675 -92.564156
9203000000 -0.92546999 126.28975 -8.9788408 -73.43232 -8.9617786 -74.040558 -0.21965969 -92.551369
9203062500 -0.92358607 126.29718 -8.9784365 -73.45948 -8.9703779 -74.078453 -0.2217577 -92.549728
9203125000 -0.92180717 126.21916 -8.9671164 -73.486389 -8.9569273 -74.056526 -0.21622306 -92.480873
9203187500 -0.92542732 126.19611 -8.9759398 -73.46534 -8.9666586 -74.060577 -0.21986324 -92.509239
9203250000 -0.92607307 126.24841 -8.9737587 -73.388428 -8.9679537 -74.018196 -0.21791907 -92.448784
9203312500 -0.92394531 126.22291 -8.9759436 -73.406868 -8.9623623 -74.049812 -0.21344307 -92.443115
9203375000 -0.92776543 126.20921 -8.9826899 -73.411545 -8.9685965 -74.075363 -0.22012039 -92.443672
9203437500 -0.92981702 126.19411 -8.9775572 -73.461662 -8.9615936 -74.097328 -0.21926586 -92.437248
9203500000 -0.92608887 126.16602 -8.9652901 -73.478104 -8.9615688 -74.065437 -0.22556877 -92.443184
9203562500 -0.9243111 126.1466 -8.9757738 -73.461746 -8.9636793 -74.037315 -0.22490583 -92.375626
9203625000 -0.93079615 126.13876 -8.9769382 -73.419113 -8.9659662 -74.034058 -0.22524551 -92.355179
9203687500 -0.92985481 126.10828 -8.9744549 -73.478523 -8.9641056 -74.014816 -0.22987007 -92.362823
9203750000 -0.92237061 126.12376 -8.961113 -73.527283 -8.963273 -74.016914 -0.22727638 -92.344353
9203812500 -0.92840838 126.10078 -8.9659586 -73.434082 -8.9643373 -74.063911 -0.22864917 -92.348137
9203875000 -0.9303968 126.07659 -8.9732761 -73.434456 -8.961998 -73.978729 -0.22572654 -92.267967
9203937500 -0.92221075 126.04938 -8.9676085 -73.477547 -8.9678822 -74.033791 -0.23246086 -92.285439
9204000000 -0.92215413 126.05744 -8.9794369 -73.439888 -8.9589338 -73.973816 -0.23734015 -92.25042
9204062500 -0.91918778 126.01892 -8.9659472 -73.497147 -8.9579916 -74.032516 -0.23542553 -92.248283
9204125000 -0.92129129 126.03699 -8.9719076 -73.427094 -8.9515839 -74.005493 -0.2397117 -92.241714
9204187500 -0.91817123 126.02867 -8.9704218 -73.431427 -8.9524488 -73.972786 -0.23574433 -92.213234
9204250000 -0.92169064 126.03795 -8.9667721 -73.44577 -8.9562969 -73.981705 -0.23765364 -92.182106
9204312500 -0.91888392 125.98925 -8.9689169 -73.42321 -8.9469786 -73.987091 -0.22898313 -92.193748
9204375000 -0.92016345 125.95528 -8.963028 -73.421021 -8.9489546 -73.924774 -0.22302961 -92.141396
9204437500 -0.91792542 125.94142 -8.9668293 -73.479111 -8.9536228 -73.97541 -0.23157515 -92.147537
9204500000 -0.91952497 125.92607 -8.9698172 -73.370026 -8.9539042 -74.017296 -0.22755896 -92.124001
9204562500 -0.91725057 125.93301 -8.9603462 -73.425301 -8.9430666 -74.0214 -0.21661359 -92.100029
9204625000 -0.92092693 125.8858 -8.9699306 -73.43203 -8.9489098 -74.014381 -0.2243274 -92.056404
9204687500 -0.92151439 125.88413 -8.9594135 -73.408112 -8.9474525 -73.981163 -0.22693266 -92.034897
9204750000 -0.92502296 125.92439 -8.9657755 -73.382385 -8.9529381 -74.030487 -0.22575958 -92.075378
9204812500 -0.91727614 125.90079 -8.9570179 -73.381065 -8.9489775 -74.037445 -0.22426714 -92.023651
9204875000 -0.92365891 125.87991 -8.951684 -73.426765 -8.9314289 -74.001289 -0.21550614 -92.046822
9204937500 -0.92284364 125.89405 -8.9591713 -73.404076 -8.9515724 -74.016914 -0.22732849 -91.996178
9205000000 -0.92128706 125.87261 -8.9508419 -73.373192 -8.9422407 -74.044128 -0.22948076 -92.023994
9205062500 -0.92560685 125.86366 -8.9590273 -73.352539 -8.9434023 -74.020958 -0.22487654 -92.011375
9205125000 -0.92514408 125.80183 -8.9519472 -73.399429 -8.9430923 -73.985199 -0.22058925 -91.955666
9205187500 -0.92932737 125.80343 -8.9523926 -73.383873 -8.9397125 -74.010376 -0.22396564 -91.95974
9205250000 -0.92918271 125.72325 -8.9547958 -73.344406 -8.9445829 -73.968262 -0.223161 -91.935081
9205312500 -0.92865676 125.77409 -8.9525309 -73.343498 -8.9406738 -73.952866 -0.22476161 -91.869492
9205375000 -0.92692161 125.69951 -8.9404316 -73.360184 -8.9469538 -73.93042 -0.22852172 -91.872719
9205437500 -0.9307735 125.70398 -8.9571419 -73.380959 -8.9484177 -74.000931 -0.22701699 -91.885521
9205500000 -0.92210585 125.69186 -8.9391203 -73.33493 -8.9421158 -74.059662 -0.22273962 -91.932991
9205562500 -0.92504781 125.68319 -8.9549894 -73.387856 -8.9510183 -74.028458 -0.22770517 -91.855637
9205625000 -0.92338556 125.66076 -8.9540968 -73.389999 -8.9434977 -73.986717 -0.22717024 -91.855858
9205687500 -0.92775905 125.66038 -8.9460297 -73.429695 -8.94804 -73.971947 -0.22699378 -91.864372
9205750000 -0.92629987 125.67188 -8.9517984 -73.397217 -8.9404716 -73.970406 -0.22581916 -91.81572
9205812500 -0.92530131 125.68926 -8.9472446 -73.372498 -8.9392433 -73.963242 -0.22692288 -91.786156
9205875000 -0.92657036 125.66957 -8.9563923 -73.343544 -8.9413834 -73.977753 -0.22568487 -91.767921
9205937500 -0.92118341 125.62812 -8.9446993 -73.40509 -8.9454117 -73.961998 -0.22702017 -91.743706
9206000000 -0.92271572 125.6692 -8.9529552 -73.288078 -8.9442005 -73.925446 -0.2322558 -91.666321
9206062500 -0.92034703 125.64054 -8.943655 -73.337532 -8.9424725 -73.940613 -0.22887862 -91.68116
9206125000 -0.924743 125.62608 -8.9490137 -73.312424 -8.9446516 -73.962379 -0.2379746 -91.693184
9206187500 -0.91615647 125.59724 -8.9415741 -73.342903 -8.9336729 -73.982368 -0.23082982 -91.668091
9206250000 -0.91980731 125.58247 -8.9405794 -73.359444 -8.9299078 -73.929344 -0.22946094 -91.61657
9206312500 -0.92190796 125.6018 -8.9406462 -73.306122 -8.9334431 -74.011406 -0.23037285 -91.662079
9206375000 -0.92000532 125.59531 -8.9342871 -73.326469 -8.9339552 -73.945778 -0.22546841 -91.598885
9206437500 -0.92116642 125.52881 -8.9313965 -73.354904 -8.9255095 -73.942986 -0.22514625 -91.609039
9206500000 -0.92113322 125.59617 -8.9418201 -73.303253 -8.9269629 -73.951416 -0.22874491 -91.544167
9206562500 -0.92482001 125.56181 -8.9379845 -73.266113 -8.9194641 -73.99791 -0.2170233 -91.54055
9206625000 -0.9268229 125.5094 -8.9340315 -73.31382 -8.9102955 -73.931053 -0.21426442 -91.523056
9206687500 -0.93054241 125.53187 -8.9353456 -73.290009 -8.9278078 -73.993881 -0.22063001 -91.492004
9206750000 -0.92319387 125.45473 -8.922039 -73.320496 -8.9225702 -73.926857 -0.21905664 -91.459373
9206812500 -0.93000901 125.45244 -8.9251127 -73.301178 -8.9185019 -73.95784 -0.21871929 -91.482185
9206875000 -0.9264648 125.44462 -8.9240246 -73.317177 -8.9160194 -73.908981 -0.21787477 -91.426193
9206937500 -0.92294192 125.43385 -8.9341278 -73.276398 -8.9199753 -73.915642 -0.22110187 -91.407227
9207000000 -0.92383063 125.42987 -8.9276438 -73.347176 -8.9187183 -73.927322 -0.22594282 -91.418709
9207062500 -0.92199326 125.36317 -8.9354935 -73.361031 -8.9225311 -73.961617 -0.23267466 -91.419807
9207125000 -0.92109179 125.37165 -8.9257956 -73.310524 -8.926301 -73.886566 -0.23391794 -91.370811
9207187500 -0.91905212 125.35819 -8.9311695 -73.380363 -8.9250822 -73.972893 -0.23061444 -91.418884
9207250000 -0.91933686 125.33426 -8.9255476 -73.372032 -8.9273214 -73.897652 -0.23737897 -91.365608
9207312500 -0.91454828 125.29688 -8.9230404 -73.348907 -8.9230719 -73.908913 -0.23493135 -91.365997
9207375000 -0.92434889 125.2951 -8.9232378 -73.387932 -8.9176216 -73.907272 -0.23365898 -91.348595
9207437500 -0.92124718 125.28038 -8.9318628 -73.342438 -8.9170504 -73.93219 -0.23861143 -91.293983
9207500000 -0.92387623 125.25307 -8.9337368 -73.335823 -8.9202061 -73.927689 -0.23485082 -91.316429
9207562500 -0.92632776 125.20422 -8.9311552 -73.349037 -8.9105501 -73.946861 -0.22993891 -91.296074
9207625000 -0.9236365 125.21609 -8.9218035 -73.353554 -8.9133291 -73.910561 -0.23069818 -91.292686
9207687500 -0.9282403 125.2132 -8.920207 -73.336868 -8.9122486 -73.96331 -0.23320872 -91.249313
9207750000 -0.93301141 125.18319 -8.9171724 -73.388939 -8.9162264 -73.899315 -0.23275162 -91.240486
9207812500 -0.93082464 125.19569 -8.9192991 -73.347145 -8.9081211 -73.973251 -0.22813208 -91.29068
9207875000 -0.93310893 125.20166 -8.9237852 -73.328629 -8.9104691 -73.936852 -0.22134797 -91.202919
9207937500 -0.92850858 125.18501 -8.921875 -73.364029 -8.9128923 -73.950798 -0.22430074 -91.222008
9208000000 -0.93369377 125.16914 -8.9175282 -73.321274 -8.9143333 -73.943855 -0.22333552 -91.110725
9208062500 -0.92891574 125.14651 -8.9254112 -73.351463 -8.9142323 -73.935135 -0.23253185 -91.130302
9208125000 -0.92797691 125.16226 -8.9233961 -73.263016 -8.9081001 -73.925583 -0.2306428 -91.096207
9208187500 -0.92798448 125.12191 -8.9252758 -73.328705 -8.9138041 -73.87281 -0.24042913 -91.070442
9208250000 -0.92741483 125.13016 -8.9203405 -73.298111 -8.9111052 -73.938675 -0.24593478 -91.043976
9208312500 -0.92467815 125.11333 -8.917882 -73.280632 -8.9151506 -73.924469 -0.24510996 -91.031471
9208375000 -0.92710263 125.09936 -8.9128675 -73.307686 -8.9059477 -73.924751 -0.22983177 -91.058586
9208437500 -0.92899668 125.08945 -8.9158735 -73.329346 -8.9129696 -73.920433 -0.23774868 -91.053589
9208500000 -0.92252797 125.05405 -8.9124155 -73.313942 -8.9097366 -73.811386 -0.23982635 -90.958069
9208562500 -0.92446536 125.05354 -8.9131517 -73.298317 -8.9042702 -73.82045 -0.234165 -90.971474
9208625000 -0.92533457 125.01238 -8.9090662 -73.296066 -8.9059858 -73.924797 -0.22637895 -91.019997
9208687500 -0.9234429 124.99251 -8.9140663 -73.360016 -8.9005175 -73.894089 -0.2372587 -90.9814
9208750000 -0.92384464 125.00175 -8.9117432 -73.389633 -8.8981485 -73.927589 -0.23394439 -90.989662
9208812500 -0.92316234 124.95195 -8.9103098 -73.434784 -8.9061871 -73.889496 -0.23261644 -90.955704
9208875000 -0.92417139 124.98469 -8.9077873 -73.331703 -8.8998394 -73.936859 -0.23023494 -90.966873
9208937500 -0.92710942 125.01878 -8.9099207 -73.338829 -8.8961296 -73.872124 -0.22861518 -90.913811
9209000000 -0.91986281 125.03069 -8.9058475 -73.315392 -8.9030657 -73.852043 -0.23299924 -90.909645
9209062500 -0.92604899 125.02984 -8.9055805 -73.262886 -8.9013338 -73.861 -0.23402916 -90.877853
9209125000 -0.9294408 125.01237 -8.9131165 -73.29567 -8.902235 -73.90081 -0.23752372 -90.901947
9209187500 -0.921166 125.01724 -8.8963127 -73.30822 -8.9056921 -73.867424 -0.23675233 -90.889977
9209250000 -0.92646891 124.97141 -8.9077883 -73.282356 -8.9030628 -73.85891 -0.23862475 -90.841034
9209312500 -0.92361081 124.94852 -8.901907 -73.29229 -8.9060249 -73.909409 -0.2354764 -90.870132
9209375000 -0.92830169 124.89861 -8.899538 -73.242477 -8.9039555 -73.866737 -0.23687379 -90.781914
9209437500 -0.92479807 124.91325 -8.8988342 -73.242195 -8.9116964 -73.80983 -0.23855521 -90.770828
9209500000 -0.92410314 124.81332 -8.9027386 -73.323128 -8.9076777 -73.872726 -0.23891893 -90.730789
9209562500 -0.92765242 124.84995 -8.9004145 -73.320419 -8.9020758 -73.890633 -0.23882963 -90.731285
9209625000 -0.9255634 124.85404 -8.9023247 -73.33886 -8.9089146 -73.852165 -0.24468604 -90.696754
9209687500 -0.92658699 124.82168 -8.896883 -73.329666 -8.8965693 -73.845154 -0.23056741 -90.688606
9209750000 -0.92769349 124.82919 -8.9023409 -73.341606 -8.8999033 -73.86161 -0.23552845 -90.669907
9209812500 -0.92964798 124.81392 -8.9046278 -73.316437 -8.8946333 -73.863533 -0.2390002 -90.631996
9209875000 -0.93053514 124.79442 -8.9016447 -73.359589 -8.8965321 -73.896049 -0.2368211 -90.624657
9209937500 -0.93010843 124.79454 -8.8989935 -73.252472 -8.9060326 -73.894447 -0.23331845 -90.622566
9210000000 -0.92462397 124.75497 -8.8950405 -73.320114 -8.900691 -73.834801 -0.23557013 -90.566368
9210062500 -0.92523015 124.74551 -8.888938 -73.309807 -8.8898869 -73.86953 -0.23267975 -90.582863
9210125000 -0.92462182 124.75212 -8.9008427 -73.266678 -8.8859682 -73.836754 -0.22674714 -90.569084
9210187500 -0.92144752 124.74113 -8.8924656 -73.235931 -8.8937588 -73.82592 -0.23375261 -90.519684
9210250000 -0.92034775 124.68295 -8.8880739 -73.28064 -8.8945456 -73.807426 -0.23532002 -90.493187
9210312500 -0.91907817 124.73007 -8.8876801 -73.210464 -8.8912439 -73.892899 -0.23958781 -90.575317
9210375000 -0.92127448 124.69952 -8.8945398 -73.220528 -8.896369 -73.791298 -0.23943718 -90.47625
9210437500 -0.91991818 124.71797 -8.8974428 -73.259926 -8.8933516 -73.855423 -0.24408549 -90.491356
9210500000 -0.9179275 124.65236 -8.8915796 -73.292694 -8.8922977 -73.790459 -0.23872736 -90.452324
9210562500 -0.92502278 124.62438 -8.8958349 -73.24308 -8.8952951 -73.811188 -0.24572524 -90.440315
9210625000 -0.9150489 124.61194 -8.8887272 -73.247841 -8.8904514 -73.801315 -0.24338958 -90.411049
9210687500 -0.92135173 124.59732 -8.9009542 -73.272728 -8.8908195 -73.805832 -0.24640827 -90.383438
9210750000 -0.91555727 124.55643 -8.8873777 -73.283905 -8.8885899 -73.859512 -0.24882567 -90.431381
9210812500 -0.91930872 124.57156 -8.8897562 -73.182404 -8.8838348 -73.831635 -0.24685194 -90.347664
9210875000 -0.925569 124.55742 -8.8888216 -73.250908 -8.8833408 -73.86837 -0.24686702 -90.403259
9210937500 -0.91929555 124.52629 -8.8862419 -73.242233 -8.88202 -73.828827 -0.25137663 -90.334442
9211000000 -0.92529726 124.4984 -8.8885555 -73.209229 -8.8838215 -73.874672 -0.25239149 -90.339699
9211062500 -0.92283314 124.50436 -8.8873777 -73.18911 -8.8818827 -73.856613 -0.2457381 -90.332405
9211125000 -0.92817324 124.49484 -8.8878469 -73.205002 -8.8825731 -73.892136 -0.24583274 -90.351997
9211187500 -0.92633706 124.47578 -8.8883018 -73.284332 -8.8927078 -73.85807 -0.24595661 -90.348793
9211250000 -0.93151134 124.50704 -8.8899908 -73.257721 -8.8866119 -73.860092 -0.24419776 -90.329048
9211312500 -0.93532318 124.51717 -8.8829975 -73.253632 -8.8771982 -73.835213 -0.23653923 -90.355385
9211375000 -0.92998511 124.48494 -8.8835707 -73.246696 -8.873703 -73.834473 -0.23640488 -90.211838
9211437500 -0.92733729 124.45218 -8.8808689 -73.261833 -8.8765574 -73.854179 -0.23632146 -90.23674
9211500000 -0.93124938 124.44898 -8.8912315 -73.247414 -8.884141 -73.755196 -0.24000296 -90.194168
9211562500 -0.93383956 124.45349 -8.8858271 -73.223328 -8.8895531 -73.774452 -0.24523136 -90.157982
9211625000 -0.92095065 124.40249 -8.8717985 -73.284515 -8.8814354 -73.870415 -0.24594297 -90.184792
9211687500 -0.93067712 124.37572 -8.8881865 -73.220024 -8.8829908 -73.80304 -0.24904652 -90.187782
9211750000 -0.92923111 124.37934 -8.8846788 -73.159218 -8.8802156 -73.758759 -0.2515882 -90.144241
9211812500 -0.92977148 124.37033 -8.8835115 -73.175125 -8.8767433 -73.823776 -0.24976122 -90.147682
9211875000 -0.93311441 124.34608 -8.874362 -73.260406 -8.8719397 -73.785934 -0.24173288 -90.074181
9211937500 -0.92853433 124.30529 -8.8707266 -73.278648 -8.8748922 -73.815361 -0.24703187 -90.095001
9212000000 -0.92856854 124.28581 -8.8699703 -73.253647 -8.8759451 -73.776001 -0.25206667 -90.033775
9212062500 -0.92993712 124.27704 -8.8686142 -73.224258 -8.8750267 -73.748581 -0.25449422 -89.967186
9212125000 -0.93596935 124.23922 -8.8748016 -73.306534 -8.8705101 -73.771645 -0.24985585 -89.952652
9212187500 -0.93493927 124.23566 -8.8690252 -73.216606 -8.8704395 -73.764008 -0.24719429 -89.953117
