!Agilent Technologies,N5242A,MY51221714,A.09.90.19
!Agilent N5242A: A.09.90.19
!Date: Saturday, March 16, 2024 10:02:26
!Correction: S11(Full 2 Port(1,2)) 
!S21(Full 2 Port(1,2)) 
!S12(Full 2 Port(1,2)) 
!S22(Full 2 Port(1,2)) 
!S2P File: Measurements: S11, S21, S12, S22:
# Hz S  dB   R 50
9200000000 -1.1792089 125.47608 -8.7268553 -77.62825 -8.7231646 -78.193977 -0.47781196 -95.168991
9200062500 -1.1817156 125.46371 -8.7382288 -77.566467 -8.723012 -78.227226 -0.47368333 -95.179543
9200125000 -1.1814859 125.44361 -8.7341433 -77.636612 -8.7189054 -78.202263 -0.47331405 -95.153336
9200187500 -1.1844028 125.45524 -8.7370853 -77.589554 -8.7272167 -78.148918 -0.47796085 -95.103157
9200250000 -1.1826699 125.44436 -8.7356119 -77.562332 -8.7249641 -78.164406 -0.47590068 -95.106842
9200312500 -1.1733817 125.44316 -8.7260046 -77.592743 -8.7187262 -78.246895 -0.47431532 -95.132133
9200375000 -1.1734376 125.38327 -8.724308 -77.651405 -8.7179327 -78.197685 -0.47159097 -95.085297
9200437500 -1.1719502 125.39555 -8.7227221 -77.599739 -8.7153482 -78.22493 -0.47475958 -95.085381
9200500000 -1.1696038 125.35282 -8.7264996 -77.622826 -8.7162695 -78.13118 -0.47576782 -94.980919
9200562500 -1.1743863 125.36706 -8.7217331 -77.614159 -8.7055159 -78.209869 -0.47145119 -95.01162
9200625000 -1.1731871 125.35683 -8.7284317 -77.571953 -8.7151022 -78.192009 -0.48315644 -94.961502
9200687500 -1.1767515 125.35007 -8.7248516 -77.547646 -8.7067385 -78.166153 -0.4822399 -94.943115
9200750000 -1.190262 125.34492 -8.740449 -77.54528 -8.703783 -78.189278 -0.48659122 -94.931137
9200812500 -1.1809509 125.32462 -8.7275352 -77.552155 -8.7056084 -78.210915 -0.48266461 -94.947929
9200875000 -1.1814036 125.28933 -8.7324867 -77.569153 -8.7039919 -78.216797 -0.48696262 -94.894623
9200937500 -1.1768209 125.31973 -8.7260103 -77.492188 -8.7060699 -78.20919 -0.48604268 -94.847328
9201000000 -1.1763384 125.28455 -8.7194071 -77.557869 -8.7054996 -78.20372 -0.48645553 -94.859138
9201062500 -1.171442 125.25931 -8.7170734 -77.579971 -8.7119598 -78.14711 -0.49209583 -94.807327
9201125000 -1.1723197 125.26316 -8.7146406 -77.508888 -8.6991673 -78.158722 -0.48531449 -94.863594
9201187500 -1.1696749 125.2638 -8.7082386 -77.546768 -8.7027111 -78.181587 -0.47943202 -94.82341
9201250000 -1.1736661 125.20248 -8.7101135 -77.531464 -8.7072639 -78.126366 -0.49274948 -94.766891
9201312500 -1.1747345 125.21659 -8.7108126 -77.566086 -8.7058859 -78.173615 -0.48329204 -94.786087
9201375000 -1.1785885 125.20017 -8.7191477 -77.583992 -8.7062054 -78.203415 -0.49064046 -94.781403
9201437500 -1.1824123 125.18016 -8.7145996 -77.556168 -8.704504 -78.166458 -0.47992843 -94.742065
9201500000 -1.1806883 125.16174 -8.7198572 -77.594238 -8.7121382 -78.177467 -0.48711759 -94.765892
9201562500 -1.1786568 125.19924 -8.7203035 -77.490105 -8.7059107 -78.140198 -0.47847793 -94.735703
9201625000 -1.185315 125.16204 -8.7236309 -77.575012 -8.7062979 -78.165024 -0.48122227 -94.79705
9201687500 -1.1831616 125.1702 -8.7202759 -77.576706 -8.7029114 -78.1334 -0.47870138 -94.694916
9201750000 -1.1824138 125.1243 -8.7234926 -77.522209 -8.6924849 -78.105515 -0.48179796 -94.667656
9201812500 -1.1779983 125.10478 -8.7112551 -77.569565 -8.6909494 -78.120445 -0.47805664 -94.647766
9201875000 -1.1729072 125.05991 -8.7117901 -77.56237 -8.6904392 -78.185104 -0.48648995 -94.680763
9201937500 -1.175018 125.03876 -8.7077971 -77.575478 -8.6973991 -78.113968 -0.48632011 -94.594612
9202000000 -1.1748366 125.03742 -8.7084351 -77.533203 -8.6949749 -78.149628 -0.48730123 -94.608025
9202062500 -1.1788316 125.03651 -8.7114754 -77.554146 -8.691081 -78.130928 -0.48488289 -94.587067
9202125000 -1.1766442 124.99498 -8.7059517 -77.54982 -8.6979647 -78.141685 -0.48615375 -94.572006
9202187500 -1.1785741 125.01904 -8.7035866 -77.537651 -8.6962748 -78.16259 -0.48484761 -94.573502
9202250000 -1.1801617 125.00175 -8.6949959 -77.551796 -8.6971893 -78.153687 -0.4857336 -94.545143
9202312500 -1.1802205 125.00775 -8.70084 -77.506493 -8.7035561 -78.134956 -0.49246633 -94.517334
9202375000 -1.1773179 124.96111 -8.6987209 -77.507515 -8.6971397 -78.097244 -0.48252848 -94.459267
9202437500 -1.1843041 124.95988 -8.7049885 -77.516937 -8.6982059 -78.225838 -0.4911859 -94.533356
9202500000 -1.1811595 124.94129 -8.7148981 -77.52739 -8.6956053 -78.172928 -0.48981714 -94.46286
9202562500 -1.1849834 124.93935 -8.7030334 -77.582207 -8.6926851 -78.116928 -0.49222431 -94.426125
9202625000 -1.1857311 124.90154 -8.7059469 -77.589569 -8.6897392 -78.224373 -0.49233937 -94.458534
9202687500 -1.185065 124.88717 -8.7074728 -77.594894 -8.6852398 -78.113968 -0.48843473 -94.414932
9202750000 -1.1841049 124.88963 -8.7058134 -77.530922 -8.6934862 -78.101074 -0.49304596 -94.33287
9202812500 -1.1806401 124.8606 -8.6976776 -77.543381 -8.6954813 -78.095078 -0.48989895 -94.336021
9202875000 -1.1788902 124.84177 -8.7033453 -77.563248 -8.6917362 -78.13903 -0.49217275 -94.354492
9202937500 -1.1790512 124.83713 -8.6986589 -77.566147 -8.6935282 -78.088387 -0.48821634 -94.257782
9203000000 -1.1814845 124.8326 -8.6923199 -77.564964 -8.6817017 -78.137802 -0.48974454 -94.332291
9203062500 -1.1819588 124.80306 -8.6903591 -77.575615 -8.6821766 -78.134277 -0.48812461 -94.29908
9203125000 -1.1733149 124.80089 -8.6913433 -77.515282 -8.693882 -78.192024 -0.49354815 -94.273186
9203187500 -1.1790696 124.73228 -8.6959457 -77.624931 -8.6876612 -78.131966 -0.49496812 -94.222633
9203250000 -1.1802367 124.73842 -8.6881046 -77.577034 -8.6892824 -78.115601 -0.49088469 -94.208672
9203312500 -1.1800206 124.75497 -8.6944933 -77.568436 -8.6768827 -78.153084 -0.48351204 -94.21096
9203375000 -1.1848326 124.74301 -8.6946211 -77.573433 -8.6774626 -78.130219 -0.49298272 -94.215561
9203437500 -1.182549 124.73495 -8.6892929 -77.516655 -8.6833878 -78.14653 -0.49773696 -94.202377
9203500000 -1.1727846 124.7161 -8.6900101 -77.56601 -8.6867828 -78.155746 -0.49144539 -94.181854
9203562500 -1.1813385 124.7032 -8.6971512 -77.586349 -8.6872072 -78.169853 -0.49483684 -94.170502
9203625000 -1.1801444 124.675 -8.6915922 -77.552917 -8.6853094 -78.101692 -0.49727407 -94.075768
9203687500 -1.1818484 124.67242 -8.6873951 -77.550102 -8.6797762 -78.129517 -0.49405763 -94.119949
9203750000 -1.1770749 124.66836 -8.6854067 -77.597557 -8.6788588 -78.173889 -0.50121546 -94.162071
9203812500 -1.1811723 124.61015 -8.6908598 -77.59375 -8.6798439 -78.098839 -0.50315887 -94.068199
9203875000 -1.1858804 124.61526 -8.6873159 -77.598732 -8.6790209 -78.197632 -0.50904089 -94.100067
9203937500 -1.1799903 124.59911 -8.6830072 -77.572495 -8.6773901 -78.112442 -0.5057025 -94.045212
9204000000 -1.1807168 124.57873 -8.689723 -77.579117 -8.6688452 -78.097679 -0.50119817 -94.01902
9204062500 -1.1783566 124.59614 -8.6947422 -77.511826 -8.6706715 -78.107162 -0.51194733 -93.97776
9204125000 -1.1761731 124.5748 -8.6920614 -77.588463 -8.6759806 -78.133171 -0.51574194 -93.974373
9204187500 -1.1705216 124.56544 -8.6928425 -77.530724 -8.667038 -78.084755 -0.50853163 -93.971291
9204250000 -1.1797915 124.55245 -8.69802 -77.565796 -8.667964 -78.079086 -0.50752997 -93.971848
9204312500 -1.1742207 124.51622 -8.6856947 -77.513046 -8.6660156 -78.156822 -0.51050627 -93.954094
9204375000 -1.1755216 124.52581 -8.6840591 -77.444893 -8.6727047 -78.136299 -0.50097853 -93.93042
9204437500 -1.1759115 124.49168 -8.6766024 -77.546028 -8.6678038 -78.123497 -0.50264984 -93.930008
9204500000 -1.1717452 124.46925 -8.6734266 -77.520088 -8.6635361 -78.115105 -0.50050473 -93.88636
9204562500 -1.1723931 124.46729 -8.6802349 -77.539207 -8.6734123 -78.096855 -0.50275385 -93.875977
9204625000 -1.1748141 124.43825 -8.6773624 -77.494316 -8.6665497 -78.075134 -0.49130002 -93.816475
9204687500 -1.1749262 124.43979 -8.6734972 -77.446022 -8.6569071 -78.105583 -0.48935261 -93.842125
9204750000 -1.1744738 124.44704 -8.6725016 -77.52285 -8.6629677 -78.113243 -0.49577469 -93.818298
9204812500 -1.1817516 124.42636 -8.6801538 -77.510315 -8.6583862 -78.133865 -0.49349639 -93.827126
9204875000 -1.1734867 124.4054 -8.6821098 -77.572807 -8.6656809 -78.158852 -0.5047611 -93.803986
9204937500 -1.1760808 124.41267 -8.671649 -77.503242 -8.6592073 -78.114296 -0.5018422 -93.77227
9205000000 -1.1785793 124.42683 -8.6631374 -77.509743 -8.6587973 -78.134315 -0.50455993 -93.804634
9205062500 -1.1782807 124.37926 -8.6651106 -77.471466 -8.6661863 -78.140831 -0.50327516 -93.785629
9205125000 -1.1864946 124.36192 -8.6766443 -77.510773 -8.6577063 -78.140076 -0.4980101 -93.753624
9205187500 -1.1868439 124.32387 -8.6701918 -77.494476 -8.65763 -78.14743 -0.50325543 -93.720718
9205250000 -1.1862357 124.29288 -8.667942 -77.523682 -8.6577005 -78.098518 -0.49705979 -93.714066
9205312500 -1.1889223 124.26542 -8.6701651 -77.548767 -8.6577139 -78.179779 -0.49968997 -93.739723
9205375000 -1.1883366 124.30221 -8.6642694 -77.427078 -8.6649885 -78.135345 -0.50571561 -93.663757
9205437500 -1.1883551 124.25737 -8.6663179 -77.524773 -8.6622343 -78.153656 -0.49972707 -93.651413
9205500000 -1.1817867 124.24669 -8.6588573 -77.500038 -8.6574707 -78.137108 -0.49807063 -93.671288
9205562500 -1.1869316 124.2489 -8.670846 -77.475182 -8.6651459 -78.104637 -0.50036347 -93.581612
9205625000 -1.1916639 124.24607 -8.6817217 -77.509186 -8.6638308 -78.112 -0.50448519 -93.60257
9205687500 -1.1819534 124.18217 -8.6665382 -77.558037 -8.6558447 -78.161819 -0.49998868 -93.650108
9205750000 -1.187535 124.2019 -8.6743603 -77.552246 -8.6658697 -78.064964 -0.50018668 -93.565117
9205812500 -1.1767226 124.19149 -8.6534433 -77.516685 -8.6532354 -78.119514 -0.49670443 -93.595207
9205875000 -1.181713 124.19739 -8.6671429 -77.485039 -8.6634188 -78.103073 -0.50579476 -93.566277
9205937500 -1.1784115 124.18027 -8.6653328 -77.52388 -8.6531134 -78.08213 -0.50218749 -93.472145
9206000000 -1.1835866 124.16889 -8.668458 -77.518578 -8.6559935 -78.088516 -0.50689077 -93.49086
9206062500 -1.1807495 124.16492 -8.6618223 -77.442322 -8.6542473 -78.073318 -0.50325114 -93.425018
9206125000 -1.1774067 124.12548 -8.6613073 -77.493591 -8.649045 -78.120354 -0.5029937 -93.47686
9206187500 -1.179814 124.14164 -8.6636562 -77.463493 -8.6528645 -78.04071 -0.50720632 -93.391769
9206250000 -1.1807549 124.09254 -8.656847 -77.497002 -8.6508293 -78.060097 -0.50002694 -93.41214
9206312500 -1.1823812 124.14276 -8.6589928 -77.462883 -8.6517591 -78.120712 -0.50283879 -93.396812
9206375000 -1.1818745 124.09544 -8.6481867 -77.559143 -8.6516809 -78.128685 -0.50113493 -93.399246
9206437500 -1.1809497 124.08633 -8.6504593 -77.512741 -8.6432047 -78.115654 -0.50346893 -93.378159
9206500000 -1.1792108 124.0523 -8.6521578 -77.562752 -8.6363192 -78.095894 -0.50183439 -93.366013
9206562500 -1.1802858 124.05285 -8.6396523 -77.478043 -8.6369839 -78.142731 -0.49398571 -93.338921
9206625000 -1.1804886 124.02288 -8.6378365 -77.510262 -8.6343508 -78.135468 -0.49106199 -93.319939
9206687500 -1.1827801 124.03543 -8.6389961 -77.459641 -8.6348639 -78.114662 -0.49078065 -93.333122
9206750000 -1.1877189 124.02624 -8.6396265 -77.463737 -8.6232061 -78.081635 -0.49120545 -93.190529
9206812500 -1.1865733 123.99907 -8.6365395 -77.442917 -8.6270208 -78.087486 -0.49505183 -93.240318
9206875000 -1.1868751 123.96416 -8.6373062 -77.462021 -8.6340942 -78.046028 -0.49567178 -93.17289
9206937500 -1.1879282 123.97797 -8.6394043 -77.451454 -8.6303186 -78.079224 -0.50067538 -93.179871
9207000000 -1.1822733 123.9447 -8.6473722 -77.447014 -8.6323423 -78.067337 -0.50048774 -93.183556
9207062500 -1.1834244 123.89795 -8.6485386 -77.497208 -8.6331787 -78.083649 -0.50366914 -93.19313
9207125000 -1.178748 123.90989 -8.6430416 -77.472511 -8.6402578 -78.087936 -0.51307684 -93.178413
9207187500 -1.1806902 123.86259 -8.6484995 -77.503044 -8.642045 -78.06514 -0.50357836 -93.164032
9207250000 -1.1760771 123.8377 -8.6491728 -77.567055 -8.6424313 -78.076218 -0.51357746 -93.149132
9207312500 -1.1814684 123.8441 -8.6474714 -77.500069 -8.6332884 -78.089714 -0.51101255 -93.182533
9207375000 -1.1816038 123.82884 -8.6424313 -77.493912 -8.633337 -78.09008 -0.50913382 -93.153351
9207437500 -1.1858003 123.8092 -8.6452312 -77.512108 -8.6323357 -78.079231 -0.51303476 -93.131706
9207500000 -1.1858157 123.80088 -8.6464148 -77.509224 -8.6292858 -78.10556 -0.51903212 -93.134377
9207562500 -1.1895661 123.74695 -8.6411982 -77.543503 -8.6320057 -78.090309 -0.5126698 -93.099953
9207625000 -1.1838393 123.76635 -8.6449413 -77.496269 -8.6377039 -78.133995 -0.51907313 -93.050743
9207687500 -1.1893872 123.7505 -8.6350889 -77.542534 -8.6322107 -78.115044 -0.50671327 -93.093964
9207750000 -1.1880113 123.71269 -8.6457739 -77.547043 -8.6190157 -78.140808 -0.50565308 -93.064934
9207812500 -1.1896015 123.71247 -8.6377287 -77.508972 -8.6262093 -78.101868 -0.50109839 -92.99826
9207875000 -1.1931944 123.73611 -8.6336718 -77.462082 -8.6266193 -78.172691 -0.49208987 -93.062042
9207937500 -1.1932956 123.71725 -8.6366482 -77.424248 -8.6317205 -78.112457 -0.50269008 -92.969353
9208000000 -1.1916827 123.70321 -8.6321583 -77.480453 -8.6164951 -78.090775 -0.49654788 -92.953873
9208062500 -1.1905262 123.69598 -8.639185 -77.485481 -8.6231279 -78.117317 -0.51102149 -92.90667
9208125000 -1.1925607 123.68619 -8.6361923 -77.450089 -8.6341124 -78.055023 -0.51362151 -92.864914
9208187500 -1.1884038 123.67887 -8.6332951 -77.473465 -8.6219177 -77.996361 -0.50616068 -92.864281
9208250000 -1.1902862 123.71021 -8.6341152 -77.416107 -8.6229401 -78.042305 -0.51183677 -92.884529
9208312500 -1.1865902 123.64174 -8.6300049 -77.477043 -8.6270409 -78.042747 -0.51117355 -92.846146
9208375000 -1.1863171 123.63716 -8.6363325 -77.482819 -8.6234941 -78.047699 -0.51934081 -92.831467
9208437500 -1.1847241 123.59665 -8.6280069 -77.510551 -8.621809 -78.050041 -0.51661277 -92.814926
9208500000 -1.1840777 123.59085 -8.6253281 -77.459869 -8.6191311 -78.021278 -0.51026779 -92.779243
9208562500 -1.1845529 123.57011 -8.6252613 -77.488556 -8.6248446 -78.049492 -0.52262139 -92.814346
9208625000 -1.1879075 123.52729 -8.6221876 -77.493233 -8.615056 -78.062164 -0.508425 -92.776009
9208687500 -1.1819202 123.51113 -8.6222382 -77.51757 -8.6207066 -78.039734 -0.51336533 -92.746628
9208750000 -1.1904953 123.51139 -8.6272783 -77.505783 -8.6101789 -78.062958 -0.51149756 -92.770195
9208812500 -1.1861389 123.50451 -8.6220465 -77.567581 -8.6126842 -78.060715 -0.51266706 -92.751457
9208875000 -1.1858443 123.49952 -8.6194592 -77.525528 -8.6132317 -78.111603 -0.51079506 -92.754547
9208937500 -1.1872498 123.50026 -8.6268282 -77.473442 -8.6147909 -78.099037 -0.5131231 -92.746361
9209000000 -1.1882206 123.54535 -8.6179171 -77.470543 -8.6169043 -78.067749 -0.51452714 -92.730034
9209062500 -1.1880028 123.5225 -8.6184044 -77.470451 -8.6217594 -78.082054 -0.51484448 -92.695801
9209125000 -1.1871768 123.51585 -8.6149292 -77.438347 -8.6211472 -78.074493 -0.51645768 -92.663551
9209187500 -1.1856917 123.50394 -8.6118221 -77.448936 -8.6227818 -78.071213 -0.51603556 -92.674477
9209250000 -1.1877542 123.45483 -8.6135635 -77.483612 -8.6099663 -78.015015 -0.51500493 -92.634972
9209312500 -1.1910553 123.47152 -8.6169214 -77.475052 -8.6171074 -78.029015 -0.52345896 -92.610344
9209375000 -1.184499 123.44495 -8.6070337 -77.472633 -8.6197577 -78.057625 -0.51972467 -92.578827
9209437500 -1.1879697 123.41503 -8.6136656 -77.433044 -8.6158133 -78.066093 -0.51836973 -92.539192
9209500000 -1.1833165 123.38812 -8.609786 -77.48011 -8.6095257 -78.024284 -0.51532 -92.511063
9209562500 -1.1888267 123.39543 -8.6094198 -77.482887 -8.6122322 -78.044136 -0.51965898 -92.550186
9209625000 -1.193334 123.36021 -8.6215611 -77.467117 -8.6140957 -78.037865 -0.51631021 -92.520096
9209687500 -1.1904197 123.36603 -8.6143532 -77.473633 -8.6037073 -78.037582 -0.51115364 -92.465897
9209750000 -1.1934978 123.35557 -8.6175556 -77.502098 -8.6025209 -78.03553 -0.51164335 -92.487938
9209812500 -1.1903369 123.3245 -8.6110821 -77.504738 -8.6056852 -78.075912 -0.50938064 -92.461365
9209875000 -1.185624 123.33656 -8.6085987 -77.499825 -8.6093006 -78.069893 -0.51381415 -92.395149
9209937500 -1.1912687 123.28038 -8.6039457 -77.504395 -8.6062498 -78.041222 -0.51319677 -92.400963
9210000000 -1.1890154 123.29937 -8.6145535 -77.513191 -8.6054134 -78.049477 -0.51572734 -92.429871
9210062500 -1.1856934 123.2757 -8.6032524 -77.459709 -8.6009932 -78.034569 -0.50682223 -92.370461
9210125000 -1.1847751 123.2644 -8.6033535 -77.510475 -8.5982742 -78.039688 -0.50508952 -92.381439
9210187500 -1.1877367 123.23782 -8.598155 -77.449532 -8.595108 -78.030334 -0.50834602 -92.346642
9210250000 -1.1878306 123.28432 -8.6045732 -77.497627 -8.5918417 -77.99855 -0.5070731 -92.295517
9210312500 -1.1861508 123.24825 -8.6040516 -77.423393 -8.5968189 -77.980247 -0.5142377 -92.301376
9210375000 -1.1810358 123.18192 -8.5944242 -77.449097 -8.6009922 -78.010315 -0.51514488 -92.308212
9210437500 -1.1846483 123.16885 -8.609951 -77.464622 -8.5954084 -78.002182 -0.51538259 -92.282478
9210500000 -1.1819953 123.18354 -8.5991869 -77.489311 -8.5980492 -77.998611 -0.52273816 -92.232407
9210562500 -1.1887841 123.18245 -8.6085396 -77.389748 -8.595252 -77.95414 -0.51806021 -92.198914
9210625000 -1.186031 123.13326 -8.6067133 -77.467461 -8.6001129 -77.977646 -0.52733874 -92.213539
9210687500 -1.1812963 123.09513 -8.6039848 -77.460381 -8.59764 -77.992928 -0.52434629 -92.222954
9210750000 -1.1841201 123.09311 -8.6028843 -77.414917 -8.5963469 -78.022148 -0.52635014 -92.172852
9210812500 -1.186746 123.0742 -8.6072044 -77.426765 -8.5956631 -78.061539 -0.53244692 -92.190788
9210875000 -1.1850305 123.05775 -8.6055946 -77.390488 -8.5985289 -78.036903 -0.52985907 -92.146812
9210937500 -1.1907012 123.04661 -8.6021128 -77.476967 -8.5820761 -78.041206 -0.52544266 -92.150215
9211000000 -1.189078 123.0153 -8.6041117 -77.419296 -8.5867624 -78.015114 -0.52844375 -92.105179
9211062500 -1.1901926 123.03727 -8.6078129 -77.360153 -8.5928984 -78.050789 -0.52853042 -92.151649
9211125000 -1.1967168 122.98163 -8.6032896 -77.501114 -8.5851879 -78.086807 -0.52188098 -92.139885
9211187500 -1.1914004 122.98656 -8.6001234 -77.524086 -8.5888424 -78.056778 -0.51997012 -92.159668
9211250000 -1.1941653 123.0127 -8.5967054 -77.484833 -8.5854702 -78.042191 -0.52406394 -92.151291
9211312500 -1.1976857 123.0004 -8.5909805 -77.509407 -8.5902014 -78.051826 -0.51798636 -92.1614
9211375000 -1.1946195 123.00359 -8.5963993 -77.449234 -8.5862608 -78.011978 -0.51383245 -91.97731
9211437500 -1.1930616 122.98693 -8.5855608 -77.489845 -8.5821495 -78.053307 -0.51527435 -92.029106
9211500000 -1.1956168 122.99557 -8.5954523 -77.482773 -8.5939178 -78.06562 -0.5232293 -92.013824
9211562500 -1.1957424 122.96608 -8.594738 -77.431641 -8.5925283 -77.998459 -0.52527517 -91.956337
9211625000 -1.1932133 122.97876 -8.5873241 -77.438812 -8.5831451 -78.069046 -0.52638781 -92.007149
9211687500 -1.1977358 122.90457 -8.587038 -77.46447 -8.5847521 -78.019875 -0.5263865 -91.94297
9211750000 -1.1905415 122.89872 -8.5941029 -77.45536 -8.583024 -78.030182 -0.53072602 -91.993317
9211812500 -1.1942322 122.85995 -8.5867062 -77.462189 -8.5825062 -77.976601 -0.52977192 -91.944908
9211875000 -1.1981889 122.84254 -8.5909548 -77.43174 -8.5799847 -77.985649 -0.52558923 -91.868523
9211937500 -1.1966799 122.83709 -8.5894823 -77.453392 -8.5856705 -78.013023 -0.5340485 -91.866135
9212000000 -1.1966306 122.77887 -8.5793228 -77.553162 -8.5858507 -77.95285 -0.53024596 -91.805122
9212062500 -1.2005043 122.80874 -8.5879068 -77.406723 -8.5757008 -77.986031 -0.52127522 -91.812653
9212125000 -1.2016834 122.78466 -8.5837154 -77.485443 -8.5827942 -77.967941 -0.53188229 -91.764824
9212187500 -1.1970663 122.77165 -8.5804405 -77.482872 -8.5798826 -77.981926 -0.53143865 -91.755692
9212250000 -1.2006321 122.71828 -8.5807333 -77.4533 -8.5807076 -77.977226 -0.52840853 -91.734085
9212312500 -1.1986277 122.70351 -8.5811825 -77.487518 -8.5661316 -78.005676 -0.52471536 -91.706757
