!Agilent Technologies,N5242A,MY51221714,A.09.90.19
!Agilent N5242A: A.09.90.19
!Date: Saturday, March 16, 2024 10:03:16
!Correction: S11(Full 2 Port(1,2)) 
!S21(Full 2 Port(1,2)) 
!S12(Full 2 Port(1,2)) 
!S22(Full 2 Port(1,2)) 
!S2P File: Measurements: S11, S21, S12, S22:
# Hz S  dB   R 50
9200000000 -0.9101342 127.63998 -9.0309505 -73.106064 -9.0174932 -73.740257 -0.20084624 -93.587585
9200062500 -0.91524905 127.63779 -9.032712 -73.131935 -9.01085 -73.727142 -0.19987862 -93.534805
9200125000 -0.91691869 127.64239 -9.043972 -73.166229 -9.0122643 -73.723114 -0.19690594 -93.524223
9200187500 -0.90935189 127.57446 -9.0367289 -73.132027 -9.014185 -73.709229 -0.20306581 -93.495949
9200250000 -0.91210908 127.58666 -9.0263309 -73.148796 -9.0088511 -73.725883 -0.19982165 -93.521423
9200312500 -0.9041726 127.55215 -9.0189648 -73.184456 -9.00772 -73.754227 -0.20505323 -93.481712
9200375000 -0.91435874 127.55135 -9.0213251 -73.149147 -9.0104713 -73.724731 -0.20174438 -93.461266
9200437500 -0.90764713 127.54821 -9.0248919 -73.172089 -8.9999399 -73.7631 -0.19973756 -93.477768
9200500000 -0.90393984 127.50571 -9.0169792 -73.087975 -9.0047865 -73.737534 -0.20588855 -93.424126
9200562500 -0.90822232 127.51973 -9.0272007 -73.174606 -9.0024805 -73.732071 -0.20652741 -93.434601
9200625000 -0.91315848 127.50585 -9.0246735 -73.106133 -9.009203 -73.719177 -0.21453245 -93.380135
9200687500 -0.91068631 127.51228 -9.0323763 -73.045135 -8.9963322 -73.738548 -0.20832874 -93.344719
9200750000 -0.91303319 127.48014 -9.0263357 -73.047249 -9.0049305 -73.650009 -0.214817 -93.285461
9200812500 -0.91167086 127.45647 -9.030261 -73.079704 -8.99755 -73.730499 -0.21552251 -93.312881
9200875000 -0.9131031 127.44575 -9.0307531 -73.049515 -9.0099535 -73.698265 -0.22240289 -93.243378
9200937500 -0.91675144 127.45129 -9.0266237 -73.059258 -8.9939823 -73.667526 -0.20932917 -93.25013
9201000000 -0.90891451 127.46204 -9.0180712 -73.046852 -9.0058031 -73.684502 -0.21307464 -93.214661
9201062500 -0.90630627 127.40509 -9.0087357 -73.081116 -8.9990149 -73.736992 -0.20598309 -93.2033
9201125000 -0.90732229 127.39232 -9.0068541 -73.066696 -9.0031652 -73.676888 -0.20861734 -93.196129
9201187500 -0.90730691 127.37324 -9.0148535 -73.106827 -8.999258 -73.677757 -0.21356477 -93.20533
9201250000 -0.90929091 127.37138 -9.0097456 -73.088943 -9.000103 -73.673767 -0.20671859 -93.18943
9201312500 -0.91020346 127.36208 -9.0118399 -73.062202 -9.0062132 -73.670219 -0.21369125 -93.138275
9201375000 -0.90977943 127.35855 -9.0119057 -73.11721 -8.9974928 -73.743835 -0.20891377 -93.220123
9201437500 -0.9168362 127.32071 -9.0197878 -73.109894 -8.9967079 -73.721329 -0.2037438 -93.205231
9201500000 -0.91734892 127.35191 -9.0190811 -73.033401 -8.9961882 -73.677643 -0.2122184 -93.148033
9201562500 -0.91147274 127.3004 -9.0220366 -73.092262 -8.996172 -73.677589 -0.20860821 -93.151405
9201625000 -0.90949589 127.30244 -9.0177784 -73.031158 -9.0033474 -73.676414 -0.21021917 -93.111832
9201687500 -0.91363573 127.31077 -9.0114841 -73.057922 -8.9935389 -73.630615 -0.20907067 -93.113396
9201750000 -0.91074055 127.25169 -9.018281 -73.142944 -9.0033979 -73.696426 -0.21948841 -93.139534
9201812500 -0.91205269 127.28183 -9.016221 -73.075294 -8.9954405 -73.654709 -0.21243289 -93.076241
9201875000 -0.90591604 127.22029 -9.0168781 -73.105568 -8.9962454 -73.641144 -0.21207793 -93.002449
9201937500 -0.91066343 127.19416 -9.0141811 -73.062988 -9.0003242 -73.639153 -0.21786675 -93.002579
9202000000 -0.9123984 127.20285 -9.0120821 -73.056717 -8.9906769 -73.613281 -0.21329466 -92.971886
9202062500 -0.91474855 127.17987 -9.0043764 -73.086281 -8.9905653 -73.645462 -0.20957002 -92.974098
9202125000 -0.91067016 127.17028 -8.9997597 -73.109184 -8.9940348 -73.674294 -0.21154517 -92.988518
9202187500 -0.90771896 127.13741 -9.0026655 -73.080009 -8.9953442 -73.643745 -0.2112051 -92.977104
9202250000 -0.90700579 127.16666 -8.9963512 -73.05217 -8.9915352 -73.672028 -0.20865263 -92.937981
9202312500 -0.90750593 127.11975 -8.9909534 -73.11113 -8.994565 -73.692513 -0.2134527 -92.923943
9202375000 -0.90979213 127.13604 -9.0010767 -73.090599 -8.9963675 -73.744293 -0.21318817 -92.940224
9202437500 -0.90854609 127.09868 -8.9911766 -73.084091 -8.9880562 -73.697487 -0.21168099 -92.885483
9202500000 -0.91160375 127.1113 -8.9994659 -73.084625 -8.9957094 -73.65873 -0.21290332 -92.87056
9202562500 -0.91089523 127.08125 -8.9986296 -73.066452 -8.9969921 -73.70771 -0.22441995 -92.865265
9202625000 -0.91276699 127.07449 -9.0000868 -73.095306 -8.9976425 -73.724991 -0.22213204 -92.820732
9202687500 -0.91332442 127.09486 -9.0043755 -72.990257 -8.9925528 -73.687164 -0.22251551 -92.821648
9202750000 -0.91383231 127.06647 -9.002676 -73.05043 -8.984354 -73.638908 -0.21956374 -92.771942
9202812500 -0.911479 127.04136 -9.0018921 -73.011543 -8.9829607 -73.659897 -0.21855952 -92.763542
9202875000 -0.9082737 127.04019 -8.9978256 -73.044106 -8.9922647 -73.62886 -0.22240622 -92.709946
9202937500 -0.90838003 127.01261 -8.9967279 -73.0168 -8.9827118 -73.645233 -0.22307409 -92.702225
9203000000 -0.90871191 126.99827 -8.9949541 -72.995041 -8.9895515 -73.593781 -0.21752547 -92.672981
9203062500 -0.90515423 126.98183 -8.995348 -73.059074 -8.9840126 -73.647186 -0.2222655 -92.656097
9203125000 -0.90921408 126.94656 -8.9924192 -73.048943 -8.9834089 -73.60144 -0.21980362 -92.665146
9203187500 -0.91042334 126.91438 -8.9993706 -73.140099 -8.981782 -73.674728 -0.21586981 -92.684875
9203250000 -0.9104566 126.92976 -8.9962902 -73.090683 -8.9789972 -73.670143 -0.21156928 -92.665077
9203312500 -0.91263479 126.95672 -8.9927998 -73.085159 -8.9843092 -73.658066 -0.2159954 -92.620239
9203375000 -0.91001397 126.93024 -8.9889021 -73.113083 -8.9835787 -73.638702 -0.21826029 -92.56424
9203437500 -0.91122597 126.91103 -8.983284 -73.081451 -8.9826603 -73.632408 -0.22362822 -92.592064
9203500000 -0.90844661 126.8822 -8.995533 -73.063194 -8.9890032 -73.607948 -0.22234982 -92.521469
9203562500 -0.9054361 126.89157 -8.9926977 -73.039017 -8.9938097 -73.689514 -0.22885966 -92.557648
9203625000 -0.90596628 126.86601 -8.9888449 -73.048927 -8.9804897 -73.676003 -0.22683148 -92.525101
9203687500 -0.91595709 126.82565 -8.9906845 -73.063583 -8.9792824 -73.613144 -0.22222258 -92.445992
9203750000 -0.91315323 126.81696 -8.9961777 -72.996201 -8.9819927 -73.643929 -0.2246266 -92.532455
9203812500 -0.91249943 126.77403 -8.9938869 -73.125237 -8.9733162 -73.611237 -0.22482222 -92.487816
9203875000 -0.9095642 126.80817 -8.9904213 -72.979324 -8.9794912 -73.612717 -0.22558238 -92.453148
9203937500 -0.91003674 126.75094 -8.9826097 -73.05497 -8.9746513 -73.63607 -0.22638322 -92.45652
9204000000 -0.90865999 126.7686 -8.9966831 -73.062149 -8.9626837 -73.640884 -0.22349356 -92.44265
9204062500 -0.90456432 126.76218 -8.9967127 -73.093689 -8.9668436 -73.645172 -0.22798827 -92.401474
9204125000 -0.90399718 126.73655 -8.9920998 -73.009445 -8.9634399 -73.555565 -0.22776239 -92.384987
9204187500 -0.90501058 126.74748 -8.9918022 -72.974472 -8.9658413 -73.618355 -0.22653016 -92.378464
9204250000 -0.90301871 126.73945 -8.994956 -72.996147 -8.971611 -73.577507 -0.23282737 -92.335327
9204312500 -0.9049474 126.7282 -8.9890175 -72.953316 -8.9699278 -73.562988 -0.22884749 -92.333389
9204375000 -0.89947069 126.68412 -8.9836454 -73.013351 -8.9683485 -73.574036 -0.23157918 -92.259323
9204437500 -0.90239501 126.68681 -8.9870358 -72.936104 -8.9601669 -73.553246 -0.22126034 -92.250099
9204500000 -0.90231943 126.64271 -8.9823542 -73.009285 -8.9747858 -73.615257 -0.22810811 -92.269379
9204562500 -0.90269393 126.62837 -8.973485 -72.976524 -8.9630327 -73.585297 -0.21630119 -92.244957
9204625000 -0.89750636 126.62586 -8.9744902 -72.995193 -8.9643536 -73.595261 -0.21838792 -92.206085
9204687500 -0.90243655 126.6294 -8.9761095 -72.961586 -8.9727068 -73.578522 -0.22475173 -92.191147
9204750000 -0.90608734 126.59173 -8.9848661 -72.973457 -8.9696398 -73.628098 -0.22604509 -92.213821
9204812500 -0.90350318 126.62032 -8.9752512 -72.974472 -8.9571648 -73.566162 -0.22093667 -92.198746
9204875000 -0.90526545 126.60603 -8.9817228 -72.956734 -8.9691782 -73.558693 -0.22578108 -92.158081
9204937500 -0.90113461 126.57291 -8.9686003 -72.99353 -8.9666023 -73.65435 -0.22709806 -92.210182
9205000000 -0.90338731 126.56215 -8.9716949 -73.009506 -8.9699211 -73.603004 -0.2259834 -92.139061
9205062500 -0.91027665 126.535 -8.9795227 -72.962502 -8.9665604 -73.592918 -0.22502147 -92.157028
9205125000 -0.9151485 126.51698 -8.9714346 -72.964119 -8.9636383 -73.540154 -0.22010073 -92.091888
9205187500 -0.90730977 126.49875 -8.9682894 -72.977592 -8.966115 -73.580002 -0.22081338 -92.106224
9205250000 -0.91226518 126.46236 -8.9688902 -72.969994 -8.9709892 -73.624748 -0.22237381 -92.102966
9205312500 -0.91661829 126.45428 -8.9821844 -72.949188 -8.9650717 -73.650314 -0.22711796 -92.074646
9205375000 -0.91205519 126.40334 -8.9613104 -72.97126 -8.9603806 -73.58213 -0.21875915 -92.060959
9205437500 -0.91182601 126.39156 -8.9715176 -72.980156 -8.9683743 -73.577614 -0.22621904 -92.011169
9205500000 -0.913513 126.41934 -8.9759302 -72.945656 -8.9698954 -73.564125 -0.22726834 -91.986717
9205562500 -0.91322386 126.4056 -8.9641418 -72.981819 -8.9665442 -73.577522 -0.22588183 -92.021553
9205625000 -0.91072112 126.4192 -8.965374 -72.960869 -8.9625196 -73.62236 -0.2204501 -92.017387
9205687500 -0.90815473 126.38934 -8.9629984 -72.990807 -8.964138 -73.53743 -0.22439584 -91.969528
9205750000 -0.90871727 126.39463 -8.9685383 -72.973061 -8.9580193 -73.572647 -0.22080909 -91.976517
9205812500 -0.90849215 126.3746 -8.9684439 -72.981003 -8.9687147 -73.581612 -0.23145257 -91.922272
9205875000 -0.90687412 126.37332 -8.9628983 -72.995026 -8.9535809 -73.547577 -0.22520632 -91.941635
9205937500 -0.90493667 126.35293 -8.9630985 -72.941612 -8.9587021 -73.53038 -0.23011175 -91.886337
9206000000 -0.91019422 126.37252 -8.9693575 -72.899597 -8.9649649 -73.553543 -0.22977847 -91.880318
9206062500 -0.90655398 126.3299 -8.9633398 -72.926849 -8.9595985 -73.486504 -0.23086007 -91.812134
9206125000 -0.90783626 126.28019 -8.9582729 -72.92189 -8.9623928 -73.512894 -0.2265939 -91.786354
9206187500 -0.90789521 126.34911 -8.9576082 -72.894997 -8.9533329 -73.588326 -0.22537214 -91.81559
9206250000 -0.90451568 126.33744 -8.9622107 -72.878944 -8.9530811 -73.536392 -0.22417375 -91.784523
9206312500 -0.90738517 126.30991 -8.9720821 -72.956886 -8.9541092 -73.527458 -0.23014073 -91.765778
9206375000 -0.90369046 126.24159 -8.9647808 -72.949753 -8.9528561 -73.56179 -0.22503802 -91.802002
9206437500 -0.9038505 126.2893 -8.9535465 -72.966629 -8.9508686 -73.549171 -0.22533031 -91.780602
9206500000 -0.90279841 126.26817 -8.9529362 -72.876869 -8.9480753 -73.579826 -0.22340485 -91.696815
9206562500 -0.90847898 126.23244 -8.9570236 -72.962975 -8.9438171 -73.537621 -0.21929984 -91.717636
9206625000 -0.90948433 126.23272 -8.9517212 -72.919777 -8.9296741 -73.496323 -0.21107484 -91.675591
9206687500 -0.90928876 126.2234 -8.948163 -72.922493 -8.9367676 -73.554161 -0.21383682 -91.678375
9206750000 -0.91253769 126.1891 -8.9457912 -72.944366 -8.9376984 -73.567841 -0.21820793 -91.648811
9206812500 -0.91131562 126.18421 -8.9466219 -72.846687 -8.9342995 -73.528931 -0.21504317 -91.637192
9206875000 -0.91078025 126.15689 -8.9438953 -72.863884 -8.9314508 -73.502823 -0.2134866 -91.588463
9206937500 -0.91107541 126.12473 -8.9414835 -72.917755 -8.9401293 -73.504478 -0.22035289 -91.541321
9207000000 -0.90719813 126.13313 -8.9448481 -72.944977 -8.9413719 -73.571953 -0.22516431 -91.625305
9207062500 -0.9072504 126.1082 -8.9434032 -72.880295 -8.9277372 -73.516472 -0.22275208 -91.566551
9207125000 -0.89974189 126.09859 -8.9469748 -72.921761 -8.9438992 -73.532433 -0.23040423 -91.498421
9207187500 -0.90526319 126.0652 -8.9559584 -72.932968 -8.9479675 -73.537727 -0.23210995 -91.568794
9207250000 -0.89830357 126.02568 -8.9542351 -72.955307 -8.9529648 -73.472267 -0.23789252 -91.513313
9207312500 -0.90143907 125.98567 -8.9438162 -72.960701 -8.946825 -73.523872 -0.23667295 -91.506966
9207375000 -0.91023099 125.99193 -8.945014 -72.98555 -8.9454432 -73.523193 -0.23585129 -91.509636
9207437500 -0.90479177 125.98862 -8.9437599 -72.932755 -8.9393291 -73.504021 -0.23209317 -91.489204
9207500000 -0.90889359 125.92428 -8.9500475 -72.967957 -8.9442902 -73.515076 -0.23053285 -91.488342
9207562500 -0.90693355 125.9352 -8.9409761 -72.9356 -8.9340572 -73.541656 -0.23585309 -91.455597
9207625000 -0.90353936 125.90337 -8.9336319 -72.96067 -8.9327507 -73.487144 -0.23437716 -91.440445
9207687500 -0.90530741 125.89464 -8.931674 -72.933418 -8.9371386 -73.554619 -0.23234124 -91.445457
9207750000 -0.91643703 125.89243 -8.9454708 -72.985626 -8.9307938 -73.578606 -0.2279392 -91.433006
9207812500 -0.91540122 125.86896 -8.9357481 -73.009377 -8.9371433 -73.534752 -0.22266123 -91.414459
9207875000 -0.91303343 125.87582 -8.9422398 -72.924904 -8.9323893 -73.5541 -0.21805917 -91.370186
9207937500 -0.91684544 125.91408 -8.9443665 -72.937546 -8.9282017 -73.548157 -0.22036724 -91.314133
9208000000 -0.91865551 125.89677 -8.9426689 -72.92672 -8.9375277 -73.525429 -0.22990164 -91.311035
9208062500 -0.91846502 125.86333 -8.9434261 -72.978569 -8.9344368 -73.496666 -0.22519377 -91.271538
9208125000 -0.91133577 125.84648 -8.9441156 -72.875671 -8.934433 -73.479279 -0.23506497 -91.233078
9208187500 -0.90962195 125.85702 -8.9395485 -72.875595 -8.9306116 -73.508896 -0.23200542 -91.259933
9208250000 -0.91038954 125.83459 -8.9360838 -72.89592 -8.9327707 -73.445648 -0.23458058 -91.156761
9208312500 -0.91233134 125.83842 -8.9386024 -72.874321 -8.9280729 -73.433868 -0.23633498 -91.196182
9208375000 -0.91096085 125.84267 -8.9413242 -72.855659 -8.9372597 -73.478004 -0.24462797 -91.138504
9208437500 -0.9107396 125.83404 -8.9427223 -72.943489 -8.9295893 -73.437592 -0.23949127 -91.150833
9208500000 -0.91578233 125.79319 -8.9463854 -72.871201 -8.9257841 -73.478867 -0.23775825 -91.137306
9208562500 -0.91198993 125.75389 -8.9399872 -72.90715 -8.9279833 -73.489235 -0.23631862 -91.175797
9208625000 -0.90808678 125.71528 -8.9289198 -72.943573 -8.932291 -73.532181 -0.23704696 -91.117973
9208687500 -0.91097206 125.70595 -8.9292154 -72.943497 -8.9221478 -73.466919 -0.23199666 -91.127151
9208750000 -0.91244704 125.64296 -8.9295111 -72.965363 -8.9163656 -73.48159 -0.22710021 -91.093735
9208812500 -0.91195041 125.68641 -8.9336681 -72.916763 -8.9234982 -73.474953 -0.2277047 -91.134979
9208875000 -0.91210407 125.69204 -8.9242029 -72.881523 -8.928072 -73.501305 -0.23662262 -91.129501
9208937500 -0.91249132 125.70631 -8.9362221 -72.951157 -8.9234543 -73.533348 -0.23386227 -91.089706
9209000000 -0.91459507 125.73409 -8.9228172 -72.876564 -8.91996 -73.511261 -0.2307573 -91.09449
9209062500 -0.91228861 125.75168 -8.9292707 -72.810356 -8.9190435 -73.461632 -0.23242143 -91.097755
9209125000 -0.91001695 125.70824 -8.9306669 -72.890877 -8.9222441 -73.48317 -0.2336197 -91.043907
9209187500 -0.91123694 125.65067 -8.9292727 -72.892464 -8.9317751 -73.479271 -0.23666389 -91.029556
9209250000 -0.90746653 125.67283 -8.9196081 -72.873428 -8.9300003 -73.470055 -0.23697713 -90.964478
9209312500 -0.90880311 125.6637 -8.9259043 -72.862625 -8.9303961 -73.501221 -0.24263746 -90.99408
9209375000 -0.90900314 125.63562 -8.9240322 -72.854538 -8.9215736 -73.437851 -0.23349123 -90.955132
9209437500 -0.90324408 125.56662 -8.9111042 -72.894043 -8.9291391 -73.461075 -0.23539475 -90.951683
9209500000 -0.90664423 125.56512 -8.922761 -72.858582 -8.9236794 -73.389732 -0.2379338 -90.869804
9209562500 -0.90962511 125.54425 -8.9216042 -72.856339 -8.9224405 -73.43705 -0.23664004 -90.858475
9209625000 -0.91306114 125.54296 -8.9264069 -72.885773 -8.9199238 -73.441551 -0.22738999 -90.854729
9209687500 -0.91567761 125.55766 -8.9219894 -72.91748 -8.9212351 -73.413666 -0.23811881 -90.84716
9209750000 -0.91450161 125.53001 -8.9171743 -72.90361 -8.9111166 -73.399658 -0.22459134 -90.783722
9209812500 -0.91270357 125.53126 -8.9231119 -72.878433 -8.9180899 -73.442993 -0.23076425 -90.743271
9209875000 -0.9103294 125.51826 -8.913744 -72.913643 -8.9113922 -73.436707 -0.22588979 -90.80307
9209937500 -0.91449052 125.51844 -8.930562 -72.897652 -8.9120951 -73.462059 -0.22728769 -90.790123
9210000000 -0.91310418 125.49136 -8.9161263 -72.906052 -8.9139566 -73.411583 -0.23382427 -90.770332
9210062500 -0.90690434 125.49575 -8.9144115 -72.898674 -8.9112768 -73.405334 -0.22446112 -90.739182
9210125000 -0.9048475 125.42234 -8.9089375 -72.878448 -8.9026842 -73.414436 -0.22040942 -90.674301
9210187500 -0.90186638 125.427 -8.9115849 -72.854652 -8.9116116 -73.354218 -0.22924903 -90.699257
9210250000 -0.9074381 125.42925 -8.9132261 -72.881821 -8.9067125 -73.402054 -0.22828427 -90.676445
9210312500 -0.91147518 125.45977 -8.9144402 -72.855103 -8.9069738 -73.339928 -0.23490414 -90.623787
9210375000 -0.90448141 125.37819 -8.9144726 -72.928825 -8.9144354 -73.396309 -0.23680986 -90.644341
9210437500 -0.90861398 125.3762 -8.9181356 -72.905533 -8.9083595 -73.39859 -0.23603056 -90.639244
9210500000 -0.90834171 125.36864 -8.9160995 -72.836281 -8.9100876 -73.403702 -0.2344894 -90.641487
9210562500 -0.90538466 125.37124 -8.9104137 -72.82856 -8.9127426 -73.431023 -0.24259388 -90.620049
9210625000 -0.90255392 125.29623 -8.9201803 -72.854507 -8.9162254 -73.347267 -0.25428411 -90.566292
9210687500 -0.90227032 125.312 -8.9132242 -72.807083 -8.9170485 -73.378014 -0.24349302 -90.532127
9210750000 -0.90160078 125.29757 -8.9091244 -72.852608 -8.9111729 -73.373001 -0.24256107 -90.550835
9210812500 -0.90894496 125.26166 -8.9116354 -72.894684 -8.9049921 -73.481415 -0.24616796 -90.559074
9210875000 -0.9079349 125.24187 -8.9115124 -72.823334 -8.9066458 -73.431938 -0.24716204 -90.50325
9210937500 -0.90851665 125.23108 -8.9126844 -72.887413 -8.8984995 -73.388779 -0.24167447 -90.476982
9211000000 -0.90618795 125.19855 -8.9139442 -72.829895 -8.9030151 -73.408127 -0.24505532 -90.49128
9211062500 -0.91240191 125.23082 -8.9088259 -72.795158 -8.9010305 -73.396049 -0.23875393 -90.474922
9211125000 -0.9174546 125.22098 -8.9146719 -72.899155 -8.8989878 -73.460083 -0.23682739 -90.490166
9211187500 -0.91092545 125.20441 -8.9063339 -72.82959 -8.9084349 -73.398468 -0.24804749 -90.481522
9211250000 -0.9095096 125.2634 -8.903038 -72.810356 -8.9019041 -73.412605 -0.2369668 -90.460976
9211312500 -0.92018789 125.20035 -8.9101295 -72.926155 -8.9007883 -73.420563 -0.23601736 -90.513222
9211375000 -0.92028171 125.20013 -8.9118805 -72.858742 -8.8909054 -73.427017 -0.23021352 -90.38588
9211437500 -0.91666538 125.20882 -8.9047928 -72.813156 -8.9037895 -73.455688 -0.23464955 -90.391075
9211500000 -0.91631836 125.16927 -8.9020424 -72.827415 -8.8942423 -73.361061 -0.23358697 -90.362701
9211562500 -0.91508627 125.15424 -8.9069309 -72.774513 -8.8973007 -73.398666 -0.24416122 -90.316338
9211625000 -0.91333461 125.12624 -8.900115 -72.8591 -8.8993416 -73.419022 -0.2414597 -90.367088
9211687500 -0.9165343 125.11375 -8.9080448 -72.833878 -8.8980274 -73.430321 -0.24665487 -90.34417
9211750000 -0.91294193 125.07074 -8.8983021 -72.857872 -8.892416 -73.350288 -0.24126847 -90.342842
9211812500 -0.90693051 125.09322 -8.890892 -72.73571 -8.8991442 -73.358627 -0.24404597 -90.26162
9211875000 -0.91599435 125.04391 -8.901473 -72.845375 -8.8951311 -73.362099 -0.23733632 -90.232033
9211937500 -0.91311681 125.01775 -8.8986168 -72.81852 -8.8888578 -73.391563 -0.24565551 -90.245369
9212000000 -0.91358042 125.00003 -8.893549 -72.819969 -8.9006672 -73.306396 -0.25235578 -90.146698
9212062500 -0.91680127 124.96799 -8.8977966 -72.857651 -8.8915215 -73.38118 -0.2434115 -90.185661
9212125000 -0.91516012 124.98391 -8.8892918 -72.872704 -8.8835382 -73.362038 -0.236132 -90.101318
9212187500 -0.91363424 124.94715 -8.885808 -72.882446 -8.8929968 -73.33139 -0.24375382 -90.105621
