!Agilent Technologies,N5242A,MY51221714,A.09.90.19
!Agilent N5242A: A.09.90.19
!Date: Saturday, March 16, 2024 10:04:05
!Correction: S11(Full 2 Port(1,2)) 
!S21(Full 2 Port(1,2)) 
!S12(Full 2 Port(1,2)) 
!S22(Full 2 Port(1,2)) 
!S2P File: Measurements: S11, S21, S12, S22:
# Hz S  dB   R 50
9200000000 -1.0779333 126.32525 -8.871273 -75.897957 -8.8671055 -76.47007 -0.36387166 -94.664482
9200062500 -1.0886462 126.33289 -8.8853531 -75.937187 -8.876627 -76.514397 -0.37110713 -94.689995
9200125000 -1.0901086 126.31854 -8.88692 -75.85614 -8.8663082 -76.482666 -0.36210701 -94.623772
9200187500 -1.0845397 126.32167 -8.8826513 -75.855118 -8.8655272 -76.493195 -0.35963389 -94.593895
9200250000 -1.0801201 126.26801 -8.8744669 -75.887894 -8.8659878 -76.443787 -0.36249191 -94.61055
9200312500 -1.0799007 126.31723 -8.8775139 -75.849266 -8.8616123 -76.513969 -0.36530262 -94.620361
9200375000 -1.0824631 126.2528 -8.8778057 -75.894936 -8.8485193 -76.482109 -0.36142042 -94.597816
9200437500 -1.0788174 126.23101 -8.872385 -75.939972 -8.8565979 -76.498604 -0.36051363 -94.545639
9200500000 -1.0803528 126.24464 -8.8722458 -75.860603 -8.8599615 -76.467537 -0.36676326 -94.504585
9200562500 -1.0798008 126.18489 -8.8742132 -75.878304 -8.8556852 -76.486023 -0.37147263 -94.507225
9200625000 -1.0825946 126.22704 -8.8730488 -75.848511 -8.8543854 -76.481888 -0.36994129 -94.461487
9200687500 -1.0856829 126.1563 -8.8765545 -75.910027 -8.853056 -76.438515 -0.37146497 -94.468231
9200750000 -1.0830358 126.20639 -8.8773727 -75.835793 -8.8443222 -76.485886 -0.37541875 -94.422256
9200812500 -1.0847049 126.17663 -8.8741941 -75.864113 -8.853261 -76.431328 -0.37449864 -94.40126
9200875000 -1.0822027 126.13345 -8.8812284 -75.854187 -8.8504858 -76.371567 -0.3759304 -94.349815
9200937500 -1.0838368 126.15221 -8.8668051 -75.855263 -8.8567791 -76.467216 -0.37830546 -94.349724
9201000000 -1.0790102 126.14641 -8.8685856 -75.812851 -8.8478823 -76.394722 -0.38047498 -94.30751
9201062500 -1.0809755 126.11308 -8.8637209 -75.823654 -8.8574743 -76.442368 -0.38006225 -94.326752
9201125000 -1.0776217 126.11523 -8.8655138 -75.863914 -8.8477545 -76.487267 -0.37636703 -94.30661
9201187500 -1.0796969 126.09468 -8.8586693 -75.86467 -8.8472509 -76.438889 -0.37471536 -94.257736
9201250000 -1.0815603 126.06364 -8.857563 -75.863655 -8.8542871 -76.439949 -0.37926045 -94.264938
9201312500 -1.0811419 126.04155 -8.8671474 -75.870026 -8.8503075 -76.480743 -0.38226432 -94.285439
9201375000 -1.0794967 126.07163 -8.8607283 -75.928177 -8.8549633 -76.403351 -0.37726685 -94.273682
9201437500 -1.0846567 126.03653 -8.8715181 -75.890732 -8.8472795 -76.425438 -0.37166792 -94.243797
9201500000 -1.0845621 126.01837 -8.8612385 -75.843773 -8.8474321 -76.484573 -0.37152684 -94.28022
9201562500 -1.0858654 126.01886 -8.8566723 -75.882629 -8.8478498 -76.472534 -0.36991358 -94.27729
9201625000 -1.0845919 125.9733 -8.8713675 -75.837662 -8.8485136 -76.42717 -0.37173218 -94.216423
9201687500 -1.0820675 125.99858 -8.8542328 -75.803093 -8.8429222 -76.386024 -0.37114051 -94.203896
9201750000 -1.0835512 125.95661 -8.8672495 -75.888664 -8.8427258 -76.414642 -0.37733927 -94.123802
9201812500 -1.0867507 125.96246 -8.8661137 -75.870995 -8.8419065 -76.392265 -0.37973168 -94.166031
9201875000 -1.0845263 125.94163 -8.854332 -75.822029 -8.8452034 -76.415054 -0.37893859 -94.106712
9201937500 -1.0862035 125.91263 -8.8628683 -75.856613 -8.8405561 -76.421394 -0.37835881 -94.1007
9202000000 -1.0848987 125.9005 -8.8494978 -75.862335 -8.8404293 -76.374741 -0.37551916 -94.046257
9202062500 -1.0807226 125.89699 -8.8550854 -75.85952 -8.8409986 -76.438736 -0.38084933 -94.067078
9202125000 -1.0794004 125.87753 -8.8507538 -75.85379 -8.8408365 -76.424965 -0.37706921 -94.071205
9202187500 -1.0822885 125.8761 -8.8540287 -75.849533 -8.8548689 -76.43309 -0.38304204 -94.05983
9202250000 -1.0863144 125.85175 -8.8530359 -75.835663 -8.8406544 -76.456764 -0.38045824 -94.025475
9202312500 -1.0823916 125.86755 -8.8429718 -75.762367 -8.8403101 -76.431717 -0.37042478 -94.012939
9202375000 -1.0857986 125.86121 -8.845273 -75.834579 -8.838953 -76.47097 -0.3715826 -94.03981
9202437500 -1.0840614 125.8196 -8.8415785 -75.805405 -8.8406973 -76.441483 -0.37888804 -93.960663
9202500000 -1.0848753 125.78175 -8.8467445 -75.845085 -8.8387642 -76.410416 -0.38050351 -93.979439
9202562500 -1.0856944 125.80789 -8.8435602 -75.816689 -8.8476648 -76.436394 -0.38859516 -93.948265
9202625000 -1.0841398 125.79217 -8.8458452 -75.880211 -8.8338089 -76.408165 -0.38204122 -93.929886
9202687500 -1.0879879 125.77063 -8.8557549 -75.825729 -8.83249 -76.443527 -0.38471234 -93.900711
9202750000 -1.0879877 125.76826 -8.8516617 -75.836678 -8.8343277 -76.415398 -0.38561851 -93.870865
9202812500 -1.0875229 125.74718 -8.8436899 -75.83416 -8.8385124 -76.385002 -0.38855508 -93.84977
9202875000 -1.0828761 125.70336 -8.848052 -75.885803 -8.8374891 -76.441551 -0.37993819 -93.856987
9202937500 -1.0791768 125.69617 -8.8410292 -75.850281 -8.8397007 -76.405754 -0.38431752 -93.828995
9203000000 -1.090023 125.71462 -8.8409758 -75.746513 -8.8275204 -76.426743 -0.37910652 -93.839188
9203062500 -1.0854294 125.65379 -8.8443594 -75.88369 -8.8297329 -76.445351 -0.38111588 -93.823555
9203125000 -1.0849264 125.63031 -8.8489962 -75.839851 -8.8360443 -76.450722 -0.38272613 -93.764343
9203187500 -1.0798546 125.66869 -8.8471594 -75.838478 -8.8320827 -76.425255 -0.38168302 -93.718346
9203250000 -1.0896243 125.64815 -8.8364496 -75.824615 -8.8300982 -76.456268 -0.38132358 -93.740463
9203312500 -1.0878261 125.61871 -8.8440189 -75.829964 -8.8295546 -76.417122 -0.37827995 -93.710175
9203375000 -1.0867002 125.62653 -8.8415508 -75.824471 -8.8325768 -76.43959 -0.38306865 -93.69883
9203437500 -1.0884128 125.62517 -8.8444929 -75.846382 -8.8265562 -76.421448 -0.38312906 -93.662277
9203500000 -1.0865271 125.59086 -8.8461075 -75.858437 -8.8384762 -76.396927 -0.38671014 -93.61866
9203562500 -1.0840111 125.57046 -8.8399773 -75.85891 -8.8349791 -76.394936 -0.38481101 -93.62989
9203625000 -1.085681 125.55952 -8.8453531 -75.835274 -8.8307066 -76.388832 -0.39278772 -93.583122
9203687500 -1.0848963 125.54137 -8.833993 -75.882057 -8.8269005 -76.413521 -0.38913807 -93.586891
9203750000 -1.0855408 125.48417 -8.8229532 -75.876091 -8.825695 -76.37236 -0.3884947 -93.603462
9203812500 -1.0795895 125.47494 -8.8324699 -75.875259 -8.837841 -76.391617 -0.4001452 -93.572884
9203875000 -1.0844463 125.47175 -8.8339882 -75.851181 -8.8308773 -76.371605 -0.39922592 -93.573425
9203937500 -1.0845574 125.46838 -8.8267384 -75.818993 -8.8229561 -76.385658 -0.39239332 -93.497292
9204000000 -1.0826389 125.43036 -8.8368273 -75.822746 -8.8133411 -76.359421 -0.3905673 -93.518738
9204062500 -1.0798517 125.44821 -8.8344011 -75.821785 -8.8157425 -76.333076 -0.39453572 -93.460396
9204125000 -1.0803298 125.45413 -8.8378887 -75.848793 -8.8136244 -76.341393 -0.39072028 -93.501526
9204187500 -1.0767465 125.41219 -8.8432274 -75.846542 -8.8179369 -76.368507 -0.39807042 -93.455772
9204250000 -1.0816845 125.40688 -8.8410606 -75.837097 -8.8130989 -76.368195 -0.39922777 -93.453194
9204312500 -1.0790727 125.42587 -8.8356466 -75.763039 -8.8123608 -76.415779 -0.39680281 -93.452431
9204375000 -1.0751057 125.36833 -8.8261795 -75.792854 -8.8116789 -76.394318 -0.38915357 -93.39711
9204437500 -1.079698 125.3735 -8.8337965 -75.75209 -8.8198624 -76.374054 -0.39175624 -93.357948
9204500000 -1.0734466 125.32667 -8.8283052 -75.771965 -8.8156605 -76.371887 -0.39112294 -93.35125
9204562500 -1.0795248 125.30131 -8.8285475 -75.80735 -8.8178644 -76.340889 -0.38636753 -93.350899
9204625000 -1.079688 125.3253 -8.820199 -75.802597 -8.8129749 -76.353676 -0.38555914 -93.328041
9204687500 -1.0810502 125.31037 -8.8289175 -75.768616 -8.8134937 -76.367325 -0.38829693 -93.312302
9204750000 -1.0799019 125.31268 -8.8320465 -75.78183 -8.8113155 -76.406822 -0.38987389 -93.329094
9204812500 -1.0772719 125.30623 -8.8187094 -75.748291 -8.8138571 -76.409325 -0.39339006 -93.353302
9204875000 -1.0835685 125.32804 -8.8310366 -75.760269 -8.814784 -76.359566 -0.3918263 -93.249893
9204937500 -1.0848225 125.26982 -8.8267984 -75.756027 -8.8044529 -76.376503 -0.37885597 -93.271973
9205000000 -1.0874194 125.31149 -8.8286915 -75.75325 -8.8081923 -76.388802 -0.39226004 -93.238487
9205062500 -1.0863822 125.23615 -8.8223906 -75.829315 -8.8063631 -76.374779 -0.39002141 -93.245941
9205125000 -1.0848352 125.25092 -8.8181067 -75.763176 -8.8131189 -76.375648 -0.39192602 -93.216705
9205187500 -1.0854396 125.19257 -8.8144865 -75.75576 -8.8104753 -76.400513 -0.38930336 -93.186935
9205250000 -1.086762 125.17461 -8.8151007 -75.76844 -8.8062792 -76.347404 -0.3863585 -93.161354
9205312500 -1.0917764 125.14248 -8.8245888 -75.78875 -8.8012886 -76.422256 -0.3878873 -93.217773
9205375000 -1.0866437 125.16757 -8.8143816 -75.715561 -8.8121767 -76.419952 -0.38784173 -93.181503
9205437500 -1.0876622 125.11452 -8.8084984 -75.776199 -8.8097296 -76.384506 -0.38986275 -93.172348
9205500000 -1.0881829 125.11369 -8.8251381 -75.733292 -8.8106508 -76.366646 -0.38744342 -93.119881
9205562500 -1.0888313 125.09071 -8.8113127 -75.769745 -8.8036966 -76.346786 -0.39027008 -93.102509
9205625000 -1.0853115 125.0875 -8.8095703 -75.82412 -8.8085146 -76.350502 -0.389925 -93.109123
9205687500 -1.0862024 125.11583 -8.8187771 -75.769287 -8.806345 -76.37796 -0.39483437 -93.083885
9205750000 -1.0862743 125.10019 -8.8127422 -75.756271 -8.8086157 -76.356476 -0.39401549 -93.077179
9205812500 -1.0854105 125.0572 -8.8073759 -75.783997 -8.8075113 -76.35128 -0.39211789 -93.048035
9205875000 -1.0765649 125.05628 -8.8089409 -75.784706 -8.8068266 -76.331253 -0.39080608 -93.024208
9205937500 -1.0809985 125.02778 -8.8048315 -75.766563 -8.8093653 -76.327667 -0.39661384 -93.000069
9206000000 -1.0826997 125.05332 -8.8180828 -75.697632 -8.8083563 -76.342369 -0.3979533 -92.944687
9206062500 -1.0894407 125.01709 -8.816328 -75.783905 -8.8042316 -76.327156 -0.3915804 -92.942749
9206125000 -1.0800774 125.00321 -8.8028345 -75.755272 -8.8054438 -76.296501 -0.39062113 -92.926285
9206187500 -1.0855138 124.99866 -8.8133879 -75.757103 -8.8026886 -76.31488 -0.39000463 -92.899994
9206250000 -1.0798284 125.01496 -8.803483 -75.631248 -8.7999582 -76.311623 -0.3897137 -92.867088
9206312500 -1.0841297 125.00742 -8.8029156 -75.777786 -8.7913771 -76.343887 -0.38850924 -92.899101
9206375000 -1.081118 124.98383 -8.8012524 -75.724571 -8.796773 -76.309532 -0.39463919 -92.87925
9206437500 -1.0772613 124.9421 -8.7952528 -75.847931 -8.7970524 -76.331741 -0.39096668 -92.81855
9206500000 -1.0801587 124.94511 -8.7973709 -75.694115 -8.7912369 -76.390114 -0.39456379 -92.876114
9206562500 -1.0862947 124.95344 -8.7981167 -75.705338 -8.7845545 -76.337852 -0.38991058 -92.815636
9206625000 -1.087441 124.94589 -8.797472 -75.660225 -8.7893705 -76.314461 -0.38889366 -92.78624
9206687500 -1.0864676 124.88826 -8.798892 -75.667831 -8.7846346 -76.347382 -0.38741419 -92.734001
9206750000 -1.0923814 124.89871 -8.7938471 -75.691437 -8.7756557 -76.333519 -0.38544095 -92.749184
9206812500 -1.0853876 124.87355 -8.7853556 -75.70887 -8.7850084 -76.326492 -0.37954253 -92.680618
9206875000 -1.0914881 124.85546 -8.7879372 -75.734512 -8.7776966 -76.377724 -0.38501006 -92.70092
9206937500 -1.0857232 124.8229 -8.7931948 -75.743492 -8.7792149 -76.328529 -0.38389066 -92.697151
9207000000 -1.0859541 124.82932 -8.7907429 -75.726547 -8.781744 -76.371986 -0.39244726 -92.669937
9207062500 -1.0869547 124.81295 -8.7908649 -75.67244 -8.7901478 -76.357765 -0.39797357 -92.702705
9207125000 -1.0808871 124.7821 -8.7896299 -75.727486 -8.7815418 -76.341881 -0.39617079 -92.661903
9207187500 -1.0821075 124.73901 -8.7981224 -75.806465 -8.7905378 -76.331932 -0.4001151 -92.641228
9207250000 -1.0829479 124.74426 -8.8005352 -75.711441 -8.7842875 -76.301361 -0.3945882 -92.618271
9207312500 -1.0824324 124.67175 -8.8001986 -75.757484 -8.7861004 -76.292061 -0.40282625 -92.599457
9207375000 -1.0807652 124.67297 -8.7892799 -75.799675 -8.7853327 -76.346321 -0.40656379 -92.660721
9207437500 -1.0819172 124.65281 -8.7886047 -75.769806 -8.7845325 -76.316299 -0.39357141 -92.599823
9207500000 -1.0781238 124.67896 -8.7886925 -75.693726 -8.7818546 -76.305916 -0.40025738 -92.570503
9207562500 -1.0870012 124.60789 -8.7888746 -75.829666 -8.77495 -76.32795 -0.4005132 -92.557922
9207625000 -1.0854367 124.58427 -8.7946882 -75.806114 -8.7814331 -76.341965 -0.40573201 -92.530952
9207687500 -1.0871022 124.60917 -8.7810135 -75.774086 -8.7787409 -76.335854 -0.3977671 -92.564003
9207750000 -1.0852102 124.59367 -8.7771797 -75.770264 -8.7771273 -76.324043 -0.39471105 -92.505333
9207812500 -1.0909241 124.60264 -8.7841167 -75.785301 -8.7734919 -76.365227 -0.38703674 -92.507492
9207875000 -1.0947553 124.58157 -8.7928276 -75.746468 -8.7766876 -76.288673 -0.38961327 -92.459808
9207937500 -1.0922641 124.57687 -8.7881784 -75.730675 -8.7724371 -76.359398 -0.39113513 -92.467392
9208000000 -1.0902079 124.57969 -8.7860079 -75.765991 -8.7783194 -76.336891 -0.38878185 -92.399078
9208062500 -1.0926344 124.5882 -8.792038 -75.709671 -8.7763748 -76.403168 -0.39324778 -92.419373
9208125000 -1.0867829 124.54913 -8.7849617 -75.716614 -8.7680149 -76.374779 -0.39412484 -92.384193
9208187500 -1.0870209 124.55697 -8.7779808 -75.676025 -8.7828102 -76.333046 -0.40495831 -92.356392
9208250000 -1.0882566 124.5135 -8.7814941 -75.707489 -8.7787561 -76.256233 -0.40163195 -92.306389
9208312500 -1.0875576 124.52621 -8.7834921 -75.678398 -8.7688227 -76.24955 -0.39779168 -92.327637
9208375000 -1.0904206 124.50009 -8.7821875 -75.738968 -8.7756538 -76.275932 -0.41011888 -92.275772
9208437500 -1.0927361 124.47855 -8.789032 -75.705734 -8.76439 -76.288521 -0.39778545 -92.317009
9208500000 -1.0864961 124.45805 -8.7754126 -75.720596 -8.7699633 -76.287811 -0.39932978 -92.273453
9208562500 -1.0833452 124.46292 -8.7754154 -75.672234 -8.7730331 -76.319145 -0.4017396 -92.272606
9208625000 -1.085675 124.41514 -8.7820978 -75.840927 -8.7641029 -76.292091 -0.40049115 -92.256927
9208687500 -1.0854802 124.43158 -8.7779436 -75.749138 -8.7597723 -76.280197 -0.39731506 -92.233833
9208750000 -1.0897319 124.38972 -8.7751226 -75.784149 -8.7603083 -76.286697 -0.39724168 -92.236603
9208812500 -1.0908175 124.3884 -8.7775431 -75.836548 -8.7698288 -76.280266 -0.40021202 -92.163979
9208875000 -1.0805951 124.39803 -8.7622452 -75.713867 -8.7707348 -76.28936 -0.40086937 -92.21003
9208937500 -1.0893011 124.39128 -8.7678614 -75.774055 -8.7646103 -76.265846 -0.39591631 -92.165771
9209000000 -1.0854554 124.41898 -8.7672548 -75.731308 -8.7686329 -76.309555 -0.40596771 -92.183907
9209062500 -1.0922174 124.38033 -8.7721024 -75.693291 -8.7633982 -76.241325 -0.40163642 -92.168114
9209125000 -1.087123 124.41843 -8.7711611 -75.706223 -8.7717628 -76.283585 -0.40732646 -92.107956
9209187500 -1.0854219 124.36936 -8.7628307 -75.710838 -8.7665491 -76.254219 -0.40443933 -92.124367
9209250000 -1.0864605 124.36902 -8.7631111 -75.719261 -8.765131 -76.27179 -0.40371794 -92.075081
9209312500 -1.087759 124.33917 -8.7682657 -75.762444 -8.7626724 -76.272293 -0.40430275 -92.076508
9209375000 -1.0885018 124.28868 -8.7673721 -75.783012 -8.7611599 -76.205727 -0.3963396 -92.028381
9209437500 -1.0887159 124.31524 -8.7585802 -75.655197 -8.7693319 -76.272049 -0.40526557 -91.9907
9209500000 -1.0876062 124.29255 -8.7624483 -75.668022 -8.7672806 -76.280251 -0.40410188 -92.042473
9209562500 -1.0904596 124.28675 -8.7674313 -75.720985 -8.7642441 -76.213676 -0.40390873 -91.973747
9209625000 -1.0932746 124.2586 -8.762579 -75.714355 -8.7580805 -76.271736 -0.3985945 -91.957428
9209687500 -1.0872995 124.20979 -8.7551661 -75.783745 -8.7610378 -76.265297 -0.40102729 -91.960144
9209750000 -1.0901376 124.2015 -8.7576313 -75.76548 -8.7579288 -76.289253 -0.40168193 -91.936401
9209812500 -1.0877012 124.2059 -8.7505255 -75.712708 -8.7596779 -76.24379 -0.40114412 -91.914726
9209875000 -1.0848687 124.18285 -8.7531157 -75.726898 -8.7480936 -76.273483 -0.39337218 -91.903122
9209937500 -1.0859714 124.15746 -8.7593803 -75.778999 -8.7563305 -76.272621 -0.39732614 -91.85984
9210000000 -1.0879959 124.17584 -8.7521849 -75.705917 -8.7491608 -76.260056 -0.3908138 -91.845879
9210062500 -1.090794 124.15398 -8.7594137 -75.707932 -8.7422371 -76.22216 -0.38993269 -91.869598
9210125000 -1.087516 124.12737 -8.7494402 -75.713531 -8.7506952 -76.256348 -0.39746505 -91.838661
9210187500 -1.0858065 124.1143 -8.7525015 -75.705093 -8.7478037 -76.192688 -0.3949151 -91.802246
9210250000 -1.0835316 124.09648 -8.7553043 -75.666595 -8.7561302 -76.217682 -0.39676765 -91.792305
9210312500 -1.0849032 124.11043 -8.7583351 -75.699585 -8.7462959 -76.200951 -0.39864656 -91.753464
9210375000 -1.0852723 124.06245 -8.7529945 -75.721466 -8.7478752 -76.226852 -0.40445089 -91.777756
9210437500 -1.0850559 124.06969 -8.7614841 -75.699043 -8.7463551 -76.268814 -0.40640229 -91.750954
9210500000 -1.0860089 124.03685 -8.7533379 -75.748886 -8.7532072 -76.261002 -0.40942767 -91.738136
9210562500 -1.0890139 124.0406 -8.7596388 -75.643715 -8.7559347 -76.176674 -0.41222754 -91.691605
9210625000 -1.0780276 124.0255 -8.7587423 -75.7118 -8.756381 -76.23877 -0.41928798 -91.747795
9210687500 -1.0874982 123.95751 -8.7603264 -75.682106 -8.7499485 -76.165764 -0.4098497 -91.639465
9210750000 -1.0864047 123.9937 -8.7603245 -75.688896 -8.7445402 -76.225342 -0.4145005 -91.686447
9210812500 -1.0839479 123.95879 -8.7552347 -75.664635 -8.7427502 -76.222244 -0.40675676 -91.669403
9210875000 -1.0839515 123.89995 -8.7510576 -75.682503 -8.7403584 -76.240021 -0.41156143 -91.614326
9210937500 -1.084951 123.88477 -8.7565689 -75.705582 -8.7425022 -76.258728 -0.41237974 -91.586784
9211000000 -1.0844513 123.89368 -8.7445688 -75.641235 -8.7441187 -76.211937 -0.4130533 -91.575348
9211062500 -1.0875548 123.9118 -8.7525797 -75.655289 -8.7475986 -76.248169 -0.40933782 -91.591698
9211125000 -1.0908895 123.90351 -8.755578 -75.650467 -8.7348146 -76.258896 -0.40868503 -91.592522
9211187500 -1.0957597 123.88075 -8.7443256 -75.69838 -8.7363186 -76.258575 -0.40326008 -91.615936
9211250000 -1.0938882 123.84828 -8.7477798 -75.755074 -8.7381611 -76.225426 -0.40632576 -91.614334
9211312500 -1.0958668 123.89845 -8.7583485 -75.689133 -8.743968 -76.288277 -0.40856755 -91.631767
9211375000 -1.0937011 123.88441 -8.7443314 -75.726372 -8.7455931 -76.295288 -0.40609634 -91.509666
9211437500 -1.0958109 123.87088 -8.7459764 -75.693352 -8.7349358 -76.310036 -0.40106153 -91.539001
9211500000 -1.0926359 123.8377 -8.7400675 -75.692238 -8.7448359 -76.250664 -0.40708297 -91.455025
9211562500 -1.0974703 123.82538 -8.7456808 -75.694191 -8.7419796 -76.219643 -0.40916523 -91.463585
9211625000 -1.096792 123.82198 -8.7529573 -75.686844 -8.7372112 -76.213448 -0.41021428 -91.443062
9211687500 -1.1004411 123.79137 -8.7461576 -75.671585 -8.7341051 -76.219421 -0.41033721 -91.462494
9211750000 -1.0893075 123.74828 -8.7412777 -75.681114 -8.7454624 -76.2118 -0.42120138 -91.463997
9211812500 -1.0899944 123.73795 -8.7393999 -75.700302 -8.7396259 -76.267151 -0.41573724 -91.422394
9211875000 -1.0964478 123.71822 -8.7429218 -75.747314 -8.7288885 -76.217972 -0.41476268 -91.376183
9211937500 -1.0949049 123.70507 -8.7416906 -75.731079 -8.7434931 -76.244698 -0.41966367 -91.381256
9212000000 -1.0950722 123.66641 -8.7356596 -75.694221 -8.7335587 -76.212273 -0.41688883 -91.313644
9212062500 -1.0993649 123.66182 -8.734766 -75.727982 -8.7350636 -76.213249 -0.41843444 -91.269524
9212125000 -1.0943183 123.62325 -8.7315321 -75.72377 -8.7328329 -76.184341 -0.41226134 -91.207413
9212187500 -1.0959202 123.62395 -8.7316351 -75.664742 -8.7348843 -76.207329 -0.41189626 -91.23568
9212250000 -1.1024922 123.59335 -8.7401714 -75.699585 -8.7297535 -76.231529 -0.41916642 -91.192108
9212312500 -1.0962745 123.63486 -8.7331276 -75.648941 -8.7250538 -76.220589 -0.41605338 -91.187363
