!Agilent Technologies,N5242A,MY51221714,A.09.90.19
!Agilent N5242A: A.09.90.19
!Date: Saturday, March 16, 2024 10:04:59
!Correction: S11(Full 2 Port(1,2)) 
!S21(Full 2 Port(1,2)) 
!S12(Full 2 Port(1,2)) 
!S22(Full 2 Port(1,2)) 
!S2P File: Measurements: S11, S21, S12, S22:
# Hz S  dB   R 50
9200000000 -0.88614434 127.68067 -9.0797863 -72.621437 -9.0659962 -73.177734 -0.15626325 -92.991096
9200062500 -0.87840891 127.72342 -9.0710449 -72.50988 -9.0570641 -73.145088 -0.15431277 -92.976578
9200125000 -0.88737142 127.69517 -9.0785999 -72.541695 -9.0615005 -73.204979 -0.15172628 -93.016869
9200187500 -0.88304931 127.65501 -9.0716438 -72.605995 -9.0705118 -73.110321 -0.16162525 -92.935074
9200250000 -0.87956691 127.65668 -9.0736628 -72.55954 -9.0515575 -73.134018 -0.15051289 -92.944305
9200312500 -0.87341267 127.63002 -9.0702143 -72.577469 -9.0581007 -73.15567 -0.15640159 -92.937439
9200375000 -0.87547559 127.64894 -9.0723867 -72.571907 -9.052227 -73.160225 -0.15420531 -92.888351
9200437500 -0.87831199 127.62366 -9.0709019 -72.579918 -9.0569019 -73.107918 -0.15801711 -92.883011
9200500000 -0.8821106 127.57206 -9.0622845 -72.582413 -9.0530672 -73.122406 -0.15535253 -92.875977
9200562500 -0.87707728 127.58891 -9.0732937 -72.548119 -9.0543013 -73.119652 -0.1584038 -92.853226
9200625000 -0.88230169 127.55575 -9.0666895 -72.529594 -9.0425196 -73.091805 -0.15879036 -92.857262
9200687500 -0.87745833 127.57218 -9.0690136 -72.537842 -9.0529308 -73.197845 -0.16555671 -92.80085
9200750000 -0.88124466 127.57587 -9.0763998 -72.50106 -9.0386324 -73.103027 -0.15993957 -92.762985
9200812500 -0.88160557 127.51394 -9.0800343 -72.441116 -9.0488758 -73.064079 -0.16936174 -92.71093
9200875000 -0.87996548 127.54284 -9.0700321 -72.421707 -9.0495501 -73.094284 -0.16746336 -92.666649
9200937500 -0.87897038 127.53012 -9.066968 -72.451035 -9.0420542 -73.130249 -0.16151711 -92.690681
9201000000 -0.880597 127.46931 -9.0670576 -72.539139 -9.0508356 -73.138123 -0.17025059 -92.683411
9201062500 -0.87189406 127.53169 -9.0626612 -72.444824 -9.0531273 -73.113029 -0.1631927 -92.664375
9201125000 -0.87570632 127.47727 -9.0557852 -72.552704 -9.0452328 -73.060448 -0.15894145 -92.632538
9201187500 -0.87418729 127.4377 -9.0538416 -72.505531 -9.0483103 -73.065651 -0.16308869 -92.60923
9201250000 -0.8747676 127.4748 -9.0535536 -72.531746 -9.0548887 -73.069504 -0.1661834 -92.582932
9201312500 -0.8757987 127.43184 -9.0561228 -72.483475 -9.0474911 -73.085396 -0.1632421 -92.634903
9201375000 -0.88015687 127.3923 -9.0662642 -72.495178 -9.0398026 -73.082962 -0.15762386 -92.619431
9201437500 -0.88280076 127.41713 -9.0579309 -72.517113 -9.0536451 -73.121094 -0.16374551 -92.634895
9201500000 -0.88066006 127.39783 -9.0606213 -72.523674 -9.0556469 -73.064949 -0.16530602 -92.619896
9201562500 -0.88278681 127.39587 -9.0725737 -72.497437 -9.0434055 -73.112411 -0.1612938 -92.548393
9201625000 -0.88298136 127.35046 -9.0659275 -72.574043 -9.0447474 -73.096588 -0.15631078 -92.584061
9201687500 -0.88499594 127.37337 -9.0787668 -72.493645 -9.0471115 -73.127365 -0.1665033 -92.511131
9201750000 -0.88023049 127.32381 -9.0595694 -72.471344 -9.0478344 -73.051422 -0.15841982 -92.495407
9201812500 -0.88277507 127.33941 -9.0639191 -72.436371 -9.0424442 -73.050087 -0.17200111 -92.471832
9201875000 -0.87754518 127.30045 -9.062561 -72.473557 -9.0444307 -73.08271 -0.16253017 -92.498878
9201937500 -0.87749976 127.25314 -9.0529346 -72.567398 -9.0434418 -73.057068 -0.16618364 -92.421837
9202000000 -0.8767733 127.28355 -9.0531836 -72.484955 -9.043355 -72.99675 -0.16848499 -92.377892
9202062500 -0.87460017 127.29134 -9.0428267 -72.468964 -9.0476131 -73.096779 -0.16820209 -92.44603
9202125000 -0.88305044 127.26038 -9.0497561 -72.47525 -9.0468149 -73.099098 -0.16824482 -92.368782
9202187500 -0.87385255 127.22577 -9.0391245 -72.433357 -9.038043 -73.069824 -0.16179927 -92.379631
9202250000 -0.87662923 127.2067 -9.046629 -72.488556 -9.0366125 -73.024849 -0.15742278 -92.341667
9202312500 -0.87609887 127.21498 -9.0353746 -72.47216 -9.0385389 -73.063805 -0.16010818 -92.367172
9202375000 -0.87787491 127.18319 -9.0462666 -72.485886 -9.037816 -73.085182 -0.15998468 -92.319008
9202437500 -0.88166481 127.2193 -9.0433865 -72.453552 -9.0284929 -73.084969 -0.16072994 -92.306938
9202500000 -0.87806427 127.20536 -9.0383205 -72.455132 -9.0387917 -73.12616 -0.17166223 -92.295036
9202562500 -0.88178217 127.15377 -9.0455751 -72.493774 -9.0417395 -73.054756 -0.17229415 -92.22007
9202625000 -0.87984341 127.19967 -9.0481157 -72.42791 -9.0414391 -73.062233 -0.17471567 -92.218864
9202687500 -0.88048464 127.14531 -9.0485344 -72.458435 -9.0378304 -73.104317 -0.17610148 -92.236595
9202750000 -0.88671374 127.12659 -9.0563259 -72.491875 -9.0411119 -73.131889 -0.1744975 -92.244522
9202812500 -0.87906754 127.09982 -9.0470743 -72.469269 -9.0389977 -73.074402 -0.1686085 -92.188972
9202875000 -0.87971145 127.09982 -9.0493412 -72.459831 -9.0268316 -73.005768 -0.16337444 -92.180771
9202937500 -0.8835845 127.08514 -9.0524082 -72.517807 -9.0371704 -73.029175 -0.17219444 -92.179657
9203000000 -0.87816876 127.04261 -9.044075 -72.45298 -9.03405 -72.995384 -0.17019477 -92.087257
9203062500 -0.88418794 127.06407 -9.0463018 -72.477463 -9.0329123 -73.035393 -0.17034236 -92.116005
9203125000 -0.87694097 127.00532 -9.0353241 -72.480034 -9.0374107 -73.039001 -0.17138353 -92.079597
9203187500 -0.88082713 127.01762 -9.0361195 -72.4701 -9.0304127 -73.044029 -0.16710125 -92.090363
9203250000 -0.87809134 127.01528 -9.0412416 -72.526581 -9.0325527 -73.097687 -0.17237748 -92.090706
9203312500 -0.87974685 127.02227 -9.0351906 -72.451653 -9.0314245 -73.084381 -0.16952726 -92.058708
9203375000 -0.88047564 127.00476 -9.0362682 -72.437202 -9.0254469 -73.037743 -0.16447847 -92.020187
9203437500 -0.87920845 126.99142 -9.0380039 -72.462975 -9.0297365 -73.106247 -0.17154869 -92.046349
9203500000 -0.87678075 126.95497 -9.0382891 -72.445587 -9.0294971 -73.054672 -0.1707187 -91.980415
9203562500 -0.87848198 126.95005 -9.0434027 -72.465118 -9.031908 -73.026443 -0.16676106 -91.954956
9203625000 -0.8775 126.92529 -9.0310974 -72.494377 -9.0298824 -73.024597 -0.1771162 -91.934303
9203687500 -0.87696648 126.908 -9.0342817 -72.47686 -9.0258093 -73.048103 -0.17337295 -91.93026
9203750000 -0.88401419 126.89486 -9.029871 -72.481285 -9.0264921 -73.044922 -0.17216827 -91.896111
9203812500 -0.88057333 126.86421 -9.0345173 -72.440224 -9.0328054 -73.036949 -0.17845501 -91.893478
9203875000 -0.87878776 126.85836 -9.0350513 -72.456985 -9.0272617 -72.98568 -0.17619903 -91.889694
9203937500 -0.8782801 126.83022 -9.0406113 -72.429695 -9.0144215 -72.968948 -0.17679934 -91.817978
9204000000 -0.8773219 126.82146 -9.0340414 -72.454018 -9.018343 -73.041214 -0.17821078 -91.837349
9204062500 -0.87454486 126.86649 -9.0358114 -72.44838 -9.0266562 -73.048767 -0.18626191 -91.838829
9204125000 -0.87429166 126.81094 -9.0375414 -72.451927 -9.0271111 -72.969643 -0.18885672 -91.773674
9204187500 -0.87496173 126.79549 -9.0327158 -72.470688 -9.0165606 -73.013985 -0.18219262 -91.820595
9204250000 -0.87317002 126.7845 -9.0405149 -72.439354 -9.0096836 -73.033913 -0.18581764 -91.805199
9204312500 -0.86999899 126.77764 -9.0336533 -72.416641 -9.0154419 -72.981209 -0.18388672 -91.778572
9204375000 -0.87094074 126.76167 -9.023962 -72.449074 -9.0128822 -73.016022 -0.17304589 -91.743065
9204437500 -0.8698988 126.73074 -9.0254831 -72.400917 -9.0162659 -73.010696 -0.17353326 -91.757515
9204500000 -0.87362713 126.72587 -9.0199347 -72.374313 -9.0096722 -73.009323 -0.17203042 -91.721626
9204562500 -0.86967099 126.69941 -9.0279751 -72.405571 -9.0105152 -72.978027 -0.16905601 -91.636292
9204625000 -0.86912066 126.68439 -9.0295753 -72.37178 -9.0170546 -72.942818 -0.17613457 -91.620087
9204687500 -0.87000501 126.68844 -9.0196753 -72.449539 -9.00317 -72.986504 -0.1686808 -91.633911
9204750000 -0.87388426 126.65427 -9.0274115 -72.403442 -9.0118303 -73.02578 -0.17165332 -91.664902
9204812500 -0.87247622 126.69331 -9.0246248 -72.382759 -9.0070143 -72.991165 -0.17490153 -91.63945
9204875000 -0.87510782 126.64292 -9.0270014 -72.398689 -9.0133572 -73.039482 -0.17571585 -91.608238
9204937500 -0.87552106 126.64458 -9.0251017 -72.405228 -9.0171652 -73.031204 -0.17798002 -91.615852
9205000000 -0.87716341 126.63113 -9.0188713 -72.424515 -9.0112972 -73.011024 -0.18424042 -91.590164
9205062500 -0.88180798 126.62787 -9.0322609 -72.385353 -9.0157442 -73.005951 -0.18374363 -91.543488
9205125000 -0.88366514 126.58795 -9.0210695 -72.32692 -9.0091572 -73.03492 -0.17300886 -91.576492
9205187500 -0.88305426 126.5938 -9.0179396 -72.368256 -9.0221443 -73.019051 -0.17420393 -91.529198
9205250000 -0.87822151 126.52033 -9.0173931 -72.36702 -9.007658 -73.00946 -0.17452487 -91.472748
9205312500 -0.8835156 126.50299 -9.0139675 -72.372223 -9.0078983 -72.98288 -0.16984443 -91.523521
9205375000 -0.88159978 126.50348 -9.0253248 -72.348778 -9.0129938 -73.016289 -0.17123838 -91.50782
9205437500 -0.88318008 126.48333 -9.0126066 -72.371208 -9.0087938 -72.99305 -0.17142431 -91.46389
9205500000 -0.88445067 126.47514 -9.0202999 -72.346405 -9.0152884 -73.002602 -0.17613351 -91.491333
9205562500 -0.88254565 126.47645 -9.0206842 -72.36599 -9.0060558 -72.973473 -0.17370383 -91.453499
9205625000 -0.87740231 126.47109 -9.0117788 -72.396233 -9.0137529 -72.982681 -0.1722502 -91.416428
9205687500 -0.87526304 126.47244 -9.0086517 -72.371361 -9.0123959 -72.991264 -0.17532833 -91.418404
9205750000 -0.87574613 126.45343 -9.0188198 -72.444778 -9.0098734 -72.93737 -0.17864104 -91.39286
9205812500 -0.87725598 126.44564 -9.0141497 -72.411247 -9.006813 -73.022652 -0.1806806 -91.355537
9205875000 -0.87979072 126.4445 -9.0167866 -72.340935 -9.0042953 -72.911072 -0.17443839 -91.309662
9205937500 -0.87463397 126.4243 -9.0125189 -72.384621 -9.012167 -72.943481 -0.17824768 -91.305679
9206000000 -0.87948036 126.41111 -9.0135422 -72.409966 -9.0142546 -72.942368 -0.18211877 -91.299583
9206062500 -0.86975962 126.3923 -9.0083752 -72.376541 -9.0127249 -72.916298 -0.18043566 -91.230087
9206125000 -0.87395459 126.38673 -9.0093536 -72.338249 -8.9979153 -72.949684 -0.17192778 -91.232956
9206187500 -0.87452644 126.36131 -9.0133467 -72.38382 -9.0108633 -72.926964 -0.18065721 -91.203644
9206250000 -0.87296498 126.36763 -9.008276 -72.339531 -8.9942627 -72.890793 -0.17118064 -91.191566
9206312500 -0.87427127 126.36668 -9.0053654 -72.364075 -8.999568 -72.929459 -0.17235431 -91.184319
9206375000 -0.87091702 126.33973 -8.9969139 -72.333084 -9.0033102 -72.904869 -0.18078843 -91.135445
9206437500 -0.87628758 126.35278 -9.0044794 -72.343704 -8.9950447 -72.931717 -0.17360915 -91.187767
9206500000 -0.87136793 126.33496 -9.0064125 -72.322357 -9.0037642 -72.96917 -0.17564031 -91.189888
9206562500 -0.876984 126.29912 -9.0054712 -72.387115 -8.9974575 -72.958458 -0.17562303 -91.131874
9206625000 -0.87553453 126.27866 -8.996439 -72.344948 -8.988905 -72.995171 -0.16339906 -91.136513
9206687500 -0.87250799 126.27777 -8.9860888 -72.342567 -8.9933758 -72.929329 -0.1669594 -91.0877
9206750000 -0.88080817 126.27452 -8.987916 -72.325729 -8.9832449 -72.957779 -0.1643125 -91.050613
9206812500 -0.87595093 126.24717 -8.9877129 -72.300041 -8.9901781 -72.904297 -0.1730321 -90.998451
9206875000 -0.88114262 126.21105 -8.9974346 -72.358116 -8.9830656 -72.939445 -0.16480035 -91.023407
9206937500 -0.87595868 126.21776 -8.9910717 -72.312263 -8.9900017 -72.920502 -0.17060776 -90.997925
9207000000 -0.87700832 126.21024 -9.0022306 -72.329636 -8.9903555 -72.985146 -0.17519231 -91.005013
9207062500 -0.87625945 126.14523 -8.9904175 -72.365303 -8.984087 -72.936234 -0.18068302 -91.003838
9207125000 -0.86970609 126.14587 -9.0002127 -72.333374 -8.9907541 -72.951172 -0.18257704 -90.977386
9207187500 -0.86941129 126.16134 -8.9964085 -72.303497 -8.996892 -72.930038 -0.18334617 -90.964737
9207250000 -0.86840689 126.12865 -8.9967756 -72.319626 -9.0003195 -72.918617 -0.18867661 -90.922478
9207312500 -0.87195539 126.0783 -8.9957352 -72.398087 -8.9905405 -72.923904 -0.18177342 -90.956459
9207375000 -0.87855524 126.06464 -8.9982548 -72.381454 -8.9868689 -72.923164 -0.18472537 -90.914803
9207437500 -0.87505347 126.05981 -8.9880829 -72.308517 -8.9938049 -72.938889 -0.18645416 -90.905304
9207500000 -0.87894571 126.01106 -9.007184 -72.409653 -8.9877806 -72.965294 -0.18665713 -90.949783
9207562500 -0.87678218 126.0022 -8.9929533 -72.351608 -8.9862165 -72.857018 -0.1885457 -90.843048
9207625000 -0.87472123 125.98084 -8.9919081 -72.363762 -8.9782515 -72.919144 -0.17957416 -90.858032
9207687500 -0.87815744 125.97422 -8.9930677 -72.302055 -8.9839277 -72.941582 -0.18562128 -90.842743
9207750000 -0.87959242 126.01162 -9.0014229 -72.337288 -8.9848595 -72.965622 -0.17608118 -90.871513
9207812500 -0.87920392 125.96326 -8.9897976 -72.354378 -8.9830484 -72.900345 -0.17898723 -90.772362
9207875000 -0.88589865 125.95616 -8.9825106 -72.389488 -8.9842339 -72.983246 -0.17382674 -90.818161
9207937500 -0.88338083 125.99067 -8.9882345 -72.327698 -8.9798918 -72.898743 -0.16842826 -90.729187
9208000000 -0.88650399 125.9775 -8.9923944 -72.303772 -8.9890671 -73.006355 -0.17881414 -90.75338
9208062500 -0.87995696 125.96252 -8.9927454 -72.305809 -8.9814405 -72.983284 -0.18200189 -90.774521
9208125000 -0.88113409 125.94896 -8.9767399 -72.328491 -8.9812136 -72.888153 -0.18296395 -90.668884
9208187500 -0.87829435 125.91492 -8.9830112 -72.334663 -8.9778328 -72.917351 -0.18399206 -90.686806
9208250000 -0.87925923 125.94928 -8.9968023 -72.279846 -8.9846792 -72.866333 -0.18471614 -90.653366
9208312500 -0.87417209 125.91138 -8.9846878 -72.261635 -8.9804649 -72.832031 -0.18744002 -90.616043
9208375000 -0.87862504 125.87826 -8.9852839 -72.289406 -8.9844656 -72.898911 -0.19404916 -90.597626
9208437500 -0.87658107 125.88812 -8.9886713 -72.242706 -8.9769325 -72.83622 -0.19074918 -90.593292
9208500000 -0.87629437 125.87482 -8.9752111 -72.301186 -8.9788094 -72.889107 -0.18177712 -90.571815
9208562500 -0.87897795 125.82609 -8.9892921 -72.322693 -8.9825249 -72.927223 -0.18455297 -90.599953
9208625000 -0.8799029 125.80074 -8.9797144 -72.325615 -8.9770145 -72.917473 -0.18729481 -90.597084
9208687500 -0.87954777 125.78004 -8.9785824 -72.371025 -8.9683456 -72.899933 -0.17614272 -90.575523
9208750000 -0.87639189 125.80359 -8.9777756 -72.308945 -8.9745579 -72.889252 -0.18036577 -90.537125
9208812500 -0.8779189 125.75003 -8.9801207 -72.350159 -8.9669847 -72.923019 -0.17873593 -90.546555
9208875000 -0.8823263 125.72546 -8.9781847 -72.398163 -8.9733124 -72.865479 -0.18091957 -90.520256
9208937500 -0.87784845 125.7675 -8.9716892 -72.329865 -8.9648561 -72.881798 -0.18189523 -90.507225
9209000000 -0.87925935 125.77402 -8.9677954 -72.334724 -8.9803333 -72.84449 -0.19109322 -90.471123
9209062500 -0.88105732 125.7955 -8.975256 -72.297302 -8.9697285 -72.901184 -0.1806113 -90.45607
9209125000 -0.87989056 125.75798 -8.9759922 -72.291618 -8.9746609 -72.878761 -0.17731218 -90.473373
9209187500 -0.8776992 125.78296 -8.9751711 -72.255585 -8.9795542 -72.851837 -0.18612659 -90.429352
9209250000 -0.87845445 125.74656 -8.9748306 -72.310249 -8.9800549 -72.832954 -0.18391493 -90.395302
9209312500 -0.87785035 125.71397 -8.9669456 -72.276169 -8.974885 -72.897896 -0.18576793 -90.427979
9209375000 -0.88215029 125.71394 -8.9728413 -72.331566 -8.9801083 -72.816734 -0.18854992 -90.335915
9209437500 -0.87559485 125.66655 -8.9712677 -72.32843 -8.9743462 -72.850624 -0.18653882 -90.342697
9209500000 -0.87756002 125.66615 -8.9688377 -72.279778 -8.9739943 -72.869446 -0.18564124 -90.330772
9209562500 -0.87756819 125.61852 -8.9645452 -72.282349 -8.9706373 -72.852554 -0.18911879 -90.321205
9209625000 -0.8832072 125.61472 -8.9687243 -72.325668 -8.9684992 -72.878456 -0.18511921 -90.299049
9209687500 -0.87983871 125.60979 -8.9702339 -72.308113 -8.9662189 -72.863831 -0.18409294 -90.266228
9209750000 -0.87949824 125.57861 -8.9668226 -72.346077 -8.9638491 -72.854523 -0.1863853 -90.25602
9209812500 -0.88337004 125.60944 -8.9761763 -72.301094 -8.9668941 -72.84565 -0.18073562 -90.239349
9209875000 -0.88363725 125.58688 -8.9663191 -72.306351 -8.9576015 -72.86573 -0.18131468 -90.190651
9209937500 -0.88202041 125.56139 -8.9727888 -72.291122 -8.9530315 -72.908989 -0.17071699 -90.249748
9210000000 -0.8832615 125.54639 -8.9698343 -72.313393 -8.955904 -72.840256 -0.17579107 -90.214302
9210062500 -0.8773436 125.54491 -8.9623146 -72.339699 -8.9605913 -72.821617 -0.17973249 -90.156357
9210125000 -0.87699383 125.52962 -8.9583569 -72.296722 -8.956625 -72.839973 -0.18016525 -90.152794
9210187500 -0.87558526 125.51507 -8.9613972 -72.283905 -8.9598732 -72.747787 -0.1800364 -90.116867
9210250000 -0.87134606 125.5168 -8.952405 -72.266777 -8.958292 -72.734558 -0.17850292 -90.099297
9210312500 -0.87310725 125.51128 -8.9596786 -72.237541 -8.9537554 -72.717171 -0.18194291 -90.08387
9210375000 -0.87408203 125.49091 -8.9656105 -72.249382 -8.9575148 -72.779854 -0.17949946 -90.005096
9210437500 -0.87681735 125.45692 -8.9648504 -72.270676 -8.9608707 -72.755737 -0.1851172 -90.037437
9210500000 -0.87831736 125.41745 -8.9616804 -72.274529 -8.955328 -72.766426 -0.1834332 -90.052681
9210562500 -0.87560749 125.45142 -8.9578962 -72.170593 -8.9601059 -72.827858 -0.1858962 -90.025536
9210625000 -0.86944449 125.40124 -8.9653797 -72.246796 -8.9558372 -72.777367 -0.19056645 -90.00927
9210687500 -0.8744508 125.38714 -8.9684286 -72.251312 -8.95858 -72.698921 -0.19259013 -89.952553
9210750000 -0.87425739 125.33372 -8.9572487 -72.265594 -8.9506092 -72.786064 -0.18913975 -89.945778
9210812500 -0.87543732 125.37099 -8.9689369 -72.198746 -8.9427567 -72.812172 -0.18939131 -89.951279
9210875000 -0.87413067 125.35995 -8.9552021 -72.235237 -8.9479408 -72.897942 -0.1940808 -89.98307
9210937500 -0.87354708 125.28672 -8.9557199 -72.209839 -8.9531555 -72.807632 -0.18743116 -89.869141
9211000000 -0.87512052 125.27581 -8.9590178 -72.206757 -8.9546013 -72.793999 -0.19376254 -89.87854
9211062500 -0.87970752 125.31136 -8.9609365 -72.197083 -8.9526796 -72.776619 -0.18827061 -89.875031
9211125000 -0.88089341 125.28096 -8.9509459 -72.22303 -8.9527502 -72.846687 -0.1853092 -89.905197
9211187500 -0.88277805 125.27908 -8.9580412 -72.297058 -8.9491615 -72.863731 -0.18618791 -89.919746
9211250000 -0.88350028 125.2709 -8.9514847 -72.298882 -8.9493971 -72.845734 -0.18107237 -89.938972
9211312500 -0.88410002 125.29042 -8.9514914 -72.300484 -8.951499 -72.859451 -0.18778805 -89.936172
9211375000 -0.88214833 125.25567 -8.9481049 -72.266869 -8.94981 -72.817001 -0.18278719 -89.79155
9211437500 -0.88432288 125.26119 -8.9516802 -72.2649 -8.942049 -72.864845 -0.17932267 -89.874298
9211500000 -0.88442349 125.2303 -8.9485903 -72.286278 -8.9558287 -72.832047 -0.18621626 -89.810829
9211562500 -0.87941915 125.21894 -8.9498634 -72.269554 -8.9555922 -72.81366 -0.19834614 -89.80188
9211625000 -0.88440269 125.19781 -8.9528847 -72.221062 -8.9452791 -72.821716 -0.18728711 -89.791122
9211687500 -0.87903577 125.1925 -8.9499989 -72.178467 -8.9405375 -72.733749 -0.18542233 -89.758759
9211750000 -0.8792026 125.14567 -8.9484472 -72.273323 -8.9475899 -72.718605 -0.19336553 -89.716522
9211812500 -0.88328642 125.16042 -8.9431839 -72.21048 -8.9430771 -72.754791 -0.19817843 -89.702087
9211875000 -0.88355821 125.1424 -8.9537458 -72.256058 -8.9436331 -72.736862 -0.19224021 -89.660133
9211937500 -0.87687933 125.09586 -8.9406738 -72.21553 -8.9459543 -72.732407 -0.19541776 -89.61853
9212000000 -0.88429892 125.08242 -8.9454107 -72.260208 -8.9420023 -72.708862 -0.18819538 -89.588097
9212062500 -0.88078588 125.05279 -8.9542427 -72.227608 -8.9491711 -72.684937 -0.18933159 -89.547562
9212125000 -0.88455683 125.05421 -8.9420538 -72.271973 -8.9486513 -72.76899 -0.19375823 -89.527023
9212187500 -0.88553548 125.03753 -8.9410477 -72.180672 -8.9473476 -72.743706 -0.20449711 -89.541153
