!Agilent Technologies,N5242A,MY51221714,A.09.90.19
!Agilent N5242A: A.09.90.19
!Date: Saturday, March 16, 2024 10:05:56
!Correction: S11(Full 2 Port(1,2)) 
!S21(Full 2 Port(1,2)) 
!S12(Full 2 Port(1,2)) 
!S22(Full 2 Port(1,2)) 
!S2P File: Measurements: S11, S21, S12, S22:
# Hz S  dB   R 50
9200000000 -0.92253101 127.3026 -8.9606752 -73.109688 -8.9486427 -73.678406 -0.21617192 -93.179932
9200062500 -0.92508072 127.32943 -8.953577 -73.130348 -8.9387589 -73.714149 -0.21175624 -93.211609
9200125000 -0.92588162 127.33064 -8.9624138 -73.069199 -8.9524374 -73.66613 -0.21953468 -93.183167
9200187500 -0.92381322 127.30576 -8.9597874 -73.087219 -8.9417028 -73.675163 -0.21897006 -93.153557
9200250000 -0.91729414 127.29546 -8.9505386 -73.124718 -8.942976 -73.716461 -0.2256497 -93.167099
9200312500 -0.91260582 127.27328 -8.946269 -73.053215 -8.9361982 -73.662186 -0.21779932 -93.123741
9200375000 -0.92278904 127.2504 -8.9496775 -73.092278 -8.9307642 -73.645706 -0.21343286 -93.069839
9200437500 -0.91375065 127.23097 -8.9471283 -73.141342 -8.9392719 -73.701218 -0.22028027 -93.124207
9200500000 -0.91330922 127.20258 -8.9453201 -73.131973 -8.932992 -73.677742 -0.21813631 -93.087036
9200562500 -0.9203679 127.25421 -8.9478254 -73.049698 -8.9311409 -73.696495 -0.21946891 -93.078415
9200625000 -0.91955811 127.20036 -8.9420156 -73.073524 -8.9328051 -73.619301 -0.22135615 -92.999527
9200687500 -0.92204106 127.18688 -8.9535589 -73.045647 -8.9268436 -73.646698 -0.22347426 -93.004593
9200750000 -0.92079723 127.1914 -8.9508286 -73.083466 -8.926609 -73.665291 -0.22328889 -92.984909
9200812500 -0.91746372 127.17868 -8.9495125 -73.007988 -8.9283333 -73.640862 -0.22711378 -92.927872
9200875000 -0.91728038 127.1366 -8.9556293 -73.028374 -8.9263515 -73.619934 -0.23308782 -92.898552
9200937500 -0.92153597 127.14254 -8.9438734 -73.019753 -8.9260693 -73.687584 -0.22932617 -92.908302
9201000000 -0.92152089 127.15241 -8.9469347 -72.969406 -8.9247475 -73.63369 -0.22521475 -92.87561
9201062500 -0.91481638 127.12952 -8.9436693 -73.041916 -8.9335823 -73.672783 -0.23065707 -92.870224
9201125000 -0.91172534 127.114 -8.9402103 -73.042412 -8.9271393 -73.68203 -0.22934315 -92.886742
9201187500 -0.9202435 127.10809 -8.9395418 -73.065735 -8.9306021 -73.68119 -0.22771084 -92.866135
9201250000 -0.9133293 127.06891 -8.9335852 -73.037247 -8.9230576 -73.62851 -0.22482122 -92.793739
9201312500 -0.91524959 127.034 -8.9355316 -73.075081 -8.9289589 -73.600426 -0.22855835 -92.813301
9201375000 -0.91493922 127.02633 -8.9337292 -73.079002 -8.9283371 -73.588425 -0.22331403 -92.807129
9201437500 -0.91661477 127.01514 -8.9389458 -73.083893 -8.9264641 -73.658615 -0.22674127 -92.831024
9201500000 -0.92233455 127.02128 -8.9488773 -73.076607 -8.9246902 -73.660713 -0.22386098 -92.853378
9201562500 -0.92582667 126.9995 -8.9426069 -73.074715 -8.9218416 -73.60067 -0.22870669 -92.800789
9201625000 -0.92066479 127.03529 -8.9429941 -73.01416 -8.9369926 -73.616173 -0.22453365 -92.770325
9201687500 -0.91989994 127.00965 -8.9355192 -73.056892 -8.9259176 -73.618538 -0.22684066 -92.755356
9201750000 -0.91863561 126.98214 -8.9386187 -72.998627 -8.9278107 -73.602539 -0.22870584 -92.742828
9201812500 -0.91841692 126.93441 -8.9359236 -73.062859 -8.9233093 -73.576378 -0.22568467 -92.678154
9201875000 -0.92211044 126.9389 -8.9413824 -73.001755 -8.9195805 -73.60881 -0.22596692 -92.658829
9201937500 -0.91998458 126.90754 -8.9422913 -73.054192 -8.9216709 -73.572617 -0.22836952 -92.655273
9202000000 -0.91335064 126.87933 -8.9296036 -73.082321 -8.9173822 -73.592979 -0.22588089 -92.655258
9202062500 -0.91875499 126.87669 -8.9358006 -73.029335 -8.9146891 -73.560593 -0.21994707 -92.619026
9202125000 -0.91923404 126.87738 -8.9303312 -73.057014 -8.9292459 -73.601196 -0.23262337 -92.614853
9202187500 -0.91628134 126.83551 -8.9223528 -73.042389 -8.9188023 -73.614861 -0.22569337 -92.597473
9202250000 -0.91869932 126.84208 -8.9219074 -73.090378 -8.9169197 -73.611893 -0.22535563 -92.592445
9202312500 -0.91978633 126.8371 -8.9130526 -73.030746 -8.9214344 -73.591972 -0.22987379 -92.5308
9202375000 -0.91589499 126.84118 -8.9156885 -73.034401 -8.9189291 -73.623863 -0.22263499 -92.567688
9202437500 -0.91612309 126.81044 -8.9172335 -73.05732 -8.9179001 -73.604561 -0.22313972 -92.504883
9202500000 -0.92187113 126.81156 -8.9226189 -73.067154 -8.9242659 -73.633347 -0.23414128 -92.521507
9202562500 -0.92430621 126.78402 -8.9295835 -72.991508 -8.9149141 -73.629021 -0.23076919 -92.505447
9202625000 -0.9237197 126.73837 -8.9286032 -73.113983 -8.9233809 -73.604538 -0.23908179 -92.455009
9202687500 -0.92364728 126.76492 -8.926053 -73.011986 -8.9183264 -73.570374 -0.23342307 -92.424431
9202750000 -0.9175089 126.75431 -8.9261332 -73.053589 -8.9112406 -73.601372 -0.23347478 -92.419029
9202812500 -0.91995341 126.75005 -8.9248495 -73.005974 -8.9214954 -73.633148 -0.2406552 -92.430237
9202875000 -0.91788828 126.74335 -8.9172497 -73.034302 -8.911212 -73.594147 -0.23589212 -92.370766
9202937500 -0.92318618 126.72109 -8.9235382 -73.020897 -8.9139223 -73.584541 -0.23311485 -92.384644
9203000000 -0.92148584 126.67931 -8.920435 -73.054321 -8.9077663 -73.584358 -0.22360247 -92.337975
9203062500 -0.91911203 126.69849 -8.9197063 -73.001007 -8.9000139 -73.609436 -0.22734264 -92.336403
9203125000 -0.91880065 126.63145 -8.9152956 -73.085526 -8.9129057 -73.602341 -0.2349107 -92.315796
9203187500 -0.91618073 126.6662 -8.9095469 -73.008476 -8.9086752 -73.600441 -0.23242167 -92.288574
9203250000 -0.91992348 126.65354 -8.9136572 -73.00882 -8.9120474 -73.569809 -0.22890404 -92.275459
9203312500 -0.91574442 126.62929 -8.9139576 -72.956253 -8.9044046 -73.640884 -0.22606184 -92.243523
9203375000 -0.92377353 126.63985 -8.9208975 -73.019096 -8.9166183 -73.628273 -0.23313718 -92.257843
9203437500 -0.91900194 126.61674 -8.9126673 -73.015816 -8.9195662 -73.603233 -0.24055816 -92.199188
9203500000 -0.91663486 126.59152 -8.9151068 -73.066605 -8.9123802 -73.616302 -0.24206464 -92.174156
9203562500 -0.91477764 126.56516 -8.9159985 -73.070122 -8.9058065 -73.6474 -0.23391819 -92.195869
9203625000 -0.91778082 126.56033 -8.9170856 -73.082642 -8.9089088 -73.607544 -0.23349859 -92.179726
9203687500 -0.91367489 126.53084 -8.9128122 -73.047646 -8.9158688 -73.601036 -0.23881221 -92.151588
9203750000 -0.91210699 126.52216 -8.9107161 -73.053871 -8.9180498 -73.575508 -0.24251126 -92.10527
9203812500 -0.91922611 126.4829 -8.9042873 -73.072212 -8.8994064 -73.585854 -0.23436014 -92.149849
9203875000 -0.91608846 126.47915 -8.9061317 -73.010796 -8.9047165 -73.607552 -0.23896392 -92.139687
9203937500 -0.91768825 126.46313 -8.9168568 -73.003654 -8.9073896 -73.497635 -0.24582709 -92.047295
9204000000 -0.91118062 126.46082 -8.911931 -73.05648 -8.8962669 -73.56736 -0.24196255 -92.104897
9204062500 -0.91418099 126.47476 -8.9113131 -73.011604 -8.8979511 -73.549774 -0.24088006 -92.044395
9204125000 -0.91700894 126.46251 -8.9049025 -72.952606 -8.8881607 -73.571091 -0.23973288 -92.026299
9204187500 -0.91053796 126.43214 -8.909708 -73.019157 -8.8925142 -73.548988 -0.24375452 -92.039078
9204250000 -0.91223896 126.4269 -8.9124136 -73.043587 -8.8986549 -73.506248 -0.24972036 -92.000221
9204312500 -0.91093469 126.39388 -8.9084206 -73.021294 -8.8979616 -73.557907 -0.25153649 -92.004745
9204375000 -0.91258746 126.40361 -8.9125614 -72.977898 -8.8966007 -73.573753 -0.24512058 -91.988304
9204437500 -0.90952885 126.3409 -8.90553 -72.988754 -8.8932552 -73.578552 -0.23500906 -91.949097
9204500000 -0.91185343 126.35407 -8.9013767 -72.955139 -8.9007215 -73.568283 -0.24348202 -91.910912
9204562500 -0.90955311 126.34507 -8.8982038 -72.975098 -8.8916636 -73.536362 -0.23661393 -91.905464
9204625000 -0.91087097 126.30876 -8.900547 -72.925568 -8.8972397 -73.560265 -0.23538518 -91.877121
9204687500 -0.91014934 126.30491 -8.8980179 -72.948563 -8.8888369 -73.506615 -0.23562099 -91.841324
9204750000 -0.90939933 126.30981 -8.8902931 -72.991974 -8.8914385 -73.5205 -0.23724356 -91.839867
9204812500 -0.91025358 126.29741 -8.8983765 -73.004501 -8.8866234 -73.577522 -0.2344714 -91.854935
9204875000 -0.91098529 126.32469 -8.9042816 -72.90345 -8.8937054 -73.570305 -0.24038497 -91.816292
9204937500 -0.91473126 126.29173 -8.9040232 -72.948235 -8.8883448 -73.521568 -0.23653497 -91.788895
9205000000 -0.9191221 126.27126 -8.9018106 -72.985077 -8.8803129 -73.525955 -0.23439229 -91.808914
9205062500 -0.91261911 126.24194 -8.8868713 -72.984947 -8.8897238 -73.529358 -0.24440104 -91.794334
9205125000 -0.92043352 126.23682 -8.8935175 -72.960152 -8.8858166 -73.527496 -0.23879957 -91.765915
9205187500 -0.91744465 126.20782 -8.8933048 -72.895164 -8.8787794 -73.620033 -0.22828571 -91.772598
9205250000 -0.92250484 126.17435 -8.8912573 -72.928108 -8.8875656 -73.602577 -0.23181994 -91.76432
9205312500 -0.92015374 126.14784 -8.8917198 -72.944328 -8.8953323 -73.519966 -0.23821281 -91.713791
9205375000 -0.92500269 126.12895 -8.9019012 -72.92424 -8.895443 -73.570328 -0.24148849 -91.674957
9205437500 -0.92460823 126.1079 -8.8975048 -72.909866 -8.8915539 -73.559372 -0.23509432 -91.688972
9205500000 -0.92222649 126.13054 -8.8966713 -72.952156 -8.8909817 -73.51844 -0.23826629 -91.672272
9205562500 -0.9204725 126.10341 -8.8926334 -72.914055 -8.8869505 -73.559502 -0.23594999 -91.632446
9205625000 -0.91902429 126.0927 -8.8834152 -72.895515 -8.8889513 -73.5084 -0.22944994 -91.660789
9205687500 -0.9150247 126.07481 -8.8883867 -72.968834 -8.8803253 -73.493393 -0.23397058 -91.635986
9205750000 -0.91623163 126.04049 -8.8892965 -72.884796 -8.8838415 -73.504875 -0.23464087 -91.627525
9205812500 -0.91649604 126.07852 -8.8879061 -72.942841 -8.8891783 -73.537521 -0.23286031 -91.624741
9205875000 -0.91990197 126.06595 -8.8941422 -72.908966 -8.8862562 -73.491859 -0.23638536 -91.577179
9205937500 -0.91851121 126.04986 -8.8939457 -72.927345 -8.892889 -73.479744 -0.23629683 -91.554237
9206000000 -0.91782218 126.0436 -8.8959169 -72.93203 -8.8888149 -73.453705 -0.24585009 -91.501411
9206062500 -0.91404498 126.04292 -8.8874979 -72.935646 -8.8870726 -73.530357 -0.24474704 -91.503899
9206125000 -0.91845918 125.98756 -8.8962202 -72.956612 -8.8824673 -73.476379 -0.23772919 -91.463287
9206187500 -0.91489691 125.99022 -8.8873606 -72.918297 -8.8919487 -73.534081 -0.24492395 -91.504288
9206250000 -0.91851628 126.02325 -8.8901196 -72.917686 -8.8797855 -73.451797 -0.23938198 -91.438065
9206312500 -0.91506314 126.00951 -8.8840113 -72.820633 -8.8769999 -73.535561 -0.23923284 -91.441719
9206375000 -0.91117126 125.9609 -8.8851109 -72.938179 -8.8837337 -73.529823 -0.24269769 -91.40834
9206437500 -0.91882765 125.96306 -8.8760662 -72.925941 -8.8776073 -73.549927 -0.2366582 -91.398689
9206500000 -0.91012645 125.98196 -8.8749714 -72.81884 -8.8733072 -73.553894 -0.23484012 -91.394173
9206562500 -0.91756117 125.94656 -8.8711538 -72.862564 -8.8699064 -73.547836 -0.2368817 -91.403427
9206625000 -0.9216693 125.91599 -8.8710251 -72.920364 -8.867136 -73.515884 -0.23169571 -91.342911
9206687500 -0.91897637 125.8983 -8.880434 -72.928497 -8.8638592 -73.513802 -0.23011082 -91.342033
9206750000 -0.91899472 125.89504 -8.8663559 -72.89444 -8.8745251 -73.497063 -0.23207378 -91.268433
9206812500 -0.91687924 125.83998 -8.8730917 -72.907417 -8.8653555 -73.441788 -0.23244429 -91.241585
9206875000 -0.91617423 125.88963 -8.8609896 -72.892235 -8.8588791 -73.492355 -0.22870354 -91.216164
9206937500 -0.91824234 125.8103 -8.8679619 -72.854424 -8.8647728 -73.491425 -0.23157972 -91.200195
9207000000 -0.91210324 125.80796 -8.8669977 -72.88826 -8.876255 -73.480713 -0.24259239 -91.176453
9207062500 -0.91593915 125.8212 -8.8753386 -72.875565 -8.8669996 -73.506523 -0.24395494 -91.199066
9207125000 -0.91184199 125.78645 -8.8711691 -72.903473 -8.8629961 -73.47683 -0.24158818 -91.202339
9207187500 -0.91501611 125.82744 -8.8729181 -72.865448 -8.8762302 -73.493256 -0.25143638 -91.173172
9207250000 -0.91205078 125.72321 -8.8799896 -72.919548 -8.8753328 -73.500244 -0.24799673 -91.155571
9207312500 -0.90976697 125.71738 -8.8706417 -72.919106 -8.860795 -73.383842 -0.2446335 -91.137016
9207375000 -0.91307789 125.64616 -8.8678465 -72.943687 -8.8672676 -73.490692 -0.24655612 -91.178169
9207437500 -0.91480595 125.66823 -8.865447 -72.942757 -8.8699303 -73.486885 -0.24728888 -91.140762
9207500000 -0.91491997 125.64233 -8.8699379 -72.89138 -8.8663893 -73.426529 -0.24372363 -91.101669
9207562500 -0.915627 125.6347 -8.8701038 -72.920959 -8.8585796 -73.472572 -0.24385464 -91.119789
9207625000 -0.91532844 125.63002 -8.8704576 -72.954971 -8.8642769 -73.504227 -0.24747351 -91.12162
9207687500 -0.91820925 125.62758 -8.8736153 -72.897728 -8.862359 -73.525085 -0.24469502 -91.091583
9207750000 -0.91976941 125.61395 -8.8638601 -72.912964 -8.8584137 -73.460411 -0.24083899 -91.053802
9207812500 -0.92658138 125.59449 -8.8729038 -72.911911 -8.8593264 -73.478363 -0.23280258 -91.053543
9207875000 -0.91706681 125.59807 -8.8590631 -72.912598 -8.8508263 -73.558723 -0.22758438 -91.018829
9207937500 -0.92147923 125.58794 -8.8611269 -72.914574 -8.8550005 -73.493195 -0.23134463 -90.995361
9208000000 -0.92301935 125.57284 -8.8703966 -72.886177 -8.8591318 -73.450691 -0.23887999 -90.959114
9208062500 -0.9279303 125.60352 -8.871273 -72.917648 -8.8560257 -73.503487 -0.24154374 -90.951294
9208125000 -0.9248718 125.59309 -8.8626556 -72.879936 -8.8603859 -73.443916 -0.2437629 -90.877625
9208187500 -0.92476845 125.57393 -8.8682327 -72.866592 -8.8644571 -73.506454 -0.24468479 -90.878067
9208250000 -0.91966724 125.51984 -8.859705 -72.918724 -8.8659401 -73.499535 -0.2530973 -90.925804
9208312500 -0.91875976 125.52162 -8.8603668 -72.873772 -8.8614988 -73.48764 -0.24869716 -90.911339
9208375000 -0.91478896 125.55698 -8.8614597 -72.831703 -8.862339 -73.448051 -0.25492159 -90.841492
9208437500 -0.92010993 125.50507 -8.8616228 -72.849266 -8.8574924 -73.423515 -0.25064418 -90.833847
9208500000 -0.92245674 125.46995 -8.8602486 -72.920647 -8.8504848 -73.40625 -0.24392465 -90.855629
9208562500 -0.91969031 125.43301 -8.86374 -72.918541 -8.8483906 -73.484001 -0.24912855 -90.80912
9208625000 -0.91870058 125.39785 -8.8562565 -72.961769 -8.856307 -73.434128 -0.2449497 -90.775475
9208687500 -0.91485643 125.40199 -8.8580446 -72.972282 -8.8538628 -73.49279 -0.248218 -90.808372
9208750000 -0.92117119 125.38807 -8.8540478 -72.924637 -8.8475952 -73.472855 -0.24390589 -90.775482
9208812500 -0.92278701 125.39372 -8.8515463 -72.881004 -8.8535662 -73.450439 -0.25012785 -90.756828
9208875000 -0.9279449 125.38412 -8.8603764 -72.971092 -8.8547544 -73.457085 -0.25335947 -90.728561
9208937500 -0.91789436 125.42059 -8.8452845 -72.920029 -8.856389 -73.527756 -0.24596173 -90.786011
9209000000 -0.91605324 125.44097 -8.8458652 -72.815559 -8.852457 -73.395584 -0.2429686 -90.692192
9209062500 -0.91586673 125.40677 -8.8555565 -72.906242 -8.8569469 -73.412857 -0.25228968 -90.708359
9209125000 -0.9145149 125.40502 -8.8525734 -72.832726 -8.8486652 -73.454536 -0.24524812 -90.668007
9209187500 -0.92145938 125.36851 -8.8589821 -72.83596 -8.8500977 -73.405243 -0.25068083 -90.630943
9209250000 -0.91843683 125.36459 -8.8478012 -72.856522 -8.8529701 -73.45208 -0.24729109 -90.661499
9209312500 -0.9158408 125.3405 -8.8546801 -72.901497 -8.8573771 -73.394005 -0.25553513 -90.588493
9209375000 -0.91466808 125.31459 -8.8428135 -72.867928 -8.8505049 -73.379715 -0.24571148 -90.564117
9209437500 -0.91448891 125.31067 -8.8411551 -72.840012 -8.8528662 -73.342171 -0.25596523 -90.560921
9209500000 -0.91649449 125.27837 -8.8470697 -72.876656 -8.8464422 -73.433472 -0.25107381 -90.552528
9209562500 -0.91745043 125.25488 -8.845665 -72.899956 -8.8488178 -73.392067 -0.24670354 -90.527
9209625000 -0.92391598 125.23831 -8.8484287 -72.878029 -8.8455267 -73.40168 -0.24718538 -90.480408
9209687500 -0.91955364 125.24471 -8.8443527 -72.821419 -8.8454142 -73.409393 -0.2440334 -90.50222
9209750000 -0.92286128 125.20827 -8.8359013 -72.847076 -8.8384018 -73.360977 -0.24128728 -90.445282
9209812500 -0.91895527 125.19708 -8.846056 -72.931175 -8.8489084 -73.336342 -0.24895722 -90.391289
9209875000 -0.91892517 125.1761 -8.8422422 -72.994987 -8.8380089 -73.451378 -0.24173631 -90.437775
9209937500 -0.92294216 125.16898 -8.8386497 -72.88839 -8.828023 -73.424271 -0.23790783 -90.42057
9210000000 -0.92067206 125.15632 -8.8406696 -72.912094 -8.8457813 -73.414894 -0.24941894 -90.423126
9210062500 -0.91980559 125.1529 -8.8327198 -72.893639 -8.8329496 -73.398918 -0.24247135 -90.430481
9210125000 -0.92147225 125.15466 -8.8380051 -72.923164 -8.8271151 -73.36927 -0.24125916 -90.347206
9210187500 -0.91653901 125.13643 -8.8399401 -72.818237 -8.8363914 -73.376488 -0.23907168 -90.355186
9210250000 -0.91512465 125.1144 -8.8413267 -72.822968 -8.835495 -73.386581 -0.23902699 -90.28476
9210312500 -0.91439068 125.13829 -8.8466234 -72.778976 -8.8391857 -73.350021 -0.24805851 -90.288094
9210375000 -0.90938318 125.08591 -8.8333206 -72.825737 -8.8399954 -73.375793 -0.25012729 -90.294357
9210437500 -0.91496116 125.09978 -8.8439283 -72.836174 -8.8279247 -73.372055 -0.25251728 -90.285576
9210500000 -0.91462219 125.07686 -8.845645 -72.821396 -8.8373804 -73.344376 -0.25435007 -90.253212
9210562500 -0.9137091 125.06139 -8.8339024 -72.776741 -8.8461189 -73.387444 -0.25870076 -90.25798
9210625000 -0.91332096 125.01969 -8.8365517 -72.81842 -8.8302422 -73.374611 -0.25234476 -90.218109
9210687500 -0.909944 124.97308 -8.8308802 -72.891747 -8.834672 -73.36853 -0.25902054 -90.208206
9210750000 -0.91263252 124.94401 -8.8318682 -72.79081 -8.8315554 -73.328293 -0.25609761 -90.183273
9210812500 -0.91439533 124.9799 -8.8443546 -72.811485 -8.8238392 -73.420715 -0.25870252 -90.20256
9210875000 -0.91777682 124.95505 -8.8425007 -72.786301 -8.8363142 -73.389267 -0.25782025 -90.198769
9210937500 -0.91625547 124.9427 -8.8286238 -72.776955 -8.8276119 -73.354187 -0.25426587 -90.1362
9211000000 -0.91750681 124.91525 -8.8404369 -72.80027 -8.82409 -73.432465 -0.2521182 -90.147743
9211062500 -0.92056179 124.93011 -8.8281584 -72.813377 -8.8320665 -73.411041 -0.25219959 -90.145424
9211125000 -0.91937393 124.87572 -8.8321209 -72.775002 -8.8305874 -73.378029 -0.25196144 -90.114128
9211187500 -0.92496455 124.9401 -8.8339443 -72.818268 -8.8242264 -73.407845 -0.24976653 -90.176308
9211250000 -0.92582333 124.89318 -8.8308058 -72.837303 -8.8267117 -73.347878 -0.25104722 -90.11998
9211312500 -0.92181259 124.90286 -8.8277988 -72.874176 -8.8261309 -73.362366 -0.24989343 -90.120468
9211375000 -0.93042672 124.86517 -8.8312407 -72.860771 -8.8187208 -73.396103 -0.24239235 -90.027641
9211437500 -0.92126393 124.88668 -8.8243952 -72.853027 -8.8284883 -73.365837 -0.24397032 -90.007072
9211500000 -0.92104149 124.85815 -8.8250275 -72.800743 -8.824851 -73.336876 -0.25304994 -90.00396
9211562500 -0.92715698 124.82011 -8.8249435 -72.799179 -8.8270397 -73.300972 -0.2486653 -89.978928
9211625000 -0.91835606 124.83121 -8.8260431 -72.824631 -8.8192186 -73.316055 -0.25053117 -89.950012
9211687500 -0.92189777 124.81637 -8.8270197 -72.79467 -8.8247766 -73.356712 -0.25588393 -90.00573
9211750000 -0.91624409 124.77078 -8.8194218 -72.799866 -8.8192625 -73.320969 -0.25984785 -89.974724
9211812500 -0.92238539 124.74628 -8.8217926 -72.830048 -8.8244591 -73.33345 -0.26303175 -89.927429
9211875000 -0.92344737 124.73938 -8.8264351 -72.83831 -8.8292513 -73.318932 -0.25707412 -89.903534
9211937500 -0.92959392 124.72839 -8.826746 -72.86792 -8.8222427 -73.309319 -0.25801221 -89.847015
9212000000 -0.92127794 124.69834 -8.8221369 -72.876297 -8.8300076 -73.294067 -0.26139271 -89.829803
9212062500 -0.92295194 124.66658 -8.8150063 -72.833115 -8.8217402 -73.384171 -0.25715303 -89.893593
9212125000 -0.9285053 124.65134 -8.8275738 -72.860497 -8.8201866 -73.330017 -0.25606564 -89.791046
9212187500 -0.92546225 124.66245 -8.8134098 -72.789482 -8.8155832 -73.329987 -0.25905573 -89.752785
