!Agilent Technologies,N5242A,MY51221714,A.09.90.19
!Agilent N5242A: A.09.90.19
!Date: Saturday, March 16, 2024 10:06:44
!Correction: S11(Full 2 Port(1,2)) 
!S21(Full 2 Port(1,2)) 
!S12(Full 2 Port(1,2)) 
!S22(Full 2 Port(1,2)) 
!S2P File: Measurements: S11, S21, S12, S22:
# Hz S  dB   R 50
9200000000 -0.96444577 126.99733 -8.9492569 -74.105797 -8.9278364 -74.598419 -0.22589754 -94.107925
9200062500 -0.95796746 126.97153 -8.9423866 -74.089989 -8.9359322 -74.617035 -0.23115823 -94.094193
9200125000 -0.96703881 127.00224 -8.9544706 -74.061996 -8.9348907 -74.629662 -0.23225392 -94.099228
9200187500 -0.96493948 126.99173 -8.9495697 -74.01516 -8.9335432 -74.63839 -0.22587268 -94.051552
9200250000 -0.96130085 126.96132 -8.9402647 -74.052696 -8.9371538 -74.685783 -0.23488443 -94.101563
9200312500 -0.96202326 126.94583 -8.9378128 -74.034584 -8.9215736 -74.621529 -0.22889221 -94.069351
9200375000 -0.9606576 126.93204 -8.9345131 -74.039383 -8.9278975 -74.66687 -0.23034595 -94.038353
9200437500 -0.95856786 126.95004 -8.9477634 -74.041245 -8.9289427 -74.64724 -0.23181869 -94.010864
9200500000 -0.95584047 126.87958 -8.9348269 -74.062103 -8.9227419 -74.650894 -0.23383211 -94.023582
9200562500 -0.95550102 126.91292 -8.9364357 -73.996254 -8.9314966 -74.645172 -0.24292432 -94.002892
9200625000 -0.95533144 126.89624 -8.931735 -74.050293 -8.9132919 -74.620941 -0.23410997 -93.947304
9200687500 -0.95529073 126.85534 -8.9342937 -74.060928 -8.9106112 -74.632187 -0.23351376 -93.92868
9200750000 -0.96159017 126.87462 -8.9404783 -73.923462 -8.9179583 -74.601982 -0.24309596 -93.889725
9200812500 -0.95841634 126.83257 -8.9374819 -73.964676 -8.9110708 -74.57473 -0.23707959 -93.856995
9200875000 -0.96045488 126.85704 -8.9409275 -73.940941 -8.9125309 -74.580116 -0.24354899 -93.86615
9200937500 -0.95614231 126.8291 -8.9448195 -73.973434 -8.9097147 -74.588165 -0.23718847 -93.829338
9201000000 -0.95762801 126.84007 -8.9321194 -73.918694 -8.9173717 -74.608627 -0.24201545 -93.823936
9201062500 -0.95746583 126.79578 -8.9393616 -73.93602 -8.9176493 -74.589058 -0.24271587 -93.761353
9201125000 -0.96038854 126.79955 -8.9327116 -73.91423 -8.9131136 -74.556198 -0.24094078 -93.741676
9201187500 -0.95313877 126.78219 -8.9220581 -73.981911 -8.9127674 -74.569054 -0.24053477 -93.755539
9201250000 -0.9497658 126.75115 -8.9187927 -74.022835 -8.918395 -74.553139 -0.23648961 -93.698723
9201312500 -0.95549989 126.70938 -8.9184847 -73.975624 -8.9174023 -74.582481 -0.23977289 -93.759583
9201375000 -0.95549673 126.70988 -8.9234467 -73.998184 -8.9179306 -74.57251 -0.23843586 -93.736328
9201437500 -0.96208012 126.70781 -8.9265938 -74.050583 -8.9167461 -74.56797 -0.23639412 -93.747101
9201500000 -0.96330464 126.70081 -8.9259491 -74.049576 -8.9121027 -74.612083 -0.23081693 -93.773911
9201562500 -0.96678776 126.68497 -8.9334631 -73.983444 -8.907505 -74.625122 -0.23423606 -93.741257
9201625000 -0.96186596 126.68504 -8.9318552 -74.026314 -8.9141645 -74.56852 -0.24081872 -93.696259
9201687500 -0.96226394 126.6331 -8.9188128 -74.008369 -8.9083929 -74.537987 -0.23625366 -93.649025
9201750000 -0.96497452 126.63965 -8.9341879 -74.026527 -8.9136381 -74.564697 -0.24560526 -93.643265
9201812500 -0.95467013 126.63424 -8.9264326 -73.998512 -8.9101753 -74.497566 -0.23777704 -93.612358
9201875000 -0.95893425 126.59995 -8.9296875 -74.01899 -8.903944 -74.546204 -0.23474839 -93.553673
9201937500 -0.95711505 126.59995 -8.9271955 -74.003098 -8.9064608 -74.516747 -0.24245928 -93.558403
9202000000 -0.95146626 126.53864 -8.9128914 -74.028702 -8.9053049 -74.532875 -0.24134915 -93.551178
9202062500 -0.95481807 126.55781 -8.9210634 -73.955902 -8.914464 -74.516487 -0.24301238 -93.512047
9202125000 -0.96088451 126.55769 -8.9139252 -74.028526 -8.904521 -74.574348 -0.2389418 -93.543884
9202187500 -0.95906442 126.56409 -8.9087038 -74.018341 -8.9069672 -74.622093 -0.23700733 -93.529869
9202250000 -0.96202207 126.51936 -8.9143734 -73.936745 -8.9067469 -74.605423 -0.24343364 -93.52243
9202312500 -0.96657056 126.53604 -8.918437 -73.999519 -8.9048815 -74.587166 -0.23839292 -93.475212
9202375000 -0.95966679 126.51254 -8.9089527 -73.956902 -8.9050217 -74.602242 -0.24214663 -93.480095
9202437500 -0.96236789 126.44965 -8.9081745 -73.951218 -8.912055 -74.585831 -0.24474099 -93.460213
9202500000 -0.95881218 126.48235 -8.9157248 -74.016441 -8.910078 -74.548599 -0.2416966 -93.397659
9202562500 -0.95815873 126.46445 -8.9127722 -73.985741 -8.9021387 -74.5317 -0.24569045 -93.395782
9202625000 -0.95996052 126.46156 -8.9168444 -73.94989 -8.9047613 -74.613724 -0.24802424 -93.401184
9202687500 -0.96350777 126.41965 -8.9140406 -73.972893 -8.905117 -74.57402 -0.24951535 -93.383308
9202750000 -0.96473795 126.44443 -8.9109793 -73.968094 -8.9045658 -74.516945 -0.25082442 -93.315605
9202812500 -0.95743084 126.38735 -8.9053564 -73.969566 -8.8954401 -74.534119 -0.24294411 -93.301903
9202875000 -0.96260816 126.37716 -8.9061089 -73.973022 -8.8956118 -74.531067 -0.24129543 -93.267754
9202937500 -0.9616701 126.3508 -8.9126244 -73.982887 -8.9034243 -74.542526 -0.2454138 -93.273148
9203000000 -0.95677692 126.3545 -8.9129963 -74.023193 -8.8994074 -74.512802 -0.25284007 -93.252457
9203062500 -0.96105796 126.28555 -8.9035015 -74.039375 -8.8976345 -74.579033 -0.24547246 -93.23938
9203125000 -0.96159482 126.31406 -8.9125919 -74.010635 -8.8944607 -74.57019 -0.24392836 -93.25235
9203187500 -0.95853966 126.30046 -8.904623 -73.974579 -8.8954563 -74.542641 -0.24290311 -93.217461
9203250000 -0.96160734 126.30556 -8.9039927 -73.955719 -8.8911457 -74.606926 -0.24266788 -93.202423
9203312500 -0.96267706 126.27209 -8.9071312 -74.007339 -8.9057102 -74.545959 -0.24283385 -93.187782
9203375000 -0.95870316 126.29401 -8.8988342 -73.994675 -8.8893003 -74.515961 -0.24452066 -93.120941
9203437500 -0.96156341 126.29887 -8.9088802 -73.969101 -8.8922768 -74.56601 -0.24352273 -93.169304
9203500000 -0.96103871 126.23948 -8.90734 -73.981911 -8.895999 -74.556198 -0.24802236 -93.137299
9203562500 -0.9569993 126.2387 -8.9060316 -73.958061 -8.8935966 -74.547333 -0.24628127 -93.128609
9203625000 -0.96037412 126.22575 -8.8996296 -74.024406 -8.8885355 -74.577751 -0.24645038 -93.07785
9203687500 -0.96508497 126.21861 -8.9058485 -74.022087 -8.8918791 -74.555496 -0.24807695 -93.077118
9203750000 -0.96046329 126.1926 -8.9062147 -73.950409 -8.8992529 -74.502449 -0.25343728 -93.064613
9203812500 -0.9600783 126.16759 -8.9076681 -74.00264 -8.8934679 -74.504616 -0.25271463 -93.067093
9203875000 -0.96408719 126.16706 -8.8962059 -73.944611 -8.882576 -74.537361 -0.24820001 -93.053352
9203937500 -0.95867348 126.14876 -8.9098473 -73.959198 -8.8906193 -74.485001 -0.25854564 -93.004944
9204000000 -0.9605419 126.10467 -8.9020042 -73.973915 -8.8861351 -74.501793 -0.25532356 -92.95256
9204062500 -0.95339954 126.1294 -8.904973 -73.955269 -8.885828 -74.486977 -0.25979692 -92.985168
9204125000 -0.95507801 126.09431 -8.8969755 -73.942047 -8.8758812 -74.483818 -0.25658756 -92.947945
9204187500 -0.95132291 126.07025 -8.9029331 -73.933609 -8.8861952 -74.469872 -0.25618437 -92.870758
9204250000 -0.94994056 126.08767 -8.9005737 -73.913963 -8.8792334 -74.501152 -0.25974643 -92.917549
9204312500 -0.95368475 126.0602 -8.8941584 -73.929184 -8.8829126 -74.438477 -0.2566537 -92.887283
9204375000 -0.95594978 126.03915 -8.8962898 -73.931107 -8.8821688 -74.393318 -0.24990547 -92.848633
9204437500 -0.95251495 126.01243 -8.896512 -73.964653 -8.8815622 -74.509697 -0.25608289 -92.872307
9204500000 -0.95606744 126.02895 -8.896883 -73.885071 -8.8738375 -74.469971 -0.24553061 -92.839752
9204562500 -0.95261645 126.00607 -8.8905878 -73.935081 -8.8815327 -74.508736 -0.25329518 -92.823151
9204625000 -0.94235313 125.97642 -8.8887892 -73.919518 -8.8698826 -74.521141 -0.24460112 -92.796043
9204687500 -0.94654906 125.95075 -8.8896723 -73.901375 -8.8750973 -74.491539 -0.24746732 -92.814407
9204750000 -0.94816536 125.95906 -8.8841801 -73.906036 -8.8712635 -74.483757 -0.2448221 -92.765526
9204812500 -0.95216399 125.98344 -8.8830013 -73.89299 -8.8752975 -74.519379 -0.25510171 -92.752899
9204875000 -0.954144 125.95425 -8.8842402 -73.942505 -8.8761921 -74.506126 -0.25812706 -92.75209
9204937500 -0.95863646 125.95576 -8.8911428 -73.91452 -8.8776464 -74.502991 -0.25681013 -92.734497
9205000000 -0.95857197 125.93494 -8.8894196 -73.894821 -8.867219 -74.503006 -0.24914494 -92.710548
9205062500 -0.95751911 125.93376 -8.8915644 -73.929153 -8.8777409 -74.49781 -0.2548708 -92.724976
9205125000 -0.95617235 125.90033 -8.8793898 -73.878693 -8.8757896 -74.508186 -0.25430116 -92.696144
9205187500 -0.96312028 125.877 -8.8946018 -73.883942 -8.8670845 -74.531342 -0.2405798 -92.701408
9205250000 -0.96012455 125.83932 -8.8745613 -73.851707 -8.8760824 -74.456367 -0.25249529 -92.635605
9205312500 -0.96437287 125.7923 -8.8809605 -73.928795 -8.8694057 -74.488472 -0.24818644 -92.634132
9205375000 -0.96255851 125.79196 -8.8756485 -73.873123 -8.8734303 -74.476227 -0.24956585 -92.596977
9205437500 -0.96506351 125.81722 -8.8853025 -73.835289 -8.8857889 -74.5121 -0.25570533 -92.628387
9205500000 -0.96014655 125.75671 -8.8790283 -73.872719 -8.8817692 -74.494362 -0.24664481 -92.585526
9205562500 -0.96102333 125.77084 -8.8814421 -73.952415 -8.8768015 -74.475983 -0.24872379 -92.557426
9205625000 -0.95833421 125.76736 -8.8742323 -73.899734 -8.879426 -74.461388 -0.25297844 -92.601006
9205687500 -0.95694667 125.75596 -8.8770294 -73.869545 -8.8741465 -74.437553 -0.25144354 -92.577423
9205750000 -0.95957023 125.72488 -8.8734093 -73.902588 -8.8813086 -74.463814 -0.25394735 -92.528648
9205812500 -0.95873046 125.73701 -8.8787975 -73.890701 -8.8743086 -74.402046 -0.25151435 -92.486565
9205875000 -0.95853972 125.74342 -8.8709641 -73.88102 -8.8752613 -74.481171 -0.25210559 -92.494064
9205937500 -0.95083278 125.7347 -8.8784781 -73.876144 -8.8713722 -74.467926 -0.25069863 -92.44426
9206000000 -0.95774192 125.68352 -8.8732128 -73.852646 -8.8679867 -74.426651 -0.25137851 -92.428741
9206062500 -0.95823228 125.68074 -8.8752918 -73.874069 -8.8722506 -74.483215 -0.25338924 -92.446991
9206125000 -0.96239567 125.6877 -8.8784647 -73.909157 -8.8647881 -74.428185 -0.2561872 -92.412109
9206187500 -0.95777845 125.67849 -8.874382 -73.827133 -8.8689823 -74.457138 -0.25798988 -92.374756
9206250000 -0.95425981 125.6504 -8.8709908 -73.890579 -8.8649454 -74.434883 -0.25089461 -92.36718
9206312500 -0.95163256 125.66193 -8.8694191 -73.89576 -8.8638639 -74.449677 -0.25328854 -92.361649
9206375000 -0.95809489 125.62521 -8.8717747 -73.890175 -8.8656921 -74.46862 -0.25362104 -92.335457
9206437500 -0.95542896 125.62872 -8.8632841 -73.871925 -8.8553886 -74.493645 -0.25080472 -92.345421
9206500000 -0.95285511 125.63577 -8.8611116 -73.829979 -8.8584194 -74.495895 -0.24881132 -92.303406
9206562500 -0.95327359 125.59397 -8.8577194 -73.85334 -8.8579159 -74.468422 -0.25043094 -92.264839
9206625000 -0.95868117 125.5721 -8.8496094 -73.876831 -8.8575773 -74.45446 -0.24948381 -92.23558
9206687500 -0.96178001 125.53996 -8.8639936 -73.863487 -8.8489037 -74.423035 -0.24142386 -92.245979
9206750000 -0.96363157 125.56923 -8.859292 -73.833893 -8.8536215 -74.456421 -0.24717504 -92.191689
9206812500 -0.9633196 125.54792 -8.8565035 -73.813187 -8.8418112 -74.429161 -0.23399965 -92.16069
9206875000 -0.96321309 125.55478 -8.8568649 -73.844597 -8.8433943 -74.427963 -0.24409702 -92.143707
9206937500 -0.964764 125.51626 -8.8679876 -73.85289 -8.8517599 -74.438873 -0.24672465 -92.141777
9207000000 -0.95884734 125.51328 -8.8571129 -73.84697 -8.8501759 -74.474785 -0.25035864 -92.137123
9207062500 -0.95459133 125.45977 -8.8577223 -73.813271 -8.8567801 -74.421349 -0.25808516 -92.080849
9207125000 -0.95111531 125.45567 -8.8515129 -73.863754 -8.8515854 -74.420982 -0.24981548 -92.103271
9207187500 -0.94940454 125.39946 -8.8530617 -73.908928 -8.8545494 -74.405945 -0.25552812 -92.100906
9207250000 -0.94968522 125.41705 -8.8592663 -73.888641 -8.8646288 -74.419205 -0.2640132 -92.082115
9207312500 -0.95131481 125.41302 -8.862052 -73.814857 -8.8549757 -74.453468 -0.26206881 -92.089783
9207375000 -0.95880479 125.35714 -8.8654804 -73.919327 -8.8489761 -74.461182 -0.26372096 -92.078163
9207437500 -0.9570145 125.31718 -8.8613529 -73.929665 -8.854702 -74.413506 -0.26668808 -92.053627
9207500000 -0.96152365 125.29973 -8.858057 -73.901642 -8.8541985 -74.4981 -0.26263991 -92.093781
9207562500 -0.95567292 125.31499 -8.8552132 -73.881523 -8.8419981 -74.464859 -0.25713548 -92.045837
9207625000 -0.9611637 125.27457 -8.8483906 -73.868126 -8.8378992 -74.414665 -0.25721022 -92.046707
9207687500 -0.95874679 125.25371 -8.8509808 -73.894348 -8.8465796 -74.475327 -0.25855097 -92.021996
9207750000 -0.96255499 125.25876 -8.8503428 -73.901115 -8.8495836 -74.423515 -0.25701499 -91.970627
9207812500 -0.96540779 125.25821 -8.8568144 -73.884247 -8.8536634 -74.431854 -0.24932103 -91.929085
9207875000 -0.96076232 125.29602 -8.8442287 -73.887741 -8.8399401 -74.515961 -0.24893288 -92.000343
9207937500 -0.96270669 125.22086 -8.842062 -73.914345 -8.8518152 -74.469612 -0.24963224 -91.891899
9208000000 -0.96689594 125.27065 -8.8494911 -73.872551 -8.841053 -74.480301 -0.2507638 -91.889931
9208062500 -0.96038204 125.24217 -8.8433056 -73.821434 -8.8470078 -74.484291 -0.25441217 -91.8965
9208125000 -0.96460533 125.20245 -8.8441458 -73.844437 -8.8399544 -74.479614 -0.25392929 -91.845154
9208187500 -0.96053457 125.23975 -8.852602 -73.81797 -8.8360128 -74.417458 -0.25493968 -91.826347
9208250000 -0.96782947 125.19562 -8.85355 -73.874527 -8.8486567 -74.415695 -0.26851761 -91.820816
9208312500 -0.96211952 125.18948 -8.8501129 -73.845139 -8.84657 -74.373878 -0.26863533 -91.739929
9208375000 -0.96665269 125.17236 -8.8497095 -73.816376 -8.836318 -74.362656 -0.26322186 -91.741257
9208437500 -0.95885414 125.16797 -8.8638649 -73.830727 -8.844202 -74.392128 -0.26350325 -91.763702
9208500000 -0.96013129 125.12677 -8.8504725 -73.775215 -8.83531 -74.382347 -0.26186329 -91.72892
9208562500 -0.95856649 125.10954 -8.8420105 -73.822975 -8.8370094 -74.340195 -0.25981677 -91.703217
9208625000 -0.96274829 125.09191 -8.8378134 -73.872047 -8.827877 -74.480209 -0.25759667 -91.758835
9208687500 -0.95863038 125.04945 -8.8503246 -73.87973 -8.8355503 -74.435516 -0.25545621 -91.679726
9208750000 -0.96319807 125.07069 -8.8445768 -73.842155 -8.8300962 -74.422592 -0.26164392 -91.660362
9208812500 -0.96041304 125.04467 -8.8398275 -73.852089 -8.8344908 -74.354027 -0.26260728 -91.632095
9208875000 -0.95773655 125.02661 -8.8383284 -73.923241 -8.8323421 -74.407753 -0.25586423 -91.700127
9208937500 -0.96776444 125.12162 -8.8565426 -73.815605 -8.8325577 -74.387871 -0.26563135 -91.677223
9209000000 -0.95962387 125.06283 -8.8335075 -73.834404 -8.8345537 -74.370544 -0.26230702 -91.704575
9209062500 -0.95817912 125.08251 -8.8330975 -73.77507 -8.838232 -74.365349 -0.26190162 -91.584427
9209125000 -0.95706302 125.08665 -8.8255234 -73.800911 -8.834445 -74.386314 -0.26015383 -91.601616
9209187500 -0.96030557 125.08796 -8.8323736 -73.78096 -8.8321571 -74.382057 -0.25673568 -91.590538
9209250000 -0.96146607 125.06153 -8.8326817 -73.807655 -8.8345299 -74.375412 -0.26089856 -91.54908
9209312500 -0.96102798 124.98624 -8.8344622 -73.836731 -8.8380337 -74.397949 -0.26564479 -91.534073
9209375000 -0.95768827 124.96946 -8.8197298 -73.823402 -8.8349581 -74.292412 -0.26115134 -91.49263
9209437500 -0.95710051 124.96053 -8.827033 -73.806511 -8.8397655 -74.322701 -0.27067909 -91.489876
9209500000 -0.95583063 124.9175 -8.828104 -73.870193 -8.8316498 -74.332619 -0.25649142 -91.475754
9209562500 -0.95942354 124.89812 -8.8283749 -73.852119 -8.8268948 -74.304924 -0.26239952 -91.441833
9209625000 -0.96026844 124.93265 -8.8285942 -73.857765 -8.8282328 -74.363167 -0.25917047 -91.443321
9209687500 -0.95901459 124.90433 -8.8295736 -73.885918 -8.8246832 -74.405876 -0.26197493 -91.447487
9209750000 -0.96152526 124.8511 -8.8261194 -73.860954 -8.8284178 -74.362587 -0.26319277 -91.345436
9209812500 -0.96645027 124.90478 -8.8350525 -73.884743 -8.8230848 -74.422295 -0.25962469 -91.38163
9209875000 -0.96218365 124.86198 -8.8279495 -73.851418 -8.8176537 -74.40786 -0.25878322 -91.356903
9209937500 -0.96605951 124.84627 -8.828105 -73.828911 -8.8275871 -74.334564 -0.25893605 -91.347893
9210000000 -0.96291834 124.86973 -8.8281651 -73.798164 -8.8188419 -74.327591 -0.25464097 -91.322113
9210062500 -0.95942074 124.83747 -8.8264294 -73.877853 -8.8207836 -74.364746 -0.25688684 -91.306168
9210125000 -0.95826077 124.83619 -8.8229103 -73.82132 -8.8197803 -74.345398 -0.25530866 -91.284225
9210187500 -0.95800412 124.81286 -8.8254843 -73.836731 -8.8168125 -74.335976 -0.25543466 -91.303024
9210250000 -0.95934331 124.79368 -8.8277664 -73.823761 -8.8122654 -74.340492 -0.26043054 -91.260391
9210312500 -0.9524501 124.79201 -8.8177509 -73.813667 -8.8161564 -74.330391 -0.25776851 -91.233154
9210375000 -0.95301378 124.75625 -8.820343 -73.813118 -8.8239965 -74.281952 -0.2721681 -91.19548
9210437500 -0.95924401 124.7566 -8.8214035 -73.815285 -8.8145485 -74.357101 -0.25900397 -91.238235
9210500000 -0.95591092 124.71377 -8.8184795 -73.854141 -8.8152447 -74.324615 -0.26309797 -91.179695
9210562500 -0.96011829 124.71616 -8.8195086 -73.777405 -8.8139315 -74.312263 -0.26782221 -91.162544
9210625000 -0.95518792 124.69193 -8.8295584 -73.721992 -8.8153419 -74.322571 -0.27320963 -91.128723
9210687500 -0.95500469 124.6469 -8.8254633 -73.767662 -8.8114281 -74.307579 -0.26894024 -91.113152
9210750000 -0.95407087 124.64516 -8.8259249 -73.754791 -8.8123369 -74.308998 -0.27028745 -91.092438
9210812500 -0.95451587 124.61524 -8.8196602 -73.81427 -8.8156204 -74.317032 -0.26914591 -91.144264
9210875000 -0.95680994 124.55386 -8.8137445 -73.81469 -8.8120632 -74.267067 -0.26845959 -91.049889
9210937500 -0.95990926 124.60865 -8.8223228 -73.740189 -8.8018522 -74.378212 -0.26769724 -91.107788
9211000000 -0.96045494 124.57214 -8.8191986 -73.759781 -8.8105698 -74.358253 -0.27363297 -91.044479
9211062500 -0.96172416 124.54893 -8.8149118 -73.8368 -8.8040876 -74.336464 -0.26913586 -91.072098
9211125000 -0.96321923 124.57769 -8.8195963 -73.769676 -8.8058567 -74.364822 -0.26837683 -91.0336
9211187500 -0.96457863 124.54831 -8.8131075 -73.80912 -8.8091192 -74.293945 -0.26510379 -91.05368
9211250000 -0.96816993 124.53226 -8.8098354 -73.773697 -8.8139553 -74.361763 -0.27081284 -91.10173
9211312500 -0.96340024 124.56487 -8.8080921 -73.795105 -8.8077774 -74.371246 -0.26716918 -91.088104
9211375000 -0.97096211 124.5433 -8.8148699 -73.753799 -8.8055525 -74.367706 -0.26158935 -90.9552
9211437500 -0.96722955 124.52467 -8.8087635 -73.792725 -8.8063412 -74.319832 -0.26133111 -90.918381
9211500000 -0.9694562 124.53027 -8.8220177 -73.761749 -8.8064947 -74.35006 -0.26058546 -90.965981
9211562500 -0.96479815 124.49358 -8.8083611 -73.815125 -8.8049269 -74.314102 -0.27232355 -90.91143
9211625000 -0.9629128 124.48254 -8.8103008 -73.783348 -8.8071127 -74.31675 -0.27304372 -90.913673
9211687500 -0.96690625 124.47266 -8.8106604 -73.762703 -8.8034086 -74.293289 -0.2740382 -90.882851
9211750000 -0.96168005 124.4328 -8.8105936 -73.783234 -8.805295 -74.255646 -0.27697393 -90.890411
9211812500 -0.96204293 124.41141 -8.8020649 -73.822403 -8.8073711 -74.277863 -0.27725911 -90.886436
9211875000 -0.96567404 124.38675 -8.802453 -73.783386 -8.809392 -74.272217 -0.27416316 -90.745468
9211937500 -0.96751046 124.3507 -8.8051319 -73.82737 -8.7950735 -74.292587 -0.27011266 -90.796974
9212000000 -0.96781665 124.37966 -8.7999153 -73.779778 -8.798337 -74.244339 -0.27047467 -90.771553
9212062500 -0.96550351 124.34175 -8.7948427 -73.81926 -8.7962399 -74.262733 -0.27380356 -90.709084
9212125000 -0.96797407 124.32751 -8.8041801 -73.853981 -8.8002806 -74.297775 -0.27093315 -90.689972
9212187500 -0.97180134 124.29319 -8.801075 -73.830772 -8.7947264 -74.333778 -0.27003494 -90.703484
