!Agilent Technologies,N5242A,MY51221714,A.09.90.19
!Agilent N5242A: A.09.90.19
!Date: Saturday, March 16, 2024 10:07:46
!Correction: S11(Full 2 Port(1,2)) 
!S21(Full 2 Port(1,2)) 
!S12(Full 2 Port(1,2)) 
!S22(Full 2 Port(1,2)) 
!S2P File: Measurements: S11, S21, S12, S22:
# Hz S  dB   R 50
9200000000 -1.8459078 124.21413 -8.4203329 -87.179619 -8.4099665 -87.688164 -1.0676585 -97.681839
9200062500 -1.8486993 124.2704 -8.4254265 -87.120399 -8.4102945 -87.75177 -1.0711344 -97.726509
9200125000 -1.8505851 124.24767 -8.4194899 -87.1735 -8.4103518 -87.732903 -1.068953 -97.71183
9200187500 -1.8440775 124.26098 -8.416316 -87.104462 -8.4094648 -87.755341 -1.0687773 -97.725784
9200250000 -1.8461988 124.23022 -8.4187069 -87.143883 -8.4026489 -87.718857 -1.0671241 -97.644653
9200312500 -1.8413435 124.20634 -8.4113455 -87.188469 -8.4051476 -87.758812 -1.0667522 -97.66198
9200375000 -1.8391426 124.20119 -8.4067278 -87.167274 -8.4035721 -87.811272 -1.0717789 -97.669777
9200437500 -1.8450898 124.14674 -8.4072657 -87.178062 -8.3922024 -87.766479 -1.0682507 -97.667114
9200500000 -1.8396622 124.16399 -8.4064493 -87.144196 -8.3964891 -87.715767 -1.0674323 -97.588257
9200562500 -1.8427839 124.16388 -8.4134445 -87.164391 -8.3953257 -87.776215 -1.0735095 -97.595673
9200625000 -1.8440199 124.14029 -8.4084692 -87.147522 -8.3892174 -87.727173 -1.0738027 -97.576408
9200687500 -1.8428061 124.09883 -8.4070082 -87.11673 -8.3958998 -87.721123 -1.0799897 -97.499886
9200750000 -1.8479807 124.09747 -8.4196787 -87.131638 -8.3909245 -87.764946 -1.0758709 -97.497635
9200812500 -1.845134 124.12316 -8.4128027 -87.064003 -8.387845 -87.740028 -1.0819743 -97.477692
9200875000 -1.8548266 124.05666 -8.417469 -87.16259 -8.3866978 -87.796059 -1.0785336 -97.468819
9200937500 -1.8482786 124.08179 -8.4080572 -87.13118 -8.3897705 -87.701683 -1.0837137 -97.413925
9201000000 -1.8505955 124.06278 -8.4125853 -87.157379 -8.3853855 -87.811646 -1.0846308 -97.459587
9201062500 -1.8499534 124.01682 -8.4025488 -87.152298 -8.392909 -87.756699 -1.0832599 -97.410515
9201125000 -1.8442771 124.04475 -8.3977661 -87.093559 -8.3867903 -87.786575 -1.0808851 -97.432823
9201187500 -1.8420464 124.01231 -8.3983793 -87.17189 -8.3837605 -87.735703 -1.0827912 -97.350327
9201250000 -1.853874 123.99223 -8.4047203 -87.219963 -8.3819027 -87.770409 -1.0786943 -97.404953
9201312500 -1.846006 123.98315 -8.3987913 -87.181709 -8.3787355 -87.778084 -1.0709686 -97.376503
9201375000 -1.8470069 123.98179 -8.3912592 -87.189827 -8.3893251 -87.751617 -1.0802817 -97.383011
9201437500 -1.8522474 123.96026 -8.3946943 -87.154091 -8.3866663 -87.725655 -1.0755782 -97.361717
9201500000 -1.8528785 123.91412 -8.4075804 -87.168457 -8.3865013 -87.710976 -1.0749334 -97.277672
9201562500 -1.8552496 123.93185 -8.409811 -87.192787 -8.3859663 -87.732033 -1.0776898 -97.334442
9201625000 -1.855319 123.95103 -8.4022818 -87.137436 -8.3886385 -87.765152 -1.077546 -97.314285
9201687500 -1.8532709 123.92742 -8.4040813 -87.165169 -8.3808765 -87.746506 -1.0785365 -97.297493
9201750000 -1.8511769 123.92079 -8.3976898 -87.110695 -8.3862514 -87.678734 -1.080672 -97.231758
9201812500 -1.8520654 123.88476 -8.3984795 -87.128349 -8.3792791 -87.708817 -1.0850784 -97.197693
9201875000 -1.8527838 123.85196 -8.4040308 -87.197678 -8.3837528 -87.673378 -1.0846319 -97.198776
9201937500 -1.8514143 123.82785 -8.3901615 -87.210091 -8.3699751 -87.739433 -1.08242 -97.199471
9202000000 -1.8505013 123.83159 -8.3942146 -87.175743 -8.3700447 -87.716484 -1.0853764 -97.161438
9202062500 -1.847304 123.81065 -8.3830633 -87.138527 -8.3799877 -87.752861 -1.0824835 -97.160492
9202125000 -1.8467822 123.76412 -8.3889446 -87.208778 -8.3849688 -87.765572 -1.0877395 -97.137596
9202187500 -1.8455808 123.77628 -8.3774099 -87.155487 -8.3810253 -87.743111 -1.0810714 -97.127258
9202250000 -1.8566535 123.7409 -8.3858032 -87.221123 -8.3844519 -87.736359 -1.0840273 -97.101036
9202312500 -1.8472254 123.75417 -8.3746586 -87.156693 -8.3801727 -87.753265 -1.0829325 -97.099983
9202375000 -1.8556106 123.74769 -8.3858442 -87.146461 -8.3784246 -87.757729 -1.0841892 -97.077904
9202437500 -1.8582791 123.72572 -8.3883457 -87.180305 -8.3786535 -87.766747 -1.0904115 -97.084656
9202500000 -1.8550045 123.74538 -8.3824768 -87.176239 -8.3743849 -87.774406 -1.0838357 -97.026443
9202562500 -1.8559074 123.75851 -8.3837328 -87.1866 -8.3800163 -87.791725 -1.0925388 -97.048332
9202625000 -1.8560281 123.67626 -8.3857641 -87.207504 -8.3678188 -87.730911 -1.0943033 -97.000076
9202687500 -1.859454 123.72215 -8.3846788 -87.13266 -8.3672142 -87.786972 -1.0973206 -96.97596
9202750000 -1.8582789 123.69256 -8.3916845 -87.155472 -8.3772707 -87.743355 -1.1007304 -96.990707
9202812500 -1.8499455 123.67376 -8.3793526 -87.187218 -8.3708754 -87.796097 -1.0995002 -96.953796
9202875000 -1.8601619 123.65749 -8.3884382 -87.163353 -8.3678532 -87.67379 -1.0924249 -96.908409
9202937500 -1.8593435 123.6003 -8.3827887 -87.251686 -8.3695316 -87.766281 -1.0927775 -96.896584
9203000000 -1.8509562 123.59927 -8.3747158 -87.194275 -8.3667917 -87.732552 -1.0929768 -96.876648
9203062500 -1.8547492 123.56679 -8.3675203 -87.184555 -8.3684883 -87.718903 -1.0942131 -96.841576
9203125000 -1.8521947 123.57121 -8.3694592 -87.210571 -8.3681135 -87.769424 -1.0958591 -96.836739
9203187500 -1.8556837 123.53893 -8.3739653 -87.254944 -8.3622866 -87.807533 -1.0965456 -96.845177
9203250000 -1.8560153 123.56235 -8.3741426 -87.21537 -8.3660851 -87.759399 -1.0922498 -96.819405
9203312500 -1.8580415 123.53256 -8.3807468 -87.255539 -8.3640089 -87.838821 -1.0916721 -96.798233
9203375000 -1.8621124 123.52513 -8.384944 -87.214706 -8.3650894 -87.777779 -1.0966892 -96.756577
9203437500 -1.8620567 123.54721 -8.3727102 -87.214455 -8.3658009 -87.816803 -1.0935923 -96.7883
9203500000 -1.853012 123.4909 -8.3706474 -87.285385 -8.367034 -87.775696 -1.0869497 -96.758316
9203562500 -1.8603724 123.51404 -8.3729563 -87.175896 -8.3632326 -87.803543 -1.0955437 -96.732819
9203625000 -1.8584057 123.44942 -8.3767633 -87.259476 -8.3567343 -87.746536 -1.0918845 -96.7117
9203687500 -1.8600084 123.48415 -8.3699045 -87.195053 -8.3598728 -87.746941 -1.1009851 -96.655632
9203750000 -1.8569431 123.44061 -8.3650703 -87.212364 -8.3656921 -87.782921 -1.1048437 -96.632263
9203812500 -1.8588091 123.39275 -8.3660774 -87.263817 -8.3652811 -87.825172 -1.1079358 -96.693115
9203875000 -1.8637443 123.42007 -8.370244 -87.238235 -8.3626432 -87.780136 -1.104143 -96.661873
9203937500 -1.8551073 123.39874 -8.3673096 -87.248482 -8.3616104 -87.823357 -1.107245 -96.642967
9204000000 -1.858114 123.40463 -8.3744593 -87.196518 -8.3580465 -87.732376 -1.1151255 -96.597328
9204062500 -1.8539027 123.37794 -8.3632565 -87.213364 -8.3529596 -87.774704 -1.1104614 -96.622688
9204125000 -1.8588091 123.34392 -8.3675995 -87.236847 -8.3482819 -87.749863 -1.1097121 -96.557747
9204187500 -1.8581796 123.33661 -8.3713865 -87.224617 -8.3523579 -87.732956 -1.1145278 -96.544357
9204250000 -1.8569292 123.32602 -8.3745356 -87.216766 -8.3487234 -87.783157 -1.1123439 -96.569695
9204312500 -1.8586948 123.31361 -8.3674049 -87.187889 -8.3373213 -87.781723 -1.1050526 -96.549751
9204375000 -1.8542171 123.27774 -8.3698406 -87.194374 -8.3508406 -87.71611 -1.1083642 -96.499062
9204437500 -1.8576194 123.27735 -8.3675213 -87.204575 -8.3452177 -87.727028 -1.106382 -96.417732
9204500000 -1.8555294 123.2439 -8.3549547 -87.174629 -8.3459873 -87.773872 -1.1030256 -96.459648
9204562500 -1.8548434 123.20872 -8.3625927 -87.174248 -8.3435583 -87.787575 -1.1036857 -96.40934
9204625000 -1.8474377 123.21993 -8.3504152 -87.174324 -8.3405962 -87.787376 -1.0980783 -96.37896
9204687500 -1.8520623 123.19382 -8.3495283 -87.230553 -8.3489218 -87.750801 -1.1007066 -96.383232
9204750000 -1.8522259 123.21708 -8.3519859 -87.217682 -8.3419104 -87.784485 -1.1074558 -96.399117
9204812500 -1.85778 123.21706 -8.3494415 -87.196167 -8.3430309 -87.805222 -1.1079885 -96.381516
9204875000 -1.8571472 123.201 -8.3542118 -87.200874 -8.3407249 -87.759438 -1.1036525 -96.330528
9204937500 -1.8584878 123.20936 -8.3507748 -87.180435 -8.347271 -87.82589 -1.1132306 -96.39122
9205000000 -1.8607759 123.15816 -8.347599 -87.197296 -8.3453064 -87.787056 -1.1094474 -96.319954
9205062500 -1.8633157 123.19321 -8.3513479 -87.154999 -8.3383369 -87.80703 -1.107509 -96.339577
9205125000 -1.8666234 123.16579 -8.3497887 -87.194901 -8.3429966 -87.833191 -1.1087607 -96.347534
9205187500 -1.8681574 123.10168 -8.3497057 -87.192314 -8.354928 -87.853065 -1.1153809 -96.34864
9205250000 -1.8668566 123.09509 -8.3507109 -87.157852 -8.3357277 -87.775642 -1.1020894 -96.266991
9205312500 -1.8673933 123.08747 -8.3529263 -87.12635 -8.3410501 -87.783424 -1.1069906 -96.256691
9205375000 -1.8697691 123.02664 -8.3485689 -87.199226 -8.3391953 -87.808388 -1.1082594 -96.223755
9205437500 -1.8667219 122.99383 -8.3451872 -87.232101 -8.3526974 -87.820343 -1.1075562 -96.237114
9205500000 -1.8695908 122.99306 -8.3448458 -87.203796 -8.3369875 -87.750908 -1.1074975 -96.192749
9205562500 -1.8669564 123.04023 -8.343833 -87.210884 -8.3462782 -87.842697 -1.113308 -96.196327
9205625000 -1.867222 123.00601 -8.3374815 -87.207283 -8.3440809 -87.821663 -1.1051621 -96.182396
9205687500 -1.8667278 123.01778 -8.3408871 -87.205994 -8.3394547 -87.757347 -1.1075821 -96.159508
9205750000 -1.8651373 122.98212 -8.3491497 -87.214058 -8.3404264 -87.746162 -1.1054195 -96.130531
9205812500 -1.8677756 122.95119 -8.3425484 -87.230255 -8.3456907 -87.791313 -1.1120261 -96.124802
9205875000 -1.8609998 122.94506 -8.3405943 -87.224884 -8.3416367 -87.805832 -1.1106476 -96.082268
9205937500 -1.8674027 122.96822 -8.3361673 -87.21077 -8.3389931 -87.834625 -1.1165091 -96.12204
9206000000 -1.8639086 122.95467 -8.3393555 -87.247475 -8.3395119 -87.814148 -1.1161591 -96.077927
9206062500 -1.8624748 122.93898 -8.3341303 -87.228477 -8.3358574 -87.714539 -1.1122973 -96.000053
9206125000 -1.8649596 122.95558 -8.3388662 -87.238396 -8.3439102 -87.824127 -1.1208212 -96.033379
9206187500 -1.8651663 122.92664 -8.3405714 -87.155373 -8.3357792 -87.759705 -1.1181062 -95.986725
9206250000 -1.8599862 122.87524 -8.3332062 -87.287514 -8.3326025 -87.826073 -1.1193258 -95.991318
9206312500 -1.8663126 122.86374 -8.3346453 -87.230026 -8.3270979 -87.742493 -1.1104482 -95.963646
9206375000 -1.8622189 122.88788 -8.3317013 -87.214096 -8.3298893 -87.836708 -1.1154095 -95.963051
9206437500 -1.8641055 122.9017 -8.3384256 -87.179443 -8.3249502 -87.865425 -1.1142505 -95.962952
9206500000 -1.8606781 122.84487 -8.3291588 -87.235924 -8.3247719 -87.820381 -1.1129336 -95.900993
9206562500 -1.8691089 122.86853 -8.3357334 -87.189957 -8.3248625 -87.812813 -1.1123979 -95.901474
9206625000 -1.8709682 122.8551 -8.3289747 -87.209961 -8.3161926 -87.837067 -1.1146436 -95.875076
9206687500 -1.8748906 122.82069 -8.3326292 -87.179543 -8.3171082 -87.802795 -1.1107707 -95.830215
9206750000 -1.8729005 122.80268 -8.3216734 -87.194351 -8.3088083 -87.78994 -1.1058046 -95.80368
9206812500 -1.8747816 122.78646 -8.3237762 -87.173294 -8.3159466 -87.858139 -1.1042955 -95.846306
9206875000 -1.8717744 122.77863 -8.3168154 -87.128242 -8.3014431 -87.794823 -1.1021361 -95.772507
9206937500 -1.8681477 122.77082 -8.3239946 -87.156532 -8.3152323 -87.775223 -1.1146631 -95.76796
9207000000 -1.8650614 122.70956 -8.3228321 -87.219826 -8.3198004 -87.768379 -1.11765 -95.748184
9207062500 -1.8709407 122.73232 -8.3249369 -87.187599 -8.3144398 -87.822502 -1.1217874 -95.753235
9207125000 -1.8660419 122.70116 -8.3190832 -87.229614 -8.3124714 -87.844337 -1.1218256 -95.76638
9207187500 -1.8659092 122.6555 -8.3201599 -87.269539 -8.3144197 -87.813545 -1.1229242 -95.738754
9207250000 -1.8685733 122.67987 -8.3214025 -87.255424 -8.3204651 -87.810898 -1.1209843 -95.728279
9207312500 -1.8717756 122.60561 -8.3218908 -87.290092 -8.3176489 -87.793518 -1.12799 -95.723434
9207375000 -1.8661456 122.56908 -8.3077497 -87.296341 -8.3094501 -87.826065 -1.1195509 -95.714737
9207437500 -1.8707021 122.5639 -8.3157492 -87.318611 -8.3148975 -87.819633 -1.1297126 -95.659843
9207500000 -1.8705997 122.5615 -8.3209238 -87.345421 -8.3070755 -87.818565 -1.1261936 -95.682991
9207562500 -1.8699296 122.53252 -8.3119011 -87.329094 -8.3065577 -87.85067 -1.1239914 -95.698578
9207625000 -1.8774869 122.51466 -8.3158064 -87.347565 -8.3005915 -87.828629 -1.1273367 -95.64814
9207687500 -1.8764099 122.5479 -8.3172998 -87.268166 -8.3057699 -87.858665 -1.1271847 -95.649033
9207750000 -1.8837239 122.53689 -8.3148603 -87.233849 -8.3136854 -87.821671 -1.1171848 -95.614365
9207812500 -1.8786479 122.52731 -8.3188896 -87.259575 -8.3109074 -87.908043 -1.116486 -95.587074
9207875000 -1.8795034 122.51005 -8.3134279 -87.273232 -8.3155336 -87.870033 -1.1201943 -95.585098
9207937500 -1.8826478 122.50573 -8.3093281 -87.218544 -8.3126602 -87.84613 -1.1208212 -95.527252
9208000000 -1.8794613 122.50006 -8.3119984 -87.238823 -8.3154211 -87.822578 -1.1245772 -95.422943
9208062500 -1.8806851 122.48724 -8.3116827 -87.254066 -8.3060408 -87.915115 -1.1236322 -95.5159
9208125000 -1.8756061 122.49844 -8.3141613 -87.276703 -8.3092442 -87.875313 -1.1299409 -95.461266
9208187500 -1.8741966 122.48857 -8.316453 -87.181946 -8.3088083 -87.859619 -1.1268494 -95.468208
9208250000 -1.877254 122.4735 -8.3148613 -87.227051 -8.309185 -87.827393 -1.1370835 -95.431053
9208312500 -1.8782513 122.47167 -8.3078566 -87.158096 -8.3018055 -87.829399 -1.1404259 -95.407784
9208375000 -1.8766814 122.45405 -8.3123455 -87.193764 -8.3113089 -87.807014 -1.1369916 -95.422249
9208437500 -1.8743845 122.43911 -8.3109035 -87.197922 -8.3041611 -87.85968 -1.1399411 -95.381508
9208500000 -1.8759542 122.37091 -8.3090286 -87.290169 -8.3000708 -87.810539 -1.1375055 -95.378525
9208562500 -1.8790176 122.36681 -8.3053198 -87.279053 -8.2980947 -87.829285 -1.1368191 -95.346466
9208625000 -1.8824767 122.34153 -8.307991 -87.251213 -8.2984953 -87.814362 -1.1285921 -95.37532
9208687500 -1.880439 122.30623 -8.3060074 -87.311699 -8.2965317 -87.905273 -1.1307076 -95.380661
9208750000 -1.8776535 122.27954 -8.2939625 -87.288406 -8.2982264 -87.854584 -1.1318054 -95.317268
9208812500 -1.883214 122.30697 -8.303442 -87.319771 -8.2939491 -87.83577 -1.1290911 -95.308029
9208875000 -1.8829341 122.29854 -8.2958317 -87.318863 -8.2900457 -87.859528 -1.1260518 -95.289497
9208937500 -1.8823259 122.30396 -8.3025723 -87.298897 -8.2966824 -87.880951 -1.1371834 -95.290276
9209000000 -1.8818145 122.31622 -8.299962 -87.329582 -8.2922506 -87.852768 -1.1299186 -95.293953
9209062500 -1.8825113 122.30173 -8.2973614 -87.300774 -8.2922659 -87.891731 -1.1293265 -95.30629
9209125000 -1.8813963 122.33011 -8.2976227 -87.287674 -8.2961731 -87.826599 -1.1307925 -95.216759
9209187500 -1.8779374 122.30401 -8.291441 -87.274391 -8.299283 -87.846436 -1.1343118 -95.243858
9209250000 -1.8796108 122.30394 -8.2864246 -87.21933 -8.2918386 -87.848366 -1.1334078 -95.208069
9209312500 -1.8835979 122.26463 -8.2964277 -87.231018 -8.2975082 -87.809143 -1.137925 -95.154076
9209375000 -1.8812462 122.22307 -8.2830954 -87.245934 -8.301445 -87.839844 -1.1449546 -95.15509
9209437500 -1.8845279 122.17788 -8.2951221 -87.315468 -8.2901249 -87.832756 -1.1404531 -95.129028
9209500000 -1.8827598 122.17385 -8.2913542 -87.297859 -8.3027353 -87.823814 -1.1405923 -95.090729
9209562500 -1.8827676 122.18189 -8.2869825 -87.306923 -8.2867193 -87.835594 -1.1361423 -95.056885
9209625000 -1.8848984 122.13148 -8.2904387 -87.301315 -8.2929564 -87.880127 -1.1392242 -95.063118
9209687500 -1.8853781 122.15541 -8.2872429 -87.331436 -8.2863426 -87.840851 -1.1293203 -95.034813
9209750000 -1.8861215 122.1469 -8.2938805 -87.363541 -8.2764769 -87.896049 -1.1319134 -95.052444
9209812500 -1.8854227 122.14971 -8.2829666 -87.30677 -8.279377 -87.864021 -1.126651 -94.998947
9209875000 -1.8901676 122.12865 -8.2893095 -87.329926 -8.2832422 -87.873383 -1.1351143 -94.98056
9209937500 -1.8896446 122.08088 -8.2911081 -87.347458 -8.2785683 -87.805367 -1.1284089 -94.960258
9210000000 -1.8866156 122.05883 -8.2832766 -87.372566 -8.2784262 -87.890678 -1.1299927 -94.977257
9210062500 -1.8831618 122.08395 -8.283226 -87.285057 -8.2720146 -87.81517 -1.1243246 -94.938118
9210125000 -1.8830519 122.02731 -8.2866879 -87.351723 -8.2754049 -87.7658 -1.1278847 -94.898193
9210187500 -1.8841754 122.07936 -8.2848425 -87.238998 -8.2703218 -87.813828 -1.129166 -94.903915
9210250000 -1.8847095 122.02631 -8.283699 -87.287781 -8.2736521 -87.813347 -1.1330067 -94.892624
9210312500 -1.8819964 122.03123 -8.2811365 -87.308899 -8.2721739 -87.85955 -1.1383326 -94.89296
9210375000 -1.8891673 122.0088 -8.2869396 -87.318756 -8.2741594 -87.76915 -1.1435137 -94.807838
9210437500 -1.8887293 121.98091 -8.2918987 -87.322281 -8.2793312 -87.882164 -1.1426084 -94.861656
9210500000 -1.886107 121.96806 -8.285265 -87.324272 -8.2722445 -87.805176 -1.1474876 -94.832466
9210562500 -1.8883153 121.95938 -8.2825899 -87.322456 -8.2769451 -87.873978 -1.1472754 -94.816116
9210625000 -1.8773385 121.91328 -8.2760677 -87.29245 -8.2771378 -87.860641 -1.1496128 -94.800323
9210687500 -1.8838485 121.89067 -8.2909136 -87.275986 -8.2786579 -87.854523 -1.1502193 -94.767334
9210750000 -1.8818122 121.88138 -8.2771845 -87.26902 -8.2691813 -87.843788 -1.1460236 -94.765839
9210812500 -1.8865527 121.87033 -8.2733316 -87.318367 -8.2716141 -87.934502 -1.1547726 -94.767914
9210875000 -1.8848981 121.84956 -8.2841988 -87.310097 -8.2705107 -87.876099 -1.1531267 -94.707756
9210937500 -1.8893884 121.82186 -8.2760935 -87.314781 -8.2654228 -87.830833 -1.1448762 -94.649178
9211000000 -1.8895154 121.80247 -8.2755346 -87.292503 -8.2745533 -87.861732 -1.1530006 -94.668663
9211062500 -1.8869382 121.80166 -8.2732372 -87.332626 -8.2677593 -87.937119 -1.1479677 -94.726967
9211125000 -1.8963467 121.81324 -8.2760506 -87.310593 -8.2633543 -87.886543 -1.151268 -94.704323
9211187500 -1.8962784 121.82253 -8.2805338 -87.33728 -8.2652092 -87.868958 -1.1499425 -94.692429
9211250000 -1.9045659 121.79841 -8.281168 -87.357742 -8.2601547 -87.884979 -1.1498516 -94.711609
9211312500 -1.8935987 121.8167 -8.2715082 -87.347679 -8.2712259 -87.952049 -1.1469783 -94.779724
9211375000 -1.8919134 121.80498 -8.2736969 -87.366653 -8.264267 -87.92308 -1.1452043 -94.587929
9211437500 -1.8954986 121.76763 -8.2743607 -87.401993 -8.2663784 -87.84713 -1.1433825 -94.511398
9211500000 -1.8956397 121.74757 -8.2683849 -87.347565 -8.2616692 -87.892723 -1.1444291 -94.563225
9211562500 -1.893743 121.73048 -8.2685041 -87.3797 -8.2617655 -87.863609 -1.1502594 -94.563591
9211625000 -1.8943381 121.71165 -8.2697563 -87.320221 -8.2618179 -87.899109 -1.1553354 -94.569237
9211687500 -1.8962035 121.67519 -8.2702427 -87.380371 -8.2611914 -87.871498 -1.1600307 -94.520905
9211750000 -1.8924336 121.66367 -8.2652025 -87.332123 -8.2579737 -87.862793 -1.1573055 -94.50087
9211812500 -1.8978869 121.67276 -8.2660179 -87.295639 -8.2526197 -87.83931 -1.1521866 -94.505676
9211875000 -1.898267 121.66685 -8.2647266 -87.362267 -8.2614985 -87.903526 -1.1568081 -94.480003
9211937500 -1.8986031 121.62292 -8.260601 -87.384003 -8.2613945 -87.865814 -1.1576424 -94.416008
9212000000 -1.9002529 121.60944 -8.2643576 -87.351013 -8.2632389 -87.89257 -1.1639566 -94.40274
9212062500 -1.9001721 121.54816 -8.2631769 -87.42749 -8.2613907 -87.833664 -1.1631525 -94.383369
9212125000 -1.9031358 121.53655 -8.2575665 -87.421791 -8.2531185 -87.835098 -1.1574132 -94.329895
9212187500 -1.9083307 121.52158 -8.2707806 -87.412834 -8.2497349 -87.862221 -1.1607552 -94.328514
9212250000 -1.9043003 121.52285 -8.2641363 -87.363861 -8.2541771 -87.84903 -1.1577139 -94.251831
9212312500 -1.8985221 121.48866 -8.2571325 -87.372345 -8.2559376 -87.941704 -1.1645906 -94.318428
9212375000 -1.9091865 121.47794 -8.2631731 -87.333351 -8.2532797 -87.890106 -1.1652457 -94.273941
9212437500 -1.9004121 121.47501 -8.2607603 -87.342529 -8.2530842 -87.855423 -1.162143 -94.262238
