!Agilent Technologies,N5242A,MY51221714,A.09.90.19
!Agilent N5242A: A.09.90.19
!Date: Saturday, March 16, 2024 10:09:22
!Correction: S11(Full 2 Port(1,2)) 
!S21(Full 2 Port(1,2)) 
!S12(Full 2 Port(1,2)) 
!S22(Full 2 Port(1,2)) 
!S2P File: Measurements: S11, S21, S12, S22:
# Hz S  dB   R 50
9200000000 -0.82782418 130.72797 -9.1601009 -69.558083 -9.1527405 -70.118095 -0.092396043 -90.956787
9200062500 -0.82274121 130.76295 -9.1525192 -69.518951 -9.1450148 -70.102142 -0.084680386 -90.944519
9200125000 -0.82808268 130.74318 -9.160265 -69.493698 -9.1569834 -70.096748 -0.09004996 -90.926041
9200187500 -0.82519442 130.7462 -9.1662788 -69.463142 -9.1478987 -70.058144 -0.090075329 -90.87793
9200250000 -0.82400393 130.70311 -9.1509428 -69.511803 -9.1456308 -70.140198 -0.087914377 -90.91777
9200312500 -0.82243848 130.68056 -9.158042 -69.538307 -9.1486788 -70.016685 -0.084998302 -90.844437
9200375000 -0.82432419 130.6707 -9.1590919 -69.514862 -9.1485691 -70.110962 -0.088962853 -90.905533
9200437500 -0.82303196 130.65944 -9.1587114 -69.567894 -9.1437988 -70.038307 -0.09258239 -90.822495
9200500000 -0.82229805 130.65482 -9.151782 -69.489799 -9.1385689 -70.110207 -0.091442131 -90.824905
9200562500 -0.82252061 130.63393 -9.1550961 -69.509773 -9.1444941 -70.10836 -0.09824232 -90.803047
9200625000 -0.82141024 130.66025 -9.1581945 -69.432747 -9.123558 -70.103409 -0.090533227 -90.778824
9200687500 -0.82883668 130.58379 -9.1540012 -69.501839 -9.1433687 -70.062096 -0.095289491 -90.718208
9200750000 -0.82956147 130.56421 -9.1613541 -69.479561 -9.1395836 -70.029076 -0.097685158 -90.675941
9200812500 -0.82265121 130.58739 -9.1565857 -69.468353 -9.1316071 -70.093605 -0.099054597 -90.664673
9200875000 -0.83024526 130.61549 -9.165473 -69.381554 -9.1356936 -70.053047 -0.098222829 -90.636795
9200937500 -0.82400155 130.59474 -9.1528482 -69.46521 -9.1389284 -70.043648 -0.10276105 -90.635109
9201000000 -0.81957889 130.5672 -9.1489525 -69.398468 -9.1278677 -69.996368 -0.093685456 -90.625938
9201062500 -0.82426161 130.54697 -9.1550884 -69.440048 -9.1377888 -70.047447 -0.096962057 -90.602272
9201125000 -0.81813538 130.5304 -9.1464281 -69.456963 -9.1366425 -70.076744 -0.1006191 -90.57589
9201187500 -0.82077718 130.51399 -9.1443806 -69.472481 -9.1384163 -70.025734 -0.098230399 -90.572151
9201250000 -0.81948018 130.48569 -9.1432629 -69.499016 -9.1347561 -70.019348 -0.096089892 -90.551483
9201312500 -0.81749582 130.47231 -9.1490736 -69.429947 -9.1333628 -70.02211 -0.099835843 -90.553627
9201375000 -0.82033086 130.45744 -9.1522875 -69.463501 -9.137289 -70.066643 -0.09761136 -90.565628
9201437500 -0.82157636 130.45242 -9.1486883 -69.435303 -9.1395807 -69.988129 -0.10189421 -90.535172
9201500000 -0.82296032 130.44255 -9.1494246 -69.451248 -9.1367531 -70.043541 -0.091456063 -90.536926
9201562500 -0.82942253 130.47375 -9.1490765 -69.458466 -9.1268301 -70.018074 -0.092908002 -90.559029
9201625000 -0.8268373 130.44478 -9.1528339 -69.378197 -9.1308928 -69.990219 -0.087758005 -90.493317
9201687500 -0.82309347 130.39349 -9.1435347 -69.441833 -9.1322737 -70.005386 -0.097107649 -90.494736
9201750000 -0.82180029 130.41795 -9.1548347 -69.42247 -9.130785 -70.037323 -0.095712125 -90.458916
9201812500 -0.82547069 130.39616 -9.1514702 -69.424194 -9.1387959 -69.994225 -0.099874824 -90.430794
9201875000 -0.82311749 130.33566 -9.1492901 -69.45237 -9.1300011 -69.996918 -0.097679824 -90.401649
9201937500 -0.82294565 130.36536 -9.139636 -69.372269 -9.1302319 -70.01474 -0.092898265 -90.3414
9202000000 -0.81556934 130.33046 -9.139389 -69.41993 -9.1257648 -69.955482 -0.095434256 -90.367905
9202062500 -0.82593048 130.29268 -9.1403542 -69.425514 -9.1293669 -69.966026 -0.099473052 -90.332329
9202125000 -0.82383227 130.32529 -9.1347523 -69.351234 -9.134779 -69.991371 -0.098255396 -90.337234
9202187500 -0.8177343 130.29501 -9.1356907 -69.426636 -9.131918 -70.039833 -0.098559529 -90.359497
9202250000 -0.82255256 130.28452 -9.1349001 -69.457901 -9.1295938 -70.047447 -0.093885295 -90.33493
9202312500 -0.82211965 130.28333 -9.1379929 -69.399185 -9.1254358 -70.001831 -0.098217055 -90.320526
9202375000 -0.82451689 130.26129 -9.1325111 -69.38472 -9.1299715 -70.017166 -0.093443625 -90.285126
9202437500 -0.82731611 130.26361 -9.1395445 -69.424179 -9.1268129 -70.044456 -0.092757091 -90.275909
9202500000 -0.82670581 130.23511 -9.1369991 -69.438469 -9.1324215 -70.016228 -0.098723248 -90.257759
9202562500 -0.8208375 130.22174 -9.1351299 -69.408485 -9.1348839 -69.964577 -0.10466434 -90.201904
9202625000 -0.82370007 130.22443 -9.1382494 -69.440491 -9.1323795 -69.951233 -0.10295124 -90.172943
9202687500 -0.82542115 130.21408 -9.1464338 -69.377579 -9.1371975 -69.98156 -0.11257131 -90.130585
9202750000 -0.8279357 130.19257 -9.1385746 -69.393394 -9.124753 -70.021622 -0.10646192 -90.157661
9202812500 -0.82234627 130.16249 -9.1400862 -69.413414 -9.1258354 -69.960327 -0.10611523 -90.107658
9202875000 -0.8257587 130.18381 -9.1428337 -69.352081 -9.1305885 -69.965294 -0.10933442 -90.076775
9202937500 -0.82185346 130.15063 -9.1269083 -69.378593 -9.116992 -69.981857 -0.097901471 -90.085091
9203000000 -0.81978458 130.13782 -9.1383457 -69.434868 -9.1271839 -69.942024 -0.10879888 -90.036568
9203062500 -0.82294774 130.09843 -9.1325083 -69.414322 -9.1293774 -69.993713 -0.10261401 -90.095978
9203125000 -0.82412392 130.08195 -9.1328316 -69.464417 -9.1268196 -69.95108 -0.098418683 -90.031448
9203187500 -0.82100958 130.08173 -9.1382675 -69.433495 -9.1199646 -70.018059 -0.10161877 -90.021149
9203250000 -0.82440472 130.07771 -9.1296377 -69.470718 -9.1220732 -69.987526 -0.10460794 -90.014832
9203312500 -0.82662612 130.10207 -9.1338711 -69.402832 -9.1154728 -70.087669 -0.098365694 -90.02594
9203375000 -0.82252055 130.05469 -9.1290979 -69.450592 -9.1192017 -69.965782 -0.098094583 -89.953461
9203437500 -0.82361639 130.0804 -9.1294184 -69.399261 -9.1203022 -70.007256 -0.097979747 -89.928825
9203500000 -0.81909275 130.02353 -9.1354694 -69.415421 -9.1163177 -70.013557 -0.098720513 -89.943436
9203562500 -0.82087713 129.99687 -9.1311531 -69.420471 -9.1154976 -69.945267 -0.10902737 -89.901382
9203625000 -0.82343853 129.98705 -9.1264887 -69.429031 -9.1215801 -69.963142 -0.1106051 -89.890266
9203687500 -0.82629359 129.96648 -9.1242571 -69.462425 -9.1204033 -69.953667 -0.10967422 -89.884354
9203750000 -0.82779682 129.94502 -9.13622 -69.412926 -9.1228647 -69.965187 -0.11070085 -89.893219
9203812500 -0.82596576 129.9323 -9.1269779 -69.397087 -9.1181488 -70.017723 -0.11085451 -89.859604
9203875000 -0.82103485 129.92926 -9.1307697 -69.378952 -9.1208286 -69.940422 -0.10787102 -89.849228
9203937500 -0.82076901 129.89261 -9.1342468 -69.407829 -9.1178608 -69.936401 -0.11659104 -89.787865
9204000000 -0.81797969 129.9138 -9.1321421 -69.3134 -9.1072693 -69.921989 -0.11032845 -89.770424
9204062500 -0.82160467 129.88129 -9.1339846 -69.364601 -9.1149988 -69.988068 -0.1191726 -89.803535
9204125000 -0.81586504 129.85429 -9.1277809 -69.403412 -9.1137476 -69.963646 -0.11460353 -89.774979
9204187500 -0.81349367 129.87039 -9.1276121 -69.331345 -9.1094732 -69.887756 -0.1186882 -89.711235
9204250000 -0.81807965 129.84245 -9.1269932 -69.361214 -9.1113997 -69.951126 -0.11694604 -89.741158
9204312500 -0.81113553 129.82372 -9.1306181 -69.349648 -9.101778 -69.879448 -0.11296996 -89.668648
9204375000 -0.81725341 129.80937 -9.1222696 -69.376694 -9.11621 -69.94976 -0.11037698 -89.703094
9204437500 -0.81291592 129.8084 -9.1192818 -69.378448 -9.109066 -69.909157 -0.11257286 -89.63826
9204500000 -0.81571937 129.79436 -9.1162004 -69.312492 -9.1023064 -69.877693 -0.10420623 -89.640556
9204562500 -0.81660801 129.79878 -9.1221495 -69.335587 -9.1087923 -69.960434 -0.10230173 -89.602829
9204625000 -0.81473726 129.75975 -9.1222143 -69.316826 -9.1044064 -69.932739 -0.097410038 -89.597725
9204687500 -0.81414521 129.74028 -9.1159391 -69.332069 -9.0950975 -69.913124 -0.098073274 -89.60154
9204750000 -0.81572956 129.73775 -9.1212673 -69.334503 -9.110467 -69.907623 -0.10342692 -89.56282
9204812500 -0.81363517 129.76683 -9.1167765 -69.286186 -9.1057281 -69.953865 -0.10267556 -89.55381
9204875000 -0.82195866 129.7505 -9.1255894 -69.296295 -9.1085691 -69.882668 -0.11156178 -89.553932
9204937500 -0.81881362 129.72615 -9.1151581 -69.332176 -9.105545 -69.896202 -0.10923561 -89.551155
9205000000 -0.81889737 129.6955 -9.1242542 -69.309563 -9.1203537 -69.906006 -0.11480291 -89.516861
9205062500 -0.82352662 129.6891 -9.1143084 -69.308647 -9.1109819 -69.930832 -0.10843211 -89.515656
9205125000 -0.81925619 129.68201 -9.1103373 -69.269783 -9.1138802 -69.94075 -0.11122472 -89.495644
9205187500 -0.82496554 129.6398 -9.1101351 -69.296951 -9.1084061 -69.951866 -0.10808055 -89.502495
9205250000 -0.8204506 129.62 -9.1119337 -69.272583 -9.1135159 -69.972862 -0.10973363 -89.460854
9205312500 -0.8254295 129.61356 -9.1157532 -69.274712 -9.099267 -69.914146 -0.10486758 -89.438477
9205375000 -0.82410902 129.54485 -9.1149378 -69.297096 -9.1107273 -69.985718 -0.10948821 -89.457901
9205437500 -0.82300282 129.58675 -9.1138439 -69.284454 -9.1020031 -69.888214 -0.10576724 -89.3871
9205500000 -0.82456017 129.54562 -9.1203089 -69.310196 -9.1123228 -69.947807 -0.10984426 -89.404617
9205562500 -0.8201862 129.53989 -9.102541 -69.316887 -9.1055002 -69.89695 -0.10398034 -89.341057
9205625000 -0.82063615 129.54193 -9.1106329 -69.27491 -9.0992689 -69.891693 -0.10842781 -89.356125
9205687500 -0.82140672 129.54236 -9.1106176 -69.304169 -9.1064281 -69.874962 -0.10997775 -89.337677
9205750000 -0.82458442 129.53291 -9.1137295 -69.296608 -9.0999203 -69.88913 -0.10557406 -89.343536
9205812500 -0.81682956 129.56969 -9.1067381 -69.209717 -9.1069069 -69.869095 -0.11541268 -89.2612
9205875000 -0.82206011 129.51794 -9.1178226 -69.228134 -9.104805 -69.87706 -0.10889351 -89.285324
9205937500 -0.82154113 129.46667 -9.1129055 -69.299416 -9.1100922 -69.819557 -0.111827 -89.245186
9206000000 -0.81508458 129.47395 -9.1053867 -69.325279 -9.1084585 -69.869804 -0.11355901 -89.221153
9206062500 -0.81760699 129.4691 -9.1025391 -69.275185 -9.1066828 -69.868004 -0.11076356 -89.220963
9206125000 -0.81693631 129.47305 -9.1082458 -69.261467 -9.1027298 -69.850624 -0.10995131 -89.189308
9206187500 -0.81382871 129.43611 -9.098525 -69.198883 -9.1062756 -69.814926 -0.1118448 -89.14518
9206250000 -0.81679648 129.46582 -9.0991936 -69.286255 -9.1007738 -69.858337 -0.1145641 -89.118881
9206312500 -0.81739098 129.46698 -9.1102047 -69.267014 -9.1038198 -69.880104 -0.11160053 -89.162338
9206375000 -0.81672513 129.43748 -9.1076536 -69.258812 -9.0970411 -69.885933 -0.11241481 -89.186714
9206437500 -0.81618249 129.41077 -9.0960588 -69.2939 -9.094552 -69.83429 -0.10463834 -89.103622
9206500000 -0.81308174 129.41196 -9.1013947 -69.214371 -9.0895338 -69.848183 -0.10729755 -89.088608
9206562500 -0.82157838 129.39227 -9.0972948 -69.197586 -9.082552 -69.86985 -0.095607847 -89.088997
9206625000 -0.82007229 129.39262 -9.1015272 -69.215485 -9.0918217 -69.822678 -0.10567626 -89.060982
9206687500 -0.82740939 129.34312 -9.0940342 -69.292168 -9.0803328 -69.880836 -0.093279198 -89.05455
9206750000 -0.82507873 129.33722 -9.0974655 -69.203819 -9.0804214 -69.902084 -0.097517051 -88.986679
9206812500 -0.82475007 129.35114 -9.0938654 -69.172768 -9.0861301 -69.844269 -0.10283712 -88.961494
9206875000 -0.82089907 129.28181 -9.0931396 -69.218979 -9.0783577 -69.836456 -0.094640665 -88.96315
9206937500 -0.82230645 129.28261 -9.0929193 -69.204979 -9.0873556 -69.801971 -0.10684022 -88.918541
9207000000 -0.81572872 129.28044 -9.0875092 -69.289871 -9.0801411 -69.828003 -0.10010802 -88.91684
9207062500 -0.81673515 129.25261 -9.0934706 -69.234161 -9.0883589 -69.78447 -0.11298165 -88.904015
9207125000 -0.81641173 129.26607 -9.0965109 -69.234093 -9.0939474 -69.858566 -0.11113558 -88.897812
9207187500 -0.81587344 129.19588 -9.096097 -69.275215 -9.0881586 -69.782066 -0.1131844 -88.918488
9207250000 -0.81428224 129.17694 -9.0991993 -69.301781 -9.0973969 -69.8339 -0.11723212 -88.908257
9207312500 -0.80947137 129.16087 -9.0924911 -69.296768 -9.091013 -69.825294 -0.11628512 -88.914925
9207375000 -0.81217086 129.13054 -9.087451 -69.232384 -9.0847178 -69.827942 -0.11378957 -88.880928
9207437500 -0.81581616 129.12178 -9.0944605 -69.251808 -9.0918522 -69.820892 -0.11864655 -88.851021
9207500000 -0.81619895 129.08734 -9.0878601 -69.27755 -9.0816498 -69.79615 -0.11456716 -88.822235
9207562500 -0.8214215 129.07602 -9.0891218 -69.27169 -9.0831194 -69.844223 -0.11420822 -88.850845
9207625000 -0.82000029 129.03693 -9.0916605 -69.327271 -9.0759211 -69.864548 -0.11512717 -88.845917
9207687500 -0.81652492 129.06374 -9.0799065 -69.22393 -9.0875597 -69.839226 -0.11506903 -88.799461
9207750000 -0.8183924 129.06764 -9.0863037 -69.218712 -9.0776892 -69.817833 -0.10260934 -88.747696
9207812500 -0.82456601 129.02299 -9.0870085 -69.263512 -9.0761747 -69.849823 -0.10003634 -88.734016
9207875000 -0.82267213 129.03897 -9.0853205 -69.288132 -9.0857325 -69.841019 -0.10333169 -88.768188
9207937500 -0.8263188 129.05121 -9.0875988 -69.263123 -9.0794058 -69.845978 -0.098581091 -88.690933
9208000000 -0.83070469 129.06482 -9.0878716 -69.209984 -9.081955 -69.879753 -0.099934109 -88.686264
9208062500 -0.82328075 129.04333 -9.0916224 -69.208115 -9.0825844 -69.849915 -0.11116549 -88.672493
9208125000 -0.82423455 129.02652 -9.0795565 -69.177086 -9.0851583 -69.814377 -0.109641 -88.622581
9208187500 -0.82227141 128.979 -9.0979795 -69.175613 -9.0820265 -69.801094 -0.11355192 -88.557968
9208250000 -0.82158417 129.03627 -9.0857534 -69.205574 -9.0806475 -69.787529 -0.11926804 -88.560097
9208312500 -0.82270652 128.9962 -9.0870781 -69.20089 -9.0819798 -69.807945 -0.11657589 -88.595627
9208375000 -0.81831855 128.96886 -9.0964899 -69.136223 -9.0797176 -69.841118 -0.12397689 -88.558182
9208437500 -0.82432139 128.9796 -9.0854301 -69.221916 -9.0714302 -69.76461 -0.11046237 -88.521683
9208500000 -0.81710762 128.93127 -9.0856457 -69.260567 -9.0836821 -69.7686 -0.11821774 -88.506599
9208562500 -0.81609839 128.90915 -9.0747557 -69.220711 -9.068325 -69.801109 -0.11573004 -88.500473
9208625000 -0.82117534 128.86082 -9.084692 -69.22747 -9.0698185 -69.76606 -0.1115172 -88.504608
9208687500 -0.82446015 128.84531 -9.083497 -69.336807 -9.0748615 -69.784592 -0.10779781 -88.491333
9208750000 -0.81912982 128.82455 -9.0813189 -69.245445 -9.0706873 -69.770439 -0.10270371 -88.484047
9208812500 -0.81784916 128.84152 -9.079917 -69.243889 -9.0761023 -69.727432 -0.11407161 -88.446167
9208875000 -0.82166833 128.8499 -9.0737181 -69.286919 -9.0704746 -69.718887 -0.10956914 -88.40696
9208937500 -0.81848377 128.8744 -9.0787802 -69.165482 -9.0802288 -69.840004 -0.11473124 -88.452301
9209000000 -0.81817746 128.86485 -9.0783844 -69.207588 -9.0797386 -69.758568 -0.11576466 -88.429665
9209062500 -0.82318348 128.91142 -9.0803194 -69.13517 -9.0732479 -69.796959 -0.1189837 -88.435104
9209125000 -0.81764835 128.84651 -9.0765362 -69.179016 -9.0715942 -69.789368 -0.11109187 -88.38987
9209187500 -0.81912732 128.87509 -9.0722046 -69.218765 -9.076107 -69.75737 -0.11232498 -88.377174
9209250000 -0.8212989 128.86108 -9.0775118 -69.176071 -9.0653992 -69.784637 -0.11110608 -88.377251
9209312500 -0.82432985 128.79662 -9.073925 -69.212662 -9.0678587 -69.665108 -0.10970365 -88.285492
9209375000 -0.8213588 128.78171 -9.0726843 -69.18576 -9.0719976 -69.716026 -0.12438265 -88.26812
9209437500 -0.81626272 128.76669 -9.077569 -69.226845 -9.074008 -69.775764 -0.11529487 -88.256355
9209500000 -0.81441331 128.73978 -9.073123 -69.155067 -9.0785294 -69.727905 -0.11680795 -88.238419
9209562500 -0.8182683 128.73868 -9.0708485 -69.165359 -9.0705853 -69.750359 -0.1163814 -88.240494
9209625000 -0.81800467 128.71718 -9.0699253 -69.188103 -9.0785398 -69.725479 -0.11841408 -88.193291
9209687500 -0.81991845 128.6937 -9.0681715 -69.221497 -9.0753927 -69.778999 -0.10856147 -88.205681
9209750000 -0.82435817 128.68985 -9.0824652 -69.209587 -9.0641556 -69.778168 -0.11220394 -88.188347
9209812500 -0.82373542 128.71486 -9.0714045 -69.241135 -9.0711775 -69.741997 -0.10855234 -88.111153
9209875000 -0.82145268 128.65498 -9.0693579 -69.195129 -9.0664148 -69.66748 -0.11062834 -88.087318
9209937500 -0.82610428 128.67404 -9.0769892 -69.185936 -9.0612268 -69.694893 -0.10403402 -88.101372
9210000000 -0.814255 128.644 -9.0574942 -69.219948 -9.0590258 -69.743828 -0.11216161 -88.085587
9210062500 -0.8180148 128.6124 -9.0644398 -69.197456 -9.0586605 -69.737068 -0.10383037 -88.088432
9210125000 -0.81880134 128.6151 -9.0611668 -69.211342 -9.0564194 -69.690971 -0.10533337 -88.067596
9210187500 -0.81563699 128.5883 -9.0612373 -69.176796 -9.0667372 -69.683456 -0.11070108 -88.020271
9210250000 -0.81335491 128.57149 -9.0553551 -69.182083 -9.0587721 -69.660606 -0.10805321 -88.014923
9210312500 -0.81300849 128.59105 -9.0692329 -69.180504 -9.0615091 -69.713402 -0.11437491 -88.036629
9210375000 -0.81390393 128.56694 -9.0704679 -69.145897 -9.0623894 -69.685013 -0.11373027 -88.029854
9210437500 -0.81941211 128.57542 -9.0709991 -69.123695 -9.056469 -69.700752 -0.11330308 -87.965881
9210500000 -0.81351167 128.56538 -9.0664806 -69.141129 -9.0686665 -69.67453 -0.11693971 -87.934189
9210562500 -0.81298167 128.5061 -9.0707111 -69.154488 -9.065568 -69.667152 -0.11800832 -87.932083
9210625000 -0.80527067 128.48012 -9.0626574 -69.101845 -9.0699577 -69.676338 -0.12912907 -87.912773
9210687500 -0.80879235 128.47365 -9.0689039 -69.113266 -9.0651369 -69.687912 -0.1249587 -87.895432
9210750000 -0.81109518 128.44431 -9.0710049 -69.111839 -9.063014 -69.650284 -0.12459941 -87.874626
9210812500 -0.81772017 128.47018 -9.0737238 -69.08094 -9.0602217 -69.691299 -0.13092874 -87.889511
9210875000 -0.81564945 128.41161 -9.0729017 -69.136223 -9.0611305 -69.69529 -0.12562522 -87.837646
9210937500 -0.81682926 128.42822 -9.0660706 -69.065475 -9.0613394 -69.688866 -0.1224177 -87.827271
9211000000 -0.81328154 128.37708 -9.0560589 -69.082436 -9.0553236 -69.701736 -0.12289446 -87.80024
9211062500 -0.82034945 128.41092 -9.0597878 -69.112457 -9.0499573 -69.648369 -0.12370025 -87.79406
9211125000 -0.81924075 128.38768 -9.0619764 -69.148964 -9.0567293 -69.729935 -0.11985803 -87.851318
9211187500 -0.82094353 128.3725 -9.0586967 -69.148132 -9.0515862 -69.733299 -0.11999615 -87.866974
9211250000 -0.82038349 128.37611 -9.0524549 -69.189606 -9.0500441 -69.715408 -0.11982789 -87.895042
9211312500 -0.8204664 128.35533 -9.0539436 -69.207458 -9.0604 -69.721596 -0.11368217 -87.867027
9211375000 -0.82193625 128.36343 -9.0612783 -69.115425 -9.0626059 -69.674767 -0.11613715 -87.693954
9211437500 -0.82269293 128.36102 -9.0562229 -69.183388 -9.0576 -69.657425 -0.11695966 -87.721497
9211500000 -0.82325625 128.35883 -9.0531063 -69.099251 -9.0479345 -69.738289 -0.11345372 -87.71772
9211562500 -0.81862211 128.31419 -9.0578423 -69.12104 -9.0581198 -69.71608 -0.11760039 -87.691574
9211625000 -0.8218233 128.30247 -9.0558071 -69.132042 -9.0586653 -69.677521 -0.11967841 -87.68103
9211687500 -0.82426322 128.28691 -9.0610428 -69.114334 -9.0494413 -69.689468 -0.12051737 -87.677261
9211750000 -0.82139391 128.26109 -9.0675554 -69.074532 -9.0532951 -69.579689 -0.12119954 -87.627922
9211812500 -0.82180291 128.23232 -9.0534515 -69.088127 -9.0488205 -69.653969 -0.12047105 -87.606476
9211875000 -0.82116663 128.20528 -9.0465612 -69.146225 -9.0500669 -69.643379 -0.12675248 -87.570076
9211937500 -0.82184535 128.18069 -9.0554647 -69.106773 -9.0555401 -69.58007 -0.12333822 -87.515884
9212000000 -0.82133746 128.16638 -9.0459414 -69.164322 -9.0453815 -69.644745 -0.12793736 -87.529648
9212062500 -0.82503098 128.15454 -9.0472345 -69.113091 -9.045743 -69.631584 -0.11997007 -87.491615
9212125000 -0.82544971 128.11421 -9.0477381 -69.202072 -9.0432796 -69.623802 -0.11874799 -87.470657
9212187500 -0.82393473 128.14447 -9.0497179 -69.118149 -9.0443573 -69.604645 -0.1184077 -87.434998
