!Agilent Technologies,N5242A,MY51221714,A.09.90.19
!Agilent N5242A: A.09.90.19
!Date: Saturday, March 16, 2024 09:22:22
!Correction: S11(Full 2 Port(1,2)) 
!S21(Full 2 Port(1,2)) 
!S12(Full 2 Port(1,2)) 
!S22(Full 2 Port(1,2)) 
!S2P File: Measurements: S11, S21, S12, S22:
# Hz S  dB   R 50
9200000000 -0.89684498 125.90375 -9.0202303 -72.824768 -9.0187712 -73.398888 -0.18587893 -91.591675
9200062500 -0.89260268 125.88845 -9.0130701 -72.846237 -9.0115662 -73.397591 -0.18469548 -91.588509
9200125000 -0.90496284 125.869 -9.0262833 -72.839882 -8.9920502 -73.422218 -0.18154453 -91.600792
9200187500 -0.89658576 125.88409 -9.0234356 -72.812172 -9.0065479 -73.39904 -0.18343528 -91.564323
9200250000 -0.89583611 125.87997 -9.0214071 -72.833725 -8.9999037 -73.443443 -0.18099764 -91.556755
9200312500 -0.89382946 125.90211 -9.012043 -72.779686 -8.9970951 -73.475464 -0.18030022 -91.564804
9200375000 -0.88944393 125.84055 -9.0166893 -72.830444 -9.0033274 -73.428299 -0.18555157 -91.547188
9200437500 -0.88955331 125.81226 -9.0081291 -72.898239 -9.0038652 -73.415382 -0.18850636 -91.508339
9200500000 -0.89263558 125.80796 -9.0131493 -72.854523 -8.9974623 -73.44722 -0.18934587 -91.537354
9200562500 -0.89430743 125.79736 -9.0160017 -72.799759 -8.9874372 -73.423317 -0.18116716 -91.459297
9200625000 -0.89629585 125.80098 -9.024704 -72.751381 -9.0025692 -73.398979 -0.19035843 -91.402954
9200687500 -0.89490378 125.7771 -9.0198145 -72.775642 -8.9971762 -73.457115 -0.20330518 -91.432259
9200750000 -0.89663035 125.76516 -9.022171 -72.78022 -8.9900866 -73.370728 -0.20116071 -91.363274
9200812500 -0.89571625 125.74886 -9.0204592 -72.763374 -8.9824486 -73.394753 -0.19452964 -91.3564
9200875000 -0.8969512 125.75373 -9.0184278 -72.750641 -8.9924498 -73.377853 -0.19871306 -91.331902
9200937500 -0.89729732 125.74008 -9.0146942 -72.750481 -8.9913893 -73.387039 -0.19332752 -91.304825
9201000000 -0.89564019 125.69969 -9.0119123 -72.765404 -8.9961653 -73.3657 -0.19931045 -91.302032
9201062500 -0.89674348 125.70246 -9.0188847 -72.796013 -8.9909067 -73.445808 -0.19717851 -91.324745
9201125000 -0.8925364 125.66518 -9.0042849 -72.77755 -8.9880524 -73.364029 -0.19342837 -91.257904
9201187500 -0.88978958 125.63443 -8.9982786 -72.792061 -8.9958906 -73.315392 -0.1998318 -91.247711
9201250000 -0.89295596 125.65998 -8.998477 -72.754837 -8.9924774 -73.381569 -0.19554189 -91.258858
9201312500 -0.89032447 125.63569 -9.0044174 -72.804764 -8.9944563 -73.402771 -0.19720995 -91.25341
9201375000 -0.89247763 125.61974 -9.0082674 -72.7584 -8.9968958 -73.365021 -0.19699697 -91.245094
9201437500 -0.89684004 125.60896 -9.0126562 -72.767296 -8.995554 -73.372902 -0.1962503 -91.219528
9201500000 -0.89752007 125.58794 -9.007225 -72.759705 -8.9983377 -73.332169 -0.1915385 -91.200371
9201562500 -0.89555961 125.60844 -9.0015564 -72.762436 -8.9944639 -73.381668 -0.18938406 -91.20639
9201625000 -0.89396822 125.58787 -9.0015202 -72.767464 -8.9937487 -73.29348 -0.19166824 -91.195351
9201687500 -0.8927654 125.54399 -9.0027018 -72.788658 -8.9879208 -73.320473 -0.18767044 -91.116737
9201750000 -0.89370543 125.55241 -9.0151825 -72.732033 -8.9864006 -73.357597 -0.19593655 -91.141243
9201812500 -0.89635789 125.53902 -9.0053787 -72.807793 -8.9847946 -73.353073 -0.19734994 -91.134499
9201875000 -0.88891631 125.50552 -8.993144 -72.766609 -8.9860001 -73.310837 -0.19468725 -91.079048
9201937500 -0.89473796 125.50731 -8.9950619 -72.732071 -8.9856415 -73.335625 -0.19624639 -91.055992
9202000000 -0.89373225 125.44612 -8.9978104 -72.766235 -8.9828539 -73.330269 -0.20135902 -91.024765
9202062500 -0.89144015 125.45 -8.9963007 -72.799484 -8.9894743 -73.276726 -0.1925582 -90.973389
9202125000 -0.88810742 125.42139 -8.9919796 -72.805031 -8.9849854 -73.334328 -0.19233868 -90.98436
9202187500 -0.89353979 125.43606 -8.9889202 -72.726624 -8.9847651 -73.337952 -0.18863629 -91.004501
9202250000 -0.89646989 125.41795 -8.9968147 -72.760376 -8.9940977 -73.344872 -0.1997094 -90.96418
9202312500 -0.89255416 125.42733 -8.9888983 -72.705048 -8.9862957 -73.370262 -0.19445294 -90.949738
9202375000 -0.89348209 125.38274 -8.9815693 -72.761826 -8.9834366 -73.375 -0.19807263 -90.948166
9202437500 -0.89555347 125.39173 -8.9883938 -72.734512 -8.9808617 -73.392578 -0.19368374 -90.940353
9202500000 -0.89541596 125.37718 -8.9944162 -72.736725 -8.978404 -73.35775 -0.19924611 -90.890205
9202562500 -0.89613986 125.37109 -8.9956398 -72.699188 -8.9808025 -73.344704 -0.19789633 -90.87841
9202625000 -0.89610505 125.34673 -8.9924517 -72.752068 -8.9857225 -73.337891 -0.20242427 -90.892288
9202687500 -0.89893311 125.35859 -8.9896717 -72.726357 -8.9910984 -73.369987 -0.21086344 -90.874008
9202750000 -0.89871353 125.34597 -8.9852638 -72.729668 -8.9837437 -73.349998 -0.20371242 -90.822594
9202812500 -0.89348352 125.33013 -8.9875517 -72.694328 -8.9766388 -73.354286 -0.20101088 -90.826103
9202875000 -0.89360631 125.3073 -8.9894867 -72.716522 -8.9769344 -73.305031 -0.20077541 -90.811516
9202937500 -0.89468431 125.28307 -8.9885931 -72.750206 -8.97966 -73.316154 -0.19833905 -90.754662
9203000000 -0.89399236 125.22074 -8.9781799 -72.849426 -8.9792328 -73.348923 -0.20207702 -90.771217
9203062500 -0.89015812 125.2234 -8.9791985 -72.751282 -8.9762468 -73.298447 -0.19841202 -90.766838
9203125000 -0.89256555 125.21099 -8.9876928 -72.783737 -8.9686556 -73.352753 -0.19496214 -90.738335
9203187500 -0.88971937 125.20618 -8.9808884 -72.749878 -8.9763985 -73.333023 -0.19593024 -90.724884
9203250000 -0.89585006 125.18132 -8.9846163 -72.804619 -8.9732075 -73.327919 -0.1971723 -90.697525
9203312500 -0.89791524 125.20171 -8.9903507 -72.78054 -8.9766436 -73.340958 -0.20151187 -90.665695
9203375000 -0.89760423 125.20155 -8.9794655 -72.722908 -8.9780283 -73.313408 -0.19767065 -90.622002
9203437500 -0.90074378 125.17532 -8.9858513 -72.780365 -8.9737539 -73.338409 -0.20056759 -90.610161
9203500000 -0.89540327 125.17581 -8.9855299 -72.712967 -8.9795275 -73.364807 -0.20181954 -90.628685
9203562500 -0.9013319 125.16262 -8.9916859 -72.664352 -8.9718533 -73.280525 -0.19911489 -90.555176
9203625000 -0.89350206 125.12608 -8.9810476 -72.718651 -8.9702988 -73.333946 -0.20227166 -90.578178
9203687500 -0.90129632 125.11721 -8.9898052 -72.764595 -8.9721203 -73.305939 -0.20630325 -90.549461
9203750000 -0.89194947 125.05109 -8.9803009 -72.81234 -8.9717989 -73.272903 -0.20788363 -90.499596
9203812500 -0.89584464 125.05958 -8.9862356 -72.733177 -8.9763002 -73.318054 -0.2145904 -90.546486
9203875000 -0.90105343 125.04985 -8.9855299 -72.799026 -8.9677963 -73.29599 -0.20229667 -90.548973
9203937500 -0.8987267 125.02641 -8.9853096 -72.741447 -8.9671211 -73.297768 -0.21327654 -90.473724
9204000000 -0.89625609 125.02123 -8.9862452 -72.772125 -8.9611521 -73.271881 -0.21018381 -90.462456
9204062500 -0.89493561 125.03269 -8.9872866 -72.722206 -8.9633665 -73.309662 -0.20901218 -90.446602
9204125000 -0.89256781 124.99668 -8.985404 -72.717491 -8.9627905 -73.24585 -0.21121597 -90.407715
9204187500 -0.89307684 125.0054 -8.9928846 -72.721542 -8.9683523 -73.295097 -0.21821532 -90.444824
9204250000 -0.89400709 125.00111 -8.9802151 -72.703926 -8.9556389 -73.249542 -0.20710318 -90.38279
9204312500 -0.88886732 124.96583 -8.9811649 -72.688545 -8.9622297 -73.252419 -0.21850008 -90.338013
9204375000 -0.88953179 124.94688 -8.975915 -72.712509 -8.9605751 -73.243866 -0.20553836 -90.359856
9204437500 -0.88816124 124.94736 -8.9799891 -72.677559 -8.9607849 -73.269829 -0.2084157 -90.367172
9204500000 -0.88573682 124.90559 -8.9719133 -72.71386 -8.9639463 -73.279633 -0.20970406 -90.353088
9204562500 -0.885243 124.87714 -8.9722939 -72.703186 -8.9683266 -73.227875 -0.20900331 -90.327316
9204625000 -0.89005738 124.86045 -8.980092 -72.75135 -8.9511948 -73.313896 -0.20127366 -90.297501
9204687500 -0.88964736 124.8722 -8.9713659 -72.645386 -8.9627056 -73.298576 -0.20294088 -90.270554
9204750000 -0.89041585 124.86614 -8.975173 -72.683929 -8.9614286 -73.257774 -0.20282441 -90.245537
9204812500 -0.88751286 124.84112 -8.9729338 -72.673279 -8.9529266 -73.229652 -0.20388891 -90.205048
9204875000 -0.89143789 124.85555 -8.9728184 -72.682899 -8.9548683 -73.278389 -0.20402917 -90.252647
9204937500 -0.89442486 124.85967 -8.9729462 -72.624832 -8.951808 -73.328468 -0.205782 -90.241539
9205000000 -0.88892525 124.86662 -8.9658527 -72.644218 -8.9600248 -73.251038 -0.21031108 -90.199707
9205062500 -0.89715457 124.85553 -8.9720907 -72.642235 -8.9559126 -73.313332 -0.20594081 -90.202194
9205125000 -0.8987608 124.77666 -8.9703112 -72.682327 -8.9504986 -73.242783 -0.19932364 -90.185219
9205187500 -0.89580894 124.71826 -8.9599409 -72.69944 -8.9567795 -73.242874 -0.20945117 -90.189735
9205250000 -0.89531744 124.74439 -8.962389 -72.632767 -8.9555616 -73.275131 -0.20186724 -90.152122
9205312500 -0.89851886 124.66304 -8.9659061 -72.672852 -8.9659348 -73.240517 -0.20618746 -90.126244
9205375000 -0.89663786 124.70602 -8.954319 -72.601776 -8.9596052 -73.290207 -0.20266865 -90.12883
9205437500 -0.89577174 124.68823 -8.9605265 -72.669548 -8.9603519 -73.292213 -0.20389868 -90.094948
9205500000 -0.89865386 124.70693 -8.9700451 -72.615662 -8.958643 -73.287224 -0.20570955 -90.067162
9205562500 -0.89411885 124.67635 -8.96593 -72.667931 -8.9521065 -73.299484 -0.198493 -90.101563
9205625000 -0.89620829 124.65721 -8.9664268 -72.639999 -8.9515381 -73.219238 -0.20393163 -90.041809
9205687500 -0.89427686 124.62366 -8.9488001 -72.696159 -8.9544067 -73.240944 -0.20557022 -90.020798
9205750000 -0.89438212 124.65427 -8.9600487 -72.629738 -8.9623671 -73.257721 -0.2084768 -90.006302
9205812500 -0.89628625 124.63214 -8.9605007 -72.642105 -8.9645271 -73.239037 -0.21127661 -89.990181
9205875000 -0.88659632 124.60416 -8.9485779 -72.664543 -8.9597769 -73.199532 -0.20519577 -89.941879
9205937500 -0.89263976 124.63017 -8.9640388 -72.604462 -8.9511642 -73.224243 -0.21194755 -89.962639
9206000000 -0.8867209 124.61078 -8.9573259 -72.628151 -8.9567356 -73.21228 -0.21655589 -89.876358
9206062500 -0.88801575 124.62379 -8.9640646 -72.648232 -8.9518566 -73.261528 -0.20980394 -89.909004
9206125000 -0.89187318 124.58043 -8.9564743 -72.672577 -8.954051 -73.203827 -0.21302234 -89.857468
9206187500 -0.88906002 124.54118 -8.9601564 -72.671928 -8.9483051 -73.217781 -0.21056269 -89.85408
9206250000 -0.89013028 124.57732 -8.9535942 -72.617203 -8.9482851 -73.196976 -0.20942831 -89.808067
9206312500 -0.89034456 124.58074 -8.949317 -72.581177 -8.9419899 -73.233078 -0.20442444 -89.820313
9206375000 -0.89183974 124.52579 -8.9530191 -72.673889 -8.9501371 -73.226456 -0.20772023 -89.759872
9206437500 -0.89089805 124.5529 -8.9582415 -72.62529 -8.9432659 -73.235016 -0.21087687 -89.810226
9206500000 -0.89027607 124.53552 -8.9557886 -72.603424 -8.9315519 -73.252373 -0.20189616 -89.781509
9206562500 -0.89391458 124.50262 -8.9439011 -72.618774 -8.9360332 -73.237411 -0.20134492 -89.777603
9206625000 -0.89466608 124.46445 -8.9465055 -72.620392 -8.9372702 -73.234688 -0.20320471 -89.759888
9206687500 -0.89420885 124.4829 -8.9407339 -72.57061 -8.9406462 -73.241806 -0.20793077 -89.729317
9206750000 -0.89599466 124.46082 -8.9424887 -72.542938 -8.9282169 -73.233826 -0.19404535 -89.649109
9206812500 -0.90017825 124.43482 -8.9391165 -72.646736 -8.9324265 -73.241486 -0.19874737 -89.694199
9206875000 -0.89127773 124.42265 -8.9396515 -72.601784 -8.9355154 -73.256126 -0.20235378 -89.637192
9206937500 -0.88963681 124.39277 -8.9306202 -72.602989 -8.9328775 -73.221466 -0.20363665 -89.623459
9207000000 -0.89132494 124.41397 -8.9367723 -72.523109 -8.9314852 -73.168213 -0.20788407 -89.623924
9207062500 -0.89022541 124.37731 -8.9418201 -72.555779 -8.9417343 -73.215492 -0.2129007 -89.614319
9207125000 -0.88462323 124.36658 -8.9395227 -72.63932 -8.9303064 -73.231407 -0.20332401 -89.624046
9207187500 -0.88869601 124.30342 -8.9472942 -72.648773 -8.9388609 -73.246155 -0.20896003 -89.584396
9207250000 -0.88675249 124.30643 -8.9385815 -72.624062 -8.9350777 -73.178314 -0.20939372 -89.55629
9207312500 -0.88801926 124.2921 -8.9439964 -72.603745 -8.9388504 -73.177216 -0.21234527 -89.556801
9207375000 -0.88954502 124.27377 -8.9454784 -72.631004 -8.9320421 -73.192581 -0.21384212 -89.539978
9207437500 -0.89249188 124.24959 -8.9431295 -72.643417 -8.9356327 -73.184624 -0.2192512 -89.554291
9207500000 -0.89511096 124.20422 -8.944066 -72.649208 -8.9313431 -73.206528 -0.21701925 -89.528023
9207562500 -0.89281797 124.20428 -8.933959 -72.695297 -8.9313431 -73.229744 -0.21583815 -89.535683
9207625000 -0.89329344 124.17337 -8.9343185 -72.633942 -8.925642 -73.203079 -0.21500675 -89.511467
9207687500 -0.89778697 124.17945 -8.9421968 -72.658684 -8.9271021 -73.187828 -0.21135816 -89.506844
9207750000 -0.89364564 124.18113 -8.9274578 -72.630806 -8.9198866 -73.208618 -0.20065838 -89.453323
9207812500 -0.89349067 124.1544 -8.9342899 -72.574059 -8.9289989 -73.194588 -0.20500563 -89.420837
9207875000 -0.90110558 124.17297 -8.9325161 -72.624481 -8.9231052 -73.189438 -0.1968184 -89.417511
9207937500 -0.9012599 124.1618 -8.9308405 -72.588661 -8.9164534 -73.206093 -0.19854535 -89.387833
9208000000 -0.90115988 124.16455 -8.9414606 -72.5933 -8.9271479 -73.219368 -0.20494033 -89.346046
9208062500 -0.90049958 124.14952 -8.9375372 -72.582069 -8.9275217 -73.215652 -0.20559579 -89.330421
9208125000 -0.89853179 124.10559 -8.9389 -72.617706 -8.9304476 -73.192154 -0.21234861 -89.307877
9208187500 -0.89252871 124.144 -8.9374895 -72.562431 -8.9337368 -73.161072 -0.21825853 -89.291267
9208250000 -0.89287883 124.13149 -8.9383039 -72.599792 -8.9277267 -73.182457 -0.21709514 -89.283554
9208312500 -0.89857167 124.09648 -8.9390507 -72.595078 -8.9296064 -73.167358 -0.22092058 -89.271744
9208375000 -0.89349914 124.08219 -8.9359436 -72.568573 -8.9278288 -73.114571 -0.22292775 -89.214409
9208437500 -0.89101356 124.05587 -8.9233656 -72.572815 -8.9244995 -73.218956 -0.21757205 -89.224739
9208500000 -0.89208221 124.03339 -8.9317999 -72.574028 -8.9262886 -73.126717 -0.2189173 -89.176468
9208562500 -0.89412552 124.03783 -8.9318037 -72.594254 -8.9201689 -73.163277 -0.21610613 -89.192932
9208625000 -0.89599627 123.98023 -8.9339828 -72.662956 -8.9268351 -73.145439 -0.21937527 -89.154221
9208687500 -0.89403009 123.96185 -8.9230976 -72.63237 -8.9168901 -73.119537 -0.2077655 -89.115356
9208750000 -0.89268053 123.95033 -8.9231796 -72.641479 -8.9111528 -73.153091 -0.2134061 -89.14859
9208812500 -0.89506978 123.94866 -8.9212284 -72.674301 -8.9131346 -73.188812 -0.21344048 -89.190056
9208875000 -0.89157045 123.974 -8.9215479 -72.55423 -8.9122772 -73.206284 -0.21232508 -89.194016
9208937500 -0.89215523 123.96475 -8.9134426 -72.589302 -8.918395 -73.157852 -0.20783561 -89.130951
9209000000 -0.89533311 123.97344 -8.9311676 -72.614906 -8.9206858 -73.134659 -0.21354377 -89.106178
9209062500 -0.89450526 123.99356 -8.928133 -72.57515 -8.9274483 -73.153107 -0.22449321 -89.097504
9209125000 -0.89721525 123.98444 -8.9295406 -72.54821 -8.920577 -73.118271 -0.21339907 -89.063087
9209187500 -0.89316195 123.97728 -8.9210386 -72.533508 -8.9218674 -73.100754 -0.22356601 -89.052544
9209250000 -0.89061695 123.93733 -8.9126272 -72.578804 -8.9218016 -73.126488 -0.21582797 -88.98526
9209312500 -0.8922503 123.94222 -8.92243 -72.553467 -8.9229326 -73.071251 -0.21185496 -88.986992
9209375000 -0.89117444 123.92077 -8.9102011 -72.517227 -8.9160957 -73.076553 -0.21444003 -88.945351
9209437500 -0.8904379 123.85913 -8.915452 -72.555573 -8.9178505 -73.115593 -0.21848854 -88.992874
9209500000 -0.89151907 123.84367 -8.9068499 -72.590317 -8.9149275 -73.12915 -0.21508121 -88.925011
9209562500 -0.89485288 123.80055 -8.9159918 -72.657631 -8.9151745 -73.110924 -0.21781698 -88.928429
9209625000 -0.89567053 123.79976 -8.9211969 -72.582405 -8.9124784 -73.09774 -0.21053588 -88.911194
9209687500 -0.89779299 123.80833 -8.9128265 -72.615334 -8.9141607 -73.109215 -0.21621594 -88.848717
9209750000 -0.89786518 123.84634 -8.9146957 -72.565071 -8.9114428 -73.138374 -0.2171872 -88.878273
9209812500 -0.89147335 123.79388 -8.9122963 -72.545815 -8.9111576 -73.11261 -0.214215 -88.830467
9209875000 -0.8992905 123.78464 -8.9202156 -72.533997 -8.9077511 -73.150337 -0.20835672 -88.829727
9209937500 -0.89636922 123.76908 -8.9097996 -72.62648 -8.8967419 -73.110748 -0.20313779 -88.785934
9210000000 -0.89761555 123.72761 -8.9041462 -72.591774 -8.9009285 -73.107147 -0.20465915 -88.78392
9210062500 -0.89535826 123.76568 -8.9095869 -72.563477 -8.9030762 -73.101295 -0.20723811 -88.803955
9210125000 -0.89133364 123.70387 -8.9046974 -72.584969 -8.9109097 -73.110123 -0.21176994 -88.76226
9210187500 -0.8867566 123.72854 -8.905117 -72.519966 -8.9049053 -73.110275 -0.20712391 -88.756264
9210250000 -0.89154005 123.71532 -8.9064016 -72.514397 -8.9118795 -73.037682 -0.20918696 -88.680496
9210312500 -0.89316452 123.67587 -8.9096832 -72.536194 -8.899538 -73.100937 -0.2137803 -88.724319
9210375000 -0.8937031 123.69745 -8.909317 -72.503288 -8.9044333 -73.041595 -0.21823038 -88.668648
9210437500 -0.88790298 123.64227 -8.910491 -72.491287 -8.9099073 -73.104881 -0.21691746 -88.678085
9210500000 -0.88858497 123.62983 -8.9088297 -72.513168 -8.908308 -73.076355 -0.22060914 -88.663361
9210562500 -0.89304882 123.62653 -8.9051294 -72.562294 -8.9064989 -73.078911 -0.22157803 -88.66185
9210625000 -0.88452387 123.55971 -8.9111443 -72.585426 -8.910862 -73.067116 -0.22530672 -88.609352
9210687500 -0.88804221 123.59547 -8.913022 -72.549332 -8.8965015 -73.036499 -0.22588642 -88.602821
9210750000 -0.88994408 123.52382 -8.903594 -72.512474 -8.899889 -73.081154 -0.22043586 -88.611046
9210812500 -0.88890541 123.5596 -8.9067974 -72.521744 -8.8929443 -73.111542 -0.22110192 -88.597366
9210875000 -0.88786709 123.56567 -8.9105759 -72.468536 -8.892663 -73.093575 -0.21944059 -88.549858
9210937500 -0.89341426 123.51234 -8.9084854 -72.485886 -8.9029312 -73.085449 -0.23638855 -88.536438
9211000000 -0.89156538 123.50168 -8.9109392 -72.5019 -8.8998566 -73.095268 -0.22707289 -88.475502
9211062500 -0.89415085 123.45834 -8.9048214 -72.50071 -8.8914843 -73.064713 -0.22214659 -88.529503
9211125000 -0.89602429 123.45081 -8.9084187 -72.523712 -8.8979788 -73.136909 -0.21853088 -88.539124
9211187500 -0.89953399 123.50124 -8.8985682 -72.570908 -8.9007673 -73.171715 -0.21825697 -88.634285
9211250000 -0.89691162 123.50008 -8.899889 -72.560493 -8.8969393 -73.148193 -0.21733704 -88.536919
9211312500 -0.89990765 123.45786 -8.9031696 -72.565529 -8.896368 -73.109833 -0.21585034 -88.574837
9211375000 -0.89964283 123.48962 -8.8872147 -72.557281 -8.8937531 -73.130943 -0.2086731 -88.45118
9211437500 -0.89823729 123.41252 -8.8893814 -72.582611 -8.8915768 -73.129837 -0.20989549 -88.449379
9211500000 -0.89839303 123.43822 -8.8980989 -72.474129 -8.8862114 -73.057533 -0.21696062 -88.398643
9211562500 -0.89449555 123.42537 -8.9028406 -72.489342 -8.8932295 -73.077591 -0.22107024 -88.397301
9211625000 -0.89551735 123.38864 -8.8975334 -72.504959 -8.8910093 -73.028725 -0.22216769 -88.340858
9211687500 -0.89862347 123.38391 -8.90487 -72.537003 -8.8901606 -73.056267 -0.21892788 -88.388802
9211750000 -0.89222419 123.34016 -8.9027624 -72.528503 -8.8836699 -73.039726 -0.22369254 -88.351974
9211812500 -0.89418495 123.35109 -8.8942242 -72.512512 -8.89077 -73.012032 -0.22252895 -88.297371
9211875000 -0.89805555 123.31942 -8.8888874 -72.522026 -8.8892879 -73.065887 -0.22109076 -88.302841
9211937500 -0.8970927 123.27383 -8.8976145 -72.498589 -8.8853846 -73.007919 -0.22190368 -88.237724
9212000000 -0.90106505 123.28837 -8.8912239 -72.535759 -8.8878145 -72.99675 -0.22599751 -88.253586
9212062500 -0.89832056 123.24226 -8.8835869 -72.536728 -8.8940516 -73.003883 -0.23062818 -88.172417
9212125000 -0.89945525 123.25097 -8.8873453 -72.58773 -8.8847847 -73.095131 -0.21837887 -88.192101
9212187500 -0.89895904 123.23605 -8.8910112 -72.490273 -8.8881016 -73.054466 -0.22435129 -88.147346
