!Agilent Technologies,N5242A,MY51221714,A.09.90.19
!Agilent N5242A: A.09.90.19
!Date: Saturday, March 16, 2024 09:23:20
!Correction: S11(Full 2 Port(1,2)) 
!S21(Full 2 Port(1,2)) 
!S12(Full 2 Port(1,2)) 
!S22(Full 2 Port(1,2)) 
!S2P File: Measurements: S11, S21, S12, S22:
# Hz S  dB   R 50
9200000000 -0.88972902 125.8849 -9.0172682 -72.789551 -9.0047417 -73.359627 -0.17153411 -91.575035
9200062500 -0.89652508 125.88424 -9.00667 -72.74778 -8.9993229 -73.35601 -0.16925384 -91.600838
9200125000 -0.89682102 125.8948 -9.0110588 -72.692459 -8.9951496 -73.334496 -0.16656134 -91.502243
9200187500 -0.89451498 125.86342 -9.0122576 -72.733101 -9.0001144 -73.345108 -0.17469576 -91.517563
9200250000 -0.89892799 125.88904 -9.0100565 -72.780876 -8.993041 -73.361267 -0.17119142 -91.493576
9200312500 -0.89384639 125.85286 -9.0080729 -72.790176 -8.9999857 -73.337685 -0.17120726 -91.524918
9200375000 -0.89079654 125.85322 -9.0067005 -72.788895 -8.9863005 -73.344185 -0.16730154 -91.496246
9200437500 -0.88994306 125.8359 -9.0131617 -72.688484 -8.9892864 -73.340881 -0.17153461 -91.482208
9200500000 -0.88742644 125.80148 -9.0007 -72.751602 -8.9924784 -73.353241 -0.17022976 -91.454132
9200562500 -0.88780141 125.80315 -9.0086613 -72.756927 -8.9885578 -73.354324 -0.18010725 -91.424721
9200625000 -0.89540875 125.78558 -9.0119982 -72.695015 -8.9916801 -73.317955 -0.18042916 -91.381172
9200687500 -0.88888198 125.7972 -9.0045538 -72.690186 -8.9875612 -73.327774 -0.17644797 -91.367699
9200750000 -0.89746523 125.74583 -9.0073776 -72.69162 -8.9832621 -73.318939 -0.18143927 -91.323044
9200812500 -0.89339793 125.72254 -9.0121469 -72.709198 -8.9884253 -73.321884 -0.18258533 -91.329193
9200875000 -0.89457893 125.71501 -9.0043468 -72.712425 -8.9848557 -73.305977 -0.18488598 -91.291267
9200937500 -0.89362293 125.71361 -9.0144701 -72.646339 -8.9895506 -73.246422 -0.18366829 -91.207443
9201000000 -0.89220786 125.70491 -8.9965286 -72.695381 -8.9767323 -73.296539 -0.17701115 -91.283699
9201062500 -0.8912881 125.65921 -8.9968557 -72.687233 -8.9845514 -73.353012 -0.18547663 -91.270271
9201125000 -0.88663107 125.66682 -8.9931316 -72.68293 -8.9817533 -73.310394 -0.18018636 -91.238426
9201187500 -0.88648945 125.65067 -8.9902868 -72.697433 -8.9830446 -73.297249 -0.17888337 -91.223778
9201250000 -0.88986838 125.63697 -8.9994116 -72.708809 -8.9835978 -73.310051 -0.17858095 -91.217087
9201312500 -0.89125884 125.64136 -8.9909964 -72.65255 -8.9812984 -73.30085 -0.18263122 -91.217155
9201375000 -0.89128602 125.61174 -9.0011244 -72.723351 -8.9878578 -73.251518 -0.18017806 -91.162827
9201437500 -0.89494574 125.55877 -9.0007801 -72.700722 -8.9854755 -73.285065 -0.1791708 -91.19458
9201500000 -0.89747894 125.5721 -9.0028086 -72.768669 -8.9858389 -73.279938 -0.17982705 -91.178688
9201562500 -0.89656937 125.56479 -8.9990139 -72.700584 -8.967844 -73.288322 -0.16909423 -91.18383
9201625000 -0.89666593 125.55359 -8.9993696 -72.714241 -8.9874115 -73.276527 -0.17585416 -91.108269
9201687500 -0.90254098 125.55566 -9.0001879 -72.7239 -8.9785089 -73.245857 -0.1781293 -91.116692
9201750000 -0.89505273 125.51447 -9.0026102 -72.69043 -8.9879313 -73.20134 -0.19027947 -91.075668
9201812500 -0.89237571 125.47254 -8.9897614 -72.737442 -8.9763536 -73.244896 -0.18169671 -91.057297
9201875000 -0.8926276 125.51896 -9.0056763 -72.667412 -8.9805756 -73.250374 -0.1814986 -91.005104
9201937500 -0.89054531 125.45844 -8.9871645 -72.692047 -8.9769268 -73.256096 -0.1837647 -91.034248
9202000000 -0.89216542 125.45023 -8.9995165 -72.730934 -8.978816 -73.204567 -0.18581016 -90.97123
9202062500 -0.8922509 125.46484 -8.9926186 -72.660378 -8.9727211 -73.275513 -0.18083361 -90.980713
9202125000 -0.89050633 125.41743 -8.9828978 -72.698555 -8.9727678 -73.227615 -0.17427133 -90.955154
9202187500 -0.89268899 125.45301 -8.982934 -72.650505 -8.984622 -73.309357 -0.18498069 -90.958817
9202250000 -0.89413744 125.4461 -8.9811544 -72.621346 -8.9771376 -73.293945 -0.17696983 -90.998245
9202312500 -0.894633 125.38607 -8.9772444 -72.67598 -8.9788818 -73.270416 -0.18156467 -90.914124
9202375000 -0.89436966 125.41581 -8.9779816 -72.666801 -8.9796352 -73.299301 -0.17987619 -90.91256
9202437500 -0.8998149 125.36395 -8.9781237 -72.63475 -8.9799309 -73.285675 -0.18573587 -90.894608
9202500000 -0.89614534 125.36355 -8.985384 -72.659973 -8.9797726 -73.269417 -0.18672888 -90.865501
9202562500 -0.896308 125.35871 -8.9910526 -72.660095 -8.9727087 -73.199745 -0.18493973 -90.848305
9202625000 -0.89887106 125.33051 -8.9846621 -72.671448 -8.9727688 -73.202904 -0.18395527 -90.814743
9202687500 -0.89637727 125.32166 -8.9904823 -72.692284 -8.9756002 -73.310181 -0.1866852 -90.870461
9202750000 -0.89691186 125.2951 -8.9793463 -72.667007 -8.9750509 -73.268379 -0.19257675 -90.779068
9202812500 -0.89393353 125.32762 -8.9902058 -72.653214 -8.9742813 -73.220779 -0.18776661 -90.754021
9202875000 -0.88935471 125.31026 -8.982419 -72.629623 -8.9714193 -73.246315 -0.18581474 -90.728836
9202937500 -0.8892132 125.25587 -8.9726229 -72.713745 -8.9680519 -73.252708 -0.18582721 -90.767433
9203000000 -0.89159423 125.23454 -8.9751482 -72.678558 -8.9732075 -73.272003 -0.19257477 -90.694267
9203062500 -0.88982594 125.23525 -8.9777346 -72.676788 -8.9622135 -73.279205 -0.17688423 -90.716934
9203125000 -0.89503545 125.22697 -8.9826832 -72.640121 -8.9637184 -73.262505 -0.18582024 -90.674599
9203187500 -0.89000279 125.21259 -8.9728518 -72.678665 -8.97194 -73.249405 -0.1813128 -90.647598
9203250000 -0.8936677 125.21006 -8.972043 -72.647934 -8.9654083 -73.282593 -0.17950012 -90.648552
9203312500 -0.89510524 125.2232 -8.9806128 -72.636658 -8.9669762 -73.274994 -0.18206336 -90.653244
9203375000 -0.89185566 125.16927 -8.9800539 -72.72718 -8.9658098 -73.285629 -0.1805215 -90.617218
9203437500 -0.89774489 125.18159 -8.9797373 -72.6884 -8.9635849 -73.265495 -0.18975456 -90.562637
9203500000 -0.89739382 125.1499 -8.9801188 -72.661682 -8.9674206 -73.262131 -0.18568017 -90.587082
9203562500 -0.89732397 125.15523 -8.9806213 -72.665459 -8.9672861 -73.249153 -0.19104227 -90.551064
9203625000 -0.88987237 125.14243 -8.9794674 -72.601067 -8.9751301 -73.217323 -0.19251774 -90.524445
9203687500 -0.89821446 125.12209 -8.9810858 -72.693184 -8.9681149 -73.232979 -0.19363952 -90.531998
9203750000 -0.89410698 125.08348 -8.9783411 -72.699036 -8.9629793 -73.203941 -0.18971045 -90.526031
9203812500 -0.89784187 125.06644 -8.9758787 -72.716049 -8.9637432 -73.194504 -0.18942311 -90.499916
9203875000 -0.894355 125.03319 -8.9664774 -72.667694 -8.9547329 -73.212105 -0.18933101 -90.483673
9203937500 -0.89075226 125.03228 -8.9753389 -72.713692 -8.9643612 -73.184662 -0.19977991 -90.444038
9204000000 -0.88892531 125.03436 -8.9730272 -72.654907 -8.9644022 -73.202133 -0.20292084 -90.418663
9204062500 -0.88800937 125.01431 -8.9757195 -72.678558 -8.9510069 -73.21376 -0.19962923 -90.402115
9204125000 -0.88227046 125.02573 -8.9694271 -72.657547 -8.9511557 -73.184258 -0.19774874 -90.40065
9204187500 -0.88539088 124.98285 -8.9729614 -72.621811 -8.9605103 -73.215439 -0.20582201 -90.378288
9204250000 -0.88760567 124.98266 -8.9725008 -72.628227 -8.9447098 -73.206284 -0.19177923 -90.358742
9204312500 -0.88824368 124.92717 -8.9743137 -72.684853 -8.9503212 -73.179771 -0.19772865 -90.309891
9204375000 -0.88839746 124.92031 -8.9631767 -72.619843 -8.9544992 -73.208939 -0.20122159 -90.350807
9204437500 -0.88633239 124.90714 -8.9687395 -72.642906 -8.9493065 -73.215141 -0.18640892 -90.322601
9204500000 -0.88370925 124.91138 -8.9631453 -72.571426 -8.9483089 -73.240211 -0.18641408 -90.270897
9204562500 -0.88117057 124.92426 -8.9590778 -72.577141 -8.9467278 -73.197533 -0.1854267 -90.274391
9204625000 -0.88862574 124.91584 -8.9718657 -72.576736 -8.9505692 -73.216675 -0.18992609 -90.222084
9204687500 -0.88651818 124.88364 -8.969285 -72.600914 -8.9511471 -73.192612 -0.18699045 -90.230545
9204750000 -0.88649988 124.85191 -8.9677114 -72.615257 -8.9502039 -73.214775 -0.19298154 -90.225609
9204812500 -0.88832706 124.86249 -8.9682941 -72.610199 -8.9531584 -73.173515 -0.18839578 -90.178299
9204875000 -0.89117599 124.86646 -8.9651289 -72.579994 -8.9441433 -73.204674 -0.19547243 -90.201363
9204937500 -0.88894176 124.84222 -8.9601727 -72.583122 -8.9457369 -73.183548 -0.18528841 -90.189468
9205000000 -0.88924193 124.84612 -8.9637136 -72.596924 -8.9433718 -73.188782 -0.18056579 -90.172714
9205062500 -0.89518625 124.81307 -8.9585447 -72.567764 -8.9478912 -73.239128 -0.18883859 -90.171532
9205125000 -0.89588422 124.78563 -8.9590864 -72.583298 -8.9417553 -73.199196 -0.18322864 -90.101585
9205187500 -0.89275253 124.75533 -8.9601946 -72.58284 -8.9440269 -73.225319 -0.1861046 -90.105087
9205250000 -0.89302915 124.728 -8.9584398 -72.494576 -8.9489155 -73.206528 -0.19197218 -90.087425
9205312500 -0.89638376 124.72826 -8.9547348 -72.562187 -8.9470558 -73.231682 -0.18552876 -90.078369
9205375000 -0.89725196 124.723 -8.9562464 -72.573212 -8.9448195 -73.217384 -0.18571118 -90.07859
9205437500 -0.89485604 124.68407 -8.9564171 -72.549606 -8.94524 -73.144768 -0.18967246 -90.042984
9205500000 -0.89704788 124.67142 -8.9554577 -72.558495 -8.9459324 -73.185738 -0.18694444 -90.02758
9205562500 -0.89246285 124.70894 -8.953475 -72.587311 -8.9436064 -73.189827 -0.18804824 -90.012077
9205625000 -0.89387321 124.66943 -8.9548588 -72.569489 -8.9668026 -73.195625 -0.19536459 -89.98008
9205687500 -0.88705873 124.62154 -8.9436817 -72.620506 -8.9466534 -73.12471 -0.18906133 -89.941429
9205750000 -0.89254588 124.65591 -8.9493952 -72.590721 -8.9453011 -73.188782 -0.19564553 -89.986794
9205812500 -0.88669741 124.61823 -8.9484711 -72.626701 -8.9428215 -73.119965 -0.18862447 -89.946175
9205875000 -0.89547926 124.60017 -8.9576797 -72.639908 -8.9499388 -73.137825 -0.19325499 -89.923485
9205937500 -0.89121628 124.5917 -8.9510984 -72.594093 -8.9524279 -73.166405 -0.19721314 -89.901573
9206000000 -0.89191139 124.58955 -8.9539385 -72.517334 -8.9446869 -73.075012 -0.19136171 -89.865074
9206062500 -0.88648355 124.62215 -8.9508934 -72.553345 -8.9533529 -73.200821 -0.20141132 -89.89566
9206125000 -0.88805002 124.57655 -8.9461384 -72.507103 -8.9373159 -73.089783 -0.19250628 -89.829063
9206187500 -0.88230842 124.57069 -8.9555445 -72.575241 -8.9449396 -73.122437 -0.19569196 -89.819122
9206250000 -0.89061975 124.55778 -8.9512949 -72.56015 -8.9395962 -73.147583 -0.19999583 -89.814629
9206312500 -0.88364786 124.56583 -8.9408207 -72.552521 -8.9367599 -73.187309 -0.19041014 -89.807556
9206375000 -0.88880694 124.56466 -8.943469 -72.587128 -8.9343414 -73.161453 -0.1847295 -89.78878
9206437500 -0.89035261 124.55731 -8.9486408 -72.548141 -8.9389315 -73.163055 -0.19447213 -89.772301
9206500000 -0.88959849 124.49768 -8.9469957 -72.506935 -8.9306946 -73.159409 -0.19068256 -89.727379
9206562500 -0.88969707 124.52062 -8.9388723 -72.535728 -8.9305086 -73.169136 -0.19078286 -89.75811
9206625000 -0.89457256 124.4845 -8.944025 -72.543701 -8.9295349 -73.109543 -0.19219677 -89.676979
9206687500 -0.8933531 124.46452 -8.9345961 -72.502785 -8.9255075 -73.109138 -0.18141565 -89.618629
9206750000 -0.89172995 124.46423 -8.9353428 -72.486633 -8.9206619 -73.137909 -0.18206505 -89.594933
9206812500 -0.89700472 124.40761 -8.923934 -72.524673 -8.9243107 -73.100266 -0.1872426 -89.577568
9206875000 -0.90191567 124.40951 -8.9302225 -72.540298 -8.9178724 -73.119461 -0.18274897 -89.614418
9206937500 -0.8965739 124.38033 -8.9321518 -72.542213 -8.9202709 -73.173813 -0.19031009 -89.600685
9207000000 -0.89288306 124.37601 -8.9337626 -72.482574 -8.9235601 -73.098114 -0.19039957 -89.559296
9207062500 -0.8893733 124.36497 -8.9366617 -72.532387 -8.9200964 -73.139214 -0.19000998 -89.55558
9207125000 -0.88841707 124.34327 -8.9420395 -72.550987 -8.9242964 -73.131508 -0.19847919 -89.5672
9207187500 -0.88795012 124.32275 -8.9416313 -72.572311 -8.9288445 -73.130974 -0.19776179 -89.539673
9207250000 -0.8896699 124.28662 -8.9348841 -72.555 -8.9311342 -73.105698 -0.19862974 -89.495522
9207312500 -0.89274901 124.26694 -8.9374084 -72.558296 -8.9225883 -73.124504 -0.19491237 -89.522774
9207375000 -0.89761436 124.24169 -8.9368935 -72.588127 -8.9253693 -73.113495 -0.20584247 -89.526909
9207437500 -0.88935822 124.21431 -8.936532 -72.551018 -8.9353809 -73.097115 -0.20672077 -89.500778
9207500000 -0.88547266 124.17266 -8.9262848 -72.608467 -8.9279137 -73.133606 -0.20329958 -89.477722
9207562500 -0.89021093 124.18531 -8.941061 -72.550751 -8.924283 -73.145752 -0.21158808 -89.48436
9207625000 -0.89583296 124.1983 -8.9342661 -72.536491 -8.9134178 -73.143585 -0.19431548 -89.485893
9207687500 -0.89853382 124.17377 -8.9313707 -72.619553 -8.9224834 -73.104614 -0.19417854 -89.427109
9207750000 -0.89728761 124.17046 -8.9287653 -72.566292 -8.9117708 -73.103691 -0.18680102 -89.417343
9207812500 -0.89705282 124.15019 -8.9259481 -72.564842 -8.9278307 -73.132202 -0.19567442 -89.431358
9207875000 -0.89762861 124.14883 -8.9289064 -72.530731 -8.918539 -73.11792 -0.19345155 -89.370491
9207937500 -0.89824671 124.18377 -8.9328823 -72.498108 -8.9184761 -73.102028 -0.18720157 -89.299889
9208000000 -0.89920521 124.18304 -8.9301548 -72.487648 -8.9161367 -73.158257 -0.19091317 -89.314674
9208062500 -0.89910674 124.15376 -8.9307976 -72.516144 -8.9113264 -73.157585 -0.19091281 -89.296059
9208125000 -0.89911151 124.14921 -8.9257917 -72.479889 -8.9214611 -73.126389 -0.20100451 -89.274017
9208187500 -0.89480793 124.09692 -8.9271259 -72.496696 -8.9067936 -73.155266 -0.19315827 -89.232956
9208250000 -0.89908051 124.09212 -8.9283094 -72.519646 -8.9095488 -73.075775 -0.19854037 -89.246948
9208312500 -0.89560145 124.07379 -8.9208632 -72.500275 -8.9166574 -73.020782 -0.20178334 -89.187263
9208375000 -0.89158481 124.08504 -8.9262571 -72.486504 -8.912818 -73.046471 -0.19990429 -89.16655
9208437500 -0.89258611 124.06849 -8.9194889 -72.498383 -8.913497 -73.096214 -0.20226653 -89.184013
9208500000 -0.89439124 124.00965 -8.9134092 -72.559196 -8.9037151 -73.027061 -0.19477995 -89.188072
9208562500 -0.89599633 124.01032 -8.9240589 -72.526962 -8.9120626 -73.054909 -0.1981965 -89.170021
9208625000 -0.88942903 124.02132 -8.913826 -72.48616 -8.9124956 -73.048996 -0.20266326 -89.123093
9208687500 -0.89398575 123.95364 -8.918725 -72.539215 -8.9035082 -73.101181 -0.19590813 -89.146362
9208750000 -0.89347833 123.91851 -8.9189758 -72.565781 -8.9116039 -73.082817 -0.1938166 -89.080711
9208812500 -0.89329642 123.92165 -8.9176474 -72.537102 -8.9043779 -73.089134 -0.1951617 -89.107956
9208875000 -0.89361763 123.96811 -8.915494 -72.498192 -8.9124022 -73.044647 -0.19247292 -89.102524
9208937500 -0.89300954 123.96199 -8.9179239 -72.491295 -8.9092493 -73.126526 -0.19659099 -89.095444
9209000000 -0.89179486 123.97139 -8.9133043 -72.497169 -8.9118223 -73.032463 -0.20107497 -89.06089
9209062500 -0.89180917 123.96602 -8.9096279 -72.474129 -8.9114466 -73.042191 -0.20041515 -89.031464
9209125000 -0.89446592 123.96425 -8.9112377 -72.488434 -8.9097404 -73.05484 -0.20081636 -89.049866
9209187500 -0.89328921 123.96935 -8.9080877 -72.497849 -8.9168882 -73.079483 -0.20482871 -89.057938
9209250000 -0.89209831 123.9491 -8.9100676 -72.474808 -8.9145412 -73.030846 -0.20451611 -89.005859
9209312500 -0.88544279 123.90591 -8.9054117 -72.560143 -8.9043007 -73.020287 -0.19621675 -88.954689
9209375000 -0.88560259 123.87724 -8.9116287 -72.441948 -8.9029045 -73.049553 -0.19633444 -88.912132
9209437500 -0.88968426 123.87334 -8.9065924 -72.458344 -8.908824 -73.01178 -0.19792165 -88.912399
9209500000 -0.88949388 123.8343 -8.9006844 -72.505753 -8.913044 -73.091835 -0.20455019 -88.90448
9209562500 -0.89112335 123.82545 -8.910079 -72.517883 -8.912014 -73.096756 -0.20287271 -88.913948
9209625000 -0.8965084 123.79037 -8.9067059 -72.529694 -8.904664 -73.005836 -0.20168221 -88.845451
9209687500 -0.89572841 123.83021 -8.9101896 -72.487823 -8.8964806 -73.065399 -0.19725081 -88.843292
9209750000 -0.89504528 123.78743 -8.8979826 -72.544868 -8.9017286 -73.04261 -0.19178897 -88.814919
9209812500 -0.89340264 123.79086 -8.8978939 -72.44976 -8.896553 -73.039108 -0.19341838 -88.8162
9209875000 -0.89574909 123.75049 -8.9028959 -72.555313 -8.8914433 -73.074745 -0.19234933 -88.819389
9209937500 -0.89233565 123.73706 -8.9018698 -72.540291 -8.9010563 -73.082191 -0.19673809 -88.822716
9210000000 -0.89212066 123.74975 -8.8939829 -72.466393 -8.8999166 -73.046753 -0.19890751 -88.770821
9210062500 -0.89383829 123.74591 -8.901371 -72.475662 -8.8959208 -73.030205 -0.18919659 -88.739571
9210125000 -0.89666259 123.73142 -8.9018373 -72.503487 -8.8863411 -72.973335 -0.19197461 -88.735641
9210187500 -0.89116442 123.68396 -8.8959122 -72.463524 -8.8947029 -72.963234 -0.19449486 -88.678932
9210250000 -0.89047939 123.70879 -8.9023533 -72.511566 -8.8943748 -72.996681 -0.19707377 -88.729919
9210312500 -0.89293021 123.69377 -8.8977203 -72.472504 -8.8918762 -72.99041 -0.1969336 -88.69117
9210375000 -0.88808399 123.61438 -8.8983021 -72.540024 -8.8959646 -73.037369 -0.19921014 -88.635147
9210437500 -0.88865632 123.64429 -8.8973026 -72.47393 -8.8957176 -73.00132 -0.20139405 -88.651093
9210500000 -0.88682657 123.65809 -8.9001932 -72.416672 -8.891757 -72.996567 -0.2028295 -88.629311
9210562500 -0.89177656 123.60726 -8.9055653 -72.450684 -8.8865614 -73.006073 -0.19971193 -88.592102
9210625000 -0.88755614 123.60039 -8.9069252 -72.424194 -8.8989782 -73.00808 -0.21202596 -88.592537
9210687500 -0.88336581 123.57349 -8.9027014 -72.429436 -8.8945065 -73.009392 -0.21343441 -88.57975
9210750000 -0.89065927 123.52841 -8.906105 -72.443298 -8.8912525 -72.959183 -0.20708734 -88.531769
9210812500 -0.89022374 123.50139 -8.8995237 -72.503311 -8.8929949 -73.058167 -0.20953198 -88.525299
9210875000 -0.88708681 123.51704 -8.8919001 -72.419647 -8.8847799 -72.993614 -0.20591275 -88.52771
9210937500 -0.89147216 123.47623 -8.8978701 -72.430397 -8.8892803 -72.964989 -0.20831676 -88.488686
9211000000 -0.89313966 123.49262 -8.9013987 -72.408195 -8.8884134 -73.018456 -0.21075548 -88.446381
9211062500 -0.89686906 123.49252 -8.9077129 -72.490356 -8.8853273 -73.045662 -0.2065838 -88.493309
9211125000 -0.89169431 123.48969 -8.8941517 -72.41729 -8.8803997 -72.983261 -0.1970486 -88.46286
9211187500 -0.89492476 123.50071 -8.8992004 -72.410965 -8.888629 -73.061104 -0.20580323 -88.542412
9211250000 -0.89856958 123.46038 -8.8908167 -72.512436 -8.8909359 -73.067314 -0.20505725 -88.530266
9211312500 -0.89883894 123.45149 -8.8915501 -72.477715 -8.8938074 -73.067192 -0.21086776 -88.544952
9211375000 -0.90096509 123.4679 -8.8866301 -72.471642 -8.8837004 -72.992828 -0.19590576 -88.333138
9211437500 -0.89770329 123.48142 -8.8902121 -72.42128 -8.884366 -72.971085 -0.20349763 -88.367714
9211500000 -0.89541137 123.39642 -8.8906841 -72.422401 -8.8905773 -73.022568 -0.21187943 -88.393333
9211562500 -0.90119022 123.39144 -8.8959885 -72.439941 -8.8848372 -72.977959 -0.20342597 -88.358635
9211625000 -0.89417142 123.40637 -8.8927116 -72.416977 -8.8845568 -72.985626 -0.20503213 -88.337891
9211687500 -0.8953203 123.41103 -8.8901262 -72.422119 -8.8809242 -72.958801 -0.20677471 -88.304077
9211750000 -0.89709955 123.3634 -8.895587 -72.447662 -8.8825064 -72.995209 -0.21229997 -88.326019
9211812500 -0.89567983 123.34837 -8.8833885 -72.4338 -8.8825998 -72.947807 -0.21237436 -88.265549
9211875000 -0.89389372 123.30969 -8.8776102 -72.451843 -8.8730984 -72.988808 -0.20601429 -88.231575
9211937500 -0.89930016 123.27103 -8.8898392 -72.480026 -8.8839369 -72.944519 -0.21255469 -88.184067
9212000000 -0.89730734 123.22624 -8.8802328 -72.513863 -8.8766651 -72.89415 -0.21037552 -88.130333
9212062500 -0.89796072 123.23194 -8.8819971 -72.470627 -8.8767042 -72.889328 -0.20943424 -88.119232
9212125000 -0.90346444 123.23047 -8.8761797 -72.414787 -8.8663063 -72.91626 -0.19930388 -88.129387
9212187500 -0.90020579 123.22041 -8.8763723 -72.426567 -8.8824863 -72.950836 -0.2138242 -88.112091
