!Agilent Technologies,N5242A,MY51221714,A.09.90.19
!Agilent N5242A: A.09.90.19
!Date: Saturday, March 16, 2024 09:25:51
!Correction: S11(Full 2 Port(1,2)) 
!S21(Full 2 Port(1,2)) 
!S12(Full 2 Port(1,2)) 
!S22(Full 2 Port(1,2)) 
!S2P File: Measurements: S11, S21, S12, S22:
# Hz S  dB   R 50
9200000000 -1.0718285 124.3179 -9.0817499 -74.934555 -9.0576859 -75.540253 -0.27121124 -92.119537
9200062500 -1.0711418 124.27264 -9.0842257 -74.940285 -9.0555286 -75.474281 -0.26962397 -92.112091
9200125000 -1.0694624 124.28925 -9.0746193 -74.981064 -9.06394 -75.523575 -0.26654959 -92.112946
9200187500 -1.0681118 124.23872 -9.0740976 -75.000015 -9.0642681 -75.551277 -0.27551636 -92.119316
9200250000 -1.0709349 124.28581 -9.0849266 -74.918648 -9.0557899 -75.529572 -0.2742202 -92.082581
9200312500 -1.0657762 124.28115 -9.0671148 -74.921349 -9.0525961 -75.548523 -0.26995534 -92.059814
9200375000 -1.0700417 124.24966 -9.0726385 -74.911552 -9.051939 -75.579887 -0.26925087 -92.108566
9200437500 -1.0641645 124.22198 -9.0680542 -74.963379 -9.0560446 -75.536087 -0.27146676 -92.024216
9200500000 -1.0616438 124.17895 -9.0638094 -74.972755 -9.0512533 -75.536034 -0.27749738 -91.986435
9200562500 -1.0660986 124.19254 -9.0749474 -74.933441 -9.0525646 -75.503807 -0.28394639 -91.995758
9200625000 -1.0671979 124.14902 -9.0760946 -74.927849 -9.051528 -75.470047 -0.28123087 -91.961861
9200687500 -1.06732 124.16994 -9.0749722 -74.930862 -9.0520039 -75.543602 -0.28299806 -91.965012
9200750000 -1.0691891 124.13172 -9.0735359 -74.905693 -9.0452728 -75.508324 -0.27990189 -91.912498
9200812500 -1.0667683 124.1266 -9.07549 -74.850372 -9.0491896 -75.535637 -0.29063109 -91.885628
9200875000 -1.0716563 124.12762 -9.0684929 -74.893013 -9.0536842 -75.493347 -0.28704882 -91.829582
9200937500 -1.0684015 124.10899 -9.0761967 -74.886574 -9.050786 -75.458694 -0.28646821 -91.843735
9201000000 -1.0687654 124.08563 -9.0699053 -74.799782 -9.0464048 -75.529579 -0.28309298 -91.839439
9201062500 -1.0633028 124.05737 -9.0611401 -74.9105 -9.0391026 -75.460289 -0.2795755 -91.774261
9201125000 -1.0611484 124.07884 -9.0613604 -74.87513 -9.0461617 -75.487869 -0.2819162 -91.802261
9201187500 -1.0643376 124.05083 -9.0580978 -74.856354 -9.0483646 -75.486923 -0.28342643 -91.758278
9201250000 -1.0633672 124.02249 -9.0539846 -74.933846 -9.0410919 -75.446045 -0.27568141 -91.731453
9201312500 -1.067062 124.00083 -9.0638218 -74.941879 -9.0500813 -75.474724 -0.28224075 -91.740578
9201375000 -1.0670376 123.97384 -9.0616817 -75.00563 -9.0514584 -75.531715 -0.28538474 -91.755974
9201437500 -1.0691625 123.97243 -9.059 -74.876434 -9.0447636 -75.515137 -0.27861947 -91.808922
9201500000 -1.0676779 123.97027 -9.0623627 -74.889709 -9.0447893 -75.486137 -0.28003624 -91.716789
9201562500 -1.0749789 123.95034 -9.0686722 -74.97541 -9.0478268 -75.470215 -0.28292814 -91.72287
9201625000 -1.0745255 123.95826 -9.0668869 -74.882629 -9.0454769 -75.47081 -0.27730647 -91.720665
9201687500 -1.0719506 123.9595 -9.0699987 -74.846855 -9.0434761 -75.488541 -0.27770129 -91.656479
9201750000 -1.0700603 123.90382 -9.0620241 -74.898018 -9.0480833 -75.44986 -0.28455359 -91.649551
9201812500 -1.0721569 123.92265 -9.0692673 -74.912575 -9.0384626 -75.42466 -0.28957358 -91.652588
9201875000 -1.0607488 123.90056 -9.0509644 -74.920372 -9.0443506 -75.460846 -0.28838572 -91.625732
9201937500 -1.0661935 123.86133 -9.0627317 -74.906258 -9.0376329 -75.456238 -0.28524804 -91.606133
9202000000 -1.0650181 123.8634 -9.0542364 -74.905037 -9.0306807 -75.420258 -0.28327528 -91.541298
9202062500 -1.0650916 123.81833 -9.0551271 -74.926933 -9.0323257 -75.505989 -0.28354922 -91.584381
9202125000 -1.0652333 123.81655 -9.046319 -74.957382 -9.0319242 -75.477798 -0.27866066 -91.552727
9202187500 -1.0653325 123.80862 -9.0547047 -74.876808 -9.0425501 -75.415382 -0.27757472 -91.494194
9202250000 -1.0689121 123.80499 -9.054739 -74.82177 -9.0436792 -75.500328 -0.28256661 -91.515434
9202312500 -1.0716643 123.81005 -9.0481997 -74.825348 -9.0356283 -75.523148 -0.2819064 -91.5205
9202375000 -1.0653069 123.78127 -9.0441637 -74.890648 -9.0436277 -75.486832 -0.2819227 -91.481506
9202437500 -1.0673604 123.76689 -9.0452499 -74.913979 -9.0394697 -75.531281 -0.28620809 -91.47612
9202500000 -1.0699191 123.76108 -9.0517321 -74.889801 -9.0441971 -75.448242 -0.28913888 -91.367294
9202562500 -1.0683519 123.75737 -9.0383158 -74.864563 -9.0353155 -75.511902 -0.29513574 -91.440979
9202625000 -1.0705276 123.72664 -9.0521126 -74.91803 -9.0355206 -75.499428 -0.28830591 -91.369644
9202687500 -1.076758 123.7406 -9.0548658 -74.868317 -9.038868 -75.451965 -0.29461765 -91.349274
9202750000 -1.0693593 123.7462 -9.0483866 -74.836327 -9.035903 -75.494408 -0.29485652 -91.398369
9202812500 -1.0687525 123.70094 -9.0479031 -74.876091 -9.0347719 -75.42466 -0.2942982 -91.352921
9202875000 -1.0735302 123.70231 -9.0485125 -74.830757 -9.0225401 -75.521011 -0.28699452 -91.34111
9202937500 -1.0693688 123.65727 -9.033967 -74.878693 -9.0233583 -75.466087 -0.28733793 -91.29232
9203000000 -1.0692562 123.62997 -9.0360451 -74.898643 -9.0207911 -75.502617 -0.28687972 -91.281639
9203062500 -1.0694054 123.61053 -9.0439396 -74.882065 -9.0256653 -75.476631 -0.28470376 -91.294815
9203125000 -1.0684052 123.59953 -9.0398512 -74.912712 -9.0319042 -75.447647 -0.28825405 -91.221764
9203187500 -1.0708337 123.59296 -9.0350838 -74.905083 -9.0224419 -75.473206 -0.28889695 -91.258156
9203250000 -1.0660356 123.62273 -9.0431137 -74.884689 -9.0281143 -75.44751 -0.28774646 -91.199257
9203312500 -1.0691458 123.59756 -9.0357656 -74.908699 -9.0292187 -75.475937 -0.28165507 -91.192474
9203375000 -1.0737553 123.54478 -9.03265 -74.86216 -9.0325489 -75.450249 -0.28861305 -91.150017
9203437500 -1.0749029 123.55753 -9.0364723 -74.880241 -9.0222702 -75.460014 -0.28369671 -91.15345
9203500000 -1.0707942 123.5924 -9.0374384 -74.8759 -9.0265865 -75.396133 -0.28017426 -91.113724
9203562500 -1.0705193 123.55565 -9.0392723 -74.886925 -9.0238285 -75.491302 -0.29251674 -91.144966
9203625000 -1.0698674 123.50277 -9.0362425 -74.870964 -9.0210915 -75.490791 -0.29369545 -91.09938
9203687500 -1.0690035 123.48843 -9.0360422 -74.855492 -9.0365381 -75.464722 -0.29608554 -91.104958
9203750000 -1.0712286 123.48898 -9.0364723 -74.905426 -9.0256615 -75.528687 -0.29555473 -91.11203
9203812500 -1.0669388 123.46494 -9.0335913 -74.88549 -9.0322704 -75.46962 -0.29729208 -91.062759
9203875000 -1.0714281 123.41225 -9.0335674 -74.925972 -9.0274506 -75.407127 -0.29838902 -91.009201
9203937500 -1.0686023 123.42027 -9.0346365 -74.87867 -9.0156317 -75.431427 -0.30303666 -90.992126
9204000000 -1.0630989 123.41271 -9.0258093 -74.901154 -9.0140686 -75.488655 -0.30184522 -91.021149
9204062500 -1.0625947 123.41351 -9.0304747 -74.845993 -9.0116148 -75.403442 -0.30287376 -90.960335
9204125000 -1.0683564 123.40072 -9.0361042 -74.860611 -9.0160999 -75.388924 -0.30936956 -90.967117
9204187500 -1.066983 123.37655 -9.0477943 -74.858215 -9.0143414 -75.378357 -0.30313799 -90.931679
9204250000 -1.0629549 123.37251 -9.032094 -74.867867 -9.0064545 -75.393585 -0.30197805 -90.904182
9204312500 -1.0630637 123.34874 -9.0328178 -74.831024 -9.0105247 -75.409523 -0.29724371 -90.8937
9204375000 -1.0612679 123.35878 -9.0328579 -74.835762 -9.0125685 -75.419182 -0.30526009 -90.864334
9204437500 -1.0600803 123.29717 -9.0279274 -74.866135 -9.0112286 -75.372635 -0.29747111 -90.887245
9204500000 -1.0575566 123.31164 -9.0200109 -74.904366 -9.0103197 -75.439018 -0.29019949 -90.8685
9204562500 -1.0576357 123.26225 -9.0198669 -74.87339 -9.0003853 -75.416084 -0.28725222 -90.83358
9204625000 -1.0648874 123.2802 -9.0242224 -74.80468 -9.0040131 -75.438339 -0.29340118 -90.822243
9204687500 -1.0559921 123.23725 -9.0214825 -74.817055 -9.0120316 -75.396919 -0.29744816 -90.792458
9204750000 -1.0614227 123.23156 -9.0220604 -74.819077 -9.0095835 -75.407906 -0.29687592 -90.787842
9204812500 -1.061218 123.25064 -9.0172586 -74.756638 -9.0053663 -75.43441 -0.29213515 -90.771477
9204875000 -1.0689178 123.23899 -9.0237169 -74.76133 -9.0041265 -75.39888 -0.29794404 -90.757851
9204937500 -1.0683063 123.2355 -9.0249186 -74.857437 -9.0062485 -75.463219 -0.29895604 -90.791176
9205000000 -1.0712054 123.23064 -9.0196114 -74.837105 -9.0088882 -75.421906 -0.29605436 -90.720032
9205062500 -1.0680799 123.21839 -9.0244703 -74.772209 -9.0035267 -75.388062 -0.2932404 -90.677345
9205125000 -1.0696166 123.16783 -9.0149117 -74.849007 -9.0083761 -75.430885 -0.29785159 -90.71254
9205187500 -1.0694119 123.13942 -9.0140057 -74.788643 -9.0068483 -75.417244 -0.29269949 -90.667435
9205250000 -1.070168 123.13956 -9.0186253 -74.784309 -9.0047007 -75.422211 -0.29541185 -90.687943
9205312500 -1.0768638 123.09344 -9.0196667 -74.73687 -9.0038939 -75.447212 -0.29337606 -90.61721
9205375000 -1.0739651 123.10971 -9.0163145 -74.739014 -9.0083656 -75.445648 -0.29554629 -90.635956
9205437500 -1.0735576 123.04327 -9.0115452 -74.75425 -9.0061779 -75.458389 -0.29359502 -90.648582
9205500000 -1.0675654 123.06953 -8.9991055 -74.791298 -9.0058537 -75.415878 -0.29512337 -90.613129
9205562500 -1.0692124 123.0453 -9.0156069 -74.830894 -9.0068741 -75.44973 -0.29853663 -90.609131
9205625000 -1.0662702 123.05113 -9.0069723 -74.799416 -9.0079088 -75.382851 -0.29940122 -90.568047
9205687500 -1.0711066 123.03397 -9.0123224 -74.847931 -9.0156021 -75.391441 -0.29768106 -90.595261
9205750000 -1.0676605 123.02708 -9.0128641 -74.818291 -9.0041285 -75.425812 -0.29442567 -90.536568
9205812500 -1.0675498 123.0156 -9.011219 -74.837677 -9.0039253 -75.402588 -0.29085967 -90.510437
9205875000 -1.0686953 123.00171 -9.0098639 -74.823822 -9.0122948 -75.382133 -0.29669359 -90.496651
9205937500 -1.0624665 123.01146 -9.0054779 -74.823334 -9.0023031 -75.43441 -0.30026114 -90.465546
9206000000 -1.0635884 122.97902 -9.0084705 -74.837433 -9.0060377 -75.380707 -0.30340973 -90.483589
9206062500 -1.0645539 122.97653 -9.0045147 -74.775162 -8.9993715 -75.378395 -0.30214265 -90.436218
9206125000 -1.0648646 122.94992 -9.0054722 -74.769661 -8.996048 -75.38414 -0.29899159 -90.413445
9206187500 -1.0680835 122.98009 -9.0093384 -74.724815 -8.9948378 -75.409607 -0.29604998 -90.389961
9206250000 -1.0656821 122.95353 -9.0170155 -74.823357 -9.001008 -75.373344 -0.29929069 -90.37104
9206312500 -1.0672617 122.94477 -9.0052433 -74.754288 -8.9942112 -75.410545 -0.29788309 -90.354805
9206375000 -1.065604 122.967 -9.0041294 -74.763458 -8.9905367 -75.385368 -0.29522464 -90.31456
9206437500 -1.0691545 122.94309 -9.0034046 -74.793076 -8.9836817 -75.403122 -0.28806913 -90.300514
9206500000 -1.0666398 122.89405 -9.0026369 -74.731918 -8.9912891 -75.403893 -0.29978925 -90.325478
9206562500 -1.0654016 122.89885 -9.0065575 -74.707008 -8.9955492 -75.434349 -0.29936743 -90.307655
9206625000 -1.0712913 122.89317 -9.0023031 -74.774796 -8.9854288 -75.378609 -0.29056579 -90.251106
9206687500 -1.0702132 122.8406 -8.9896536 -74.752335 -8.9820299 -75.421181 -0.28415605 -90.261909
9206750000 -1.0730109 122.81578 -8.994482 -74.753098 -8.9793148 -75.427475 -0.28712907 -90.228325
9206812500 -1.0743062 122.82159 -8.9910469 -74.761955 -8.976882 -75.358849 -0.29042238 -90.172684
9206875000 -1.0745419 122.79601 -8.9898005 -74.729637 -8.9754238 -75.367226 -0.28947932 -90.149864
9206937500 -1.0715948 122.78257 -8.9913559 -74.758125 -8.9767733 -75.387924 -0.29066899 -90.15844
9207000000 -1.0678405 122.78929 -8.9873543 -74.786537 -8.977457 -75.36441 -0.28835273 -90.124557
9207062500 -1.0677711 122.74609 -8.9965286 -74.746674 -8.9860706 -75.364876 -0.30192938 -90.103577
9207125000 -1.0674077 122.74032 -8.9909964 -74.795425 -8.9799957 -75.417938 -0.29808143 -90.166725
9207187500 -1.0640012 122.6652 -8.9951649 -74.782471 -8.9900703 -75.378273 -0.30602369 -90.179062
9207250000 -1.0632026 122.67539 -8.9829521 -74.811821 -8.980197 -75.370781 -0.30083308 -90.087418
9207312500 -1.0657296 122.68936 -8.996604 -74.79541 -8.9824104 -75.349655 -0.30303007 -90.061096
9207375000 -1.0687784 122.6333 -8.9879093 -74.844589 -8.9813166 -75.332497 -0.30348808 -90.039833
9207437500 -1.0604187 122.58981 -8.9916077 -74.895805 -8.9792032 -75.330986 -0.30603668 -90.080246
9207500000 -1.0705013 122.60313 -8.9908962 -74.768806 -8.9732199 -75.368454 -0.30257958 -90.02494
9207562500 -1.0695385 122.55661 -8.981823 -74.828835 -8.9811001 -75.34771 -0.31082493 -90.018196
9207625000 -1.0727168 122.52263 -8.9919901 -74.826843 -8.9643288 -75.384621 -0.30082458 -90.03878
9207687500 -1.0705003 122.55498 -8.9807167 -74.816025 -8.9747667 -75.411568 -0.29849586 -89.991524
9207750000 -1.073315 122.51439 -8.9857464 -74.823784 -8.9702091 -75.403122 -0.30048189 -90.006363
9207812500 -1.0743382 122.56858 -8.9806423 -74.761429 -8.972352 -75.421173 -0.29039481 -89.991463
9207875000 -1.0692009 122.51937 -8.9762888 -74.809898 -8.9784441 -75.402863 -0.29829773 -89.965248
9207937500 -1.0774059 122.53535 -8.9839153 -74.68335 -8.970705 -75.298157 -0.29038498 -89.846046
9208000000 -1.077527 122.52621 -8.9900923 -74.728806 -8.9737062 -75.343872 -0.29600945 -89.870766
9208062500 -1.0772169 122.53537 -8.9829035 -74.758698 -8.9730835 -75.421455 -0.29811728 -89.881363
9208125000 -1.0744264 122.53575 -8.9789238 -74.703491 -8.9731016 -75.408791 -0.30077571 -89.855057
9208187500 -1.0743592 122.49651 -8.984581 -74.763138 -8.9703236 -75.39537 -0.30485457 -89.85865
9208250000 -1.0702903 122.50466 -8.9863167 -74.710381 -8.9736834 -75.331963 -0.30916288 -89.794067
9208312500 -1.0702602 122.47271 -8.987793 -74.71212 -8.9762135 -75.370193 -0.30999866 -89.778694
9208375000 -1.0700424 122.46532 -8.9813156 -74.765121 -8.9680309 -75.313034 -0.30800444 -89.775688
9208437500 -1.0711805 122.4574 -8.9870758 -74.762405 -8.9703979 -75.31987 -0.31075877 -89.749199
9208500000 -1.0673214 122.42319 -8.975316 -74.771118 -8.9752178 -75.351166 -0.30597255 -89.735573
9208562500 -1.0719278 122.39767 -8.976099 -74.741531 -8.9639196 -75.365303 -0.30647311 -89.699928
9208625000 -1.0723667 122.33935 -8.9730196 -74.803734 -8.968153 -75.375763 -0.30669987 -89.711517
9208687500 -1.0707116 122.32943 -8.9739084 -74.833435 -8.9665995 -75.266136 -0.3043226 -89.657516
9208750000 -1.070953 122.32299 -8.9731226 -74.809494 -8.966794 -75.346878 -0.30206394 -89.714279
9208812500 -1.0671494 122.34661 -8.9663477 -74.804031 -8.9624424 -75.360611 -0.30019656 -89.699112
9208875000 -1.0722139 122.31526 -8.9711723 -74.782486 -8.963829 -75.337585 -0.29777324 -89.677483
9208937500 -1.074954 122.33754 -8.9695644 -74.812668 -8.9697905 -75.323776 -0.30550274 -89.694977
9209000000 -1.0705943 122.31995 -8.9712057 -74.783195 -8.9728823 -75.275009 -0.30641887 -89.628609
9209062500 -1.0736419 122.36674 -8.965353 -74.689285 -8.9724493 -75.31131 -0.30138046 -89.634598
9209125000 -1.0725176 122.36031 -8.9677162 -74.696312 -8.9650974 -75.330498 -0.30584556 -89.594185
9209187500 -1.0733904 122.3251 -8.9779682 -74.776077 -8.9639816 -75.298088 -0.31003278 -89.616219
9209250000 -1.0720184 122.33279 -8.9650583 -74.709656 -8.9642725 -75.336151 -0.30302599 -89.573532
9209312500 -1.0711873 122.30645 -8.9662628 -74.689445 -8.9683533 -75.263069 -0.30482668 -89.528587
9209375000 -1.0707904 122.26532 -8.9646997 -74.784988 -8.9616079 -75.302483 -0.30761904 -89.543678
9209437500 -1.0697966 122.24051 -8.9643908 -74.744827 -8.9615574 -75.301048 -0.3104488 -89.491783
9209500000 -1.0689844 122.24605 -8.9583616 -74.717804 -8.9658289 -75.308502 -0.3052702 -89.471451
9209562500 -1.0723355 122.20472 -8.9626293 -74.753326 -8.9616737 -75.264862 -0.30716264 -89.417313
9209625000 -1.0736543 122.2215 -8.9655132 -74.743484 -8.9563131 -75.285469 -0.30369678 -89.427177
9209687500 -1.0751107 122.21097 -8.9624033 -74.752731 -8.9521761 -75.324486 -0.30433464 -89.407913
9209750000 -1.0790077 122.17612 -8.9671316 -74.806923 -8.9488869 -75.318855 -0.30234963 -89.454826
9209812500 -1.0758299 122.12363 -8.9600725 -74.766136 -8.9600658 -75.227142 -0.30849603 -89.356995
9209875000 -1.0717779 122.16611 -8.9588709 -74.737671 -8.9558086 -75.244774 -0.3032116 -89.299866
9209937500 -1.0766884 122.15424 -8.9616795 -74.774147 -8.9595594 -75.359146 -0.3044861 -89.354996
9210000000 -1.074894 122.14019 -8.9559383 -74.788383 -8.947876 -75.298004 -0.29887661 -89.334442
9210062500 -1.0711725 122.11403 -8.9564657 -74.686462 -8.9510117 -75.269661 -0.29927883 -89.299911
9210125000 -1.0714877 122.12161 -8.9640913 -74.723007 -8.9485435 -75.319 -0.3003211 -89.326378
9210187500 -1.0674323 122.10226 -8.9515085 -74.690704 -8.9488497 -75.275848 -0.30334035 -89.289276
9210250000 -1.0699043 122.05859 -8.9624987 -74.736702 -8.9512749 -75.250175 -0.3049604 -89.271614
9210312500 -1.070115 122.05526 -8.9505568 -74.761375 -8.9468441 -75.28849 -0.30193609 -89.24791
9210375000 -1.0681366 122.03622 -8.9551449 -74.743141 -8.9508896 -75.309715 -0.30936286 -89.247101
9210437500 -1.0660926 122.01598 -8.956707 -74.737473 -8.9490271 -75.230057 -0.31509742 -89.206558
9210500000 -1.0693052 122.00599 -8.9546776 -74.672318 -8.9453697 -75.258911 -0.31010661 -89.194817
9210562500 -1.0718038 121.96837 -8.9604263 -74.742065 -8.9511566 -75.239304 -0.31814545 -89.193901
9210625000 -1.0631852 121.96038 -8.9568186 -74.723427 -8.9484777 -75.277176 -0.31870738 -89.154152
9210687500 -1.0569084 121.94173 -8.9554672 -74.688713 -8.9428673 -75.227585 -0.31230423 -89.107361
9210750000 -1.0689063 121.95041 -8.9575624 -74.669266 -8.9455986 -75.284744 -0.31641325 -89.12336
9210812500 -1.0687504 121.92748 -8.954505 -74.662796 -8.9474878 -75.261879 -0.319895 -89.102646
9210875000 -1.0699518 121.88313 -8.9618645 -74.667847 -8.9481993 -75.289497 -0.31593633 -89.108398
9210937500 -1.0727826 121.90627 -8.9577084 -74.644547 -8.942523 -75.20784 -0.31448367 -89.012611
9211000000 -1.0704094 121.84135 -8.9403296 -74.705833 -8.9429064 -75.280792 -0.31271607 -89.067635
9211062500 -1.0763619 121.83849 -8.954072 -74.671013 -8.9401178 -75.286491 -0.30986947 -89.056152
9211125000 -1.0775104 121.84081 -8.9517393 -74.757828 -8.9374809 -75.2724 -0.30965412 -89.071686
9211187500 -1.0811721 121.83626 -8.9559021 -74.725082 -8.9371157 -75.298302 -0.31563646 -89.087372
9211250000 -1.0773159 121.85052 -8.9409208 -74.672852 -8.936801 -75.263855 -0.30945244 -89.039299
9211312500 -1.0835359 121.83126 -8.9537716 -74.765053 -8.9426794 -75.345284 -0.31564876 -89.055878
9211375000 -1.0805501 121.82121 -8.9517612 -74.745804 -8.9423466 -75.261429 -0.30310452 -88.935097
9211437500 -1.0768412 121.83665 -8.9498291 -74.735764 -8.9418497 -75.28019 -0.30973306 -88.946465
9211500000 -1.0755262 121.81101 -8.9491596 -74.669403 -8.9336233 -75.267036 -0.30823037 -88.896538
9211562500 -1.0807884 121.7877 -8.9486504 -74.743256 -8.9362144 -75.257027 -0.30987182 -88.934334
9211625000 -1.0777839 121.73573 -8.9425993 -74.752678 -8.9364281 -75.285698 -0.32113993 -88.937935
9211687500 -1.0762018 121.77316 -8.9464521 -74.651848 -8.9383335 -75.263618 -0.32103124 -88.889465
9211750000 -1.0767045 121.68523 -8.9447374 -74.71666 -8.9426584 -75.259399 -0.32262164 -88.883385
9211812500 -1.0753919 121.66676 -8.9399672 -74.713745 -8.9365072 -75.191933 -0.32052362 -88.841019
9211875000 -1.0779836 121.67403 -8.9470539 -74.726753 -8.9312201 -75.232704 -0.31289327 -88.831993
9211937500 -1.0771842 121.65531 -8.9309454 -74.767906 -8.9352951 -75.236229 -0.32430127 -88.810463
9212000000 -1.0792104 121.63172 -8.9361324 -74.676773 -8.9368362 -75.237801 -0.32383254 -88.791489
9212062500 -1.0808504 121.59908 -8.9359236 -74.679146 -8.931941 -75.232895 -0.31427246 -88.706696
9212125000 -1.080456 121.55446 -8.9310446 -74.731148 -8.929944 -75.232368 -0.31535688 -88.715279
9212187500 -1.0831606 121.54957 -8.9321365 -74.848175 -8.9285746 -75.240555 -0.314033 -88.706696
9212250000 -1.0848745 121.57219 -8.9455948 -74.707619 -8.9344397 -75.247086 -0.32428604 -88.670738
9212312500 -1.075415 121.56722 -8.9291992 -74.694427 -8.9323435 -75.222694 -0.31939852 -88.638054
