!Agilent Technologies,N5242A,MY51221714,A.09.90.19
!Agilent N5242A: A.09.90.19
!Date: Saturday, March 16, 2024 09:24:48
!Correction: S11(Full 2 Port(1,2)) 
!S21(Full 2 Port(1,2)) 
!S12(Full 2 Port(1,2)) 
!S22(Full 2 Port(1,2)) 
!S2P File: Measurements: S11, S21, S12, S22:
# Hz S  dB   R 50
9200000000 -0.89239013 125.95478 -9.1243687 -72.934395 -9.0974493 -73.446533 -0.1621549 -91.767365
9200062500 -0.89306509 125.98467 -9.1129847 -72.904922 -9.0996943 -73.495979 -0.16485895 -91.754433
9200125000 -0.89469361 126.00119 -9.1221581 -72.873901 -9.1019459 -73.442223 -0.16737409 -91.721504
9200187500 -0.89749187 125.96997 -9.1234226 -72.880035 -9.1001902 -73.485001 -0.16347392 -91.730972
9200250000 -0.88922018 125.98514 -9.1063585 -72.874268 -9.0968809 -73.480507 -0.16640107 -91.735107
9200312500 -0.89103407 125.94453 -9.1189842 -72.916283 -9.1099501 -73.506989 -0.17099306 -91.71241
9200375000 -0.88980162 125.9695 -9.1198606 -72.927284 -9.1021519 -73.488655 -0.1645329 -91.706329
9200437500 -0.89143842 125.95094 -9.1172543 -72.87278 -9.0906401 -73.489861 -0.16654003 -91.687637
9200500000 -0.88696188 125.9043 -9.1069422 -72.881432 -9.0859966 -73.508705 -0.16900222 -91.623047
9200562500 -0.88805735 125.92918 -9.1097498 -72.828926 -9.092782 -73.424973 -0.17427833 -91.575905
9200625000 -0.88641649 125.86144 -9.1066589 -72.834198 -9.0915098 -73.507057 -0.17578435 -91.633911
9200687500 -0.88800526 125.87778 -9.1175089 -72.783157 -9.0978088 -73.42691 -0.17561373 -91.579201
9200750000 -0.88791931 125.85107 -9.1185951 -72.815308 -9.0906172 -73.354332 -0.17413421 -91.518578
9200812500 -0.89854592 125.85155 -9.1189289 -72.772934 -9.083539 -73.450188 -0.17472509 -91.520264
9200875000 -0.88905478 125.81159 -9.1106443 -72.793221 -9.0890684 -73.39917 -0.1811998 -91.471329
9200937500 -0.88777691 125.83134 -9.103754 -72.83297 -9.0850334 -73.466789 -0.17901456 -91.467644
9201000000 -0.88572085 125.83289 -9.1040049 -72.828613 -9.0868473 -73.438622 -0.17651407 -91.451424
9201062500 -0.88482797 125.79479 -9.0962496 -72.783798 -9.0841656 -73.432831 -0.17150834 -91.438576
9201125000 -0.88942266 125.78843 -9.1001711 -72.827553 -9.0848083 -73.444664 -0.17547537 -91.410027
9201187500 -0.88591516 125.78471 -9.0896368 -72.829117 -9.0815687 -73.410072 -0.17575683 -91.417999
9201250000 -0.88155103 125.73571 -9.091258 -72.827728 -9.0938101 -73.396683 -0.17522386 -91.391487
9201312500 -0.89240772 125.75355 -9.0992918 -72.868141 -9.0896673 -73.471794 -0.17683148 -91.441406
9201375000 -0.89540362 125.72534 -9.1025915 -72.792923 -9.084094 -73.446434 -0.1719469 -91.430885
9201437500 -0.89585537 125.71098 -9.1031179 -72.839439 -9.0960426 -73.381859 -0.17865081 -91.351151
9201500000 -0.89623135 125.69511 -9.1008301 -72.849457 -9.0875616 -73.411827 -0.17458338 -91.397095
9201562500 -0.89553076 125.71724 -9.1158247 -72.879189 -9.0950098 -73.387733 -0.17392103 -91.326057
9201625000 -0.8874954 125.67054 -9.1079779 -72.881088 -9.0971699 -73.417953 -0.17998241 -91.367943
9201687500 -0.89175552 125.68437 -9.1012421 -72.884926 -9.0904121 -73.406212 -0.17783406 -91.353973
9201750000 -0.89248592 125.64452 -9.0983086 -72.80851 -9.0938864 -73.377647 -0.18069549 -91.28624
9201812500 -0.89242303 125.61206 -9.1046782 -72.847404 -9.0866547 -73.448227 -0.18194053 -91.320938
9201875000 -0.88723248 125.58871 -9.1096106 -72.811142 -9.0835972 -73.348022 -0.18291034 -91.211594
9201937500 -0.88909942 125.5971 -9.1062956 -72.804985 -9.081665 -73.398163 -0.1840436 -91.249016
9202000000 -0.88169384 125.53134 -9.0927715 -72.872169 -9.0750132 -73.39238 -0.17460291 -91.211731
9202062500 -0.89078873 125.54228 -9.0847588 -72.853432 -9.0789375 -73.412216 -0.17676187 -91.242058
9202125000 -0.8918497 125.55464 -9.0900488 -72.902496 -9.0881472 -73.394493 -0.18386155 -91.190376
9202187500 -0.88939577 125.55134 -9.0912399 -72.79026 -9.0812092 -73.474846 -0.17535636 -91.201637
9202250000 -0.88955212 125.55175 -9.0930862 -72.814568 -9.091732 -73.483459 -0.18321815 -91.196823
9202312500 -0.89415824 125.53447 -9.083807 -72.824341 -9.0764322 -73.473106 -0.17290011 -91.153358
9202375000 -0.88895553 125.48151 -9.0766983 -72.814941 -9.0815125 -73.435425 -0.17417496 -91.114403
9202437500 -0.89480799 125.49533 -9.0958357 -72.803185 -9.0835304 -73.373161 -0.18151203 -91.112419
9202500000 -0.89595455 125.49649 -9.0902338 -72.788933 -9.081356 -73.377869 -0.18225086 -91.059563
9202562500 -0.89558691 125.47492 -9.092206 -72.848045 -9.0742025 -73.408546 -0.18083207 -91.077202
9202625000 -0.89433217 125.44743 -9.0911093 -72.773811 -9.0738249 -73.386368 -0.182659 -91.007187
9202687500 -0.89406413 125.45409 -9.0935907 -72.786591 -9.0756311 -73.369293 -0.18229143 -90.964233
9202750000 -0.89163369 125.48409 -9.0957699 -72.71698 -9.0746756 -73.426102 -0.18432711 -91.009727
9202812500 -0.88995451 125.41325 -9.0900021 -72.787498 -9.0782204 -73.333008 -0.18522657 -90.9655
9202875000 -0.89869303 125.39927 -9.0942116 -72.785271 -9.080164 -73.382927 -0.19026573 -90.955101
9202937500 -0.88969243 125.38503 -9.0896578 -72.774849 -9.0790529 -73.417862 -0.18792479 -90.936852
9203000000 -0.8921032 125.36804 -9.0912743 -72.76358 -9.0740175 -73.415382 -0.18147761 -90.883148
9203062500 -0.88871378 125.34067 -9.0755835 -72.808754 -9.0677881 -73.428055 -0.17667344 -90.93457
9203125000 -0.89023262 125.31839 -9.0886002 -72.877869 -9.0803232 -73.368294 -0.18493263 -90.88575
9203187500 -0.88490033 125.32287 -9.0808134 -72.767624 -9.0684643 -73.373344 -0.17939256 -90.853722
9203250000 -0.8901664 125.31095 -9.0784702 -72.729958 -9.0688648 -73.367683 -0.18501638 -90.81073
9203312500 -0.88944042 125.29854 -9.0866594 -72.78125 -9.0754719 -73.402176 -0.18533377 -90.878639
9203375000 -0.89280528 125.30594 -9.0867176 -72.818581 -9.0735836 -73.386353 -0.18703562 -90.793976
9203437500 -0.8951124 125.29041 -9.0819321 -72.801643 -9.0667381 -73.398758 -0.17974117 -90.821648
9203500000 -0.8893981 125.25795 -9.0855522 -72.815125 -9.0652447 -73.414314 -0.18804002 -90.781433
9203562500 -0.88788569 125.24749 -9.0814228 -72.77317 -9.0698986 -73.391273 -0.18138987 -90.733864
9203625000 -0.88905478 125.23211 -9.0830011 -72.827904 -9.0700073 -73.337112 -0.18878348 -90.739868
9203687500 -0.89135379 125.18501 -9.0784616 -72.81559 -9.068758 -73.36261 -0.18787371 -90.744026
9203750000 -0.89070958 125.18201 -9.0799932 -72.842171 -9.0663347 -73.382599 -0.18923452 -90.699471
9203812500 -0.89101416 125.1709 -9.0794029 -72.784988 -9.0684376 -73.333908 -0.18867967 -90.658112
9203875000 -0.88926786 125.15146 -9.0724411 -72.840714 -9.0714836 -73.38147 -0.19329754 -90.686066
9203937500 -0.8913393 125.13601 -9.0822229 -72.824593 -9.0642309 -73.348846 -0.1957707 -90.61438
9204000000 -0.88462561 125.10318 -9.0738726 -72.815254 -9.0617189 -73.334091 -0.19638628 -90.613266
9204062500 -0.89340359 125.07956 -9.0854292 -72.884575 -9.063261 -73.325325 -0.19563982 -90.633041
9204125000 -0.88205528 125.14337 -9.0775795 -72.792183 -9.0569763 -73.38176 -0.19819564 -90.648125
9204187500 -0.8836841 125.13744 -9.0828962 -72.725349 -9.056571 -73.328819 -0.19191085 -90.573128
9204250000 -0.88525963 125.09141 -9.0713625 -72.79351 -9.0582018 -73.34021 -0.19693816 -90.593346
9204312500 -0.88928205 125.06418 -9.085597 -72.852577 -9.0558319 -73.263969 -0.19446656 -90.538681
9204375000 -0.88804543 125.0351 -9.0747566 -72.780846 -9.056673 -73.309067 -0.19015877 -90.528999
9204437500 -0.88471848 125.02254 -9.0712061 -72.77253 -9.0585012 -73.37059 -0.19311054 -90.467636
9204500000 -0.88706356 125.03577 -9.0792894 -72.714188 -9.0586576 -73.303352 -0.18620759 -90.488937
9204562500 -0.88142037 125.01349 -9.0695505 -72.746834 -9.0551281 -73.379227 -0.18023835 -90.488853
9204625000 -0.88237381 124.96873 -9.0651016 -72.790443 -9.0565596 -73.365967 -0.18378274 -90.461533
9204687500 -0.87816805 124.98852 -9.0607729 -72.70816 -9.0629473 -73.297691 -0.18848105 -90.398117
9204750000 -0.88657606 124.99541 -9.0731049 -72.717323 -9.0532389 -73.297935 -0.19147713 -90.403229
9204812500 -0.88429248 124.98846 -9.070817 -72.758499 -9.0527973 -73.340363 -0.19364098 -90.407761
9204875000 -0.8846522 124.98107 -9.0643282 -72.713455 -9.0460711 -73.376678 -0.18166615 -90.430199
9204937500 -0.88742113 124.97603 -9.0684214 -72.7174 -9.0480165 -73.318588 -0.18941824 -90.399506
9205000000 -0.88899183 124.94489 -9.0635405 -72.727028 -9.0410681 -73.339371 -0.18442048 -90.369171
9205062500 -0.88931507 124.93606 -9.0615005 -72.73217 -9.0531588 -73.325218 -0.18987615 -90.394279
9205125000 -0.88698375 124.91834 -9.0615177 -72.720215 -9.0546684 -73.317802 -0.1854966 -90.320633
9205187500 -0.89062971 124.87617 -9.0671358 -72.699524 -9.0498543 -73.368767 -0.18382673 -90.374954
9205250000 -0.89429384 124.84766 -9.0568666 -72.693222 -9.0501728 -73.33107 -0.1875134 -90.330032
9205312500 -0.89534622 124.81946 -9.0523615 -72.686722 -9.0472908 -73.347092 -0.17934267 -90.295609
9205375000 -0.89564747 124.79494 -9.0628576 -72.657166 -9.053153 -73.300247 -0.18252303 -90.224724
9205437500 -0.89355266 124.8022 -9.0651722 -72.684891 -9.0516586 -73.321098 -0.18731457 -90.257027
9205500000 -0.89293808 124.76306 -9.0692177 -72.733688 -9.0589027 -73.351288 -0.19170147 -90.229439
9205562500 -0.88723254 124.79189 -9.0574493 -72.697472 -9.040453 -73.351845 -0.18072282 -90.206383
9205625000 -0.89412838 124.78425 -9.0646677 -72.7425 -9.0575886 -73.312134 -0.1967313 -90.221039
9205687500 -0.89031643 124.76556 -9.0575533 -72.729385 -9.0539446 -73.322876 -0.19238189 -90.182281
9205750000 -0.88970405 124.7578 -9.0569181 -72.700302 -9.0557871 -73.299805 -0.19239147 -90.167305
9205812500 -0.88877326 124.74372 -9.0617418 -72.718033 -9.0565863 -73.315582 -0.19574001 -90.188736
9205875000 -0.88726854 124.75152 -9.0598421 -72.714676 -9.0437002 -73.314995 -0.18907972 -90.154686
9205937500 -0.88121992 124.75262 -9.0482531 -72.656281 -9.0555344 -73.301804 -0.1935986 -90.112358
9206000000 -0.89140558 124.72652 -9.0625162 -72.700729 -9.0575447 -73.3321 -0.19207832 -90.097099
9206062500 -0.8899315 124.67888 -9.0645819 -72.680901 -9.0485735 -73.253838 -0.19265842 -90.058693
9206125000 -0.89140117 124.69934 -9.0611105 -72.715363 -9.0425558 -73.324097 -0.18860078 -90.002274
9206187500 -0.8921901 124.67889 -9.0619068 -72.721504 -9.0490446 -73.321022 -0.19888587 -90.035072
9206250000 -0.88790256 124.66326 -9.0520315 -72.697495 -9.0373144 -73.318169 -0.18983604 -90.031364
9206312500 -0.88446087 124.63606 -9.0496368 -72.703995 -9.0294495 -73.307503 -0.18397941 -90.000107
9206375000 -0.88606703 124.64223 -9.0480337 -72.730392 -9.0379791 -73.27964 -0.18871188 -89.996513
9206437500 -0.88443816 124.66039 -9.0453568 -72.688927 -9.0380602 -73.309532 -0.18876426 -89.995766
9206500000 -0.89113629 124.6414 -9.0495224 -72.655724 -9.0302801 -73.315842 -0.18632352 -89.956505
9206562500 -0.8879559 124.62581 -9.0502806 -72.672974 -9.0402651 -73.284416 -0.18515174 -89.899643
9206625000 -0.88967258 124.62374 -9.0445194 -72.650078 -9.0329628 -73.321983 -0.18615787 -89.940338
9206687500 -0.88921934 124.61187 -9.0406628 -72.588806 -9.0273619 -73.359406 -0.18631119 -89.868774
9206750000 -0.89401472 124.57407 -9.0380068 -72.628418 -9.0244131 -73.28022 -0.18447654 -89.873688
9206812500 -0.88824499 124.5264 -9.0313234 -72.65152 -9.023653 -73.291344 -0.1791808 -89.787537
9206875000 -0.89620399 124.52921 -9.0373917 -72.642761 -9.0290098 -73.280174 -0.18450104 -89.823875
9206937500 -0.88753593 124.48797 -9.042098 -72.638062 -9.0244331 -73.261543 -0.18194851 -89.780991
9207000000 -0.89137363 124.49643 -9.0458174 -72.652161 -9.0267792 -73.230247 -0.18850373 -89.794624
9207062500 -0.88698184 124.50257 -9.0368633 -72.616562 -9.0321693 -73.217384 -0.18699442 -89.759697
9207125000 -0.88741684 124.44324 -9.0426664 -72.71981 -9.0320759 -73.273926 -0.19209591 -89.769882
9207187500 -0.88261729 124.41817 -9.0323915 -72.694992 -9.0322132 -73.253189 -0.19124141 -89.731789
9207250000 -0.88357705 124.42862 -9.0400724 -72.64238 -9.0291882 -73.224709 -0.19527668 -89.682404
9207312500 -0.88748771 124.39693 -9.035778 -72.7258 -9.0305281 -73.276718 -0.20067227 -89.732246
9207375000 -0.88344407 124.35376 -9.0414858 -72.713219 -9.031147 -73.232315 -0.20408081 -89.733017
9207437500 -0.88573796 124.3422 -9.0421934 -72.734055 -9.0252371 -73.257797 -0.19455746 -89.690468
9207500000 -0.88504434 124.32288 -9.0342617 -72.704033 -9.025877 -73.254402 -0.19413385 -89.696938
9207562500 -0.88904041 124.31148 -9.0323439 -72.690399 -9.0183172 -73.245689 -0.1962107 -89.695839
9207625000 -0.88985884 124.28825 -9.0362768 -72.799614 -9.0221062 -73.274872 -0.19859202 -89.647789
9207687500 -0.88877124 124.27821 -9.0377007 -72.717201 -9.0287857 -73.267136 -0.19904564 -89.652
9207750000 -0.89213347 124.33473 -9.0367136 -72.66288 -9.023571 -73.300674 -0.18503538 -89.647842
9207812500 -0.89355868 124.27603 -9.0310745 -72.69165 -9.0206528 -73.304787 -0.18749492 -89.622543
9207875000 -0.89395499 124.2859 -9.0374622 -72.708481 -9.0174694 -73.298882 -0.18301834 -89.615692
9207937500 -0.88842094 124.28151 -9.0247002 -72.591194 -9.0240841 -73.297554 -0.18122454 -89.550568
9208000000 -0.89265227 124.29063 -9.0315208 -72.699928 -9.0180779 -73.310799 -0.18813534 -89.552055
9208062500 -0.88955426 124.26199 -9.0333195 -72.62867 -9.0190077 -73.232094 -0.18841633 -89.486382
9208125000 -0.89346814 124.23349 -9.031188 -72.648712 -9.0162392 -73.273628 -0.19248952 -89.481186
9208187500 -0.89414406 124.24012 -9.0334234 -72.631233 -9.0221605 -73.280342 -0.19512112 -89.4869
9208250000 -0.8942886 124.21206 -9.037653 -72.64399 -9.0161657 -73.219971 -0.1948237 -89.410072
9208312500 -0.89647561 124.22923 -9.029604 -72.614594 -9.0191727 -73.27739 -0.19986825 -89.456505
9208375000 -0.8972587 124.20567 -9.0338173 -72.649719 -9.018095 -73.228897 -0.19466051 -89.422699
9208437500 -0.88809991 124.16724 -9.023489 -72.715523 -9.0172358 -73.226364 -0.20182072 -89.39212
9208500000 -0.89052534 124.14596 -9.0315914 -72.695152 -9.0188894 -73.19632 -0.19892418 -89.359749
9208562500 -0.89337307 124.14461 -9.0242882 -72.717216 -9.0189428 -73.252403 -0.19780174 -89.364464
9208625000 -0.88668013 124.08418 -9.0186195 -72.720749 -9.0141926 -73.241791 -0.1967849 -89.391876
9208687500 -0.88606775 124.07256 -9.0194817 -72.683403 -9.0126076 -73.232841 -0.19337554 -89.3703
9208750000 -0.88888437 124.07163 -9.0193939 -72.689835 -9.0085716 -73.251427 -0.19366454 -89.353958
9208812500 -0.88819396 124.05677 -9.021615 -72.677612 -9.0130596 -73.200386 -0.19443558 -89.309143
9208875000 -0.89294869 124.06408 -9.0196009 -72.722626 -9.0139542 -73.292374 -0.19642642 -89.348381
9208937500 -0.89136422 124.05539 -9.0241909 -72.67173 -9.0144701 -73.259995 -0.19352578 -89.321304
9209000000 -0.88962263 124.09958 -9.0259037 -72.638405 -9.016552 -73.222878 -0.19572648 -89.296478
9209062500 -0.89519048 124.09673 -9.0279894 -72.645653 -9.0136299 -73.226357 -0.19622535 -89.294495
9209125000 -0.88802457 124.07996 -9.0234232 -72.616745 -9.0207911 -73.248482 -0.1990031 -89.279129
9209187500 -0.88937479 124.07863 -9.0189991 -72.657692 -9.010581 -73.232841 -0.1936973 -89.266876
9209250000 -0.89175498 124.07899 -9.016118 -72.597321 -9.0184832 -73.271759 -0.19908264 -89.258636
9209312500 -0.88841218 124.03585 -9.0086155 -72.619682 -9.0091496 -73.192993 -0.19828565 -89.224976
9209375000 -0.88870311 124.0191 -9.0106182 -72.612396 -9.0190954 -73.186546 -0.19824472 -89.129524
9209437500 -0.88629019 123.95799 -9.0033112 -72.612946 -9.01717 -73.150681 -0.20194665 -89.135254
9209500000 -0.89243114 123.9549 -9.0148191 -72.694794 -9.0078955 -73.204819 -0.19851308 -89.156052
9209562500 -0.88764411 123.88638 -9.0148296 -72.669983 -9.0037298 -73.202774 -0.19549598 -89.101303
9209625000 -0.8951124 123.92888 -9.0162649 -72.605759 -9.0080395 -73.180412 -0.19608347 -89.043968
9209687500 -0.89226645 123.8792 -9.0207186 -72.685936 -9.0041351 -73.147797 -0.19971646 -89.008255
9209750000 -0.89824772 123.91183 -9.0255604 -72.663956 -9.0071774 -73.218307 -0.1971602 -89.057655
9209812500 -0.89380366 123.91927 -9.0144567 -72.578247 -8.9996996 -73.189445 -0.19298223 -89.052643
9209875000 -0.89538658 123.8774 -9.01686 -72.647881 -9.0006495 -73.168976 -0.193158 -88.981606
9209937500 -0.89243907 123.85472 -9.0124226 -72.659607 -9.0063705 -73.152672 -0.19743508 -88.943672
9210000000 -0.89280623 123.86461 -9.0051317 -72.630554 -9.0001974 -73.191078 -0.18771546 -88.967186
9210062500 -0.8908686 123.82943 -9.007287 -72.633179 -9.000761 -73.129936 -0.1906538 -88.896843
9210125000 -0.88871002 123.82786 -9.006649 -72.596146 -8.9966707 -73.168564 -0.19304252 -88.943398
9210187500 -0.8898924 123.82024 -9.0066395 -72.590759 -8.9980841 -73.146606 -0.19226012 -88.928574
9210250000 -0.89057422 123.83561 -9.0061874 -72.574272 -8.9921684 -73.196465 -0.1958276 -88.922676
9210312500 -0.89506578 123.7964 -9.0110989 -72.65097 -9.0054321 -73.174355 -0.2010438 -88.896057
9210375000 -0.88765091 123.78047 -9.0048475 -72.633301 -9.001379 -73.145828 -0.19801721 -88.84758
9210437500 -0.88532484 123.79272 -9.0064716 -72.621407 -8.9930487 -73.174301 -0.19494891 -88.879662
9210500000 -0.88551337 123.72106 -9.0101614 -72.641357 -8.9977236 -73.120712 -0.20368566 -88.809525
9210562500 -0.88878256 123.71112 -9.0158443 -72.586418 -9.0001974 -73.140129 -0.20883453 -88.80983
9210625000 -0.88877445 123.7307 -9.0152178 -72.531982 -9.0027847 -73.108498 -0.21012916 -88.792686
9210687500 -0.87913305 123.6769 -9.0045443 -72.547447 -9.0001612 -73.130325 -0.20822647 -88.769035
9210750000 -0.88451457 123.64133 -9.0160389 -72.563347 -8.9965658 -73.152756 -0.206186 -88.762947
9210812500 -0.88675421 123.67701 -9.0142708 -72.556427 -8.9995098 -73.14753 -0.21444319 -88.741402
9210875000 -0.89022571 123.62025 -9.0111523 -72.531418 -8.9908638 -73.161819 -0.20424707 -88.70459
9210937500 -0.89065534 123.59828 -9.0032597 -72.562904 -8.9970913 -73.139084 -0.20918633 -88.690384
9211000000 -0.8828038 123.57308 -9.0051613 -72.635384 -8.9929438 -73.168953 -0.20773938 -88.705177
9211062500 -0.89014131 123.61883 -9.0001059 -72.524902 -8.9903908 -73.191879 -0.20096101 -88.681412
9211125000 -0.89048028 123.61144 -8.9979782 -72.579109 -8.9817457 -73.11631 -0.19494712 -88.688057
9211187500 -0.89450073 123.59781 -9.0012112 -72.626472 -8.9885559 -73.169075 -0.20472936 -88.690079
9211250000 -0.89732891 123.58205 -9.003397 -72.665855 -8.9906406 -73.194443 -0.20450643 -88.722366
9211312500 -0.89349866 123.55473 -8.9947834 -72.665733 -8.9832573 -73.200615 -0.19883206 -88.772713
9211375000 -0.89673835 123.55112 -8.9930544 -72.634933 -8.9833145 -73.098999 -0.19038418 -88.578865
9211437500 -0.89667737 123.57479 -8.9928846 -72.574753 -8.9815874 -73.182327 -0.192664 -88.599747
9211500000 -0.89472014 123.54979 -8.991334 -72.568428 -8.9898491 -73.205078 -0.1962252 -88.604523
9211562500 -0.89481425 123.55661 -8.9962044 -72.539627 -8.9838161 -73.142319 -0.19684294 -88.570953
9211625000 -0.89315635 123.50688 -8.9946003 -72.599915 -8.9918041 -73.109322 -0.20274077 -88.555122
9211687500 -0.8935253 123.45932 -8.9951649 -72.589287 -8.9847412 -73.105736 -0.20299017 -88.54689
9211750000 -0.88733393 123.49641 -8.9956913 -72.523102 -8.9882488 -73.105095 -0.20872281 -88.456589
9211812500 -0.88953692 123.45149 -8.99125 -72.542587 -8.9876194 -73.127197 -0.20257023 -88.504341
9211875000 -0.89478338 123.44701 -8.9963665 -72.545677 -8.9909601 -73.039833 -0.20767416 -88.437637
9211937500 -0.89275628 123.43451 -8.9913006 -72.56855 -8.9862719 -73.088493 -0.20767058 -88.391647
9212000000 -0.89587379 123.38113 -8.9865017 -72.569473 -8.9835882 -73.102562 -0.21039681 -88.396477
9212062500 -0.89292914 123.35547 -8.983427 -72.637138 -8.9862127 -73.090874 -0.21259122 -88.352791
9212125000 -0.89636678 123.34347 -8.9899168 -72.603767 -8.9793634 -73.029655 -0.20361811 -88.344337
9212187500 -0.89042163 123.32602 -8.9843168 -72.620003 -8.9835539 -73.121902 -0.20881025 -88.354118
