!Agilent Technologies,N5242A,MY51221714,A.09.90.19
!Agilent N5242A: A.09.90.19
!Date: Saturday, March 16, 2024 09:28:14
!Correction: S11(Full 2 Port(1,2)) 
!S21(Full 2 Port(1,2)) 
!S12(Full 2 Port(1,2)) 
!S22(Full 2 Port(1,2)) 
!S2P File: Measurements: S11, S21, S12, S22:
# Hz S  dB   R 50
9200000000 -0.97084737 125.37927 -9.0730333 -74.032402 -9.0574112 -74.605301 -0.25567091 -92.184753
9200062500 -0.97173959 125.30094 -9.0685492 -74.001343 -9.0458841 -74.552155 -0.24333949 -92.162476
9200125000 -0.9688555 125.32211 -9.0584373 -73.993767 -9.0460711 -74.568466 -0.24647935 -92.158379
9200187500 -0.96484017 125.35399 -9.0601196 -73.953476 -9.0455589 -74.638214 -0.24782813 -92.151146
9200250000 -0.97076869 125.32811 -9.0608997 -73.996346 -9.0402079 -74.618744 -0.24187355 -92.166618
9200312500 -0.96688509 125.33241 -9.0579548 -73.992599 -9.0410156 -74.64183 -0.2464361 -92.121124
9200375000 -0.96293932 125.29204 -9.0548277 -74.001778 -9.0394449 -74.605896 -0.24545664 -92.099648
9200437500 -0.96265453 125.24471 -9.0667171 -74.020805 -9.0391054 -74.557365 -0.25356191 -92.04734
9200500000 -0.96108723 125.25632 -9.0576925 -73.974045 -9.0459757 -74.606979 -0.24803206 -92.059456
9200562500 -0.96048754 125.23526 -9.0587416 -74.00415 -9.0366411 -74.573387 -0.25209099 -92.032219
9200625000 -0.96442741 125.19733 -9.0651674 -74.034607 -9.0386429 -74.524071 -0.25556374 -91.960999
9200687500 -0.9604128 125.24844 -9.0573788 -73.939438 -9.0410538 -74.600838 -0.26230022 -91.975113
9200750000 -0.96854436 125.16536 -9.0619793 -73.985191 -9.0349817 -74.538422 -0.25849906 -91.95047
9200812500 -0.9662773 125.175 -9.0629301 -73.923386 -9.0272903 -74.546677 -0.25540134 -91.920853
9200875000 -0.96871084 125.16418 -9.0671787 -73.888474 -9.0352459 -74.551994 -0.26396745 -91.843521
9200937500 -0.96412736 125.14951 -9.0540857 -73.918976 -9.0356674 -74.530151 -0.25954133 -91.830147
9201000000 -0.96732867 125.19722 -9.0545616 -73.900528 -9.0369778 -74.556526 -0.2602087 -91.860916
9201062500 -0.96420062 125.12915 -9.0470476 -73.956573 -9.0333319 -74.525848 -0.25347108 -91.829048
9201125000 -0.96149671 125.11598 -9.0437574 -73.961838 -9.0300808 -74.551338 -0.25794351 -91.82177
9201187500 -0.95689845 125.0955 -9.049655 -73.955643 -9.0339479 -74.529694 -0.25968707 -91.783714
9201250000 -0.96016353 125.06735 -9.0420513 -73.979103 -9.0358601 -74.601479 -0.24907996 -91.792183
9201312500 -0.96284795 125.08296 -9.0501938 -73.970848 -9.036108 -74.560806 -0.25748202 -91.802292
9201375000 -0.95933253 125.0657 -9.0431738 -73.992233 -9.0328674 -74.562195 -0.25489607 -91.808578
9201437500 -0.96491128 125.01029 -9.0466948 -73.980881 -9.0366993 -74.53598 -0.2615782 -91.784607
9201500000 -0.96638793 125.07425 -9.0533257 -73.937149 -9.0326242 -74.595093 -0.25257087 -91.809998
9201562500 -0.96813202 125.02433 -9.0582066 -73.928886 -9.0212469 -74.575935 -0.24599534 -91.772278
9201625000 -0.96765608 125.03323 -9.0509081 -73.90712 -9.0400667 -74.537392 -0.26068756 -91.73645
9201687500 -0.9678486 125.00238 -9.048914 -73.964233 -9.0231524 -74.530983 -0.25495234 -91.728294
9201750000 -0.96477091 124.98864 -9.0413074 -73.945679 -9.0309429 -74.54512 -0.25643593 -91.68528
9201812500 -0.9675647 124.98062 -9.0469971 -73.932365 -9.0218115 -74.512329 -0.25772712 -91.705589
9201875000 -0.96320015 124.96129 -9.0427856 -73.939697 -9.0306454 -74.536339 -0.25991222 -91.631027
9201937500 -0.96828532 124.92693 -9.0424356 -73.959091 -9.0229883 -74.486885 -0.26109236 -91.633713
9202000000 -0.96335834 124.92434 -9.0447178 -73.972198 -9.0221081 -74.496712 -0.25665158 -91.614143
9202062500 -0.96462774 124.86828 -9.0387383 -73.928818 -9.0202007 -74.532364 -0.2570703 -91.595566
9202125000 -0.96655828 124.86726 -9.0352077 -73.991608 -9.019619 -74.539375 -0.2530587 -91.597763
9202187500 -0.96453112 124.87238 -9.0377712 -73.943611 -9.0229731 -74.500313 -0.25431654 -91.574043
9202250000 -0.96589017 124.87421 -9.034111 -73.941849 -9.0177031 -74.54718 -0.24849783 -91.571014
9202312500 -0.96362585 124.8584 -9.0317554 -73.895317 -9.0181408 -74.526596 -0.25165004 -91.540497
9202375000 -0.96828949 124.84457 -9.0380678 -73.935341 -9.0228968 -74.535141 -0.25410193 -91.525734
9202437500 -0.96615118 124.82069 -9.0274439 -73.899887 -9.0227785 -74.574104 -0.25673336 -91.5149
9202500000 -0.96432304 124.81511 -9.0287762 -73.934769 -9.0347958 -74.543243 -0.26326165 -91.477203
9202562500 -0.96810198 124.77374 -9.029726 -73.970657 -9.024931 -74.5075 -0.26252654 -91.468033
9202625000 -0.96900117 124.81346 -9.0373049 -73.910156 -9.0225401 -74.525322 -0.2660751 -91.403297
9202687500 -0.96746045 124.74925 -9.0413122 -73.94381 -9.0295238 -74.49765 -0.26863748 -91.414207
9202750000 -0.96809852 124.78395 -9.0278568 -73.88063 -9.0248489 -74.568604 -0.26220244 -91.432182
9202812500 -0.96651644 124.73669 -9.0408583 -73.932281 -9.0199738 -74.520554 -0.26629385 -91.387016
9202875000 -0.97062898 124.75841 -9.0334101 -73.982056 -9.015316 -74.4785 -0.26034909 -91.353668
9202937500 -0.96689719 124.71638 -9.0370798 -73.975571 -9.0213747 -74.501022 -0.26398888 -91.295731
9203000000 -0.96363771 124.72345 -9.0247803 -73.938683 -9.0149679 -74.531548 -0.26144981 -91.350609
9203062500 -0.96341836 124.7174 -9.0312204 -73.934372 -9.0097895 -74.559647 -0.25689077 -91.294632
9203125000 -0.96327561 124.68498 -9.0315866 -73.921204 -9.0166874 -74.574272 -0.2636297 -91.290405
9203187500 -0.96418172 124.64182 -9.0308094 -73.962524 -9.0162506 -74.541122 -0.26297277 -91.276054
9203250000 -0.97060955 124.62367 -9.0320044 -73.956894 -9.0185022 -74.49424 -0.25654235 -91.263474
9203312500 -0.9642272 124.66103 -9.0267115 -73.924583 -9.0170298 -74.525734 -0.26482046 -91.238632
9203375000 -0.96896601 124.64537 -9.0300722 -73.909706 -9.0204649 -74.51371 -0.26044115 -91.192001
9203437500 -0.96694767 124.59911 -9.0226393 -73.983559 -9.0150194 -74.573082 -0.26923865 -91.178558
9203500000 -0.95858169 124.61555 -9.0301466 -73.984749 -9.0107555 -74.521942 -0.26394108 -91.206993
9203562500 -0.96142048 124.6048 -9.0236244 -73.92495 -9.008338 -74.567734 -0.2598401 -91.202011
9203625000 -0.96865427 124.55885 -9.0290594 -73.965179 -9.0133638 -74.529785 -0.26669359 -91.150764
9203687500 -0.96397769 124.52168 -9.0168762 -73.93782 -9.0190773 -74.504753 -0.26908314 -91.097542
9203750000 -0.9674229 124.57658 -9.0257349 -73.906357 -9.0126057 -74.496422 -0.27348801 -91.062744
9203812500 -0.96237946 124.51855 -9.011281 -73.930588 -9.0121469 -74.527634 -0.27151376 -91.111397
9203875000 -0.96799797 124.52184 -9.0226402 -73.903099 -9.0038586 -74.472733 -0.26629308 -91.071426
9203937500 -0.96525788 124.48943 -9.0203495 -73.929901 -9.0122585 -74.499634 -0.27522567 -91.043098
9204000000 -0.9626357 124.4866 -9.0258684 -73.921303 -9.0069742 -74.505142 -0.27824649 -91.036499
9204062500 -0.96301335 124.47217 -9.0215816 -73.895065 -9.0060854 -74.481483 -0.27717805 -91.059151
9204125000 -0.96032822 124.46716 -9.0217018 -73.840408 -9.0069313 -74.52829 -0.27740556 -91.047729
9204187500 -0.95918477 124.44592 -9.0323658 -73.88604 -8.9913855 -74.504456 -0.27281535 -91.020264
9204250000 -0.95491475 124.46327 -9.0217724 -73.864525 -8.9948549 -74.497986 -0.27313894 -91.000755
9204312500 -0.95627743 124.45796 -9.0273113 -73.917992 -9.0013361 -74.497383 -0.27909121 -90.953682
9204375000 -0.95835274 124.40967 -9.0224991 -73.852318 -8.999383 -74.39817 -0.27578807 -90.88118
9204437500 -0.96040326 124.35665 -9.0226431 -73.936668 -8.9996004 -74.466805 -0.27206618 -90.919533
9204500000 -0.95519251 124.33093 -9.0125284 -73.899986 -9.0099831 -74.420845 -0.26778492 -90.875092
9204562500 -0.95787746 124.35551 -9.0143061 -73.857178 -9.0002842 -74.486771 -0.26915362 -90.909927
9204625000 -0.95610249 124.34837 -9.0078497 -73.871796 -8.9983873 -74.500694 -0.26731277 -90.858849
9204687500 -0.96038336 124.33691 -9.0118322 -73.875465 -9.006135 -74.456436 -0.27026382 -90.860069
9204750000 -0.9602434 124.34119 -9.0168686 -73.839043 -8.9955072 -74.463173 -0.2730929 -90.840691
9204812500 -0.96148163 124.29022 -9.0080538 -73.808784 -9.0003767 -74.465744 -0.26778331 -90.815643
9204875000 -0.95958996 124.31168 -9.009757 -73.848526 -8.9955969 -74.476761 -0.27369615 -90.768669
9204937500 -0.96093494 124.29276 -9.0121555 -73.922508 -8.9960413 -74.45752 -0.27236518 -90.801849
9205000000 -0.96206862 124.30802 -9.0126066 -73.786034 -8.9931526 -74.480537 -0.27049214 -90.787689
9205062500 -0.96563113 124.26584 -9.0144043 -73.854454 -8.9977179 -74.497673 -0.26826331 -90.77404
9205125000 -0.96504605 124.25904 -9.0076809 -73.787376 -8.9989719 -74.410347 -0.26458228 -90.698044
9205187500 -0.96811736 124.23416 -9.000926 -73.820534 -8.989255 -74.493271 -0.26675871 -90.740143
9205250000 -0.97102463 124.19799 -9.0068827 -73.836578 -8.9854727 -74.45649 -0.26046899 -90.702042
9205312500 -0.9710089 124.15624 -9.0065088 -73.876053 -8.985219 -74.468002 -0.26337066 -90.698059
9205375000 -0.96066809 124.11905 -8.9984169 -73.822273 -9.0074682 -74.437096 -0.26896647 -90.652756
9205437500 -0.96685195 124.13022 -9.0008335 -73.850098 -9.0004921 -74.459267 -0.27179325 -90.654816
9205500000 -0.96479648 124.13798 -8.9971495 -73.827667 -8.9973755 -74.446434 -0.26789004 -90.629074
9205562500 -0.96527457 124.1397 -9.0027828 -73.865112 -8.9967766 -74.497986 -0.26673031 -90.635155
9205625000 -0.96356404 124.09204 -9.0013723 -73.910126 -8.9927797 -74.435371 -0.26773864 -90.603058
9205687500 -0.95995229 124.11311 -8.9894552 -73.848473 -8.9953194 -74.437714 -0.27138871 -90.567719
9205750000 -0.96071047 124.10317 -9.0100622 -73.867119 -8.9940624 -74.430725 -0.26732394 -90.562782
9205812500 -0.95880759 124.07475 -8.9951115 -73.863487 -9.0004463 -74.498383 -0.26984581 -90.572884
9205875000 -0.95942557 124.09338 -8.99611 -73.858803 -8.9945383 -74.471542 -0.26783597 -90.553741
9205937500 -0.96431237 124.0826 -9.0081787 -73.836319 -8.9977875 -74.441109 -0.274775 -90.541115
9206000000 -0.96122742 124.04267 -9.0013742 -73.851021 -9.004077 -74.471886 -0.28110734 -90.490364
9206062500 -0.96381742 124.05435 -9.0068874 -73.853439 -8.9909678 -74.415916 -0.27412975 -90.460228
9206125000 -0.96318191 124.03975 -9.0061817 -73.798576 -8.9950294 -74.427353 -0.27453423 -90.433121
9206187500 -0.96174645 124.0118 -8.9965372 -73.855057 -8.9856539 -74.471329 -0.27255455 -90.427132
9206250000 -0.9638027 124.02857 -8.9952669 -73.809738 -8.9868517 -74.4562 -0.27778724 -90.387047
9206312500 -0.95976961 124.01677 -8.9941721 -73.793526 -8.9795027 -74.430466 -0.27516267 -90.409142
9206375000 -0.96263254 124.01389 -8.9955578 -73.772331 -8.9826365 -74.413506 -0.26743013 -90.350792
9206437500 -0.96051425 124.00403 -8.9879646 -73.782303 -8.9755278 -74.461632 -0.26929983 -90.363503
9206500000 -0.96294719 123.98893 -8.9914627 -73.778358 -8.9710741 -74.456947 -0.26791406 -90.348274
9206562500 -0.96462423 123.97248 -8.9906654 -73.771034 -8.9749565 -74.422882 -0.2652382 -90.325661
9206625000 -0.96945941 123.94177 -8.9933815 -73.789055 -8.9723349 -74.430984 -0.25814366 -90.288597
9206687500 -0.96553755 123.90366 -8.9840069 -73.783569 -8.9721279 -74.373314 -0.26173356 -90.240982
9206750000 -0.97096187 123.89974 -8.9909658 -73.791512 -8.9644928 -74.428596 -0.26505923 -90.256561
9206812500 -0.96839291 123.88728 -8.9813375 -73.768936 -8.9653864 -74.392914 -0.2657398 -90.185379
9206875000 -0.96696049 123.89745 -8.9755497 -73.737671 -8.9642258 -74.418167 -0.2597993 -90.223244
9206937500 -0.96028304 123.83897 -8.9733276 -73.808441 -8.9666166 -74.36599 -0.26697093 -90.158165
9207000000 -0.95986795 123.86002 -8.9828138 -73.787964 -8.9790201 -74.373695 -0.27286184 -90.168793
9207062500 -0.96578312 123.81297 -8.9828281 -73.781273 -8.972579 -74.41259 -0.27171731 -90.162025
9207125000 -0.95777702 123.80248 -8.9852123 -73.801544 -8.970706 -74.488991 -0.27234155 -90.201416
9207187500 -0.95841736 123.77119 -8.9896946 -73.866074 -8.9850626 -74.408379 -0.27684832 -90.150833
9207250000 -0.95638186 123.76782 -8.9841824 -73.74939 -8.9795065 -74.455299 -0.2806946 -90.173767
9207312500 -0.961869 123.74153 -8.9901972 -73.856224 -8.9758387 -74.378098 -0.27440649 -90.132568
9207375000 -0.96452469 123.69086 -8.9852114 -73.864151 -8.9725065 -74.395073 -0.28381214 -90.103622
9207437500 -0.95914072 123.66056 -8.9769888 -73.864334 -8.9667053 -74.451363 -0.27502969 -90.173203
9207500000 -0.96436352 123.68097 -8.9812441 -73.881073 -8.9698658 -74.382065 -0.28140673 -90.092094
9207562500 -0.96531653 123.66058 -8.9808416 -73.883698 -8.9627419 -74.436394 -0.27839771 -90.074463
9207625000 -0.95822453 123.58556 -8.9742393 -73.874344 -8.9652052 -74.402237 -0.28231227 -90.03331
9207687500 -0.96644968 123.60823 -8.975234 -73.859955 -8.9633579 -74.408035 -0.26966652 -90.082115
9207750000 -0.97135073 123.63006 -8.9787245 -73.811226 -8.9697456 -74.434502 -0.27597398 -90.036293
9207812500 -0.97206056 123.63042 -8.9712687 -73.799606 -8.9629822 -74.38739 -0.27202174 -90.008163
9207875000 -0.97188336 123.6424 -8.9763784 -73.847031 -8.9716749 -74.435669 -0.27158287 -90.016991
9207937500 -0.97001588 123.6213 -8.9737778 -73.780327 -8.9630003 -74.418541 -0.26496714 -89.931427
9208000000 -0.97675604 123.60552 -8.9754047 -73.816757 -8.9555368 -74.39019 -0.26044333 -89.92144
9208062500 -0.96643221 123.61697 -8.9711056 -73.796814 -8.9642191 -74.450134 -0.26943839 -89.910355
9208125000 -0.96853197 123.59396 -8.9865313 -73.773773 -8.9654503 -74.435608 -0.27476242 -89.880356
9208187500 -0.97054362 123.56541 -8.9756985 -73.811378 -8.9585333 -74.361168 -0.27255124 -89.873001
9208250000 -0.96564394 123.57467 -8.9768782 -73.752678 -8.9679518 -74.390831 -0.28385431 -89.86705
9208312500 -0.96771824 123.561 -8.9786997 -73.799599 -8.9637041 -74.364487 -0.28217965 -89.812759
9208375000 -0.96509111 123.57083 -8.973402 -73.769501 -8.9695501 -74.403221 -0.28885722 -89.818169
9208437500 -0.96409374 123.52411 -8.9728546 -73.747543 -8.9655838 -74.315468 -0.28177559 -89.748711
9208500000 -0.96574485 123.51281 -8.96665 -73.737106 -8.9520626 -74.378311 -0.27893651 -89.769119
9208562500 -0.9588868 123.49385 -8.9639244 -73.791893 -8.9653606 -74.349091 -0.28351325 -89.727737
9208625000 -0.96215612 123.42765 -8.9676867 -73.809242 -8.9473009 -74.354691 -0.27197665 -89.769531
9208687500 -0.96754795 123.41111 -8.9697847 -73.875336 -8.9529171 -74.42067 -0.27332872 -89.761665
9208750000 -0.96568757 123.37717 -8.9655161 -73.881798 -8.9503822 -74.445961 -0.27024797 -89.802147
9208812500 -0.96383357 123.41373 -8.9572706 -73.798569 -8.946228 -74.372879 -0.26794729 -89.740921
9208875000 -0.96964371 123.40879 -8.9634352 -73.77623 -8.9572105 -74.363602 -0.27779433 -89.742226
9208937500 -0.96477371 123.41382 -8.9565325 -73.805222 -8.959157 -74.365776 -0.2749458 -89.669006
9209000000 -0.9638986 123.45099 -8.9656916 -73.805367 -8.958849 -74.378876 -0.27844369 -89.706131
9209062500 -0.97031939 123.41102 -8.96982 -73.786865 -8.9491291 -74.353142 -0.27859232 -89.686188
9209125000 -0.97103482 123.42612 -8.9704304 -73.74707 -8.9606285 -74.336868 -0.28118998 -89.626389
9209187500 -0.96801406 123.42426 -8.9597311 -73.749054 -8.9530945 -74.371559 -0.28019243 -89.652451
9209250000 -0.96589255 123.36808 -8.9568424 -73.780495 -8.9556112 -74.386688 -0.28096372 -89.645775
9209312500 -0.96499795 123.36642 -8.9597273 -73.764717 -8.9539633 -74.371475 -0.27913707 -89.604156
9209375000 -0.96292925 123.33388 -8.9532337 -73.810936 -8.9668474 -74.297325 -0.29036155 -89.550499
9209437500 -0.963763 123.3218 -8.9516659 -73.782669 -8.9570599 -74.291512 -0.27833176 -89.532379
9209500000 -0.96462649 123.25586 -8.9524689 -73.837791 -8.9568882 -74.275414 -0.28087959 -89.498283
9209562500 -0.9655987 123.29885 -8.9557247 -73.748085 -8.9525566 -74.361526 -0.2802684 -89.482826
9209625000 -0.96497118 123.26402 -8.9512796 -73.828949 -8.9526854 -74.359016 -0.26627046 -89.519524
9209687500 -0.96684837 123.24252 -8.9545183 -73.802521 -8.9459581 -74.348854 -0.2810345 -89.459007
9209750000 -0.97137523 123.22264 -8.9550524 -73.817223 -8.9487095 -74.318146 -0.27642873 -89.459023
9209812500 -0.96706271 123.24149 -8.9572725 -73.77668 -8.9541216 -74.365807 -0.27702937 -89.423149
9209875000 -0.96877372 123.21577 -8.9530172 -73.784866 -8.9444351 -74.363609 -0.27167276 -89.397362
9209937500 -0.97117627 123.19488 -8.9566507 -73.851227 -8.9467745 -74.34568 -0.27145553 -89.41967
9210000000 -0.96395791 123.21593 -8.9457922 -73.798996 -8.9359589 -74.307831 -0.26934317 -89.37291
9210062500 -0.97051334 123.19116 -8.951066 -73.781853 -8.9438152 -74.310661 -0.27423242 -89.357735
9210125000 -0.96184993 123.16501 -8.9460316 -73.780273 -8.9456406 -74.328629 -0.27738819 -89.333244
9210187500 -0.96012688 123.16149 -8.9482317 -73.73745 -8.9339266 -74.338577 -0.26607746 -89.28933
9210250000 -0.96006441 123.12941 -8.9532366 -73.73082 -8.9363222 -74.24073 -0.27294621 -89.27861
9210312500 -0.96724337 123.14166 -8.9493036 -73.759819 -8.9508171 -74.266434 -0.27838913 -89.246841
9210375000 -0.95871061 123.10736 -8.9503994 -73.723442 -8.93468 -74.257393 -0.27773353 -89.213165
9210437500 -0.96632218 123.09471 -8.9494305 -73.744705 -8.9337225 -74.23645 -0.28168947 -89.176819
9210500000 -0.96157455 123.08613 -8.9441557 -73.742119 -8.9452362 -74.307022 -0.29032382 -89.263145
9210562500 -0.96438384 123.09164 -8.9499464 -73.760155 -8.9460344 -74.281853 -0.29417711 -89.180664
9210625000 -0.95992827 123.04318 -8.9577723 -73.713013 -8.9451618 -74.305565 -0.29448706 -89.191269
9210687500 -0.96144825 123.04343 -8.9560347 -73.770897 -8.9369583 -74.257881 -0.28771502 -89.164658
9210750000 -0.96196276 123.01825 -8.9520826 -73.720062 -8.9293432 -74.321228 -0.2899394 -89.221466
9210812500 -0.96202469 122.96865 -8.9481039 -73.734612 -8.9399796 -74.383537 -0.2935141 -89.16964
9210875000 -0.96118867 122.96207 -8.9455013 -73.711662 -8.9360609 -74.33474 -0.29021212 -89.135612
9210937500 -0.96485019 122.95114 -8.9450684 -73.731644 -8.9393549 -74.32827 -0.28924337 -89.140167
9211000000 -0.96833134 122.9629 -8.9466372 -73.72065 -8.9325113 -74.323654 -0.28679571 -89.082565
9211062500 -0.96458805 122.95301 -8.9457741 -73.702354 -8.9387197 -74.338158 -0.28478503 -89.116127
9211125000 -0.96934873 122.91554 -8.9417887 -73.762543 -8.9296398 -74.336426 -0.28628457 -89.10894
9211187500 -0.97254628 122.91465 -8.9501925 -73.764999 -8.9349508 -74.349419 -0.2844997 -89.062546
9211250000 -0.97131902 122.93492 -8.9434767 -73.731628 -8.9343491 -74.305618 -0.28106722 -89.11084
9211312500 -0.97222996 122.90591 -8.945219 -73.780052 -8.9394541 -74.326744 -0.28813049 -89.062279
9211375000 -0.97264785 122.92358 -8.9410458 -73.732124 -8.9212217 -74.380524 -0.28024012 -89.017624
9211437500 -0.96769899 122.9062 -8.9393911 -73.733994 -8.9263096 -74.310822 -0.28277877 -88.97937
9211500000 -0.97126245 122.89597 -8.9391994 -73.739868 -8.9284668 -74.295731 -0.28591993 -89.006271
9211562500 -0.96535754 122.84613 -8.9369335 -73.751137 -8.9312973 -74.300491 -0.28503069 -88.944916
9211625000 -0.96786988 122.83274 -8.9388094 -73.72802 -8.9291162 -74.292465 -0.2846058 -88.932899
9211687500 -0.97369885 122.82871 -8.9433832 -73.715988 -8.9291983 -74.289001 -0.29048184 -88.953835
9211750000 -0.97106874 122.80727 -8.9418221 -73.685013 -8.9231453 -74.235855 -0.28826681 -88.921547
9211812500 -0.96777618 122.79422 -8.9328842 -73.7351 -8.9187374 -74.308998 -0.28529307 -88.908249
9211875000 -0.97095746 122.73933 -8.9388142 -73.753281 -8.9271612 -74.197563 -0.29056582 -88.858009
9211937500 -0.96644706 122.74702 -8.9293413 -73.756454 -8.9255524 -74.307381 -0.29134932 -88.836632
9212000000 -0.96920818 122.73878 -8.9360609 -73.723358 -8.9275723 -74.262451 -0.28917235 -88.798325
9212062500 -0.97006941 122.68402 -8.9261599 -73.740181 -8.9285746 -74.236336 -0.28627226 -88.740646
9212125000 -0.97741592 122.6907 -8.9346828 -73.753265 -8.9232044 -74.245178 -0.29236096 -88.77034
9212187500 -0.97398853 122.68447 -8.9285765 -73.726883 -8.9262638 -74.258148 -0.29528612 -88.698181
