!Agilent Technologies,N5242A,MY51221714,A.09.90.19
!Agilent N5242A: A.09.90.19
!Date: Saturday, March 16, 2024 09:26:46
!Correction: S11(Full 2 Port(1,2)) 
!S21(Full 2 Port(1,2)) 
!S12(Full 2 Port(1,2)) 
!S22(Full 2 Port(1,2)) 
!S2P File: Measurements: S11, S21, S12, S22:
# Hz S  dB   R 50
9200000000 -0.89464843 126.12762 -9.1386471 -72.85807 -9.1208286 -73.44902 -0.17795429 -91.813286
9200062500 -0.89954561 126.14526 -9.1354914 -72.882172 -9.1068544 -73.512398 -0.17094207 -91.842171
9200125000 -0.89322329 126.1355 -9.1232376 -72.817787 -9.1196012 -73.501266 -0.18141736 -91.838158
9200187500 -0.89400488 126.16302 -9.1346436 -72.896027 -9.1130581 -73.488571 -0.18000662 -91.819412
9200250000 -0.89503121 126.11053 -9.1305246 -72.846382 -9.1135836 -73.465744 -0.17603771 -91.783806
9200312500 -0.88983887 126.07682 -9.1299791 -72.862389 -9.1018677 -73.436241 -0.17875673 -91.762711
9200375000 -0.88810211 126.05614 -9.1261454 -72.890388 -9.1089363 -73.48452 -0.180553 -91.739899
9200437500 -0.88557547 126.07692 -9.1139297 -72.841286 -9.1122532 -73.474579 -0.17486978 -91.717392
9200500000 -0.88979465 126.06945 -9.1168547 -72.77491 -9.1047087 -73.458794 -0.17798625 -91.710876
9200562500 -0.8861407 126.02856 -9.1211224 -72.825256 -9.1072817 -73.458054 -0.18078181 -91.677376
9200625000 -0.89202344 126.01146 -9.1285124 -72.839165 -9.104208 -73.449593 -0.18723382 -91.671654
9200687500 -0.89435238 126.01784 -9.1340609 -72.825768 -9.1026678 -73.449745 -0.18909162 -91.65554
9200750000 -0.89214009 126.00247 -9.1313992 -72.798882 -9.1016693 -73.379387 -0.19320177 -91.560226
9200812500 -0.8886258 126.0102 -9.1234999 -72.770821 -9.1020212 -73.460533 -0.19283921 -91.582207
9200875000 -0.89130437 125.96705 -9.1159573 -72.809837 -9.0950451 -73.369553 -0.18559162 -91.542564
9200937500 -0.89261699 125.97829 -9.1246357 -72.731377 -9.0995865 -73.419067 -0.19114943 -91.536583
9201000000 -0.88567591 125.9409 -9.1237545 -72.825859 -9.1013355 -73.403023 -0.19107851 -91.47818
9201062500 -0.88765776 125.92201 -9.1219645 -72.780769 -9.1040583 -73.451286 -0.19709609 -91.50148
9201125000 -0.88940561 125.90813 -9.116024 -72.832336 -9.0969734 -73.432007 -0.18573859 -91.475151
9201187500 -0.88208932 125.89222 -9.1049366 -72.777626 -9.1089697 -73.383453 -0.19194487 -91.47718
9201250000 -0.89010406 125.8688 -9.111618 -72.848473 -9.1069174 -73.458626 -0.1878842 -91.49015
9201312500 -0.89046508 125.83972 -9.1144114 -72.819412 -9.1021013 -73.418488 -0.18893504 -91.451736
9201375000 -0.88547075 125.8625 -9.1010313 -72.818314 -9.0992861 -73.436775 -0.18836427 -91.486908
9201437500 -0.89515471 125.83114 -9.1201143 -72.845245 -9.1033773 -73.419586 -0.19321927 -91.456886
9201500000 -0.89294034 125.838 -9.1200686 -72.792992 -9.1075087 -73.409088 -0.18447232 -91.43692
9201562500 -0.89564967 125.8405 -9.1225786 -72.771317 -9.1015282 -73.417755 -0.18609546 -91.397987
9201625000 -0.89153004 125.84177 -9.1241589 -72.791306 -9.10746 -73.389153 -0.18876319 -91.380951
9201687500 -0.8948161 125.7883 -9.1191225 -72.786263 -9.0967264 -73.440842 -0.18779661 -91.390106
9201750000 -0.89267999 125.81216 -9.1215744 -72.778854 -9.0939884 -73.349144 -0.18380365 -91.325806
9201812500 -0.89082819 125.759 -9.1118975 -72.810829 -9.0964661 -73.440338 -0.19495426 -91.36335
9201875000 -0.88767898 125.74269 -9.111661 -72.805771 -9.1021671 -73.358971 -0.19449477 -91.295082
9201937500 -0.8930251 125.70752 -9.1065054 -72.793747 -9.0849018 -73.393311 -0.18506379 -91.241844
9202000000 -0.88224632 125.71893 -9.1087141 -72.830673 -9.0932903 -73.383514 -0.19644594 -91.254105
9202062500 -0.89118195 125.69617 -9.1078644 -72.818817 -9.0936909 -73.399765 -0.18927526 -91.249802
9202125000 -0.89119047 125.68313 -9.1087828 -72.791992 -9.0901251 -73.423241 -0.1859217 -91.262489
9202187500 -0.88736552 125.68587 -9.1016722 -72.846779 -9.0909901 -73.425087 -0.18863036 -91.223869
9202250000 -0.8917864 125.6554 -9.1065493 -72.853325 -9.098093 -73.435822 -0.18808267 -91.243629
9202312500 -0.89240915 125.62868 -9.0951538 -72.802956 -9.0853291 -73.374336 -0.18825401 -91.202965
9202375000 -0.89364767 125.65544 -9.0999479 -72.765541 -9.0913582 -73.458992 -0.1909654 -91.226028
9202437500 -0.89308727 125.65639 -9.0989571 -72.7677 -9.0955057 -73.459465 -0.19382447 -91.16507
9202500000 -0.89096308 125.60991 -9.1000948 -72.837433 -9.0930328 -73.416801 -0.19273278 -91.12751
9202562500 -0.89912134 125.58504 -9.1004133 -72.801018 -9.0821104 -73.353889 -0.18510965 -91.109802
9202625000 -0.89670265 125.62356 -9.1073675 -72.809692 -9.0916481 -73.395317 -0.1979606 -91.096672
9202687500 -0.88804138 125.57581 -9.1015234 -72.83802 -9.0953465 -73.461426 -0.2016204 -91.121223
9202750000 -0.89278859 125.5788 -9.1125536 -72.744995 -9.084631 -73.335541 -0.20199887 -91.024895
9202812500 -0.89380515 125.57393 -9.1012878 -72.78463 -9.0862103 -73.38871 -0.19282369 -91.040062
9202875000 -0.89060456 125.56454 -9.1101036 -72.728004 -9.0844889 -73.375 -0.19005419 -90.964218
9202937500 -0.89070809 125.49442 -9.0946951 -72.802284 -9.0856113 -73.360512 -0.19697712 -91.006767
9203000000 -0.89170593 125.48325 -9.1007023 -72.835388 -9.0906734 -73.402061 -0.19906254 -90.978592
9203062500 -0.89151162 125.48827 -9.1006193 -72.79129 -9.0816889 -73.377922 -0.19348432 -90.964867
9203125000 -0.88977867 125.457 -9.0971832 -72.769485 -9.0884066 -73.367081 -0.1926731 -90.94902
9203187500 -0.89112049 125.47299 -9.0969038 -72.750313 -9.0819683 -73.414467 -0.19115335 -90.923798
9203250000 -0.89351952 125.46091 -9.1046305 -72.808662 -9.0843697 -73.417404 -0.18752027 -90.920395
9203312500 -0.89008206 125.44833 -9.0997982 -72.784378 -9.088254 -73.432915 -0.1973922 -90.926712
9203375000 -0.89152431 125.4381 -9.0996008 -72.826035 -9.076972 -73.385628 -0.19284043 -90.8498
9203437500 -0.89539403 125.41906 -9.0978479 -72.738419 -9.0787067 -73.358139 -0.19368902 -90.868698
9203500000 -0.88683027 125.43439 -9.0878391 -72.758331 -9.0868883 -73.421814 -0.19012398 -90.832443
9203562500 -0.89129531 125.4129 -9.0996008 -72.715416 -9.0842495 -73.406403 -0.19651829 -90.821602
9203625000 -0.88562554 125.34338 -9.0945396 -72.785477 -9.0799322 -73.399544 -0.19921839 -90.827324
9203687500 -0.8954832 125.32214 -9.0864649 -72.846527 -9.0812731 -73.373352 -0.19579622 -90.794456
9203750000 -0.89185971 125.35669 -9.0936756 -72.809731 -9.0829868 -73.322327 -0.19858535 -90.730141
9203812500 -0.8901599 125.29505 -9.0861521 -72.79657 -9.0782671 -73.399368 -0.19883658 -90.775803
9203875000 -0.89392042 125.3 -9.0941372 -72.780128 -9.0815001 -73.326309 -0.20570843 -90.754433
9203937500 -0.89543778 125.29498 -9.0966225 -72.837257 -9.0724192 -73.319016 -0.20596907 -90.729424
9204000000 -0.89453799 125.25706 -9.0968828 -72.794945 -9.0721569 -73.353058 -0.21246675 -90.673424
9204062500 -0.88330144 125.29243 -9.0902853 -72.7342 -9.0722094 -73.345284 -0.20813476 -90.67453
9204125000 -0.87977499 125.25381 -9.0851145 -72.757416 -9.0758524 -73.310379 -0.20548736 -90.65155
9204187500 -0.88460451 125.27225 -9.0939398 -72.736786 -9.0698767 -73.302704 -0.20745109 -90.626549
9204250000 -0.88282478 125.25301 -9.0857267 -72.760651 -9.0684423 -73.32473 -0.21122432 -90.616486
9204312500 -0.88537621 125.18234 -9.0863237 -72.771584 -9.0687914 -73.338036 -0.20032735 -90.570969
9204375000 -0.88382542 125.18106 -9.0878496 -72.80172 -9.0721807 -73.334717 -0.20336312 -90.629456
9204437500 -0.88055694 125.14403 -9.0812435 -72.747192 -9.0628643 -73.347672 -0.19397126 -90.568504
9204500000 -0.88227534 125.14983 -9.0830746 -72.680214 -9.0673389 -73.300323 -0.1991871 -90.489098
9204562500 -0.88200098 125.13783 -9.0783796 -72.67971 -9.0636063 -73.33963 -0.1987507 -90.5261
9204625000 -0.88259506 125.12061 -9.0826273 -72.727127 -9.0582771 -73.375946 -0.19229475 -90.565994
9204687500 -0.88623369 125.13248 -9.0834303 -72.688629 -9.0705566 -73.30677 -0.19612128 -90.491692
9204750000 -0.88392258 125.122 -9.0835571 -72.749336 -9.067606 -73.325035 -0.20039585 -90.452705
9204812500 -0.88542449 125.11751 -9.0852757 -72.685692 -9.0648537 -73.327827 -0.19593675 -90.486961
9204875000 -0.89155287 125.14043 -9.081356 -72.685883 -9.0577278 -73.284859 -0.19595629 -90.411255
9204937500 -0.88631469 125.10079 -9.0821838 -72.717819 -9.0708208 -73.364006 -0.20219436 -90.485077
9205000000 -0.89079034 125.10831 -9.0860262 -72.679176 -9.0603676 -73.308777 -0.20439245 -90.440323
9205062500 -0.88531047 125.0729 -9.0731039 -72.691589 -9.0646772 -73.271194 -0.19733629 -90.381569
9205125000 -0.89169157 125.0357 -9.0842276 -72.666634 -9.0646982 -73.311981 -0.19561288 -90.40712
9205187500 -0.89411998 124.99756 -9.0748444 -72.672791 -9.0578136 -73.305481 -0.19600025 -90.37883
9205250000 -0.88992614 124.98161 -9.0748482 -72.778862 -9.0643921 -73.339058 -0.19909982 -90.373932
9205312500 -0.89295465 124.94207 -9.0696945 -72.70752 -9.0625477 -73.353722 -0.1988079 -90.358673
9205375000 -0.88661635 124.92229 -9.0603743 -72.694046 -9.0581198 -73.346718 -0.19287319 -90.295265
9205437500 -0.89150894 124.90459 -9.0728178 -72.649216 -9.0650625 -73.326637 -0.20240499 -90.30809
9205500000 -0.88875645 124.91646 -9.0672922 -72.645378 -9.0676384 -73.344933 -0.19460027 -90.288887
9205562500 -0.89217287 124.9354 -9.0707483 -72.700447 -9.0698185 -73.402344 -0.20121983 -90.321198
9205625000 -0.88966495 124.94791 -9.0750456 -72.65226 -9.0623713 -73.255669 -0.19599004 -90.269028
9205687500 -0.88398892 124.90359 -9.0663767 -72.64296 -9.062727 -73.29467 -0.20078346 -90.270103
9205750000 -0.88395703 124.87303 -9.0648222 -72.745583 -9.0692368 -73.303848 -0.20308669 -90.269714
9205812500 -0.89136118 124.88449 -9.0707922 -72.675804 -9.0596027 -73.333946 -0.20128487 -90.23494
9205875000 -0.89137447 124.87364 -9.0750895 -72.723022 -9.0608978 -73.239777 -0.2019729 -90.193382
9205937500 -0.89165974 124.87061 -9.0702248 -72.726265 -9.0578566 -73.328331 -0.19687556 -90.193604
9206000000 -0.88163221 124.84455 -9.0665836 -72.658707 -9.0647211 -73.314339 -0.20748423 -90.134216
9206062500 -0.88350695 124.81084 -9.0583076 -72.738083 -9.0694351 -73.265709 -0.2059326 -90.092796
9206125000 -0.88556558 124.8327 -9.0667086 -72.693352 -9.0536823 -73.250175 -0.19844092 -90.102196
9206187500 -0.88660318 124.79944 -9.0733356 -72.701622 -9.0648441 -73.286819 -0.20842351 -90.051407
9206250000 -0.88568246 124.87624 -9.0630617 -72.632072 -9.0652847 -73.251862 -0.20398596 -90.044014
9206312500 -0.88561392 124.78746 -9.0670958 -72.691406 -9.0631723 -73.277916 -0.20960231 -90.048332
9206375000 -0.88251096 124.78281 -9.063488 -72.648178 -9.06388 -73.287346 -0.20086089 -90.003311
9206437500 -0.89542586 124.80204 -9.0674582 -72.616356 -9.0548382 -73.304764 -0.19449145 -90.005524
9206500000 -0.88209581 124.77339 -9.0664263 -72.638329 -9.0493126 -73.310303 -0.20527123 -90.005875
9206562500 -0.88819635 124.75103 -9.054348 -72.659012 -9.0366678 -73.291611 -0.19338074 -89.994217
9206625000 -0.89301634 124.74963 -9.057086 -72.63224 -9.0379086 -73.222099 -0.19001713 -89.94619
9206687500 -0.89069188 124.72449 -9.050025 -72.572762 -9.0438719 -73.237373 -0.19745679 -89.890137
9206750000 -0.89158767 124.68191 -9.0523891 -72.671188 -9.0393772 -73.264259 -0.19059469 -89.940559
9206812500 -0.89602637 124.70052 -9.0558786 -72.61792 -9.0391378 -73.295166 -0.19002074 -89.891518
9206875000 -0.89339519 124.6546 -9.046648 -72.626808 -9.0374022 -73.250092 -0.19225483 -89.839859
9206937500 -0.88922131 124.65501 -9.0432043 -72.544685 -9.0299015 -73.301155 -0.19170235 -89.835159
9207000000 -0.88782519 124.63183 -9.0474224 -72.596275 -9.0426302 -73.258667 -0.19905959 -89.824257
9207062500 -0.88637656 124.6419 -9.0468998 -72.641716 -9.0400505 -73.226395 -0.19927551 -89.839256
9207125000 -0.88956094 124.5966 -9.0528612 -72.632469 -9.0488348 -73.252693 -0.20729774 -89.830551
9207187500 -0.88433599 124.5912 -9.0555992 -72.685829 -9.0444908 -73.236374 -0.20620964 -89.794945
9207250000 -0.88776952 124.52417 -9.0562105 -72.732666 -9.0420446 -73.234291 -0.20837548 -89.775131
9207312500 -0.88809144 124.53419 -9.0502377 -72.645164 -9.0441284 -73.229645 -0.21425757 -89.793114
9207375000 -0.87856001 124.49462 -9.0446262 -72.701241 -9.0401182 -73.231888 -0.21120417 -89.749252
9207437500 -0.88798666 124.48588 -9.0431166 -72.732544 -9.0423241 -73.242393 -0.20398705 -89.725708
9207500000 -0.8839063 124.45113 -9.0416584 -72.674026 -9.0394468 -73.25782 -0.21189934 -89.7425
9207562500 -0.8866989 124.45834 -9.0541039 -72.660912 -9.0359135 -73.25544 -0.21348929 -89.744659
9207625000 -0.88972926 124.41117 -9.0600586 -72.737259 -9.0344715 -73.292091 -0.20595168 -89.729561
9207687500 -0.89217556 124.40434 -9.0543661 -72.698593 -9.0377092 -73.254715 -0.20705345 -89.678207
9207750000 -0.89676213 124.44215 -9.0501623 -72.662781 -9.0344858 -73.278694 -0.2053315 -89.707596
9207812500 -0.88663661 124.45707 -9.0408278 -72.619156 -9.0390987 -73.238503 -0.19459018 -89.652588
9207875000 -0.89167249 124.43552 -9.0442839 -72.633049 -9.038188 -73.250832 -0.19991662 -89.640732
9207937500 -0.89565092 124.38721 -9.0506878 -72.681061 -9.0378942 -73.31617 -0.19805059 -89.633224
9208000000 -0.89599895 124.38071 -9.0442057 -72.66848 -9.0359612 -73.308174 -0.19629014 -89.581711
9208062500 -0.89518541 124.39512 -9.0420485 -72.702423 -9.0342846 -73.304192 -0.20062904 -89.582314
9208125000 -0.8910296 124.36828 -9.0436239 -72.602661 -9.0322428 -73.268486 -0.20387793 -89.543709
9208187500 -0.89054143 124.36776 -9.050458 -72.564156 -9.0416288 -73.205116 -0.21103221 -89.527008
9208250000 -0.89253086 124.35743 -9.0517788 -72.642036 -9.0388689 -73.250854 -0.20970595 -89.506126
9208312500 -0.89381778 124.34962 -9.0491514 -72.690346 -9.0297489 -73.228584 -0.21351291 -89.491753
9208375000 -0.88967508 124.35165 -9.0436039 -72.571564 -9.0350132 -73.213165 -0.21483076 -89.464981
9208437500 -0.89134985 124.35162 -9.0504189 -72.586159 -9.0312805 -73.23101 -0.21172994 -89.446983
9208500000 -0.88785422 124.29288 -9.0407295 -72.589996 -9.0294218 -73.246048 -0.20585541 -89.4366
9208562500 -0.89200127 124.28461 -9.0427208 -72.571304 -9.0365849 -73.230515 -0.21449824 -89.414658
9208625000 -0.88726848 124.23048 -9.0313845 -72.662277 -9.0281038 -73.214966 -0.20839153 -89.397736
9208687500 -0.8900997 124.21653 -9.0350208 -72.661743 -9.0242758 -73.20816 -0.20917885 -89.400589
9208750000 -0.88822967 124.22383 -9.0330038 -72.646896 -9.0293417 -73.192513 -0.20425792 -89.363007
9208812500 -0.88890398 124.21793 -9.0382404 -72.661423 -9.0227423 -73.224197 -0.20121063 -89.356186
9208875000 -0.89193714 124.21888 -9.0416975 -72.620743 -9.0376015 -73.237984 -0.21343774 -89.396614
9208937500 -0.89216614 124.20976 -9.0290098 -72.57267 -9.0203733 -73.225502 -0.20121886 -89.356339
9209000000 -0.89112544 124.24498 -9.0354052 -72.597504 -9.0321703 -73.203278 -0.20916624 -89.32724
9209062500 -0.89315087 124.2099 -9.0429611 -72.599251 -9.0345173 -73.191345 -0.21291541 -89.323479
9209125000 -0.88806671 124.25091 -9.0314646 -72.574394 -9.0256567 -73.224564 -0.20940492 -89.286743
9209187500 -0.88564867 124.2259 -9.0312948 -72.588005 -9.0150423 -73.230949 -0.20559202 -89.32621
9209250000 -0.89216077 124.18363 -9.0319548 -72.622223 -9.0289307 -73.173683 -0.20703706 -89.265442
9209312500 -0.88565582 124.17183 -9.0218039 -72.570999 -9.0292673 -73.150932 -0.20895252 -89.229988
9209375000 -0.88907963 124.13996 -9.0252028 -72.577454 -9.021121 -73.15477 -0.2119334 -89.217697
9209437500 -0.88904142 124.10204 -9.0314522 -72.585091 -9.0209503 -73.157806 -0.2071531 -89.155495
9209500000 -0.88106668 124.09465 -9.0126801 -72.642242 -9.0224543 -73.219414 -0.20618504 -89.186752
9209562500 -0.88973427 124.10049 -9.0178366 -72.542274 -9.0241823 -73.157341 -0.2104356 -89.139977
9209625000 -0.89197433 124.10217 -9.0288382 -72.632042 -9.022934 -73.198555 -0.20140295 -89.14669
9209687500 -0.89268273 124.05222 -9.0300817 -72.665283 -9.0190516 -73.22773 -0.20858665 -89.122711
9209750000 -0.89277411 124.04174 -9.0252619 -72.644722 -9.0151052 -73.131828 -0.20020607 -89.062439
9209812500 -0.89493865 124.01889 -9.0289259 -72.628113 -9.0160017 -73.174103 -0.20187296 -89.092522
9209875000 -0.89658475 124.04234 -9.0294304 -72.616508 -9.0252018 -73.193474 -0.20692068 -89.020103
9209937500 -0.89098018 124.0036 -9.0285463 -72.615883 -9.0192976 -73.152122 -0.20267944 -89.007889
9210000000 -0.89007944 123.99969 -9.0233555 -72.637688 -9.01194 -73.20504 -0.20589858 -88.984245
9210062500 -0.89146745 123.98013 -9.0286751 -72.606705 -9.0125933 -73.121216 -0.2048433 -88.995674
9210125000 -0.89055192 123.9651 -9.0187874 -72.625023 -9.0079546 -73.197777 -0.20096031 -88.981438
9210187500 -0.89018178 123.98855 -9.0266047 -72.551483 -9.0075169 -73.115578 -0.20930608 -88.948799
9210250000 -0.88507718 123.96719 -9.022068 -72.564377 -9.0136347 -73.180466 -0.20496978 -88.960297
9210312500 -0.88283414 123.92618 -9.018013 -72.569984 -9.0136032 -73.126793 -0.20919634 -88.936127
9210375000 -0.8894912 123.90007 -9.0236864 -72.619301 -9.0090609 -73.171394 -0.212198 -88.941025
9210437500 -0.88804132 123.91293 -9.0246277 -72.540939 -9.0102873 -73.087357 -0.20997441 -88.862862
9210500000 -0.88875508 123.86495 -9.0259209 -72.592247 -9.0174742 -73.098358 -0.2171607 -88.88871
9210562500 -0.88937068 123.8604 -9.0257158 -72.62484 -9.0119963 -73.121284 -0.21986248 -88.849663
9210625000 -0.87768346 123.81137 -9.0222864 -72.590614 -9.0117617 -73.121422 -0.21878555 -88.824837
9210687500 -0.88209742 123.78505 -9.0194321 -72.56366 -9.0095501 -73.127083 -0.21774767 -88.788422
9210750000 -0.88107282 123.82104 -9.0200949 -72.539665 -9.0060873 -73.147484 -0.21535638 -88.850945
9210812500 -0.88139898 123.76807 -9.0187454 -72.580063 -9.0099573 -73.116966 -0.21974665 -88.760468
9210875000 -0.88673645 123.74829 -9.0176945 -72.50808 -9.0065222 -73.15284 -0.21979454 -88.773026
9210937500 -0.8872745 123.72012 -9.0208035 -72.561928 -8.9954815 -73.123146 -0.21225366 -88.740677
9211000000 -0.88973469 123.74628 -9.0147896 -72.530472 -9.0017586 -73.167183 -0.21880481 -88.727638
9211062500 -0.89336723 123.73904 -9.0154333 -72.509293 -9.0052748 -73.163246 -0.21688963 -88.755417
9211125000 -0.89059216 123.71963 -9.0071526 -72.543068 -8.996747 -73.202873 -0.21103317 -88.721535
9211187500 -0.89471453 123.72208 -9.0202227 -72.615753 -9.0021534 -73.191963 -0.21699698 -88.734985
9211250000 -0.89553225 123.68282 -9.0156555 -72.653954 -9.0048084 -73.161766 -0.21051456 -88.741859
9211312500 -0.89633751 123.70217 -9.0130892 -72.642509 -9.003293 -73.160606 -0.21540128 -88.77124
9211375000 -0.89451414 123.7224 -9.0044451 -72.577454 -8.9998655 -73.126907 -0.20272665 -88.636192
9211437500 -0.89431298 123.6815 -9.0036306 -72.62838 -9.0031986 -73.191681 -0.21045044 -88.629173
9211500000 -0.89496928 123.68646 -9.0091448 -72.578789 -9.0075617 -73.130272 -0.2191776 -88.619461
9211562500 -0.8984834 123.65984 -9.0111551 -72.547623 -9.0035639 -73.120491 -0.22220941 -88.58918
9211625000 -0.89301252 123.63447 -9.0115252 -72.470428 -9.0047626 -73.095558 -0.21604131 -88.579308
9211687500 -0.89142883 123.60332 -9.0113859 -72.522186 -9.0042763 -73.118874 -0.22334903 -88.537994
9211750000 -0.89279538 123.58305 -9.008378 -72.564331 -8.9991665 -73.120903 -0.22143766 -88.590225
9211812500 -0.89165443 123.5737 -9.0092278 -72.574821 -8.9999561 -73.101463 -0.22092326 -88.54892
9211875000 -0.89054126 123.56165 -9.0101891 -72.497063 -8.9917145 -73.080971 -0.21151532 -88.483192
9211937500 -0.89969504 123.54453 -9.0119972 -72.513084 -9.0047598 -73.10524 -0.22611529 -88.523232
9212000000 -0.89410776 123.53973 -8.9992924 -72.522987 -8.990469 -73.052696 -0.21807054 -88.444672
9212062500 -0.89315712 123.486 -9.0000381 -72.577263 -8.9925528 -73.060532 -0.21334644 -88.366959
9212125000 -0.89490861 123.45776 -9.0013447 -72.603546 -9.0063696 -73.066154 -0.21955709 -88.343307
9212187500 -0.89393073 123.47198 -8.9908209 -72.590591 -8.9945297 -73.076286 -0.22366382 -88.327057
