!Agilent Technologies,N5242A,MY51221714,A.09.90.19
!Agilent N5242A: A.09.90.19
!Date: Saturday, March 16, 2024 09:30:16
!Correction: S11(Full 2 Port(1,2)) 
!S21(Full 2 Port(1,2)) 
!S12(Full 2 Port(1,2)) 
!S22(Full 2 Port(1,2)) 
!S2P File: Measurements: S11, S21, S12, S22:
# Hz S  dB   R 50
9200000000 -0.93810761 125.54888 -9.0540361 -73.637741 -9.0461512 -74.14386 -0.2211203 -92.010986
9200062500 -0.93599486 125.52794 -9.0515909 -73.549576 -9.0372944 -74.167458 -0.20835292 -92.053383
9200125000 -0.93476164 125.53646 -9.0420761 -73.513535 -9.0322199 -74.206268 -0.21544808 -92.039978
9200187500 -0.93816876 125.50145 -9.0468397 -73.562851 -9.0304651 -74.203575 -0.21244316 -92.040703
9200250000 -0.93369192 125.48348 -9.0528917 -73.596901 -9.0292253 -74.165756 -0.21096084 -92.010651
9200312500 -0.93387091 125.4842 -9.0416422 -73.532555 -9.0392332 -74.187592 -0.21313038 -91.998947
9200375000 -0.93013865 125.47517 -9.0421286 -73.529144 -9.0318747 -74.135803 -0.21287222 -91.962318
9200437500 -0.93220675 125.46051 -9.0457287 -73.542862 -9.0256052 -74.191429 -0.21818283 -91.975014
9200500000 -0.92765152 125.45744 -9.0423851 -73.501221 -9.0326653 -74.195831 -0.21771049 -91.928978
9200562500 -0.93522877 125.40514 -9.0498266 -73.482994 -9.0261354 -74.137337 -0.22312383 -91.85421
9200625000 -0.93408942 125.38561 -9.0411396 -73.53875 -9.0248613 -74.142448 -0.22555427 -91.903244
9200687500 -0.93221974 125.37091 -9.0415468 -73.533432 -9.0167618 -74.134689 -0.21934755 -91.872414
9200750000 -0.93123174 125.38634 -9.0461082 -73.439079 -9.0247192 -74.100143 -0.22985815 -91.787865
9200812500 -0.93334848 125.35823 -9.0429745 -73.500755 -9.0233774 -74.151688 -0.23206922 -91.80201
9200875000 -0.93178248 125.35329 -9.0431786 -73.396217 -9.0229025 -74.126625 -0.23048127 -91.740875
9200937500 -0.93384415 125.36049 -9.0408926 -73.502739 -9.0178528 -74.141434 -0.22437894 -91.762207
9201000000 -0.92981619 125.29966 -9.0344267 -73.485245 -9.0170774 -74.128525 -0.22308388 -91.736
9201062500 -0.93038887 125.2706 -9.0279903 -73.526955 -9.0180426 -74.097824 -0.22406693 -91.723503
9201125000 -0.92426842 125.30671 -9.0324411 -73.487526 -9.0251846 -74.169189 -0.22553557 -91.724655
9201187500 -0.93293697 125.27314 -9.0388718 -73.522339 -9.0145645 -74.103775 -0.2212275 -91.663185
9201250000 -0.92132854 125.2351 -9.0295591 -73.570267 -9.023778 -74.157036 -0.22456299 -91.68087
9201312500 -0.931768 125.23987 -9.0341177 -73.495903 -9.0038042 -74.115677 -0.21800594 -91.652496
9201375000 -0.93390441 125.24744 -9.0417347 -73.508377 -9.019784 -74.156631 -0.22029409 -91.692848
9201437500 -0.93339568 125.2504 -9.031291 -73.527664 -9.0211391 -74.041946 -0.21702051 -91.651352
9201500000 -0.93371004 125.23043 -9.0330677 -73.462616 -9.0130186 -74.106911 -0.21947287 -91.661362
9201562500 -0.93904835 125.21861 -9.0389338 -73.532295 -9.0174055 -74.104202 -0.22306463 -91.646759
9201625000 -0.93643951 125.2266 -9.0472412 -73.519333 -9.0220232 -74.105057 -0.22048706 -91.623085
9201687500 -0.93564206 125.18345 -9.0369349 -73.427864 -9.0179882 -74.060059 -0.21970974 -91.561218
9201750000 -0.93637025 125.1792 -9.0343256 -73.48568 -9.0098543 -74.103745 -0.22141668 -91.567741
9201812500 -0.93004125 125.13705 -9.0241261 -73.50045 -9.0085373 -74.055672 -0.22298133 -91.524788
9201875000 -0.93586701 125.08108 -9.0474634 -73.531738 -9.0135365 -74.047432 -0.2254446 -91.480003
9201937500 -0.93003935 125.11237 -9.028635 -73.467407 -9.0097933 -74.030823 -0.22420444 -91.487244
9202000000 -0.93453962 125.11745 -9.038147 -73.45871 -9.0090351 -74.022362 -0.23044938 -91.446152
9202062500 -0.92815542 125.08049 -9.0138426 -73.474091 -9.0084581 -74.025185 -0.21951054 -91.463005
9202125000 -0.93387002 125.04774 -9.0208101 -73.549507 -9.0132895 -74.075127 -0.22788118 -91.475296
9202187500 -0.92944068 125.07728 -9.0238075 -73.47908 -9.0162621 -74.078598 -0.22564663 -91.406517
9202250000 -0.92966998 125.07287 -9.0270405 -73.461021 -9.012785 -74.087021 -0.22001132 -91.408791
9202312500 -0.93336803 125.03603 -9.020155 -73.501129 -9.0107727 -74.130234 -0.22179273 -91.430367
9202375000 -0.92821741 125.01406 -9.00494 -73.512901 -9.0150185 -74.117905 -0.22332749 -91.396477
9202437500 -0.93171477 125.05545 -9.0143728 -73.428581 -9.0075274 -74.043076 -0.22511087 -91.317001
9202500000 -0.93642479 125.01631 -9.0235653 -73.497253 -9.0075922 -74.0942 -0.22792794 -91.35537
9202562500 -0.93302798 124.99706 -9.0210009 -73.456062 -9.0034618 -74.048553 -0.22573791 -91.309692
9202625000 -0.93073392 124.97623 -9.0215693 -73.439095 -9.0057755 -74.127373 -0.23071012 -91.305763
9202687500 -0.93710661 124.98589 -9.0303106 -73.453575 -9.0081701 -74.108101 -0.2318733 -91.272057
9202750000 -0.93840617 124.95323 -9.0258837 -73.442993 -9.0125723 -74.034248 -0.23652056 -91.242889
9202812500 -0.93212306 124.96329 -9.0235052 -73.430443 -9.0120687 -74.089622 -0.22932756 -91.270515
9202875000 -0.93187469 124.95266 -9.0168152 -73.435089 -8.9943371 -74.05938 -0.22699806 -91.210075
9202937500 -0.93146908 124.88409 -9.0150681 -73.424149 -9.0019073 -74.0849 -0.22572964 -91.203491
9203000000 -0.93319613 124.89125 -9.0189438 -73.430511 -9.0074539 -74.081558 -0.23184811 -91.214073
9203062500 -0.93199342 124.87263 -9.011632 -73.43541 -9.0098524 -74.091675 -0.23215052 -91.152657
9203125000 -0.93496382 124.8216 -9.0180159 -73.489624 -8.9923124 -74.086517 -0.22309922 -91.168121
9203187500 -0.93050289 124.83784 -9.0175686 -73.458519 -9.0084896 -74.04631 -0.23263593 -91.104645
9203250000 -0.93183738 124.82257 -9.0074291 -73.470169 -9.0060101 -74.031822 -0.22325641 -91.085098
9203312500 -0.93375158 124.82294 -9.0097942 -73.497017 -8.996274 -74.095535 -0.22074312 -91.115417
9203375000 -0.93577385 124.76801 -9.0072899 -73.473404 -8.997407 -74.033112 -0.22953701 -91.077286
9203437500 -0.93257153 124.80007 -9.0111675 -73.517021 -8.99786 -74.063828 -0.22526807 -91.056801
9203500000 -0.93418938 124.81547 -9.0243206 -73.485367 -8.9979906 -74.08934 -0.23252766 -91.055237
9203562500 -0.93402117 124.77002 -9.0141039 -73.467842 -8.9966278 -74.074997 -0.22849652 -91.058113
9203625000 -0.93521416 124.78207 -9.0115719 -73.44339 -8.9984465 -74.084557 -0.2301669 -91.014526
9203687500 -0.93404031 124.71687 -9.0049839 -73.423271 -9.002635 -74.094299 -0.23589364 -91.046913
9203750000 -0.93193316 124.71296 -9.0116549 -73.446556 -9.0041437 -74.05455 -0.24703403 -90.973427
9203812500 -0.93619573 124.70667 -9.0082188 -73.432808 -8.9976835 -74.011276 -0.23744543 -90.93676
9203875000 -0.93289733 124.66837 -9.0080605 -73.462715 -8.9986687 -74.045853 -0.23581608 -90.978371
9203937500 -0.93261135 124.65161 -9.0100985 -73.504784 -8.9910173 -74.080421 -0.24086541 -90.94709
9204000000 -0.93406135 124.67106 -9.0194521 -73.468681 -8.9827976 -74.023781 -0.24227101 -90.871147
9204062500 -0.92908323 124.68324 -9.0159006 -73.423454 -8.9789362 -73.972908 -0.23960152 -90.886162
9204125000 -0.92746913 124.65797 -9.0072727 -73.374008 -8.9864597 -74.028313 -0.24241 -90.859039
9204187500 -0.92592067 124.6237 -9.0040703 -73.428932 -8.9883051 -74.013145 -0.24169561 -90.872932
9204250000 -0.92759985 124.61933 -9.0135889 -73.427032 -8.9836893 -73.98024 -0.24530511 -90.855843
9204312500 -0.92855418 124.58907 -9.0053148 -73.48703 -8.981245 -74.006287 -0.23773609 -90.800583
9204375000 -0.92394751 124.58738 -9.0095844 -73.38974 -8.9848967 -73.999352 -0.23976812 -90.800285
9204437500 -0.92564774 124.52016 -8.9967012 -73.449104 -8.9831371 -73.970001 -0.23675819 -90.766396
9204500000 -0.92664742 124.51633 -8.9932966 -73.410599 -8.9763899 -74.002464 -0.22900492 -90.756447
9204562500 -0.92403179 124.51834 -9.0043793 -73.416885 -8.982688 -74.002495 -0.2291626 -90.686661
9204625000 -0.92383379 124.50108 -8.9954376 -73.376953 -8.9826717 -74.00145 -0.22811225 -90.699409
9204687500 -0.92499608 124.52669 -8.9976463 -73.3181 -8.9818277 -74.035255 -0.23110461 -90.691116
9204750000 -0.92550296 124.51222 -9.0002699 -73.41655 -8.9844742 -74.01178 -0.23232223 -90.680626
9204812500 -0.92373759 124.50214 -8.9904661 -73.344215 -8.9831619 -74.028503 -0.23222174 -90.673195
9204875000 -0.92727005 124.47041 -8.9986076 -73.421463 -8.9851923 -74.055954 -0.23719403 -90.702278
9204937500 -0.93155134 124.5373 -8.9957466 -73.329865 -8.9769859 -73.997398 -0.23549311 -90.644028
9205000000 -0.93290478 124.46154 -9.0025063 -73.39296 -8.9804773 -74.012123 -0.23791562 -90.646805
9205062500 -0.93567765 124.44923 -8.9954491 -73.415413 -8.9758692 -73.984787 -0.23063949 -90.610794
9205125000 -0.92996746 124.45057 -8.993722 -73.358315 -8.9810572 -74.062927 -0.23028962 -90.654633
9205187500 -0.93494368 124.42415 -8.9917955 -73.378426 -8.9855518 -74.001823 -0.2362867 -90.602509
9205250000 -0.93384111 124.34023 -8.9913301 -73.496429 -8.9769526 -74.08136 -0.22997375 -90.598892
9205312500 -0.93515646 124.36427 -8.9847107 -73.351608 -8.9850559 -74.036156 -0.22889899 -90.583855
9205375000 -0.93884027 124.31708 -8.9824047 -73.355522 -8.977006 -73.995636 -0.22704841 -90.528488
9205437500 -0.93179989 124.32343 -8.9811764 -73.398994 -8.9740353 -73.979019 -0.22761618 -90.506241
9205500000 -0.93204683 124.31847 -8.9853973 -73.418716 -8.9763184 -74.008751 -0.22755916 -90.5364
9205562500 -0.93504453 124.2633 -8.9912558 -73.392136 -8.9782534 -74.025558 -0.23702987 -90.517097
9205625000 -0.93253607 124.26784 -8.9935751 -73.406273 -8.981657 -73.996208 -0.23088256 -90.472755
9205687500 -0.93674397 124.29872 -8.9955149 -73.369522 -8.9844446 -73.994072 -0.23735991 -90.470978
9205750000 -0.92781991 124.27145 -8.987278 -73.384666 -8.982933 -73.962746 -0.24037819 -90.413864
9205812500 -0.93094075 124.25716 -8.985548 -73.410294 -8.9852047 -73.990356 -0.24244431 -90.435043
9205875000 -0.92655677 124.2239 -8.9876757 -73.404259 -8.9792395 -73.937363 -0.23764922 -90.340225
9205937500 -0.93026209 124.27062 -8.9882593 -73.329468 -8.9755621 -74.005623 -0.24032663 -90.414764
9206000000 -0.92530179 124.24451 -8.9806986 -73.347404 -8.9741488 -73.950165 -0.23528935 -90.359581
9206062500 -0.92694527 124.20483 -8.9839153 -73.372818 -8.9773769 -73.954498 -0.23821892 -90.323463
9206125000 -0.92017698 124.19775 -8.9756413 -73.395882 -8.978013 -73.998444 -0.24167702 -90.302643
9206187500 -0.92983204 124.23106 -8.9860659 -73.36422 -8.9739647 -73.955681 -0.23823605 -90.291954
9206250000 -0.9293049 124.209 -8.9805841 -73.333908 -8.9640656 -73.982613 -0.23686039 -90.235062
9206312500 -0.92844552 124.18759 -8.9805336 -73.342903 -8.9638195 -74.006592 -0.235053 -90.285622
9206375000 -0.92708606 124.17181 -8.9841938 -73.3424 -8.9644613 -74.00705 -0.2379252 -90.263878
9206437500 -0.92709082 124.14598 -8.978405 -73.331383 -8.9600983 -73.99366 -0.24084714 -90.250252
9206500000 -0.93082625 124.11719 -8.9823961 -73.39167 -8.964653 -73.993134 -0.23381877 -90.220001
9206562500 -0.93362731 124.09698 -8.9739599 -73.318092 -8.9578314 -73.992424 -0.22683319 -90.228767
9206625000 -0.93104529 124.116 -8.9618721 -73.314842 -8.9596252 -73.951668 -0.22772495 -90.202713
9206687500 -0.93773133 124.13392 -8.9709454 -73.267403 -8.957859 -74.001144 -0.22266676 -90.158264
9206750000 -0.93794173 124.04671 -8.9644928 -73.332619 -8.9503841 -73.881371 -0.22659752 -90.055817
9206812500 -0.93656361 124.03757 -8.968298 -73.394173 -8.9520855 -73.989143 -0.22433978 -90.107788
9206875000 -0.9363355 124.05802 -8.9662104 -73.331207 -8.9450178 -73.983131 -0.22972384 -90.112801
9206937500 -0.9351117 124.06507 -8.9673653 -73.280067 -8.9613647 -73.918541 -0.23307547 -90.04493
9207000000 -0.92883772 124.01364 -8.9705334 -73.326729 -8.9573183 -73.94519 -0.23682028 -90.05217
9207062500 -0.92860049 123.9863 -8.9728537 -73.374069 -8.9605169 -73.939934 -0.23557109 -90.019218
9207125000 -0.92385411 123.96522 -8.965868 -73.35128 -8.9592628 -73.988258 -0.23468596 -90.059937
9207187500 -0.92711174 123.95702 -8.9716778 -73.420372 -8.969409 -73.987999 -0.24851739 -90.026382
9207250000 -0.92483997 123.95885 -8.9701271 -73.390175 -8.9673395 -73.980934 -0.25155631 -90.013756
9207312500 -0.93063527 123.90683 -8.9706278 -73.389359 -8.9516039 -73.949776 -0.24213117 -90.014046
9207375000 -0.92624938 123.85274 -8.9597683 -73.449821 -8.9625006 -73.950073 -0.24774791 -90.008018
9207437500 -0.92752099 123.84808 -8.9650059 -73.380157 -8.955513 -73.943024 -0.24180986 -89.97908
9207500000 -0.92701185 123.8389 -8.9653692 -73.362671 -8.9528894 -73.954575 -0.24336489 -89.964142
9207562500 -0.93052304 123.81792 -8.9665527 -73.345917 -8.9531851 -73.915924 -0.24106281 -89.9291
9207625000 -0.9333396 123.84135 -8.9663315 -73.375031 -8.9593115 -73.975288 -0.24617577 -89.913208
9207687500 -0.92750704 123.80991 -8.960144 -73.343063 -8.9499168 -73.913017 -0.23585376 -89.873909
9207750000 -0.93253082 123.81799 -8.9638224 -73.330093 -8.9482174 -73.948906 -0.23595828 -89.856682
9207812500 -0.93519884 123.80672 -8.9594631 -73.367859 -8.9591007 -73.981438 -0.23490737 -89.875328
9207875000 -0.93587446 123.80845 -8.9582577 -73.360519 -8.9451323 -73.935883 -0.23135641 -89.841034
9207937500 -0.93771583 123.78793 -8.9638119 -73.319221 -8.9491329 -74.007225 -0.23195201 -89.873642
9208000000 -0.93814701 123.79647 -8.9667635 -73.277115 -8.9502211 -73.967888 -0.233971 -89.795357
9208062500 -0.93380034 123.76267 -8.9543514 -73.325867 -8.9460001 -73.986526 -0.23524728 -89.790031
9208125000 -0.93107921 123.76012 -8.9566574 -73.269119 -8.9523106 -73.946251 -0.24365655 -89.775322
9208187500 -0.93847537 123.76699 -8.9693241 -73.33181 -8.9494114 -73.946037 -0.24222322 -89.730415
9208250000 -0.93684918 123.77319 -8.9597921 -73.303596 -8.9560299 -73.945343 -0.24648078 -89.729279
9208312500 -0.93750876 123.73637 -8.9667072 -73.354935 -8.9448519 -73.916107 -0.24170183 -89.716309
9208375000 -0.93041688 123.72164 -8.9540644 -73.309555 -8.9456654 -73.881577 -0.24609274 -89.651535
9208437500 -0.93047392 123.7199 -8.9564848 -73.331383 -8.9485426 -73.892868 -0.24694055 -89.634483
9208500000 -0.93411344 123.68264 -8.9547243 -73.323944 -8.9418621 -73.922874 -0.24315271 -89.671761
9208562500 -0.93396121 123.62928 -8.9546642 -73.366272 -8.944869 -73.86541 -0.24590591 -89.595512
9208625000 -0.93391603 123.5942 -8.9546328 -73.374359 -8.9417076 -73.89621 -0.2383392 -89.626915
9208687500 -0.93107724 123.58599 -8.9483442 -73.349556 -8.9363985 -73.912064 -0.23747176 -89.60379
9208750000 -0.93039393 123.58126 -8.9522772 -73.362976 -8.9305916 -73.871384 -0.23752789 -89.603539
9208812500 -0.9360702 123.58244 -8.9586039 -73.365219 -8.9318638 -73.931877 -0.24198568 -89.595894
9208875000 -0.93582517 123.58354 -8.9540262 -73.324951 -8.9421034 -73.948685 -0.24677639 -89.619263
9208937500 -0.93733263 123.61015 -8.9523115 -73.296555 -8.9353552 -73.892548 -0.24271226 -89.550529
9209000000 -0.93225688 123.59489 -8.9535875 -73.309395 -8.9401569 -73.895287 -0.24004026 -89.571861
9209062500 -0.93499106 123.58405 -8.9517841 -73.364815 -8.9409094 -73.940849 -0.24565776 -89.617554
9209125000 -0.93394381 123.57671 -8.9450665 -73.330025 -8.9455824 -73.897591 -0.24649218 -89.53302
9209187500 -0.93497169 123.59734 -8.948595 -73.353462 -8.9477949 -73.904366 -0.24869584 -89.496391
9209250000 -0.93419737 123.57298 -8.9489918 -73.272095 -8.9436846 -73.870361 -0.24587244 -89.532776
9209312500 -0.93402648 123.53019 -8.9487534 -73.330444 -8.9377041 -73.898888 -0.246764 -89.457016
9209375000 -0.9312641 123.49945 -8.9446621 -73.286308 -8.9453716 -73.900917 -0.24539784 -89.415939
9209437500 -0.93455213 123.48208 -8.9484739 -73.34787 -8.9340029 -73.867668 -0.24265996 -89.404488
9209500000 -0.93263102 123.46197 -8.9420357 -73.344254 -8.9443884 -73.865051 -0.25237238 -89.387482
9209562500 -0.93684548 123.45882 -8.9425869 -73.312981 -8.9352436 -73.867264 -0.23980564 -89.366844
9209625000 -0.9341585 123.42265 -8.9366732 -73.298096 -8.9335632 -73.854057 -0.23948874 -89.338448
9209687500 -0.9365707 123.46437 -8.9436092 -73.330971 -8.9323769 -73.921059 -0.24397016 -89.332672
9209750000 -0.94295943 123.37186 -8.9507885 -73.38945 -8.9305954 -73.828407 -0.24060358 -89.269524
9209812500 -0.93756527 123.40328 -8.947753 -73.347153 -8.9314985 -73.89695 -0.24139045 -89.320656
9209875000 -0.93760633 123.386 -8.9432507 -73.370064 -8.9279785 -73.90905 -0.23471573 -89.280663
9209937500 -0.93661052 123.36849 -8.9378395 -73.336342 -8.9325771 -73.868767 -0.2396953 -89.214729
9210000000 -0.93209636 123.35355 -8.9426546 -73.317009 -8.9318132 -73.879219 -0.24391901 -89.212326
9210062500 -0.93623096 123.34823 -8.9429693 -73.357422 -8.9152946 -73.850945 -0.23588572 -89.236809
9210125000 -0.93730676 123.32949 -8.9428377 -73.289375 -8.9251575 -73.851669 -0.24161646 -89.215523
9210187500 -0.92927825 123.32889 -8.934082 -73.314568 -8.9214964 -73.829704 -0.240289 -89.164925
9210250000 -0.92991889 123.31214 -8.9317207 -73.309212 -8.9188776 -73.835243 -0.23367433 -89.161476
9210312500 -0.92915815 123.30875 -8.9273033 -73.238297 -8.9324484 -73.853447 -0.2403855 -89.147598
9210375000 -0.93175614 123.29232 -8.942111 -73.25425 -8.924859 -73.849228 -0.24383801 -89.120094
9210437500 -0.93210834 123.29369 -8.9336786 -73.294029 -8.9238634 -73.808823 -0.24547639 -89.137505
9210500000 -0.93297595 123.22794 -8.9365358 -73.247253 -8.925272 -73.81485 -0.24907704 -89.08403
9210562500 -0.92986417 123.25586 -8.9500523 -73.266945 -8.9286776 -73.813583 -0.25318262 -89.083405
9210625000 -0.9242816 123.21881 -8.9338799 -73.233093 -8.9267769 -73.831963 -0.25257036 -89.074539
9210687500 -0.92553097 123.17683 -8.9338598 -73.253166 -8.9242134 -73.826752 -0.25262004 -89.019417
9210750000 -0.92645073 123.18463 -8.9323597 -73.242561 -8.9275513 -73.831276 -0.25883916 -89.017822
9210812500 -0.92782295 123.14713 -8.9428911 -73.308678 -8.9205685 -73.83287 -0.25409663 -88.986816
9210875000 -0.92743057 123.12859 -8.9369488 -73.179207 -8.9166384 -73.81778 -0.25332212 -88.94574
9210937500 -0.93061221 123.13435 -8.9271126 -73.287498 -8.9196529 -73.834816 -0.2514762 -88.982735
9211000000 -0.93734312 123.09235 -8.9323988 -73.276207 -8.9171982 -73.892303 -0.24903028 -88.983032
9211062500 -0.93126106 123.09991 -8.9305162 -73.285835 -8.9192991 -73.876656 -0.24963377 -88.973473
9211125000 -0.93528473 123.05834 -8.9202442 -73.303192 -8.9197693 -73.830811 -0.24937907 -88.960022
9211187500 -0.93615437 123.1286 -8.9260359 -73.231781 -8.9193201 -73.867325 -0.24625318 -88.981934
9211250000 -0.93733579 123.10183 -8.9332304 -73.295349 -8.9182177 -73.839882 -0.2420816 -88.946388
9211312500 -0.93724436 123.10217 -8.9250774 -73.292091 -8.9121218 -73.810181 -0.24048288 -88.979584
9211375000 -0.94084704 123.09135 -8.9194117 -73.243301 -8.9121475 -73.887688 -0.24164023 -88.864586
9211437500 -0.93966025 123.08564 -8.9271765 -73.267563 -8.9179239 -73.841171 -0.24017259 -88.893532
9211500000 -0.93335742 123.07975 -8.9143028 -73.243767 -8.9116201 -73.803551 -0.24269463 -88.834198
9211562500 -0.93851495 123.03706 -8.9224644 -73.308121 -8.9197636 -73.820992 -0.25405535 -88.827957
9211625000 -0.94017452 123.0248 -8.9281616 -73.268768 -8.9142303 -73.860481 -0.25384164 -88.815163
9211687500 -0.9326008 123.01559 -8.9171524 -73.204155 -8.9127464 -73.868889 -0.25557196 -88.824364
9211750000 -0.93327254 122.99758 -8.9279299 -73.180214 -8.9124765 -73.79985 -0.25731373 -88.76104
9211812500 -0.93107438 122.9351 -8.9121847 -73.271233 -8.9106216 -73.795074 -0.25191614 -88.746635
9211875000 -0.93888307 122.94024 -8.9223194 -73.198227 -8.9110126 -73.820152 -0.2495676 -88.733185
9211937500 -0.93710101 122.93091 -8.9210472 -73.188637 -8.9113874 -73.751671 -0.2546618 -88.657028
9212000000 -0.94130766 122.91447 -8.9189119 -73.267784 -8.9181728 -73.799042 -0.25853938 -88.643539
9212062500 -0.94533104 122.86699 -8.920785 -73.311867 -8.9130688 -73.829903 -0.26106405 -88.627213
9212125000 -0.93922955 122.81113 -8.9082222 -73.33979 -8.9102201 -73.752975 -0.25550619 -88.587875
9212187500 -0.9439441 122.84454 -8.9169626 -73.284157 -8.9113092 -73.763664 -0.25475413 -88.586426
