!Agilent Technologies,N5242A,MY51221714,A.09.90.19
!Agilent N5242A: A.09.90.19
!Date: Saturday, March 16, 2024 09:29:13
!Correction: S11(Full 2 Port(1,2)) 
!S21(Full 2 Port(1,2)) 
!S12(Full 2 Port(1,2)) 
!S22(Full 2 Port(1,2)) 
!S2P File: Measurements: S11, S21, S12, S22:
# Hz S  dB   R 50
9200000000 -0.88662761 126.08763 -9.1307545 -72.874077 -9.1229038 -73.421761 -0.1735298 -91.758827
9200062500 -0.88990933 126.09619 -9.1425829 -72.778122 -9.1157064 -73.375015 -0.1783794 -91.706474
9200125000 -0.88497597 126.03494 -9.1254311 -72.82299 -9.1215 -73.464752 -0.17181545 -91.722076
9200187500 -0.88884246 126.06719 -9.1332092 -72.768349 -9.1110153 -73.412903 -0.17327698 -91.715668
9200250000 -0.88554561 126.05694 -9.1317081 -72.820908 -9.1201811 -73.446663 -0.17710879 -91.650726
9200312500 -0.88343126 126.0539 -9.1375351 -72.792892 -9.1140041 -73.442131 -0.17026003 -91.707588
9200375000 -0.8884052 126.00548 -9.1404858 -72.84053 -9.1102591 -73.415604 -0.16973633 -91.644913
9200437500 -0.87983167 126.00906 -9.1234446 -72.794662 -9.1082754 -73.472046 -0.17028861 -91.654266
9200500000 -0.88367945 125.97907 -9.128314 -72.807587 -9.1229992 -73.411568 -0.17838757 -91.598221
9200562500 -0.87949961 125.9619 -9.1237936 -72.827637 -9.1128397 -73.435562 -0.17800789 -91.59449
9200625000 -0.88318354 125.97451 -9.1299324 -72.76841 -9.1059542 -73.445534 -0.17596398 -91.552963
9200687500 -0.88728303 125.98109 -9.1346617 -72.775284 -9.1138935 -73.360382 -0.18742855 -91.547554
9200750000 -0.88854313 125.97317 -9.1399841 -72.748329 -9.1095524 -73.377991 -0.18289453 -91.494316
9200812500 -0.88627261 125.91177 -9.1332617 -72.801056 -9.1062136 -73.445709 -0.18727387 -91.537735
9200875000 -0.88530999 125.9568 -9.1296005 -72.727165 -9.1093168 -73.379585 -0.18378924 -91.472008
9200937500 -0.88616294 125.89604 -9.1310701 -72.766449 -9.1041403 -73.387543 -0.18400858 -91.442421
9201000000 -0.88612276 125.89808 -9.1235714 -72.753777 -9.104847 -73.376686 -0.19059937 -91.424438
9201062500 -0.88197225 125.88297 -9.1128054 -72.809204 -9.1003094 -73.361183 -0.17722139 -91.433105
9201125000 -0.88440096 125.86855 -9.1198263 -72.802231 -9.1073818 -73.395622 -0.18057218 -91.386726
9201187500 -0.88313031 125.81418 -9.1159496 -72.819603 -9.1071396 -73.388741 -0.18623723 -91.407684
9201250000 -0.87965167 125.81978 -9.1253271 -72.805496 -9.105835 -73.34391 -0.18282604 -91.350945
9201312500 -0.87906945 125.81705 -9.119482 -72.749977 -9.112854 -73.369766 -0.18276878 -91.406227
9201375000 -0.88536948 125.79332 -9.117938 -72.793137 -9.1103411 -73.356346 -0.18249537 -91.35762
9201437500 -0.88994938 125.75826 -9.1369162 -72.803879 -9.1032677 -73.347466 -0.18108399 -91.341476
9201500000 -0.89011401 125.77552 -9.1276264 -72.822006 -9.1154194 -73.427704 -0.18963654 -91.377747
9201562500 -0.88436723 125.81042 -9.1184492 -72.700264 -9.1008615 -73.365562 -0.17795011 -91.331284
9201625000 -0.89152002 125.77509 -9.1276903 -72.73333 -9.1019316 -73.373985 -0.17879716 -91.306076
9201687500 -0.8917253 125.74376 -9.1252909 -72.754189 -9.100563 -73.289818 -0.17367423 -91.250618
9201750000 -0.88787925 125.75384 -9.1222658 -72.777145 -9.1018181 -73.323425 -0.18550998 -91.274345
9201812500 -0.88716358 125.73888 -9.1268072 -72.732582 -9.1056833 -73.369209 -0.1894297 -91.26384
9201875000 -0.8895126 125.7159 -9.1152763 -72.761391 -9.1002073 -73.271828 -0.18308899 -91.187141
9201937500 -0.88142669 125.64623 -9.1234617 -72.763702 -9.0953398 -73.290611 -0.18604259 -91.189171
9202000000 -0.8806116 125.66679 -9.1025429 -72.701515 -9.0927181 -73.333977 -0.18407673 -91.186874
9202062500 -0.88580322 125.63058 -9.1074781 -72.783951 -9.1077824 -73.307411 -0.19180332 -91.145935
9202125000 -0.88457918 125.63408 -9.1071243 -72.722137 -9.0992508 -73.373795 -0.18411762 -91.169861
9202187500 -0.88635403 125.64632 -9.1128349 -72.781662 -9.0992479 -73.390976 -0.1830633 -91.131729
9202250000 -0.88390744 125.63949 -9.1002531 -72.736565 -9.0945492 -73.373344 -0.17752969 -91.11409
9202312500 -0.88575816 125.60835 -9.1075068 -72.707306 -9.0959835 -73.387863 -0.17370807 -91.127899
9202375000 -0.88150877 125.59316 -9.0953865 -72.735199 -9.1036081 -73.302292 -0.18550406 -91.083618
9202437500 -0.88529485 125.57778 -9.0995684 -72.708229 -9.0986757 -73.408417 -0.18445516 -91.058609
9202500000 -0.88847136 125.60262 -9.1070118 -72.699173 -9.092598 -73.336403 -0.181977 -91.014648
9202562500 -0.88806742 125.54799 -9.1104593 -72.712944 -9.1052227 -73.293686 -0.19387893 -90.958977
9202625000 -0.89430416 125.54199 -9.1259537 -72.713425 -9.0971174 -73.313042 -0.19476397 -90.970703
9202687500 -0.88608128 125.51347 -9.1108494 -72.744423 -9.0982094 -73.357674 -0.19750006 -90.950882
9202750000 -0.88880491 125.52814 -9.1141129 -72.706749 -9.0964861 -73.35215 -0.19048901 -90.94355
9202812500 -0.8861298 125.51398 -9.1098738 -72.726227 -9.093667 -73.366325 -0.18930663 -90.93399
9202875000 -0.88380796 125.47332 -9.1090555 -72.752991 -9.0880957 -73.364723 -0.1836835 -90.948685
9202937500 -0.88801157 125.46568 -9.1082363 -72.729668 -9.0836153 -73.301331 -0.1867725 -90.899597
9203000000 -0.88619548 125.47527 -9.1049948 -72.729935 -9.0850735 -73.296921 -0.18853858 -90.877106
9203062500 -0.88648272 125.45636 -9.109333 -72.722435 -9.0875835 -73.341286 -0.18345128 -90.898506
9203125000 -0.88786727 125.42036 -9.1033869 -72.723389 -9.0977898 -73.316498 -0.18976922 -90.886047
9203187500 -0.88235795 125.40368 -9.1009007 -72.704048 -9.0892725 -73.346519 -0.18219297 -90.808754
9203250000 -0.88123262 125.39964 -9.0941734 -72.741913 -9.0885506 -73.363464 -0.18802941 -90.830811
9203312500 -0.88522357 125.38397 -9.0988302 -72.740021 -9.0966835 -73.328171 -0.19129229 -90.801483
9203375000 -0.8890087 125.36813 -9.1094151 -72.76342 -9.0919943 -73.351913 -0.18678114 -90.793983
9203437500 -0.88101053 125.35489 -9.0937977 -72.80246 -9.0894489 -73.346062 -0.185288 -90.712433
9203500000 -0.88673216 125.35152 -9.0960941 -72.76136 -9.0818834 -73.298012 -0.1870112 -90.726425
9203562500 -0.8866902 125.34805 -9.1047096 -72.705315 -9.091444 -73.396553 -0.18958127 -90.773781
9203625000 -0.88738871 125.31769 -9.1031876 -72.711525 -9.0804672 -73.266548 -0.18825544 -90.669479
9203687500 -0.88665444 125.31788 -9.1021395 -72.692398 -9.0812559 -73.308197 -0.19416243 -90.68705
9203750000 -0.88602424 125.29047 -9.0982342 -72.708809 -9.0845919 -73.345207 -0.19522318 -90.697083
9203812500 -0.88427848 125.28402 -9.0990076 -72.734093 -9.0870476 -73.256165 -0.1946978 -90.657845
9203875000 -0.88831681 125.24294 -9.1006823 -72.770821 -9.0792742 -73.326218 -0.19367059 -90.659103
9203937500 -0.8832345 125.24466 -9.0982208 -72.787346 -9.088563 -73.305809 -0.2017142 -90.637474
9204000000 -0.88111991 125.19345 -9.095932 -72.743431 -9.0823364 -73.262115 -0.20151956 -90.577576
9204062500 -0.88345867 125.2375 -9.1003981 -72.754974 -9.0858402 -73.273918 -0.20909834 -90.580666
9204125000 -0.88132721 125.17892 -9.1045723 -72.736984 -9.0869246 -73.299133 -0.20694768 -90.565834
9204187500 -0.88326973 125.18002 -9.1058578 -72.738724 -9.0736685 -73.289764 -0.19911231 -90.559082
9204250000 -0.87742335 125.18875 -9.0981607 -72.687584 -9.0731096 -73.26226 -0.20461757 -90.499298
9204312500 -0.87952191 125.16228 -9.0994177 -72.738914 -9.0721703 -73.250626 -0.19763792 -90.507439
9204375000 -0.8811813 125.12733 -9.0934038 -72.698952 -9.065423 -73.241722 -0.18872194 -90.474098
9204437500 -0.8800472 125.11016 -9.0893965 -72.662064 -9.077405 -73.272583 -0.19839373 -90.442566
9204500000 -0.87741727 125.1146 -9.0858669 -72.652969 -9.073698 -73.259308 -0.190034 -90.416832
9204562500 -0.87660879 125.03706 -9.0875149 -72.726517 -9.0733061 -73.261894 -0.19297267 -90.44323
9204625000 -0.87676227 125.08785 -9.0822039 -72.645828 -9.0713291 -73.251167 -0.19053644 -90.353226
9204687500 -0.87764448 125.03754 -9.0786638 -72.682617 -9.0629187 -73.233971 -0.18067855 -90.353851
9204750000 -0.87769735 125.05275 -9.0829487 -72.661133 -9.0754156 -73.280411 -0.20288154 -90.397636
9204812500 -0.87956017 125.05144 -9.0858097 -72.705345 -9.0697365 -73.274132 -0.19616406 -90.385475
9204875000 -0.87813509 125.03059 -9.0811157 -72.631294 -9.0689564 -73.274979 -0.19587921 -90.356277
9204937500 -0.88117516 125.02496 -9.0910225 -72.657951 -9.0712242 -73.247849 -0.19538139 -90.33493
9205000000 -0.88975435 125.02222 -9.1049528 -72.641762 -9.0769901 -73.294609 -0.20209701 -90.331367
9205062500 -0.88425821 125.00326 -9.0882902 -72.648033 -9.0635862 -73.274704 -0.19407827 -90.317879
9205125000 -0.88600171 124.98611 -9.081706 -72.579948 -9.0683937 -73.307304 -0.19114213 -90.30294
9205187500 -0.88852763 124.95818 -9.0809002 -72.645866 -9.0718756 -73.333443 -0.19002675 -90.298042
9205250000 -0.89146215 124.90942 -9.0789814 -72.646736 -9.0697136 -73.270485 -0.19341461 -90.288582
9205312500 -0.89004558 124.93272 -9.0823507 -72.620766 -9.0657339 -73.265625 -0.18518713 -90.220192
9205375000 -0.88794637 124.92341 -9.0780935 -72.585091 -9.0711317 -73.255585 -0.18959986 -90.232216
9205437500 -0.88481438 124.87426 -9.0784502 -72.664406 -9.0723085 -73.286629 -0.19012557 -90.21386
9205500000 -0.88965321 124.86961 -9.0847626 -72.681847 -9.0695782 -73.293152 -0.19213659 -90.231979
9205562500 -0.8878122 124.89242 -9.0799599 -72.662506 -9.0690517 -73.284874 -0.18827005 -90.19091
9205625000 -0.88376164 124.88916 -9.0809078 -72.64328 -9.0687666 -73.244652 -0.19241779 -90.152641
9205687500 -0.8831982 124.83517 -9.0753479 -72.686668 -9.0670137 -73.203514 -0.1947882 -90.127441
9205750000 -0.88646436 124.84903 -9.084465 -72.651497 -9.0659208 -73.243576 -0.19791108 -90.151596
9205812500 -0.88398767 124.84896 -9.068635 -72.582848 -9.0648203 -73.290901 -0.18684042 -90.197487
9205875000 -0.8850649 124.80787 -9.085125 -72.638397 -9.0733728 -73.219978 -0.19238725 -90.089272
9205937500 -0.88619637 124.83051 -9.0772352 -72.598053 -9.0649967 -73.153465 -0.19302751 -90.030769
9206000000 -0.87586164 124.8035 -9.0635004 -72.651772 -9.0719109 -73.260132 -0.19234344 -90.07122
9206062500 -0.87863308 124.78092 -9.0660124 -72.605469 -9.0797071 -73.238762 -0.19893168 -90.038055
9206125000 -0.87942922 124.78101 -9.074194 -72.610939 -9.0645418 -73.222115 -0.19294095 -89.97261
9206187500 -0.87799472 124.79997 -9.0728683 -72.588791 -9.0682945 -73.24054 -0.19580832 -89.965469
9206250000 -0.87968874 124.74565 -9.0665894 -72.634842 -9.0568562 -73.247253 -0.19506398 -89.973808
9206312500 -0.87921977 124.77267 -9.0738173 -72.605858 -9.0538378 -73.259644 -0.20086296 -90.0065
9206375000 -0.88013285 124.71685 -9.0682993 -72.634949 -9.0640945 -73.235489 -0.19799513 -89.952057
9206437500 -0.88034672 124.73952 -9.0754099 -72.560104 -9.0613985 -73.223289 -0.2005033 -89.943596
9206500000 -0.88279432 124.73769 -9.0635681 -72.56395 -9.0531139 -73.251282 -0.18632187 -89.906548
9206562500 -0.88120788 124.71655 -9.0633383 -72.558334 -9.0495958 -73.217911 -0.19173914 -89.855225
9206625000 -0.88498259 124.66718 -9.0588274 -72.637474 -9.0459433 -73.264404 -0.19249682 -89.917717
9206687500 -0.88827848 124.68044 -9.0586357 -72.61972 -9.0371065 -73.286545 -0.1892202 -89.865372
9206750000 -0.88490975 124.62727 -9.0545702 -72.601257 -9.0468292 -73.163406 -0.18862393 -89.78344
9206812500 -0.88549614 124.67316 -9.0514116 -72.50856 -9.0391779 -73.143707 -0.17981981 -89.725235
9206875000 -0.88588494 124.6178 -9.0578299 -72.588806 -9.0301218 -73.246925 -0.18293782 -89.806351
9206937500 -0.88265347 124.5659 -9.0660219 -72.62114 -9.0474987 -73.210533 -0.19325377 -89.757523
9207000000 -0.88273507 124.59058 -9.0641451 -72.604706 -9.0583811 -73.201508 -0.19707999 -89.752815
9207062500 -0.87631989 124.57955 -9.0496531 -72.569733 -9.0473518 -73.213783 -0.19197096 -89.717545
9207125000 -0.8791514 124.54169 -9.0604286 -72.636826 -9.0532818 -73.174347 -0.20086284 -89.748169
9207187500 -0.8724215 124.50951 -9.0583773 -72.624702 -9.0498819 -73.218361 -0.19323859 -89.703552
9207250000 -0.87527806 124.50483 -9.0575752 -72.667023 -9.0486317 -73.176987 -0.19552171 -89.699081
9207312500 -0.88147807 124.47512 -9.0593424 -72.652153 -9.0458775 -73.192673 -0.19808808 -89.68158
9207375000 -0.87970585 124.45482 -9.0544777 -72.632301 -9.0455437 -73.18148 -0.20551687 -89.673706
9207437500 -0.88032967 124.40139 -9.0590734 -72.643341 -9.0522251 -73.191246 -0.20319916 -89.648529
9207500000 -0.88342792 124.40041 -9.0537043 -72.704437 -9.0302191 -73.148735 -0.1998124 -89.626663
9207562500 -0.88299805 124.35754 -9.0622044 -72.666504 -9.0403767 -73.197227 -0.20206185 -89.652481
9207625000 -0.88099891 124.36916 -9.0562582 -72.624153 -9.0322886 -73.236923 -0.20102407 -89.656837
9207687500 -0.88677019 124.37518 -9.0566177 -72.628647 -9.040163 -73.215469 -0.1913593 -89.631149
9207750000 -0.88489217 124.40425 -9.0535955 -72.639977 -9.0437946 -73.234497 -0.1934742 -89.566994
9207812500 -0.88788873 124.34928 -9.0407019 -72.66217 -9.036046 -73.245651 -0.18999653 -89.591499
9207875000 -0.89193863 124.35179 -9.0573835 -72.635231 -9.0325327 -73.211021 -0.18215421 -89.541977
9207937500 -0.88785225 124.36455 -9.053916 -72.605431 -9.036932 -73.159836 -0.18837903 -89.524597
9208000000 -0.88927609 124.37101 -9.0499001 -72.623268 -9.0411749 -73.255341 -0.19465217 -89.480827
9208062500 -0.88809359 124.35516 -9.0504026 -72.617981 -9.0370903 -73.255653 -0.1925043 -89.489326
9208125000 -0.88642192 124.31488 -9.0449162 -72.662354 -9.0327082 -73.18277 -0.18842164 -89.474075
9208187500 -0.88921946 124.30729 -9.0459776 -72.583977 -9.0359201 -73.161247 -0.1976528 -89.419044
9208250000 -0.8816238 124.31346 -9.0436373 -72.563065 -9.0338268 -73.137505 -0.19939543 -89.372231
9208312500 -0.88365805 124.31476 -9.0507202 -72.584061 -9.0405045 -73.188377 -0.21180204 -89.381233
9208375000 -0.88255155 124.28517 -9.0455093 -72.500336 -9.0375624 -73.188385 -0.20775756 -89.379227
9208437500 -0.88584882 124.27966 -9.0496321 -72.572357 -9.0453415 -73.120041 -0.20646743 -89.34343
9208500000 -0.88244921 124.24135 -9.0467319 -72.578293 -9.040844 -73.151421 -0.20858267 -89.32061
9208562500 -0.88677853 124.20982 -9.0509043 -72.582199 -9.0291309 -73.126236 -0.19933093 -89.323784
9208625000 -0.8890878 124.202 -9.0440369 -72.558334 -9.03901 -73.184258 -0.20295054 -89.325851
9208687500 -0.88834029 124.16779 -9.0448256 -72.61792 -9.0301752 -73.117775 -0.20154473 -89.294579
9208750000 -0.88738704 124.16243 -9.0424538 -72.571846 -9.0217667 -73.179047 -0.19372487 -89.289627
9208812500 -0.88751435 124.13699 -9.0446291 -72.606621 -9.0324697 -73.124054 -0.19732405 -89.240784
9208875000 -0.88648736 124.14388 -9.0422583 -72.66333 -9.0334148 -73.161484 -0.20073053 -89.284279
9208937500 -0.88262123 124.16157 -9.0341778 -72.566002 -9.0229397 -73.166466 -0.19473565 -89.273209
9209000000 -0.88637024 124.1963 -9.0302525 -72.547997 -9.0256996 -73.144981 -0.19896667 -89.229782
9209062500 -0.88751048 124.19501 -9.0373545 -72.545776 -9.023963 -73.147697 -0.19776335 -89.241425
9209125000 -0.88100713 124.17631 -9.0357103 -72.543961 -9.0297375 -73.17778 -0.20900592 -89.232521
9209187500 -0.88267064 124.10957 -9.0375175 -72.545631 -9.0320883 -73.134979 -0.2036254 -89.185204
9209250000 -0.87985688 124.10993 -9.0319967 -72.547401 -9.0453434 -73.155014 -0.20662808 -89.170311
9209312500 -0.87942851 124.10476 -9.0367231 -72.488754 -9.039217 -73.128586 -0.20808773 -89.113678
9209375000 -0.88269025 124.10171 -9.0314732 -72.530548 -9.0341282 -73.113609 -0.20820154 -89.14537
9209437500 -0.88419867 124.07404 -9.0370026 -72.624557 -9.0290813 -73.137886 -0.20573379 -89.094406
9209500000 -0.88464451 124.05046 -9.0247097 -72.569672 -9.0258293 -73.128311 -0.20178466 -89.048859
9209562500 -0.88141316 124.01379 -9.0308104 -72.622154 -9.0381308 -73.112 -0.21167059 -89.07093
9209625000 -0.88590527 123.98669 -9.0283594 -72.548195 -9.0334501 -73.162445 -0.20362528 -89.085533
9209687500 -0.88820273 124.00885 -9.0340471 -72.572273 -9.0306597 -73.129539 -0.2064672 -88.988663
9209750000 -0.88733482 124.02591 -9.0290375 -72.555733 -9.0265331 -73.111359 -0.20584635 -89.003052
9209812500 -0.8904357 123.96258 -9.027422 -72.5979 -9.0222912 -73.076385 -0.1959001 -88.981873
9209875000 -0.89529103 124.01418 -9.0421753 -72.560905 -9.0202732 -73.186295 -0.20024776 -88.974442
9209937500 -0.88357145 123.92299 -9.0311785 -72.564728 -9.0182409 -73.139244 -0.19419689 -88.920204
9210000000 -0.88826442 123.94875 -9.0258217 -72.566307 -9.0166597 -73.134293 -0.19372611 -88.965424
9210062500 -0.88137108 123.92667 -9.0255613 -72.554649 -9.0157738 -73.114929 -0.2006207 -88.920746
9210125000 -0.88133913 123.9145 -9.0202131 -72.577866 -9.0120945 -73.151054 -0.1933822 -88.905914
9210187500 -0.87929678 123.90054 -9.0171967 -72.569672 -9.0150833 -73.109039 -0.20431869 -88.89109
9210250000 -0.88200748 123.86644 -9.0278883 -72.592842 -9.0126486 -73.109116 -0.19927622 -88.849907
9210312500 -0.8790133 123.88611 -9.0190306 -72.490921 -9.0125256 -73.078827 -0.19221649 -88.818901
9210375000 -0.88197905 123.88846 -9.030015 -72.490791 -9.0124941 -73.049232 -0.20375685 -88.803024
9210437500 -0.87926787 123.86391 -9.0244713 -72.52832 -9.0195961 -73.062798 -0.20402038 -88.77002
9210500000 -0.881935 123.80758 -9.0237293 -72.557373 -9.0156269 -73.097977 -0.20820747 -88.816887
9210562500 -0.87962568 123.80535 -9.0160522 -72.527061 -9.0127249 -73.056755 -0.20533924 -88.766861
9210625000 -0.87650609 123.80788 -9.0259829 -72.468155 -9.0114279 -73.091354 -0.20886333 -88.744316
9210687500 -0.87511086 123.77724 -9.0264587 -72.518654 -9.0182877 -73.113892 -0.2133805 -88.729637
9210750000 -0.87672466 123.73055 -9.0311403 -72.49456 -9.0171518 -73.106972 -0.20813791 -88.720657
9210812500 -0.87931424 123.71191 -9.0259428 -72.534607 -9.0120611 -73.043961 -0.21023035 -88.641533
9210875000 -0.88424778 123.70235 -9.0297108 -72.513855 -9.0196066 -73.073555 -0.21384853 -88.695808
9210937500 -0.87879026 123.71877 -9.026515 -72.481667 -9.003685 -73.034134 -0.2037102 -88.62133
9211000000 -0.88171154 123.67893 -9.0216341 -72.514511 -9.007494 -73.147408 -0.20904836 -88.666252
9211062500 -0.88477522 123.6762 -9.0161438 -72.459381 -9.0133085 -73.008354 -0.21178083 -88.581902
9211125000 -0.88687503 123.70825 -9.0269632 -72.506927 -9.0110531 -73.180946 -0.20720632 -88.686424
9211187500 -0.88419932 123.70865 -9.0207567 -72.497421 -9.009058 -73.170547 -0.20733261 -88.693932
9211250000 -0.88934088 123.68907 -9.0202894 -72.508904 -9.0085602 -73.112038 -0.20196016 -88.662888
9211312500 -0.8921994 123.65778 -9.0161142 -72.556862 -9.0079975 -73.104218 -0.20254911 -88.648003
9211375000 -0.88922507 123.65069 -9.0120792 -72.542595 -9.0116978 -73.124504 -0.1950976 -88.544998
9211437500 -0.88909411 123.67051 -9.0213966 -72.483345 -9.0124645 -73.036781 -0.20940262 -88.493446
9211500000 -0.88911855 123.63147 -9.0152369 -72.520149 -8.9993458 -73.088211 -0.20181878 -88.518532
9211562500 -0.88537151 123.60036 -9.0189877 -72.514145 -9.0026245 -73.100479 -0.20389871 -88.518723
9211625000 -0.88959199 123.5668 -9.0153637 -72.578514 -9.0078201 -73.091309 -0.21498768 -88.517311
9211687500 -0.88847661 123.59358 -9.0164528 -72.502846 -9.0099163 -73.049706 -0.20755292 -88.485901
9211750000 -0.8863368 123.56438 -9.015728 -72.479233 -9.0076752 -73.05706 -0.21196581 -88.450745
9211812500 -0.89019328 123.5169 -9.0059414 -72.510994 -9.0002909 -73.063774 -0.21750681 -88.46225
9211875000 -0.89261013 123.50999 -9.0202589 -72.541786 -9.0084791 -73.035591 -0.21371484 -88.420784
9211937500 -0.88934749 123.47045 -9.0041742 -72.53363 -8.999651 -73.038696 -0.20399842 -88.416237
9212000000 -0.88944179 123.46284 -9.0044174 -72.507599 -9.0074587 -73.048958 -0.21086423 -88.331978
9212062500 -0.89551544 123.44769 -9.0134935 -72.521385 -9.0090036 -72.994133 -0.21736845 -88.331749
9212125000 -0.89132971 123.41887 -9.0058327 -72.55748 -8.9971333 -72.978752 -0.21199822 -88.264313
9212187500 -0.89105213 123.37294 -8.9990368 -72.49353 -9.0034504 -73.03553 -0.21536124 -88.260399
