!Agilent Technologies,N5242A,MY51221714,A.09.90.19
!Agilent N5242A: A.09.90.19
!Date: Saturday, March 16, 2024 09:32:31
!Correction: S11(Full 2 Port(1,2)) 
!S21(Full 2 Port(1,2)) 
!S12(Full 2 Port(1,2)) 
!S22(Full 2 Port(1,2)) 
!S2P File: Measurements: S11, S21, S12, S22:
# Hz S  dB   R 50
9200000000 -0.96256286 125.38912 -8.9939318 -74.003876 -8.983469 -74.543922 -0.25598294 -92.218559
9200062500 -0.96464717 125.38123 -8.9902964 -73.915451 -8.9845152 -74.552689 -0.2535944 -92.192039
9200125000 -0.96774381 125.38209 -8.9900494 -73.924324 -8.9781256 -74.554031 -0.25100237 -92.21096
9200187500 -0.96545428 125.36009 -8.9918232 -73.966545 -8.977149 -74.531097 -0.25260189 -92.160164
9200250000 -0.96474791 125.34897 -8.9869032 -73.924263 -8.9776402 -74.563911 -0.25682223 -92.15889
9200312500 -0.96313751 125.34466 -8.996644 -73.911125 -8.9713459 -74.560188 -0.25266561 -92.16291
9200375000 -0.96218747 125.29683 -8.9854498 -74.001862 -8.962903 -74.524727 -0.25187844 -92.100044
9200437500 -0.95853388 125.30659 -8.9830561 -73.894226 -8.9670305 -74.568237 -0.25505087 -92.114532
9200500000 -0.96021914 125.29653 -8.987154 -73.941086 -8.9609995 -74.579277 -0.2508359 -92.088501
9200562500 -0.96088862 125.26118 -8.9880533 -74.017036 -8.9661016 -74.568375 -0.2639856 -92.0877
9200625000 -0.96271491 125.26643 -8.9915257 -73.865715 -8.9623919 -74.550644 -0.25418043 -92.022919
9200687500 -0.96217179 125.26534 -8.9882336 -73.921562 -8.9662561 -74.552498 -0.2648361 -91.997665
9200750000 -0.96161115 125.23679 -8.9860868 -73.885719 -8.959466 -74.548241 -0.26198375 -91.997421
9200812500 -0.95809454 125.21554 -8.9847507 -73.883347 -8.9596529 -74.529587 -0.26336879 -91.926689
9200875000 -0.96139777 125.23447 -8.9858456 -73.832733 -8.9620047 -74.552338 -0.27250925 -91.91098
9200937500 -0.96464688 125.23038 -8.9885063 -73.831726 -8.9539652 -74.532082 -0.26161847 -91.902077
9201000000 -0.96454936 125.17847 -8.9792366 -73.872421 -8.9606266 -74.52459 -0.26549202 -91.864105
9201062500 -0.95578402 125.18333 -8.9706373 -73.876892 -8.9602718 -74.499222 -0.26469594 -91.835152
9201125000 -0.95657653 125.16781 -8.9709892 -73.848404 -8.9724932 -74.519714 -0.27312517 -91.825996
9201187500 -0.95735693 125.1511 -8.9758511 -73.899696 -8.963563 -74.464417 -0.26053983 -91.803192
9201250000 -0.95878595 125.13836 -8.9719858 -73.881218 -8.9638777 -74.441933 -0.2565597 -91.803154
9201312500 -0.96263599 125.09126 -8.9716091 -73.941925 -8.9632111 -74.524925 -0.26056892 -91.87561
9201375000 -0.96535325 125.09161 -8.9730425 -73.907028 -8.9591694 -74.538971 -0.25561351 -91.849899
9201437500 -0.96520674 125.06053 -8.9791002 -73.952431 -8.9560881 -74.461433 -0.26331988 -91.821815
9201500000 -0.96511436 125.07368 -8.9764462 -73.865845 -8.9619608 -74.533661 -0.25437966 -91.830963
9201562500 -0.96361029 125.08443 -8.9783735 -73.900108 -8.9677076 -74.449867 -0.26276943 -91.77935
9201625000 -0.96721578 125.0537 -8.9786682 -73.890335 -8.9614353 -74.468132 -0.25879651 -91.765846
9201687500 -0.96692652 125.05346 -8.9698772 -73.900948 -8.9605761 -74.517784 -0.26237574 -91.803268
9201750000 -0.96442038 125.0424 -8.9843292 -73.861183 -8.9530258 -74.454605 -0.2624017 -91.714081
9201812500 -0.9632073 125.0117 -8.9775667 -73.917854 -8.9559364 -74.526169 -0.26848078 -91.717789
9201875000 -0.95516258 125.01467 -8.9652863 -73.872017 -8.9589148 -74.511139 -0.26957822 -91.691833
9201937500 -0.96352905 124.99694 -8.9711323 -73.873795 -8.9551735 -74.471588 -0.2674287 -91.65197
9202000000 -0.96207547 124.95155 -8.9697905 -73.874664 -8.9509935 -74.4664 -0.2633459 -91.663849
9202062500 -0.96122038 124.93863 -8.9665365 -73.836678 -8.9524765 -74.543823 -0.26172596 -91.66452
9202125000 -0.95802099 124.89909 -8.9600163 -73.953903 -8.955657 -74.485222 -0.26541811 -91.607613
9202187500 -0.95842689 124.91774 -8.9619064 -73.881416 -8.9565811 -74.489929 -0.26576203 -91.598541
9202250000 -0.96252555 124.88459 -8.9584885 -73.91877 -8.9517584 -74.516579 -0.26443076 -91.553497
9202312500 -0.96307385 124.87716 -8.9632177 -73.86982 -8.9579973 -74.500519 -0.26188937 -91.547325
9202375000 -0.96291316 124.88998 -8.9551325 -73.889526 -8.9579296 -74.526505 -0.26667604 -91.567505
9202437500 -0.96078169 124.84986 -8.9569511 -73.887901 -8.9537058 -74.533859 -0.26819453 -91.570587
9202500000 -0.96447325 124.84664 -8.9617643 -73.886993 -8.9563341 -74.475929 -0.26739711 -91.480492
9202562500 -0.96492583 124.86989 -8.9703493 -73.859634 -8.9446554 -74.460625 -0.26472342 -91.469391
9202625000 -0.96441978 124.84119 -8.9621305 -73.86499 -8.9479313 -74.520256 -0.26923093 -91.477592
9202687500 -0.96293217 124.8125 -8.9638376 -73.942436 -8.9471626 -74.499397 -0.27114332 -91.478195
9202750000 -0.96443176 124.78416 -8.9602127 -73.889954 -8.9463644 -74.487732 -0.27089229 -91.418938
9202812500 -0.96535045 124.78939 -8.9592428 -73.834465 -8.9514952 -74.470535 -0.27168414 -91.426178
9202875000 -0.96849132 124.76636 -8.968277 -73.887299 -8.9359407 -74.444786 -0.27252537 -91.383888
9202937500 -0.96712315 124.79511 -8.9596825 -73.79319 -8.9408331 -74.487617 -0.26694807 -91.382622
9203000000 -0.96539956 124.72283 -8.9571238 -73.909393 -8.948534 -74.507286 -0.26884142 -91.387146
9203062500 -0.96681279 124.71429 -8.9588299 -73.891716 -8.943428 -74.46595 -0.26688248 -91.313599
9203125000 -0.9596082 124.70448 -8.953227 -73.888969 -8.9427595 -74.465698 -0.27212253 -91.35183
9203187500 -0.96198058 124.66881 -8.9516649 -73.904358 -8.9428501 -74.513489 -0.26822114 -91.281456
9203250000 -0.9616974 124.71184 -8.9636984 -73.837044 -8.9457512 -74.478081 -0.26757774 -91.263336
9203312500 -0.9606483 124.68977 -8.9546947 -73.905434 -8.9476423 -74.502167 -0.27282321 -91.266495
9203375000 -0.95947498 124.67529 -8.9553213 -73.85331 -8.9446135 -74.463203 -0.26493624 -91.206306
9203437500 -0.96163863 124.65556 -8.9572821 -73.883545 -8.9521627 -74.480576 -0.27520949 -91.254646
9203500000 -0.95652533 124.63219 -8.9549379 -73.88546 -8.9426889 -74.505501 -0.26798421 -91.202591
9203562500 -0.96425033 124.60141 -8.9558172 -73.880371 -8.9437037 -74.43499 -0.27266821 -91.18309
9203625000 -0.96479911 124.59094 -8.956255 -73.837448 -8.9434404 -74.421326 -0.27320215 -91.142586
9203687500 -0.96033466 124.5809 -8.9497004 -73.853256 -8.9383078 -74.415787 -0.27160567 -91.14521
9203750000 -0.96088517 124.56248 -8.9489079 -73.902222 -8.9373531 -74.438148 -0.27432021 -91.128853
9203812500 -0.96574318 124.53961 -8.9572678 -73.873726 -8.9350424 -74.434723 -0.27587536 -91.111443
9203875000 -0.96913779 124.52092 -8.9519625 -73.914551 -8.9336157 -74.490387 -0.27578399 -91.13623
9203937500 -0.960554 124.52654 -8.9536753 -73.92247 -8.9345217 -74.435921 -0.28085396 -91.066078
9204000000 -0.96184075 124.52453 -8.9568596 -73.893845 -8.9324608 -74.403587 -0.28247654 -91.054718
9204062500 -0.95725536 124.51031 -8.9479513 -73.82682 -8.9295807 -74.420334 -0.27744657 -91.078934
9204125000 -0.95682752 124.48188 -8.9489222 -73.810539 -8.9148932 -74.414154 -0.27775753 -91.054573
9204187500 -0.95639437 124.4846 -8.9511728 -73.836617 -8.9319525 -74.457184 -0.28057477 -91.046173
9204250000 -0.95617026 124.46912 -8.9544983 -73.832817 -8.9233332 -74.43898 -0.27185091 -91.024612
9204312500 -0.95514536 124.4425 -8.9520512 -73.863548 -8.9282484 -74.426567 -0.28430033 -90.99939
9204375000 -0.95495909 124.46712 -8.9472065 -73.78006 -8.9268036 -74.453957 -0.27959663 -90.986748
9204437500 -0.95032793 124.42869 -8.9420404 -73.807922 -8.9276171 -74.455605 -0.27846909 -90.957809
9204500000 -0.95187134 124.39254 -8.9377308 -73.785172 -8.9251595 -74.428703 -0.26532263 -90.92131
9204562500 -0.95094174 124.38647 -8.9387636 -73.829361 -8.9301634 -74.448143 -0.2801958 -90.934258
9204625000 -0.9595229 124.35001 -8.9415913 -73.804482 -8.9342785 -74.392097 -0.27220345 -90.842064
9204687500 -0.95008272 124.37727 -8.9342051 -73.822441 -8.9261446 -74.463181 -0.26790586 -90.913132
9204750000 -0.95438498 124.35578 -8.9388361 -73.781998 -8.9281301 -74.420052 -0.27032477 -90.822136
9204812500 -0.95869303 124.40332 -8.9396524 -73.758507 -8.9247618 -74.412292 -0.27175403 -90.820511
9204875000 -0.96042562 124.35133 -8.9389524 -73.76738 -8.9152136 -74.392273 -0.27646455 -90.776733
9204937500 -0.96261245 124.31834 -8.9405212 -73.789299 -8.9197941 -74.40789 -0.27532378 -90.811668
9205000000 -0.96449357 124.29559 -8.9429693 -73.819275 -8.9170732 -74.367805 -0.27650031 -90.812096
9205062500 -0.96458381 124.32079 -8.9465656 -73.785545 -8.9233541 -74.404762 -0.27975351 -90.759102
9205125000 -0.9660179 124.25076 -8.9337234 -73.761505 -8.9171333 -74.439949 -0.27239901 -90.758278
9205187500 -0.96683693 124.2488 -8.9357824 -73.831894 -8.9237566 -74.433327 -0.26737002 -90.780777
9205250000 -0.96627212 124.21156 -8.9349537 -73.830353 -8.9165907 -74.396538 -0.27401531 -90.718338
9205312500 -0.96564549 124.21381 -8.932045 -73.746986 -8.9169407 -74.468483 -0.26935637 -90.730644
9205375000 -0.97064728 124.15296 -8.9351244 -73.806519 -8.9258595 -74.408066 -0.27223304 -90.666359
9205437500 -0.96601969 124.16528 -8.9334888 -73.782059 -8.9212608 -74.413078 -0.27075469 -90.692039
9205500000 -0.96507519 124.15381 -8.9395065 -73.761047 -8.9209747 -74.431511 -0.27935138 -90.706444
9205562500 -0.95976681 124.14371 -8.9250507 -73.815361 -8.9304476 -74.378487 -0.27902937 -90.650848
9205625000 -0.96566868 124.13004 -8.9285297 -73.751854 -8.9290066 -74.405594 -0.27722037 -90.659729
9205687500 -0.95882446 124.13464 -8.9133692 -73.787262 -8.9231472 -74.402512 -0.27395514 -90.608986
9205750000 -0.95683521 124.12495 -8.9185743 -73.787918 -8.915185 -74.390701 -0.26921386 -90.607521
9205812500 -0.96236169 124.11772 -8.9312763 -73.817528 -8.9268608 -74.323845 -0.27487856 -90.564919
9205875000 -0.96169496 124.09313 -8.9301739 -73.796196 -8.9195023 -74.395653 -0.27386504 -90.576492
9205937500 -0.95600593 124.10511 -8.9244041 -73.824593 -8.9168444 -74.364258 -0.27635431 -90.551765
9206000000 -0.9565022 124.09645 -8.9245796 -73.745117 -8.9277678 -74.378372 -0.28026766 -90.513016
9206062500 -0.95984793 124.06343 -8.9343853 -73.768867 -8.9250507 -74.349236 -0.28405523 -90.524025
9206125000 -0.95886302 124.06081 -8.922307 -73.80629 -8.9214535 -74.385338 -0.28006232 -90.469421
9206187500 -0.95707095 124.06063 -8.9232578 -73.790276 -8.9145832 -74.41732 -0.27174592 -90.476135
9206250000 -0.9533748 124.03909 -8.9183521 -73.724739 -8.918972 -74.385406 -0.28204754 -90.405983
9206312500 -0.95848119 124.05257 -8.9210625 -73.773308 -8.9059792 -74.396255 -0.2765168 -90.428085
9206375000 -0.95908076 124.0209 -8.9213829 -73.769028 -8.9048834 -74.398796 -0.27243263 -90.41523
9206437500 -0.95756471 124.06956 -8.9125881 -73.702652 -8.9101591 -74.429123 -0.27489385 -90.43454
9206500000 -0.95603132 124.03207 -8.9177017 -73.736992 -8.9050417 -74.381531 -0.27501112 -90.387108
9206562500 -0.96163362 123.99681 -8.9158983 -73.748985 -8.9035072 -74.424065 -0.2691136 -90.337425
9206625000 -0.96314573 123.95155 -8.9161587 -73.742455 -8.8938513 -74.383835 -0.26417965 -90.330711
9206687500 -0.96253192 123.95687 -8.9125929 -73.702911 -8.9032965 -74.373093 -0.26980051 -90.291718
9206750000 -0.9679848 123.95097 -8.9092798 -73.687439 -8.8986216 -74.386024 -0.26649034 -90.26815
9206812500 -0.96922171 123.92773 -8.9101009 -73.700333 -8.8973217 -74.310333 -0.27345964 -90.19651
9206875000 -0.9666456 123.89715 -8.9074421 -73.712669 -8.8936586 -74.394341 -0.2652759 -90.246994
9206937500 -0.961909 123.87997 -8.8999538 -73.730736 -8.8925028 -74.362495 -0.26180571 -90.212288
9207000000 -0.9602595 123.84763 -8.9079561 -73.764954 -8.9031649 -74.407684 -0.27297518 -90.254524
9207062500 -0.95655823 123.84718 -8.9086494 -73.774139 -8.9069014 -74.411987 -0.27943355 -90.254463
9207125000 -0.95471317 123.82274 -8.9141941 -73.754471 -8.9041405 -74.386887 -0.27910787 -90.18576
9207187500 -0.95776147 123.79632 -8.9100437 -73.734154 -8.9061337 -74.340576 -0.28419042 -90.205467
9207250000 -0.95744818 123.77471 -8.914011 -73.802254 -8.9062052 -74.328613 -0.28727436 -90.148285
9207312500 -0.9551518 123.77364 -8.9081812 -73.759369 -8.9028702 -74.346985 -0.28550634 -90.169006
9207375000 -0.95755464 123.72842 -8.9108143 -73.807922 -8.9058218 -74.380272 -0.28807244 -90.198158
9207437500 -0.96002424 123.69801 -8.9047937 -73.812706 -8.8911781 -74.389603 -0.28616285 -90.172523
9207500000 -0.96142179 123.70497 -8.9089947 -73.806236 -8.8894987 -74.407402 -0.28567478 -90.123688
9207562500 -0.96225405 123.65619 -8.905117 -73.775475 -8.890625 -74.368668 -0.28390235 -90.131744
9207625000 -0.96338469 123.67018 -8.9070005 -73.820107 -8.8899965 -74.352829 -0.28495467 -90.120285
9207687500 -0.96287233 123.66308 -8.9082251 -73.784088 -8.8859949 -74.39045 -0.27574149 -90.132248
9207750000 -0.96518475 123.66981 -8.9013081 -73.727753 -8.8886604 -74.38723 -0.27773929 -90.099358
9207812500 -0.96680003 123.66023 -8.9120932 -73.777008 -8.8983183 -74.359528 -0.27838549 -90.058891
9207875000 -0.96548867 123.62245 -8.8960342 -73.797684 -8.8929958 -74.41333 -0.26973385 -90.038208
9207937500 -0.96795791 123.64036 -8.9001513 -73.7799 -8.8875809 -74.375092 -0.26822522 -90.017502
9208000000 -0.96834791 123.64521 -8.8950109 -73.672531 -8.8879538 -74.38047 -0.26546171 -89.946373
9208062500 -0.96735406 123.61826 -8.908783 -73.681374 -8.8852549 -74.366127 -0.2733525 -89.946335
9208125000 -0.96305633 123.60402 -8.8997154 -73.750679 -8.8929224 -74.423256 -0.27683553 -89.938881
9208187500 -0.96579581 123.63564 -8.8957186 -73.702675 -8.894249 -74.359818 -0.28471243 -89.896332
9208250000 -0.96460778 123.58379 -8.9072189 -73.720047 -8.8922157 -74.327591 -0.29156899 -89.874474
9208312500 -0.96548843 123.56844 -8.8940849 -73.737587 -8.8953791 -74.274773 -0.29000542 -89.804306
9208375000 -0.96254689 123.56126 -8.9022455 -73.695572 -8.8851137 -74.357765 -0.28504756 -89.859039
9208437500 -0.96449012 123.5591 -8.9011831 -73.745926 -8.8901367 -74.343636 -0.28574756 -89.865456
9208500000 -0.96178538 123.50092 -8.8977175 -73.773567 -8.8877192 -74.301445 -0.28983447 -89.80291
9208562500 -0.96108496 123.4981 -8.895999 -73.703148 -8.8787889 -74.274055 -0.28343448 -89.792412
9208625000 -0.96598703 123.44825 -8.8948193 -73.735802 -8.8876343 -74.302429 -0.28106105 -89.80056
9208687500 -0.96092415 123.43409 -8.8923893 -73.778702 -8.8875294 -74.295135 -0.28637215 -89.729111
9208750000 -0.96388793 123.42609 -8.8904533 -73.816818 -8.8762197 -74.343895 -0.27744398 -89.764809
9208812500 -0.96862829 123.44949 -8.8916636 -73.769699 -8.8830252 -74.31591 -0.28662497 -89.768112
9208875000 -0.96438378 123.43764 -8.8932171 -73.781639 -8.8801107 -74.318909 -0.27602658 -89.778137
9208937500 -0.96074307 123.42753 -8.8883371 -73.726135 -8.8832569 -74.36042 -0.2843774 -89.765587
9209000000 -0.96526265 123.48022 -8.8922367 -73.683632 -8.8801603 -74.349312 -0.27996308 -89.704689
9209062500 -0.96253413 123.4667 -8.8894968 -73.664154 -8.8837051 -74.366722 -0.28304359 -89.716812
9209125000 -0.96184611 123.45145 -8.886199 -73.737068 -8.8775377 -74.330956 -0.28070644 -89.673599
9209187500 -0.96255076 123.47773 -8.8820362 -73.654381 -8.8874111 -74.315727 -0.28693837 -89.667542
9209250000 -0.96041715 123.44028 -8.8803864 -73.668602 -8.8833656 -74.307808 -0.28513959 -89.660423
9209312500 -0.95941174 123.37771 -8.8816109 -73.719139 -8.8831053 -74.344933 -0.28270552 -89.616676
9209375000 -0.96095335 123.37047 -8.8813457 -73.686607 -8.8861227 -74.282875 -0.28841311 -89.593452
9209437500 -0.96395576 123.37703 -8.8842058 -73.670471 -8.8792772 -74.246552 -0.28658593 -89.565895
9209500000 -0.96154696 123.30082 -8.87288 -73.757904 -8.8776789 -74.333458 -0.28237313 -89.571625
9209562500 -0.96113968 123.28284 -8.8717709 -73.724655 -8.8850336 -74.296387 -0.29164803 -89.510803
9209625000 -0.96256882 123.30154 -8.8784952 -73.726517 -8.8743477 -74.351799 -0.28623632 -89.528664
9209687500 -0.96209985 123.28093 -8.8836565 -73.737808 -8.8748465 -74.337173 -0.28432718 -89.516663
9209750000 -0.9685452 123.32229 -8.8925486 -73.702835 -8.8689432 -74.286743 -0.28238773 -89.481255
9209812500 -0.97084427 123.26732 -8.887742 -73.743172 -8.8745928 -74.284714 -0.28210127 -89.455551
9209875000 -0.9692409 123.25873 -8.8877277 -73.73288 -8.8711901 -74.311058 -0.27874252 -89.443733
9209937500 -0.96593404 123.27575 -8.8828144 -73.730331 -8.8709145 -74.225487 -0.2802417 -89.350822
9210000000 -0.9628706 123.1992 -8.8723555 -73.719391 -8.8763866 -74.260956 -0.27882689 -89.387962
9210062500 -0.9659847 123.23004 -8.8827353 -73.709793 -8.8694382 -74.304443 -0.28517607 -89.357132
9210125000 -0.96190131 123.19014 -8.8731995 -73.725609 -8.8694181 -74.235786 -0.28215733 -89.360878
9210187500 -0.96085823 123.21758 -8.8776751 -73.661194 -8.8656149 -74.286674 -0.27970088 -89.387856
9210250000 -0.96277213 123.17207 -8.8693972 -73.727379 -8.8682356 -74.236076 -0.2798472 -89.30751
9210312500 -0.95970482 123.13886 -8.8840342 -73.682304 -8.8647461 -74.271973 -0.28780115 -89.315865
9210375000 -0.96112621 123.1357 -8.8775759 -73.673225 -8.8619232 -74.263306 -0.28451452 -89.294006
9210437500 -0.9577567 123.11424 -8.8798323 -73.697762 -8.8622084 -74.237556 -0.2834425 -89.296623
9210500000 -0.96000969 123.12196 -8.8701391 -73.728798 -8.8725605 -74.241936 -0.29649404 -89.255554
9210562500 -0.95347852 123.10892 -8.8667717 -73.646278 -8.8697815 -74.235596 -0.2926324 -89.259476
9210625000 -0.95332128 123.0527 -8.8725901 -73.672928 -8.8641167 -74.241135 -0.29388267 -89.236481
9210687500 -0.95939565 123.01862 -8.8755007 -73.71743 -8.8647146 -74.216232 -0.29665202 -89.194893
9210750000 -0.95989138 122.99967 -8.8743248 -73.643509 -8.8575497 -74.27076 -0.2955173 -89.177208
9210812500 -0.9557665 123.01593 -8.8780937 -73.700577 -8.8618803 -74.250137 -0.29837948 -89.172318
9210875000 -0.95890355 122.97793 -8.8727064 -73.676765 -8.8625708 -74.227264 -0.29110858 -89.104874
9210937500 -0.96023941 122.96406 -8.8771076 -73.676888 -8.867219 -74.275513 -0.2955327 -89.144104
9211000000 -0.96370924 122.96053 -8.875823 -73.679306 -8.8682547 -74.273895 -0.29721817 -89.098251
9211062500 -0.96560758 122.94997 -8.8661423 -73.685165 -8.8613415 -74.306084 -0.29072747 -89.128044
9211125000 -0.96460378 122.96737 -8.8612423 -73.687866 -8.8625965 -74.264214 -0.28947872 -89.136559
9211187500 -0.9689672 122.95944 -8.8662634 -73.699677 -8.8592291 -74.330132 -0.29276541 -89.179947
9211250000 -0.97421962 122.94356 -8.8749228 -73.762184 -8.8640594 -74.309143 -0.29143643 -89.177032
9211312500 -0.97054398 122.94907 -8.8669147 -73.717789 -8.8549004 -74.263565 -0.28584906 -89.128242
9211375000 -0.97168773 122.92287 -8.8767109 -73.709801 -8.8523893 -74.266693 -0.28647029 -89.043282
9211437500 -0.96907061 122.91669 -8.8654671 -73.703079 -8.8590145 -74.259857 -0.28335875 -89.002045
9211500000 -0.96569806 122.88963 -8.8666515 -73.724716 -8.8642712 -74.259636 -0.29298803 -89.051476
9211562500 -0.97285211 122.90076 -8.8739748 -73.680046 -8.8533449 -74.238968 -0.29124165 -89.0214
9211625000 -0.96793592 122.87084 -8.8670521 -73.693329 -8.8570509 -74.246605 -0.29277706 -88.985512
9211687500 -0.96781397 122.85392 -8.8634071 -73.648209 -8.8572512 -74.162514 -0.29708344 -88.944435
9211750000 -0.96687436 122.8047 -8.8653412 -73.70063 -8.8603573 -74.183624 -0.30343243 -88.928368
9211812500 -0.97021031 122.80545 -8.8695707 -73.69239 -8.8585377 -74.206734 -0.2992574 -88.93103
9211875000 -0.97045165 122.8031 -8.8583221 -73.637527 -8.8544407 -74.226646 -0.29782981 -88.885796
9211937500 -0.96931118 122.80589 -8.8637667 -73.655106 -8.8501406 -74.203751 -0.29603201 -88.854584
9212000000 -0.97170663 122.75667 -8.8532457 -73.675056 -8.8554535 -74.193802 -0.29953206 -88.811081
9212062500 -0.96895134 122.69983 -8.8538475 -73.726883 -8.8503971 -74.237778 -0.29741797 -88.807732
9212125000 -0.9736554 122.71322 -8.8574991 -73.677139 -8.8534184 -74.188904 -0.29987064 -88.714432
9212187500 -0.97221845 122.67911 -8.8537731 -73.682259 -8.8521109 -74.184113 -0.29719427 -88.75515
