!Agilent Technologies,N5242A,MY51221714,A.09.90.19
!Agilent N5242A: A.09.90.19
!Date: Saturday, March 16, 2024 09:31:21
!Correction: S11(Full 2 Port(1,2)) 
!S21(Full 2 Port(1,2)) 
!S12(Full 2 Port(1,2)) 
!S22(Full 2 Port(1,2)) 
!S2P File: Measurements: S11, S21, S12, S22:
# Hz S  dB   R 50
9200000000 -0.88802963 126.02927 -9.1190643 -72.909439 -9.1062937 -73.517586 -0.18065758 -91.725281
9200062500 -0.89504421 126.02477 -9.1294622 -72.856674 -9.1055021 -73.522598 -0.18500021 -91.753716
9200125000 -0.89277852 126.03707 -9.1205616 -72.967377 -9.1117067 -73.492004 -0.18417484 -91.683464
9200187500 -0.89353442 126.00575 -9.1210508 -72.872673 -9.1085453 -73.505844 -0.18521661 -91.709152
9200250000 -0.89480954 126.00832 -9.1277828 -72.919159 -9.0998793 -73.511566 -0.18078917 -91.656883
9200312500 -0.88751507 126.00426 -9.1131506 -72.843758 -9.0913076 -73.529709 -0.17466056 -91.687706
9200375000 -0.89290142 125.98212 -9.1146641 -72.914619 -9.0964422 -73.488045 -0.17343448 -91.666786
9200437500 -0.88575149 126.00034 -9.11518 -72.8564 -9.0942745 -73.487 -0.18006863 -91.610855
9200500000 -0.88657635 125.93147 -9.1143847 -72.892685 -9.0987387 -73.445618 -0.18534204 -91.581055
9200562500 -0.89380461 125.92283 -9.1176405 -72.903618 -9.0861092 -73.496635 -0.18081357 -91.595688
9200625000 -0.88619512 125.92059 -9.1146879 -72.922798 -9.0919991 -73.518051 -0.18778957 -91.589973
9200687500 -0.88758188 125.88904 -9.1178102 -72.884796 -9.0959263 -73.494736 -0.19140719 -91.529945
9200750000 -0.89200121 125.90428 -9.1208267 -72.855232 -9.0879593 -73.445618 -0.19016521 -91.529686
9200812500 -0.89167613 125.8624 -9.1249838 -72.830078 -9.0941525 -73.488953 -0.19745636 -91.457916
9200875000 -0.88952065 125.89136 -9.1171627 -72.799706 -9.0906038 -73.45472 -0.1914656 -91.429306
9200937500 -0.89017296 125.84957 -9.1224079 -72.851257 -9.0897942 -73.460876 -0.19245864 -91.414871
9201000000 -0.88165826 125.84046 -9.1059017 -72.808327 -9.0904951 -73.473816 -0.19000737 -91.393539
9201062500 -0.88992536 125.87425 -9.1177549 -72.807304 -9.0890255 -73.470467 -0.18920164 -91.386536
9201125000 -0.88712901 125.80869 -9.1045752 -72.849663 -9.0910978 -73.475174 -0.1898694 -91.379784
9201187500 -0.88771945 125.78527 -9.099865 -72.834114 -9.0889959 -73.450035 -0.18662371 -91.35434
9201250000 -0.88637918 125.79344 -9.0968351 -72.84256 -9.0842962 -73.459961 -0.1874831 -91.362862
9201312500 -0.88451791 125.7869 -9.1050549 -72.77536 -9.0955677 -73.457535 -0.19151244 -91.315544
9201375000 -0.88602394 125.72318 -9.1035566 -72.797844 -9.0907497 -73.429337 -0.19459786 -91.358192
9201437500 -0.88665831 125.73627 -9.1060524 -72.875008 -9.0981979 -73.45285 -0.19111931 -91.356064
9201500000 -0.89475721 125.72659 -9.1151409 -72.870842 -9.0901575 -73.448502 -0.18721835 -91.338478
9201562500 -0.89100724 125.75197 -9.1186466 -72.794731 -9.084096 -73.462631 -0.18746248 -91.319008
9201625000 -0.89266884 125.71637 -9.1103945 -72.81105 -9.0835285 -73.433411 -0.18702103 -91.340408
9201687500 -0.890302 125.70223 -9.1004238 -72.822418 -9.0844431 -73.375153 -0.18200928 -91.243645
9201750000 -0.89088422 125.6703 -9.1072721 -72.836502 -9.0813847 -73.454201 -0.18841843 -91.286552
9201812500 -0.88753629 125.68321 -9.1075258 -72.795799 -9.0886469 -73.414024 -0.19381267 -91.221626
9201875000 -0.88800335 125.62223 -9.0976162 -72.766525 -9.0916405 -73.411255 -0.19621384 -91.187904
9201937500 -0.88454676 125.62445 -9.0987005 -72.797791 -9.0867348 -73.397018 -0.19507936 -91.172142
9202000000 -0.8865158 125.58461 -9.0996933 -72.883423 -9.0814791 -73.414696 -0.19360742 -91.137245
9202062500 -0.88829625 125.61483 -9.0951767 -72.834587 -9.0938311 -73.373146 -0.19537237 -91.115753
9202125000 -0.8882935 125.60657 -9.0959988 -72.760536 -9.0839729 -73.426506 -0.19328183 -91.122353
9202187500 -0.88777429 125.58424 -9.0984516 -72.7761 -9.0874863 -73.446869 -0.19192903 -91.097885
9202250000 -0.89008814 125.55965 -9.0930042 -72.889069 -9.0891352 -73.503723 -0.1952156 -91.120766
9202312500 -0.88548857 125.57697 -9.086731 -72.793732 -9.0858831 -73.457916 -0.19148776 -91.086998
9202375000 -0.89307553 125.52734 -9.0943279 -72.819717 -9.0839539 -73.471954 -0.1931407 -91.098305
9202437500 -0.89357829 125.52302 -9.0961981 -72.813187 -9.0860033 -73.436012 -0.19363335 -91.057571
9202500000 -0.89170837 125.50283 -9.0912123 -72.774239 -9.0886736 -73.443283 -0.19592555 -91.021255
9202562500 -0.89274806 125.48756 -9.0998888 -72.843666 -9.0868025 -73.432365 -0.19652876 -91.01931
9202625000 -0.89179182 125.5144 -9.0972395 -72.785606 -9.082571 -73.399567 -0.19591184 -91.009209
9202687500 -0.89105439 125.46529 -9.090991 -72.805588 -9.0813026 -73.388748 -0.20003167 -90.970543
9202750000 -0.88930243 125.49265 -9.0993614 -72.75386 -9.0746202 -73.406662 -0.19926858 -90.961685
9202812500 -0.88919985 125.45517 -9.0918102 -72.768738 -9.0829935 -73.38623 -0.20080855 -90.889557
9202875000 -0.89125651 125.41443 -9.0956182 -72.828682 -9.0769253 -73.385345 -0.1930166 -90.924713
9202937500 -0.88717765 125.43898 -9.0869713 -72.820297 -9.0722017 -73.404274 -0.19743749 -90.881653
9203000000 -0.88744873 125.38204 -9.0823488 -72.848732 -9.0706139 -73.426636 -0.19176216 -90.885513
9203062500 -0.89243907 125.38907 -9.0900126 -72.863068 -9.076951 -73.400742 -0.19878839 -90.872711
9203125000 -0.88263798 125.35925 -9.0796432 -72.808182 -9.0776043 -73.402176 -0.1971046 -90.827904
9203187500 -0.88843954 125.32645 -9.086278 -72.843773 -9.0765877 -73.440529 -0.19292398 -90.852196
9203250000 -0.88760614 125.35625 -9.0809498 -72.826408 -9.0782318 -73.392456 -0.19791353 -90.776703
9203312500 -0.89093292 125.32568 -9.0980711 -72.796333 -9.0783424 -73.400536 -0.19302854 -90.795486
9203375000 -0.8879714 125.29813 -9.0923939 -72.822861 -9.0735483 -73.442924 -0.19456665 -90.743973
9203437500 -0.89140779 125.31136 -9.0846701 -72.799103 -9.0696001 -73.395782 -0.19920351 -90.727425
9203500000 -0.88991714 125.30338 -9.0864515 -72.786575 -9.0801859 -73.394844 -0.1953636 -90.702179
9203562500 -0.89339286 125.27801 -9.0808897 -72.799034 -9.0755739 -73.424126 -0.19906864 -90.702385
9203625000 -0.89012879 125.23104 -9.0853119 -72.844772 -9.0667238 -73.457214 -0.20140967 -90.707939
9203687500 -0.89270753 125.22762 -9.0794525 -72.784798 -9.0689917 -73.428322 -0.1974664 -90.691963
9203750000 -0.89032 125.20422 -9.0754576 -72.821465 -9.0718775 -73.412292 -0.20210528 -90.681221
9203812500 -0.88800061 125.19503 -9.0787907 -72.774582 -9.0735035 -73.363777 -0.20840545 -90.640572
9203875000 -0.88824666 125.18198 -9.0845184 -72.865227 -9.0787077 -73.407104 -0.20940013 -90.619736
9203937500 -0.89009541 125.17139 -9.0845356 -72.804733 -9.0596466 -73.384964 -0.20739165 -90.585915
9204000000 -0.88445997 125.16405 -9.083703 -72.842506 -9.0654774 -73.387016 -0.20624802 -90.59404
9204062500 -0.88152021 125.17547 -9.0763407 -72.791412 -9.0598488 -73.354805 -0.2069823 -90.566093
9204125000 -0.88905364 125.16438 -9.0907621 -72.751007 -9.0604277 -73.391609 -0.21418451 -90.575737
9204187500 -0.87807584 125.13712 -9.085187 -72.770958 -9.0673637 -73.426239 -0.21257359 -90.573959
9204250000 -0.88759083 125.12445 -9.0837717 -72.796463 -9.049716 -73.366913 -0.21094669 -90.537369
9204312500 -0.88381976 125.09303 -9.0799131 -72.788475 -9.0567369 -73.346191 -0.20868097 -90.485939
9204375000 -0.8821556 125.07426 -9.0796967 -72.811958 -9.0592203 -73.353256 -0.20896257 -90.50058
9204437500 -0.88703638 125.09093 -9.0811377 -72.752106 -9.0471401 -73.357162 -0.19905694 -90.451523
9204500000 -0.87980241 125.05182 -9.0718508 -72.715591 -9.0614853 -73.345345 -0.20124377 -90.445877
9204562500 -0.87861055 125.03801 -9.0690155 -72.769974 -9.0587387 -73.383858 -0.19848195 -90.427597
9204625000 -0.87856495 125.00499 -9.0705843 -72.671555 -9.0583048 -73.355949 -0.19732992 -90.375229
9204687500 -0.88141304 125.01012 -9.0688343 -72.764183 -9.0523806 -73.336349 -0.19774258 -90.355995
9204750000 -0.88017237 125.00425 -9.0669031 -72.757263 -9.0605431 -73.369934 -0.20654133 -90.336349
9204812500 -0.88672423 124.99708 -9.0726662 -72.707512 -9.0452881 -73.362656 -0.19837435 -90.340622
9204875000 -0.88576239 124.99773 -9.0707302 -72.687752 -9.063055 -73.349503 -0.20708947 -90.322464
9204937500 -0.88570648 124.97034 -9.071517 -72.722336 -9.052906 -73.39743 -0.20055197 -90.369591
9205000000 -0.88200814 124.98435 -9.068223 -72.737915 -9.0491581 -73.391869 -0.20061336 -90.365303
9205062500 -0.88772827 124.966 -9.0694122 -72.732048 -9.055913 -73.364922 -0.21126248 -90.310776
9205125000 -0.88362682 124.94469 -9.0652666 -72.683914 -9.0640802 -73.379486 -0.20718662 -90.315414
9205187500 -0.88926858 124.91994 -9.0607491 -72.682243 -9.0570269 -73.402306 -0.19885463 -90.294136
9205250000 -0.89694172 124.91006 -9.0782766 -72.672882 -9.0567265 -73.373734 -0.20447834 -90.223694
9205312500 -0.88862938 124.83612 -9.0614729 -72.717453 -9.0555754 -73.371078 -0.19992994 -90.239449
9205375000 -0.89328277 124.83526 -9.0600691 -72.69651 -9.0526094 -73.363327 -0.19550626 -90.233688
9205437500 -0.8929528 124.78719 -9.075326 -72.682831 -9.057724 -73.362854 -0.20226806 -90.21022
9205500000 -0.88947994 124.80898 -9.0622015 -72.757965 -9.058135 -73.316399 -0.20220043 -90.157555
9205562500 -0.89541507 124.78445 -9.063261 -72.712624 -9.0539408 -73.317039 -0.19888671 -90.139336
9205625000 -0.88489372 124.80365 -9.0652037 -72.673935 -9.0629959 -73.36319 -0.20578274 -90.155304
9205687500 -0.88790089 124.75122 -9.0672979 -72.772049 -9.0568695 -73.255135 -0.19787392 -90.117676
9205750000 -0.88824141 124.76088 -9.0605431 -72.772591 -9.0564528 -73.32975 -0.20079839 -90.141479
9205812500 -0.88015181 124.76242 -9.0537138 -72.653336 -9.0559387 -73.309761 -0.20228161 -90.107376
9205875000 -0.8853581 124.78333 -9.0626583 -72.710869 -9.0562706 -73.350021 -0.20919585 -90.083031
9205937500 -0.88666016 124.77325 -9.0548887 -72.676834 -9.0518265 -73.327995 -0.20991404 -90.060287
9206000000 -0.88472778 124.75037 -9.0619078 -72.704559 -9.0575991 -73.299217 -0.20715517 -90.047119
9206062500 -0.8827861 124.71939 -9.0563545 -72.718475 -9.0516615 -73.29068 -0.20953971 -90.027145
9206125000 -0.88431209 124.71552 -9.0643158 -72.693253 -9.0409756 -73.263718 -0.20538101 -90.002022
9206187500 -0.88183784 124.67766 -9.0528479 -72.699577 -9.0484819 -73.33847 -0.20446384 -89.989906
9206250000 -0.88470471 124.72252 -9.0585613 -72.682594 -9.0492296 -73.333237 -0.20923968 -89.984779
9206312500 -0.88314062 124.71362 -9.0486059 -72.658745 -9.0420551 -73.308434 -0.19831772 -89.956726
9206375000 -0.88537449 124.67889 -9.0550518 -72.647263 -9.0382729 -73.251236 -0.20345898 -89.88652
9206437500 -0.88946873 124.67295 -9.0522909 -72.645432 -9.0347443 -73.326843 -0.19744129 -89.924026
9206500000 -0.88654888 124.67966 -9.0562601 -72.674873 -9.0375137 -73.38456 -0.19694 -89.917625
9206562500 -0.88682622 124.63447 -9.0454273 -72.654564 -9.0246096 -73.344788 -0.19226663 -89.913254
9206625000 -0.88620168 124.66193 -9.0485144 -72.647156 -9.0310221 -73.341995 -0.19474728 -89.861588
9206687500 -0.88861161 124.61768 -9.0437708 -72.632942 -9.0300198 -73.284737 -0.19322988 -89.859894
9206750000 -0.88932484 124.56687 -9.0463371 -72.722244 -9.0352364 -73.272217 -0.19343171 -89.813599
9206812500 -0.88962036 124.57896 -9.0390787 -72.633049 -9.0267591 -73.307121 -0.19311702 -89.793793
9206875000 -0.89025617 124.55132 -9.0422955 -72.655281 -9.0290956 -73.248848 -0.1945903 -89.761299
9206937500 -0.8896848 124.58301 -9.0389738 -72.657486 -9.0295715 -73.256584 -0.19665995 -89.734001
9207000000 -0.8828299 124.512 -9.0483084 -72.663101 -9.0357237 -73.272003 -0.20399235 -89.717094
9207062500 -0.8822636 124.51675 -9.0422297 -72.647537 -9.0326195 -73.320587 -0.20484225 -89.721664
9207125000 -0.8836866 124.46396 -9.0479498 -72.687965 -9.039484 -73.249054 -0.21009745 -89.731163
9207187500 -0.88519084 124.47225 -9.0440111 -72.699776 -9.0375538 -73.281815 -0.21097147 -89.693398
9207250000 -0.87900466 124.44721 -9.0432148 -72.740784 -9.0456161 -73.269638 -0.21978003 -89.674469
9207312500 -0.88412005 124.42005 -9.0491533 -72.635017 -9.0320463 -73.246017 -0.21290785 -89.652893
9207375000 -0.88679546 124.39959 -9.0370302 -72.657539 -9.033555 -73.193779 -0.20847501 -89.603867
9207437500 -0.88671416 124.38488 -9.0472116 -72.745026 -9.0317612 -73.234238 -0.21525438 -89.622993
9207500000 -0.88685554 124.37268 -9.0477324 -72.696289 -9.0245905 -73.259964 -0.20783938 -89.640671
9207562500 -0.88587552 124.33971 -9.0444593 -72.72274 -9.0356045 -73.287163 -0.21514295 -89.614586
9207625000 -0.8870123 124.29464 -9.0446634 -72.707214 -9.0181131 -73.283257 -0.2053763 -89.608299
9207687500 -0.89128101 124.32938 -9.0409336 -72.702827 -9.0277548 -73.277534 -0.21076421 -89.572784
9207750000 -0.89027786 124.28909 -9.033371 -72.710762 -9.0252295 -73.291153 -0.19914153 -89.559563
9207812500 -0.89086938 124.33097 -9.0350685 -72.65654 -9.0261774 -73.329132 -0.20262764 -89.582664
9207875000 -0.89249665 124.30615 -9.0372629 -72.722008 -9.0285826 -73.296616 -0.20167094 -89.547501
9207937500 -0.89737016 124.30656 -9.0403967 -72.670341 -9.0342617 -73.227142 -0.20284933 -89.480591
9208000000 -0.88980263 124.3295 -9.0404367 -72.619385 -9.0300016 -73.282013 -0.20463505 -89.437302
9208062500 -0.89033324 124.30562 -9.0305119 -72.682037 -9.0323954 -73.257912 -0.20681904 -89.420296
9208125000 -0.88779008 124.32732 -9.0299406 -72.607498 -9.0209942 -73.282623 -0.20076112 -89.451454
9208187500 -0.89128083 124.27273 -9.0358419 -72.64048 -9.0258112 -73.279015 -0.21391147 -89.440331
9208250000 -0.89020807 124.27091 -9.0288601 -72.612801 -9.0306978 -73.264404 -0.21436946 -89.350143
9208312500 -0.88359463 124.20454 -9.028965 -72.676636 -9.0245829 -73.207024 -0.21829487 -89.370567
9208375000 -0.8867622 124.24654 -9.0337811 -72.570251 -9.0176468 -73.272392 -0.21190193 -89.371048
9208437500 -0.8917641 124.2412 -9.03407 -72.64537 -9.0246363 -73.252602 -0.2190778 -89.342072
9208500000 -0.88816696 124.15874 -9.0355244 -72.641426 -9.023489 -73.216423 -0.21225311 -89.298676
9208562500 -0.89154041 124.15617 -9.0320187 -72.697197 -9.0069399 -73.24527 -0.20434597 -89.304123
9208625000 -0.886356 124.11787 -9.0237913 -72.707939 -9.0245724 -73.278458 -0.21052837 -89.325752
9208687500 -0.88918638 124.12291 -9.0334883 -72.659782 -9.0130701 -73.27803 -0.20316471 -89.317909
9208750000 -0.88645595 124.10638 -9.0235386 -72.727325 -9.0094576 -73.20079 -0.2044372 -89.275101
9208812500 -0.88424557 124.09742 -9.0243845 -72.68734 -9.0205164 -73.219223 -0.21226113 -89.232101
9208875000 -0.88917083 124.08795 -9.0253716 -72.653122 -9.0134001 -73.225983 -0.20948803 -89.2425
9208937500 -0.88833672 124.08233 -9.0335007 -72.638573 -9.019846 -73.210571 -0.20739186 -89.235786
9209000000 -0.89119762 124.13345 -9.0314989 -72.635262 -9.0162201 -73.295578 -0.20547119 -89.260727
9209062500 -0.88810402 124.11273 -9.0147495 -72.634674 -9.0166674 -73.258911 -0.21301113 -89.261253
9209125000 -0.8884896 124.13137 -9.0243816 -72.603828 -9.0264835 -73.285538 -0.2102613 -89.239807
9209187500 -0.88290292 124.11943 -9.0131454 -72.588913 -9.0159445 -73.25605 -0.2115171 -89.199287
9209250000 -0.88354641 124.09356 -9.0208607 -72.577782 -9.0235577 -73.227104 -0.21733446 -89.165291
9209312500 -0.88650525 124.03973 -9.0210075 -72.635178 -9.0215759 -73.206429 -0.21657427 -89.13369
9209375000 -0.88650417 124.04581 -9.0169802 -72.590118 -9.0171204 -73.159256 -0.21697631 -89.085762
9209437500 -0.88657194 124.00621 -9.0171175 -72.636238 -9.0227613 -73.170715 -0.21565615 -89.088417
9209500000 -0.88432723 123.99076 -9.0140285 -72.662315 -9.0098753 -73.172562 -0.20603812 -89.031326
9209562500 -0.88450491 123.96648 -9.0234098 -72.594475 -9.0142918 -73.219055 -0.21597603 -89.049759
9209625000 -0.88619709 123.96831 -9.0185289 -72.598747 -9.0135336 -73.217339 -0.20901513 -88.990929
9209687500 -0.89870065 123.907 -9.0225258 -72.696342 -9.005497 -73.186089 -0.20977652 -88.986839
9209750000 -0.88740069 123.95668 -9.0107718 -72.625282 -9.0073071 -73.178291 -0.20263366 -88.973885
9209812500 -0.89430058 123.90852 -9.0156822 -72.65905 -9.010375 -73.17028 -0.21065845 -88.936546
9209875000 -0.88832963 123.92122 -9.0212698 -72.685921 -9.0122414 -73.239296 -0.20928925 -88.936157
9209937500 -0.8880825 123.91589 -9.0115833 -72.660721 -8.99541 -73.295784 -0.19960523 -88.970222
9210000000 -0.88977778 123.89388 -9.0140085 -72.615639 -9.0087662 -73.17469 -0.20484151 -88.920593
9210062500 -0.88793826 123.87387 -9.0067129 -72.702469 -9.0046396 -73.172203 -0.20055446 -88.885872
9210125000 -0.88703179 123.87182 -9.0059023 -72.593285 -8.9950123 -73.157883 -0.19654834 -88.849686
9210187500 -0.88483286 123.85224 -8.9994478 -72.626595 -9.0019264 -73.150024 -0.20774338 -88.884186
9210250000 -0.8821165 123.87508 -9.011014 -72.598839 -9.0033941 -73.115723 -0.20973887 -88.842934
9210312500 -0.88765633 123.82946 -9.0109005 -72.577072 -9.003705 -73.131599 -0.21068598 -88.812202
9210375000 -0.88590264 123.8465 -9.0191355 -72.604721 -9.0061274 -73.176239 -0.21392725 -88.839912
9210437500 -0.883421 123.79684 -9.005209 -72.597511 -8.9961529 -73.096901 -0.20632558 -88.768829
9210500000 -0.88654375 123.76594 -9.0128431 -72.564743 -9.0084105 -73.114861 -0.22005393 -88.737617
9210562500 -0.88748604 123.75719 -9.016489 -72.572258 -9.0067911 -73.136078 -0.22072603 -88.75383
9210625000 -0.87861943 123.72503 -9.0071678 -72.609406 -8.9979181 -73.137245 -0.21697727 -88.721397
9210687500 -0.87797153 123.70933 -9.0049934 -72.533234 -8.9954367 -73.114082 -0.21908464 -88.695084
9210750000 -0.87737757 123.68462 -9.0024424 -72.612473 -9.0001917 -73.141693 -0.22455963 -88.686928
9210812500 -0.88229465 123.68727 -9.0028639 -72.569084 -9.0027008 -73.175385 -0.22263908 -88.673782
9210875000 -0.88620877 123.65328 -9.0134449 -72.558807 -8.9956341 -73.124153 -0.21951415 -88.6436
9210937500 -0.88540971 123.6413 -9.0055485 -72.542152 -8.9991779 -73.198822 -0.22225951 -88.633018
9211000000 -0.88754958 123.61321 -9.0031252 -72.563889 -8.9878302 -73.194519 -0.2168036 -88.67318
9211062500 -0.88556844 123.62112 -9.0042648 -72.554047 -8.9973412 -73.184845 -0.22031099 -88.625122
9211125000 -0.88571936 123.61972 -9.0048313 -72.614929 -9.0010605 -73.156197 -0.21726258 -88.662399
9211187500 -0.89531994 123.64335 -9.0031691 -72.598427 -8.9950066 -73.178963 -0.21356206 -88.64856
9211250000 -0.89254296 123.63581 -8.9999142 -72.640244 -8.9932404 -73.21756 -0.21577838 -88.655594
9211312500 -0.89894074 123.60132 -9.0040264 -72.641533 -9.0006208 -73.206894 -0.21362354 -88.660469
9211375000 -0.89650697 123.58736 -9.0017958 -72.537575 -8.989254 -73.145508 -0.20764132 -88.531281
9211437500 -0.89087331 123.61817 -9.0064468 -72.548737 -8.9885836 -73.170753 -0.21364237 -88.53373
9211500000 -0.89036715 123.58069 -9.0093088 -72.575966 -8.9912605 -73.202721 -0.21924688 -88.540649
9211562500 -0.89136672 123.59573 -9.0023899 -72.567123 -8.9902115 -73.181526 -0.22029056 -88.507996
9211625000 -0.89480466 123.55151 -9.0084171 -72.565857 -8.9968739 -73.17218 -0.21895012 -88.493591
9211687500 -0.89700037 123.5164 -8.9959421 -72.575722 -8.9827108 -73.2024 -0.22015113 -88.472961
9211750000 -0.89176542 123.49422 -8.997426 -72.562866 -8.9890327 -73.134453 -0.22240071 -88.466187
9211812500 -0.88580561 123.50602 -8.9933004 -72.554489 -8.9869947 -73.121948 -0.22424845 -88.411163
9211875000 -0.89552963 123.45381 -8.9936266 -72.588821 -8.98773 -73.087593 -0.22263785 -88.403374
9211937500 -0.88909447 123.45642 -9.0048504 -72.571693 -8.9969788 -73.102112 -0.22153807 -88.332542
9212000000 -0.89374119 123.38525 -8.9923639 -72.624428 -8.9824085 -73.145889 -0.22178288 -88.394455
9212062500 -0.89287561 123.35845 -9.0027285 -72.631485 -8.9942513 -73.107018 -0.21993075 -88.283028
9212125000 -0.89734614 123.37766 -8.9903479 -72.643715 -8.9829388 -73.123344 -0.22618276 -88.266678
9212187500 -0.89574224 123.36073 -8.9898453 -72.556107 -8.975893 -73.110847 -0.21767832 -88.268654
