!Agilent Technologies,N5242A,MY51221714,A.09.90.19
!Agilent N5242A: A.09.90.19
!Date: Saturday, March 16, 2024 09:33:35
!Correction: S11(Full 2 Port(1,2)) 
!S21(Full 2 Port(1,2)) 
!S12(Full 2 Port(1,2)) 
!S22(Full 2 Port(1,2)) 
!S2P File: Measurements: S11, S21, S12, S22:
# Hz S  dB   R 50
9200000000 -0.89305687 126.0238 -9.1095924 -72.781776 -9.1009312 -73.415512 -0.1819637 -91.637863
9200062500 -0.89473397 126.02013 -9.1055813 -72.882233 -9.1007137 -73.484917 -0.18379109 -91.623062
9200125000 -0.89945096 126.03773 -9.1210756 -72.83242 -9.0954151 -73.446404 -0.17760257 -91.600204
9200187500 -0.89187145 125.99809 -9.1008158 -72.857048 -9.0944424 -73.484314 -0.18143757 -91.617088
9200250000 -0.89205027 126.0068 -9.1165133 -72.832756 -9.091464 -73.430626 -0.17746134 -91.574432
9200312500 -0.88983685 125.98193 -9.10746 -72.857849 -9.0894632 -73.497108 -0.17567615 -91.589516
9200375000 -0.89153558 125.97381 -9.1134691 -72.830803 -9.0996456 -73.491913 -0.1865426 -91.554283
9200437500 -0.88557595 125.95564 -9.0988369 -72.87587 -9.0923681 -73.485062 -0.18212306 -91.566856
9200500000 -0.88279599 125.93905 -9.1006136 -72.848923 -9.0799828 -73.43309 -0.1759764 -91.494316
9200562500 -0.88307685 125.91334 -9.1002188 -72.815216 -9.0840511 -73.457283 -0.18190049 -91.518784
9200625000 -0.89021444 125.8907 -9.1148262 -72.822617 -9.0885353 -73.453163 -0.19241342 -91.484627
9200687500 -0.88984042 125.87595 -9.1070061 -72.81295 -9.0798903 -73.406799 -0.18549572 -91.441025
9200750000 -0.88630003 125.91211 -9.1117992 -72.738564 -9.0881443 -73.385651 -0.19178891 -91.393204
9200812500 -0.8925432 125.89297 -9.1125784 -72.754066 -9.0805016 -73.381927 -0.19343974 -91.333199
9200875000 -0.89104593 125.87622 -9.1016197 -72.720688 -9.0883245 -73.393044 -0.19267736 -91.320351
9200937500 -0.89441073 125.87427 -9.1086025 -72.742859 -9.0777798 -73.411606 -0.19052045 -91.334846
9201000000 -0.88998878 125.8389 -9.103467 -72.725349 -9.0867929 -73.407394 -0.19622429 -91.277733
9201062500 -0.88673794 125.85911 -9.0973396 -72.761406 -9.0822773 -73.403084 -0.18918248 -91.280838
9201125000 -0.88729942 125.82688 -9.0938015 -72.706032 -9.0833015 -73.386963 -0.19012703 -91.319511
9201187500 -0.88334674 125.80943 -9.1009398 -72.771599 -9.0857592 -73.432167 -0.18969171 -91.278625
9201250000 -0.88862622 125.79165 -9.0950689 -72.83242 -9.0816498 -73.422661 -0.19521013 -91.280518
9201312500 -0.88639802 125.74518 -9.097476 -72.804077 -9.0803499 -73.362328 -0.18953596 -91.244743
9201375000 -0.88969308 125.74698 -9.0969124 -72.81765 -9.0821953 -73.393684 -0.18668249 -91.258362
9201437500 -0.89140105 125.72488 -9.1004915 -72.778862 -9.08148 -73.414955 -0.18523426 -91.256203
9201500000 -0.89170414 125.74896 -9.0966988 -72.804276 -9.0915527 -73.439522 -0.18841994 -91.253983
9201562500 -0.89407027 125.76581 -9.1000805 -72.744484 -9.0808268 -73.451012 -0.18347809 -91.226761
9201625000 -0.89599657 125.75716 -9.0976591 -72.748116 -9.0884132 -73.373772 -0.19125538 -91.203506
9201687500 -0.89497328 125.70258 -9.1017323 -72.79847 -9.0819311 -73.366051 -0.19068398 -91.194237
9201750000 -0.88794672 125.69022 -9.0920601 -72.78331 -9.0767097 -73.388184 -0.19276385 -91.18721
9201812500 -0.89069062 125.65913 -9.0934887 -72.780113 -9.080348 -73.347557 -0.18867154 -91.133644
9201875000 -0.88777077 125.64898 -9.0820732 -72.771851 -9.0766754 -73.373985 -0.18621561 -91.171211
9201937500 -0.89051062 125.6449 -9.0955534 -72.722137 -9.0748291 -73.342567 -0.19162558 -91.093903
9202000000 -0.8844763 125.61053 -9.0917273 -72.788635 -9.0798855 -73.326332 -0.19131671 -91.046906
9202062500 -0.88804907 125.57751 -9.0874586 -72.74437 -9.0683327 -73.324257 -0.18633337 -91.012138
9202125000 -0.88632756 125.56843 -9.0796947 -72.775757 -9.07901 -73.358398 -0.19168147 -91.040947
9202187500 -0.88454169 125.55096 -9.0816345 -72.785362 -9.0746002 -73.403343 -0.19000641 -91.019714
9202250000 -0.89329368 125.54453 -9.0785952 -72.769913 -9.0706263 -73.35363 -0.18773226 -90.98996
9202312500 -0.88897777 125.52761 -9.0794077 -72.828476 -9.0805254 -73.38092 -0.19053301 -90.983582
9202375000 -0.89191836 125.55775 -9.0767689 -72.754707 -9.0672121 -73.451614 -0.19054958 -91.033691
9202437500 -0.89097661 125.5313 -9.0800838 -72.705612 -9.0699549 -73.391769 -0.1881354 -90.985733
9202500000 -0.89088976 125.5164 -9.0882244 -72.754333 -9.0784168 -73.404762 -0.19384263 -90.972557
9202562500 -0.88704884 125.50586 -9.082365 -72.729805 -9.0754242 -73.349556 -0.19330026 -90.906631
9202625000 -0.88868248 125.54184 -9.0921764 -72.725983 -9.0773993 -73.359131 -0.19495215 -90.869728
9202687500 -0.89829957 125.49841 -9.0954714 -72.773483 -9.0704517 -73.401421 -0.20123023 -90.913162
9202750000 -0.89326841 125.45306 -9.0891514 -72.772972 -9.0738564 -73.347862 -0.20005952 -90.84063
9202812500 -0.88633299 125.45275 -9.0862598 -72.70668 -9.0705233 -73.347099 -0.19827056 -90.820076
9202875000 -0.89409757 125.40637 -9.0910225 -72.779564 -9.0722733 -73.378883 -0.19644311 -90.819389
9202937500 -0.88890308 125.41875 -9.0830517 -72.758118 -9.0750628 -73.379089 -0.2001892 -90.805908
9203000000 -0.88689303 125.38058 -9.0844784 -72.754944 -9.0708294 -73.322594 -0.19929641 -90.785553
9203062500 -0.895877 125.37086 -9.0816383 -72.804398 -9.0651464 -73.361794 -0.19382311 -90.791496
9203125000 -0.88945168 125.35771 -9.0804615 -72.780922 -9.0664082 -73.324951 -0.19435963 -90.744247
9203187500 -0.88790005 125.34636 -9.0793266 -72.736229 -9.0687962 -73.283592 -0.19476244 -90.666893
9203250000 -0.88836062 125.33351 -9.0644531 -72.781464 -9.0648489 -73.349785 -0.19423491 -90.687668
9203312500 -0.8929224 125.3748 -9.0770407 -72.774376 -9.0647869 -73.379761 -0.18832575 -90.685745
9203375000 -0.89188075 125.31596 -9.0782223 -72.748756 -9.070775 -73.372902 -0.19245866 -90.705231
9203437500 -0.89887911 125.33725 -9.0862074 -72.771881 -9.0640402 -73.361687 -0.19452137 -90.672356
9203500000 -0.88980603 125.28519 -9.0725021 -72.745644 -9.0681458 -73.377869 -0.19221793 -90.633423
9203562500 -0.88858902 125.27217 -9.0770397 -72.748192 -9.0717525 -73.374115 -0.20364329 -90.655151
9203625000 -0.8848663 125.30619 -9.0784864 -72.769165 -9.072588 -73.35125 -0.19791122 -90.597649
9203687500 -0.89098507 125.23904 -9.0781536 -72.772987 -9.0627146 -73.351494 -0.19533248 -90.555016
9203750000 -0.8863346 125.21374 -9.0695105 -72.76442 -9.0652313 -73.293152 -0.20679002 -90.562416
9203812500 -0.89234936 125.23591 -9.0787897 -72.762146 -9.0687981 -73.316635 -0.20326778 -90.520355
9203875000 -0.89156049 125.15926 -9.0705566 -72.802902 -9.0612125 -73.357742 -0.20987228 -90.555908
9203937500 -0.88946235 125.18689 -9.0633097 -72.757759 -9.0578089 -73.278564 -0.20801139 -90.483315
9204000000 -0.88868695 125.20166 -9.0774422 -72.733391 -9.0580196 -73.374657 -0.20300302 -90.4925
9204062500 -0.88497883 125.18079 -9.0734119 -72.76506 -9.0530682 -73.310112 -0.21210817 -90.517853
9204125000 -0.88660175 125.11709 -9.0737648 -72.753471 -9.0499573 -73.31842 -0.2113601 -90.449036
9204187500 -0.88483202 125.1595 -9.079361 -72.703819 -9.0527143 -73.284615 -0.20824096 -90.441299
9204250000 -0.8871209 125.06824 -9.0840511 -72.754799 -9.051898 -73.32019 -0.21173166 -90.419304
9204312500 -0.88072485 125.11168 -9.073904 -72.715431 -9.0500231 -73.299484 -0.20509283 -90.4254
9204375000 -0.88330436 125.06319 -9.07621 -72.677948 -9.0522671 -73.339005 -0.20864649 -90.41906
9204437500 -0.879453 125.07732 -9.0664968 -72.707664 -9.0545731 -73.314491 -0.20577107 -90.349136
9204500000 -0.88011825 125.07161 -9.0595255 -72.716667 -9.0503531 -73.28476 -0.20220889 -90.328865
9204562500 -0.88213331 125.07092 -9.0723419 -72.641159 -9.0504017 -73.268951 -0.19702294 -90.337982
9204625000 -0.87862659 125.02345 -9.0595198 -72.683449 -9.0479107 -73.316322 -0.19824666 -90.333534
9204687500 -0.88275754 124.99709 -9.0640144 -72.690933 -9.0431042 -73.331467 -0.1986589 -90.295822
9204750000 -0.88627422 125.05217 -9.0633268 -72.660561 -9.0575552 -73.335152 -0.20709318 -90.295212
9204812500 -0.87977809 124.99548 -9.062624 -72.691223 -9.048048 -73.344063 -0.19928345 -90.251961
9204875000 -0.8845799 125.01688 -9.063694 -72.721237 -9.0428581 -73.275291 -0.19954674 -90.24057
9204937500 -0.89015114 125.03495 -9.0663557 -72.649284 -9.0529451 -73.35968 -0.20031151 -90.291336
9205000000 -0.88084358 124.9884 -9.0598402 -72.691833 -9.0399647 -73.323509 -0.19576295 -90.257515
9205062500 -0.8896234 124.97544 -9.0715208 -72.719955 -9.0504236 -73.328171 -0.2051259 -90.239594
9205125000 -0.88718152 124.95013 -9.0551414 -72.686989 -9.0522165 -73.328407 -0.20417589 -90.215126
9205187500 -0.89253968 124.91502 -9.0609179 -72.632721 -9.0499163 -73.251297 -0.20048887 -90.148689
9205250000 -0.88955706 124.88553 -9.0624037 -72.654694 -9.0444603 -73.331245 -0.19886106 -90.168503
9205312500 -0.89349461 124.85825 -9.0562305 -72.674583 -9.0423508 -73.276062 -0.19592381 -90.097801
9205375000 -0.88839853 124.84502 -9.0545454 -72.638657 -9.0488396 -73.353065 -0.19859356 -90.14138
9205437500 -0.89125365 124.8552 -9.0565615 -72.623329 -9.0459499 -73.304451 -0.20446509 -90.113007
9205500000 -0.88981175 124.84149 -9.057436 -72.618767 -9.055316 -73.27314 -0.20273767 -90.057251
9205562500 -0.88759285 124.82696 -9.0503225 -72.660378 -9.0493221 -73.297768 -0.20114292 -90.103462
9205625000 -0.88623476 124.78249 -9.0456247 -72.643463 -9.0511999 -73.239883 -0.19737905 -90.056412
9205687500 -0.88932091 124.77308 -9.055687 -72.677757 -9.0462723 -73.259163 -0.20519933 -90.043495
9205750000 -0.88808924 124.77491 -9.0488529 -72.719635 -9.0529385 -73.282486 -0.19714585 -90.010246
9205812500 -0.88670427 124.76489 -9.0494213 -72.733353 -9.0495577 -73.226776 -0.20309439 -90.005165
9205875000 -0.88886821 124.7485 -9.0608759 -72.68734 -9.0540285 -73.187935 -0.20391525 -89.94249
9205937500 -0.88577867 124.75838 -9.0500164 -72.650314 -9.047967 -73.284126 -0.20821275 -89.995621
9206000000 -0.8866539 124.77567 -9.0513124 -72.576515 -9.0433407 -73.244057 -0.20468032 -89.960808
9206062500 -0.88541287 124.74839 -9.050745 -72.627472 -9.0380583 -73.244904 -0.20308514 -89.913887
9206125000 -0.89107645 124.71714 -9.0522718 -72.669449 -9.0431461 -73.272408 -0.20808128 -89.927864
9206187500 -0.88735431 124.75275 -9.0589018 -72.613228 -9.0420437 -73.309044 -0.20986676 -89.907776
9206250000 -0.88504773 124.71685 -9.0584087 -72.669624 -9.0405397 -73.278862 -0.20966622 -89.868233
9206312500 -0.87649059 124.73719 -9.0420218 -72.616867 -9.0388718 -73.22554 -0.20483117 -89.847237
9206375000 -0.88348591 124.68825 -9.034277 -72.576981 -9.0268822 -73.263268 -0.1977452 -89.853493
9206437500 -0.8871904 124.69564 -9.0439663 -72.610825 -9.0288029 -73.273521 -0.20157607 -89.824097
9206500000 -0.88221776 124.69699 -9.0420876 -72.591309 -9.0295019 -73.254921 -0.20138165 -89.760536
9206562500 -0.88805085 124.67374 -9.0408344 -72.591537 -9.0279884 -73.283379 -0.19887844 -89.786232
9206625000 -0.89413828 124.64668 -9.0434494 -72.619453 -9.026494 -73.264351 -0.20134705 -89.778526
9206687500 -0.88646239 124.60201 -9.0256014 -72.637764 -9.0222664 -73.257248 -0.19113968 -89.736908
9206750000 -0.89470792 124.57117 -9.0449762 -72.638321 -9.0200939 -73.233612 -0.19215271 -89.717804
9206812500 -0.88973701 124.56455 -9.0405912 -72.588211 -9.0193739 -73.243156 -0.19502884 -89.700523
9206875000 -0.89182526 124.57078 -9.0376549 -72.551483 -9.0182209 -73.257034 -0.18993823 -89.645416
9206937500 -0.88953567 124.53673 -9.0278111 -72.604752 -9.0198517 -73.269264 -0.19619513 -89.658394
9207000000 -0.88936424 124.50345 -9.033865 -72.641144 -9.0214968 -73.207413 -0.19912334 -89.658195
9207062500 -0.88538104 124.52174 -9.0280685 -72.624931 -9.0306559 -73.193314 -0.20116307 -89.613121
9207125000 -0.88368958 124.48775 -9.0285835 -72.635834 -9.0251207 -73.2379 -0.20652725 -89.613441
9207187500 -0.88129985 124.48537 -9.0392551 -72.627983 -9.0321846 -73.19175 -0.21721937 -89.604332
9207250000 -0.88104612 124.46104 -9.0334444 -72.667862 -9.0329971 -73.21759 -0.21390875 -89.581787
9207312500 -0.88123935 124.4194 -9.0395126 -72.66642 -9.0276632 -73.267311 -0.21042666 -89.651123
9207375000 -0.8860305 124.39407 -9.0377331 -72.680817 -9.0256481 -73.246071 -0.2140839 -89.57753
9207437500 -0.88547421 124.35596 -9.0306635 -72.69458 -9.0226469 -73.208298 -0.21282335 -89.554581
9207500000 -0.87727594 124.37657 -9.0298891 -72.575905 -9.0222969 -73.239151 -0.21167468 -89.544746
9207562500 -0.88635838 124.32297 -9.0279799 -72.695313 -9.01373 -73.239052 -0.20355619 -89.536308
9207625000 -0.88690948 124.33638 -9.0332155 -72.687614 -9.0171061 -73.232231 -0.20712039 -89.523659
9207687500 -0.88747334 124.3172 -9.0288296 -72.588516 -9.0186338 -73.229256 -0.20790821 -89.502167
9207750000 -0.8922199 124.31846 -9.0310898 -72.611465 -9.019721 -73.191383 -0.20275763 -89.463875
9207812500 -0.88990283 124.31718 -9.0306625 -72.620705 -9.0162992 -73.233788 -0.19997226 -89.451126
9207875000 -0.89347631 124.31721 -9.0371513 -72.649872 -9.0196962 -73.283066 -0.20333518 -89.47625
9207937500 -0.89627361 124.34444 -9.0283747 -72.629463 -9.014245 -73.28392 -0.19803718 -89.445
9208000000 -0.88840109 124.33533 -9.021986 -72.577721 -9.0167198 -73.271255 -0.20701979 -89.387238
9208062500 -0.89120311 124.29167 -9.0182257 -72.60968 -9.0228052 -73.214134 -0.20517051 -89.375893
9208125000 -0.88919944 124.31277 -9.023984 -72.565399 -9.0177364 -73.289536 -0.21157946 -89.364754
9208187500 -0.89267147 124.28395 -9.0293055 -72.568611 -9.0165339 -73.160019 -0.20793676 -89.297997
9208250000 -0.88760209 124.26826 -9.020977 -72.54187 -9.0196123 -73.134361 -0.21299694 -89.263771
9208312500 -0.89064568 124.22369 -9.0233078 -72.575714 -9.0152617 -73.169693 -0.21176927 -89.271202
9208375000 -0.886482 124.24482 -9.0257816 -72.541306 -9.0155592 -73.12471 -0.21466127 -89.222511
9208437500 -0.88417065 124.18848 -9.0159502 -72.611603 -9.0170708 -73.19265 -0.21640742 -89.287338
9208500000 -0.88585657 124.20541 -9.0165749 -72.60614 -9.0030594 -73.197998 -0.2111098 -89.230774
9208562500 -0.885342 124.16142 -9.0168457 -72.65435 -9.0130806 -73.191551 -0.21367599 -89.229874
9208625000 -0.89023411 124.15477 -9.0187693 -72.583603 -9.0160542 -73.215843 -0.2095558 -89.193733
9208687500 -0.89222771 124.12099 -9.0276937 -72.660873 -9.0110817 -73.218384 -0.21054906 -89.222466
9208750000 -0.88576436 124.12521 -9.0059967 -72.574753 -9.0057821 -73.178139 -0.2040989 -89.203163
9208812500 -0.89052266 124.04524 -9.0197945 -72.676125 -9.0099926 -73.180489 -0.21128191 -89.206757
9208875000 -0.8834675 124.08722 -9.0150938 -72.599396 -9.0079632 -73.15657 -0.20856431 -89.11631
9208937500 -0.88706768 124.14601 -9.0116396 -72.577263 -9.0136452 -73.186447 -0.2104384 -89.171867
9209000000 -0.8912971 124.11399 -9.0201025 -72.627747 -9.0141106 -73.242622 -0.20830098 -89.18338
9209062500 -0.88928783 124.12861 -9.0186853 -72.594254 -9.0152473 -73.19265 -0.210501 -89.120682
9209125000 -0.88750029 124.12851 -9.0165672 -72.591873 -9.009799 -73.177917 -0.20791166 -89.127579
9209187500 -0.8861481 124.12695 -9.0218229 -72.564728 -9.0159721 -73.215927 -0.21500289 -89.129677
9209250000 -0.88764787 124.10034 -9.0024481 -72.541733 -9.0087872 -73.162949 -0.21122311 -89.049713
9209312500 -0.88809085 124.08459 -9.0062389 -72.554512 -9.0054379 -73.161407 -0.20513813 -89.061485
9209375000 -0.88622493 124.03413 -9.0132732 -72.546371 -9.0120077 -73.203705 -0.21117453 -89.022148
9209437500 -0.88707584 124.00097 -9.012208 -72.569931 -9.0080605 -73.187241 -0.21442807 -89.007561
9209500000 -0.88279426 123.98169 -8.999815 -72.592957 -9.0064106 -73.104698 -0.21022305 -88.961777
9209562500 -0.88388145 123.99235 -9.0053272 -72.589005 -9.0064783 -73.171677 -0.20995748 -88.973114
9209625000 -0.88737136 123.94283 -9.009429 -72.641472 -8.9983702 -73.200272 -0.21001706 -88.929581
9209687500 -0.89258307 123.95179 -9.005949 -72.623817 -9.0053196 -73.203178 -0.20878623 -88.944229
9209750000 -0.88889545 123.96133 -9.0088148 -72.537781 -8.9998226 -73.121284 -0.20981129 -88.863831
9209812500 -0.88981479 123.90544 -8.9939585 -72.657295 -8.9991045 -73.150414 -0.20480986 -88.88002
9209875000 -0.89230311 123.9066 -9.0060797 -72.628868 -9.0077906 -73.126114 -0.20801258 -88.857315
9209937500 -0.89145797 123.88576 -9.0041857 -72.629852 -8.9994173 -73.126274 -0.20220186 -88.839462
9210000000 -0.88441837 123.91713 -8.9999151 -72.573341 -9.0013847 -73.152794 -0.20971994 -88.848198
9210062500 -0.88794923 123.89782 -8.9941883 -72.60289 -8.994523 -73.083435 -0.201362 -88.785233
9210125000 -0.88463092 123.89812 -9.0020313 -72.601585 -9.0064869 -73.149971 -0.20817247 -88.801735
9210187500 -0.88564205 123.86909 -9.0042219 -72.586121 -8.9983521 -73.1036 -0.20481689 -88.742538
9210250000 -0.8909204 123.86697 -9.0095596 -72.561745 -8.9942741 -73.100342 -0.20590909 -88.764046
9210312500 -0.88147163 123.83729 -8.997797 -72.547142 -8.9917784 -73.088455 -0.20865472 -88.71492
9210375000 -0.88389003 123.81756 -9.0027151 -72.554871 -8.9933424 -73.050636 -0.21138719 -88.703194
9210437500 -0.88628566 123.80081 -8.9956512 -72.513603 -8.9855242 -73.02774 -0.21101579 -88.67038
9210500000 -0.88286388 123.7927 -8.9959011 -72.55423 -8.994153 -73.056953 -0.20871449 -88.666489
9210562500 -0.88437724 123.77547 -9.0000591 -72.590614 -8.9860821 -73.157463 -0.21409698 -88.646461
9210625000 -0.88270921 123.74016 -8.9976587 -72.60215 -8.995842 -73.057121 -0.21912546 -88.633163
9210687500 -0.88132912 123.70991 -9.0056515 -72.515335 -8.9971914 -73.09156 -0.22103712 -88.65583
9210750000 -0.87967944 123.73732 -8.9979553 -72.485825 -8.9905405 -73.120209 -0.21504192 -88.608055
9210812500 -0.87934655 123.72002 -8.9885712 -72.462509 -8.9965658 -73.116554 -0.21569571 -88.592651
9210875000 -0.88031632 123.66481 -9.00527 -72.493057 -8.9865732 -73.10421 -0.22126305 -88.597412
9210937500 -0.88969553 123.66258 -9.0068483 -72.490784 -8.9909344 -73.154312 -0.22703888 -88.55825
9211000000 -0.88533652 123.63634 -8.9979525 -72.523087 -8.9857502 -73.101112 -0.21847692 -88.529182
9211062500 -0.8896215 123.64786 -8.9993114 -72.491547 -8.990098 -73.128761 -0.21894211 -88.57843
9211125000 -0.89299363 123.63792 -8.9969521 -72.514709 -8.9792213 -73.165688 -0.21259972 -88.551964
9211187500 -0.89611417 123.59009 -8.9993963 -72.562195 -8.996417 -73.168358 -0.22023402 -88.566528
9211250000 -0.89218444 123.61342 -8.9905796 -72.532898 -8.9834671 -73.138603 -0.21360557 -88.574036
9211312500 -0.89295298 123.62058 -8.9949074 -72.552605 -8.9909077 -73.144096 -0.21401791 -88.527245
9211375000 -0.89226979 123.57865 -8.9889269 -72.628098 -8.9893999 -73.171326 -0.21231258 -88.508698
9211437500 -0.89385748 123.604 -8.992485 -72.507446 -8.980442 -73.140579 -0.21245149 -88.455681
9211500000 -0.89348435 123.56987 -8.9939699 -72.576241 -8.9885864 -73.109856 -0.21843171 -88.42112
9211562500 -0.88481361 123.57557 -8.9888783 -72.536873 -8.9845924 -73.107933 -0.21457681 -88.40773
9211625000 -0.89384031 123.56721 -8.9929399 -72.493088 -8.9862309 -73.13961 -0.21961658 -88.441437
9211687500 -0.89621586 123.51407 -8.9941063 -72.527908 -8.9819479 -73.098488 -0.22134449 -88.397705
9211750000 -0.88647097 123.50706 -8.9857626 -72.515617 -8.978096 -73.043297 -0.21705461 -88.363319
9211812500 -0.89233118 123.46952 -8.9888039 -72.518944 -8.9840403 -73.037582 -0.22321174 -88.376068
9211875000 -0.89092338 123.49254 -8.9837666 -72.5382 -8.9863958 -73.076324 -0.2242348 -88.347031
9211937500 -0.8992129 123.43547 -8.9938297 -72.509026 -8.9768238 -73.046463 -0.21902873 -88.255188
9212000000 -0.89523178 123.39879 -8.9822874 -72.543198 -8.9793081 -73.074181 -0.21682398 -88.235962
9212062500 -0.89161098 123.37919 -8.9775953 -72.574425 -8.9851027 -73.055908 -0.22313911 -88.207092
9212125000 -0.89625716 123.37984 -8.9825039 -72.544167 -8.9742403 -73.012077 -0.21397446 -88.154106
9212187500 -0.89904684 123.35584 -8.9883604 -72.569427 -8.9742022 -73.009941 -0.22265883 -88.166374
