!Agilent Technologies,N5242A,MY51221714,A.09.90.19
!Agilent N5242A: A.09.90.19
!Date: Saturday, March 16, 2024 09:34:33
!Correction: S11(Full 2 Port(1,2)) 
!S21(Full 2 Port(1,2)) 
!S12(Full 2 Port(1,2)) 
!S22(Full 2 Port(1,2)) 
!S2P File: Measurements: S11, S21, S12, S22:
# Hz S  dB   R 50
9200000000 -0.95416212 125.66016 -9.0367184 -73.746765 -9.0235271 -74.328972 -0.23889023 -92.089485
9200062500 -0.9546746 125.65032 -9.0394392 -73.823837 -9.0263729 -74.359154 -0.24258345 -92.075958
9200125000 -0.95451719 125.64431 -9.0413008 -73.786644 -9.0196457 -74.389923 -0.23846151 -92.0895
9200187500 -0.95460892 125.65432 -9.0381489 -73.764549 -9.0254011 -74.408401 -0.24607933 -92.072968
9200250000 -0.95562303 125.62404 -9.0397434 -73.814056 -9.024456 -74.449661 -0.24595341 -92.070465
9200312500 -0.95154411 125.5878 -9.034523 -73.836777 -9.021945 -74.355476 -0.23786952 -92.009598
9200375000 -0.95322359 125.59432 -9.0313749 -73.753159 -9.0142345 -74.328087 -0.23520815 -91.998795
9200437500 -0.95139551 125.57852 -9.0373964 -73.77153 -9.0229053 -74.422783 -0.24891308 -92.036377
9200500000 -0.94766188 125.55035 -9.0314627 -73.749763 -9.0068655 -74.371872 -0.24025576 -92.005463
9200562500 -0.9542017 125.53374 -9.029829 -73.791 -9.0087805 -74.378517 -0.24722271 -91.944328
9200625000 -0.95519996 125.51723 -9.0403385 -73.754288 -9.008358 -74.328033 -0.24894099 -91.930016
9200687500 -0.95236522 125.54195 -9.0378723 -73.723877 -9.0152035 -74.376396 -0.2558862 -91.921394
9200750000 -0.95554596 125.51949 -9.0394688 -73.729752 -9.0105762 -74.364639 -0.25080776 -91.878334
9200812500 -0.95613301 125.48977 -9.0290108 -73.72023 -9.0028772 -74.388435 -0.2527971 -91.894814
9200875000 -0.95094627 125.51635 -9.0273724 -73.694862 -9.0124874 -74.387405 -0.25624487 -91.835083
9200937500 -0.95382506 125.4414 -9.0299568 -73.703339 -9.0007534 -74.35923 -0.24999237 -91.836411
9201000000 -0.95073205 125.46294 -9.0227213 -73.738083 -9.0138502 -74.340546 -0.2569499 -91.782875
9201062500 -0.95145768 125.43063 -9.0216389 -73.727737 -9.0097408 -74.356163 -0.25196284 -91.812027
9201125000 -0.94625491 125.44614 -9.0280848 -73.702347 -9.013031 -74.402969 -0.25123194 -91.776184
9201187500 -0.94856018 125.45345 -9.022624 -73.719269 -9.0047903 -74.331978 -0.24749458 -91.751671
9201250000 -0.95276862 125.38992 -9.0205564 -73.777084 -9.0179195 -74.351006 -0.25243607 -91.761238
9201312500 -0.94989645 125.36977 -9.0234489 -73.655373 -9.0100565 -74.325752 -0.24741422 -91.722321
9201375000 -0.95490813 125.35966 -9.0242796 -73.749374 -9.0029659 -74.351181 -0.24982673 -91.770256
9201437500 -0.94853926 125.35288 -9.0252028 -73.755142 -9.0129986 -74.367744 -0.25538307 -91.725662
9201500000 -0.95405626 125.34717 -9.02386 -73.76796 -8.9989786 -74.335121 -0.24410193 -91.730545
9201562500 -0.95416206 125.33514 -9.02526 -73.734253 -9.0051622 -74.357155 -0.24729809 -91.734421
9201625000 -0.95946383 125.36735 -9.0298624 -73.776878 -9.0042963 -74.310059 -0.24434768 -91.679871
9201687500 -0.95771164 125.28957 -9.027998 -73.734299 -8.999404 -74.331841 -0.24873878 -91.647095
9201750000 -0.95207584 125.30806 -9.0236607 -73.729111 -9.0016918 -74.315712 -0.25030929 -91.633293
9201812500 -0.95086974 125.26571 -9.0164251 -73.758087 -8.9975681 -74.319832 -0.25246882 -91.6521
9201875000 -0.9534694 125.29538 -9.0193586 -73.675865 -9.0008621 -74.294846 -0.25400284 -91.600342
9201937500 -0.95260841 125.2179 -9.0154705 -73.72126 -8.9995451 -74.248566 -0.25142422 -91.552948
9202000000 -0.94618642 125.2275 -9.0115232 -73.726669 -9.0080442 -74.333527 -0.2578072 -91.544952
9202062500 -0.95095521 125.18495 -9.0124998 -73.75985 -9.007678 -74.314682 -0.26046047 -91.525314
9202125000 -0.94853234 125.18976 -9.0126085 -73.718109 -8.9975204 -74.358635 -0.2471154 -91.519432
9202187500 -0.95007455 125.17918 -9.0051355 -73.636246 -9.0062361 -74.337807 -0.25089863 -91.488838
9202250000 -0.95048392 125.18844 -9.0087776 -73.696426 -8.9988813 -74.370193 -0.24664193 -91.516724
9202312500 -0.94982731 125.16643 -9.0047693 -73.735878 -9.0006437 -74.335678 -0.24890682 -91.471542
9202375000 -0.95668244 125.14053 -9.0088043 -73.736092 -8.9988155 -74.324608 -0.24801482 -91.462868
9202437500 -0.95173609 125.13765 -9.0044661 -73.715591 -9.0044928 -74.367081 -0.25747484 -91.443077
9202500000 -0.95506746 125.12882 -9.0086212 -73.686043 -9.0026035 -74.372375 -0.26257041 -91.444885
9202562500 -0.95172125 125.13133 -9.0126505 -73.672577 -9.0034447 -74.33429 -0.2616531 -91.382347
9202625000 -0.95342708 125.1104 -9.011611 -73.697685 -8.9984837 -74.27108 -0.25848645 -91.387642
9202687500 -0.95598388 125.11015 -9.009553 -73.730858 -9.0050879 -74.331276 -0.25975198 -91.369965
9202750000 -0.95638931 125.07584 -9.017724 -73.736443 -8.9913139 -74.340569 -0.25796488 -91.342102
9202812500 -0.95688051 125.0761 -9.0086718 -73.689674 -9.0023632 -74.235855 -0.26005784 -91.251961
9202875000 -0.95522475 125.06482 -9.0110931 -73.67524 -8.9969139 -74.289413 -0.25881061 -91.25721
9202937500 -0.95136559 125.00677 -8.9969664 -73.706993 -8.9963541 -74.328499 -0.25913948 -91.293495
9203000000 -0.95911139 124.98178 -9.007123 -73.738403 -8.9875832 -74.276085 -0.25641084 -91.239243
9203062500 -0.95697743 124.97072 -9.0080156 -73.730766 -8.9958391 -74.303276 -0.25812531 -91.230888
9203125000 -0.95455563 124.95759 -9.0044355 -73.709747 -8.9898272 -74.309029 -0.25789753 -91.221352
9203187500 -0.9485966 124.99213 -9.0045757 -73.748734 -8.9953442 -74.319756 -0.25592718 -91.219879
9203250000 -0.95223111 124.93467 -9.004241 -73.743126 -8.9941902 -74.264023 -0.25928494 -91.201599
9203312500 -0.95448869 124.97151 -9.0039768 -73.684242 -8.9897499 -74.352013 -0.25479475 -91.183403
9203375000 -0.95458317 124.93578 -9.0098085 -73.753944 -8.9911404 -74.323524 -0.25687575 -91.128647
9203437500 -0.95380723 124.93443 -9.0029011 -73.691788 -8.9904556 -74.312988 -0.25575459 -91.156548
9203500000 -0.9499709 124.94222 -9.0115643 -73.711113 -8.9941788 -74.343025 -0.26462439 -91.167923
9203562500 -0.95492768 124.89099 -9.0062571 -73.755043 -8.9806023 -74.343773 -0.25646067 -91.116302
9203625000 -0.95059508 124.86835 -8.9936295 -73.681564 -8.994997 -74.310066 -0.26055205 -91.066513
9203687500 -0.96185327 124.88342 -9.0050211 -73.711136 -8.9868975 -74.346352 -0.26445955 -91.101753
9203750000 -0.95358825 124.81732 -8.9933681 -73.706139 -8.9935665 -74.336006 -0.2651822 -91.131447
9203812500 -0.954763 124.82989 -8.9990921 -73.704834 -8.9800692 -74.255478 -0.26880291 -91.004738
9203875000 -0.95274067 124.77857 -9.000843 -73.690254 -8.9879341 -74.254623 -0.26592585 -91.006325
9203937500 -0.95673138 124.77956 -9.00142 -73.754219 -8.9792938 -74.239243 -0.2691904 -90.967583
9204000000 -0.94920927 124.81307 -8.9982796 -73.643723 -8.9774513 -74.327553 -0.27161372 -91.03363
9204062500 -0.94575095 124.77339 -9.0011835 -73.700554 -8.9822636 -74.217354 -0.27154237 -90.934448
9204125000 -0.95061642 124.76154 -9.0024672 -73.746384 -8.9759569 -74.281235 -0.26805413 -90.985901
9204187500 -0.94991219 124.76009 -8.9979277 -73.625717 -8.9756641 -74.230637 -0.27472505 -90.944458
9204250000 -0.95449448 124.75789 -9.0060711 -73.680939 -8.9716959 -74.274155 -0.27104935 -90.909019
9204312500 -0.94709337 124.71345 -8.9964285 -73.678833 -8.9739237 -74.241066 -0.26683789 -90.913803
9204375000 -0.95233154 124.72283 -8.9952497 -73.646942 -8.9719114 -74.267159 -0.26118338 -90.847542
9204437500 -0.94649267 124.69277 -8.994318 -73.656685 -8.9751081 -74.281349 -0.26076061 -90.882591
9204500000 -0.93881238 124.67171 -8.9968004 -73.584694 -8.9787426 -74.288048 -0.26609719 -90.84671
9204562500 -0.93941653 124.62827 -8.9801197 -73.658028 -8.9713659 -74.25766 -0.2610094 -90.787636
9204625000 -0.94884491 124.64354 -8.9965811 -73.633293 -8.9801836 -74.216629 -0.25947851 -90.748634
9204687500 -0.94168627 124.66975 -8.9864511 -73.629105 -8.973608 -74.269562 -0.26222008 -90.801361
9204750000 -0.95009375 124.62478 -8.9803801 -73.632591 -8.9729147 -74.273094 -0.26132205 -90.769249
9204812500 -0.94770002 124.64199 -8.9818878 -73.617622 -8.974556 -74.283501 -0.26887742 -90.751846
9204875000 -0.95063746 124.61909 -8.988719 -73.611923 -8.9742241 -74.279411 -0.26708212 -90.751045
9204937500 -0.94966394 124.63618 -8.9982624 -73.619553 -8.9789534 -74.228821 -0.27011657 -90.676613
9205000000 -0.94867635 124.60295 -8.9825096 -73.622429 -8.971817 -74.226791 -0.26213685 -90.670349
9205062500 -0.9553501 124.6086 -8.9854727 -73.658546 -8.9675016 -74.251343 -0.26687542 -90.70163
9205125000 -0.9527725 124.55723 -8.9876356 -73.583115 -8.9721708 -74.26886 -0.26474801 -90.687698
9205187500 -0.95110583 124.53939 -8.9731436 -73.572807 -8.9655304 -74.254013 -0.25880066 -90.634254
9205250000 -0.9562642 124.52612 -8.9799414 -73.570625 -8.9595242 -74.258827 -0.26248068 -90.679825
9205312500 -0.9552868 124.46617 -8.9778194 -73.620041 -8.9716597 -74.303246 -0.25985697 -90.624588
9205375000 -0.95521373 124.45791 -8.9817705 -73.576553 -8.9728098 -74.265686 -0.26255304 -90.671577
9205437500 -0.95599598 124.45278 -8.9768305 -73.666901 -8.9765949 -74.275139 -0.26760784 -90.615288
9205500000 -0.95392901 124.43177 -8.977396 -73.60022 -8.9732237 -74.324181 -0.26552454 -90.624458
9205562500 -0.95790613 124.42857 -8.9831648 -73.61924 -8.9737043 -74.24762 -0.26007611 -90.566078
9205625000 -0.95241719 124.45015 -8.9795437 -73.658485 -8.9694157 -74.206902 -0.25865087 -90.547546
9205687500 -0.95255566 124.41981 -8.9719582 -73.636734 -8.9696531 -74.252052 -0.26223174 -90.558495
9205750000 -0.95605785 124.4174 -8.9819832 -73.631088 -8.9770031 -74.195366 -0.27176732 -90.524559
9205812500 -0.9518134 124.41608 -8.9792538 -73.643311 -8.9693651 -74.232719 -0.25966722 -90.526779
9205875000 -0.94698185 124.38792 -8.9666214 -73.666344 -8.9747705 -74.227806 -0.26823053 -90.461998
9205937500 -0.95022535 124.39731 -8.9854364 -73.669128 -8.9704285 -74.223419 -0.26770431 -90.457832
9206000000 -0.94932711 124.36292 -8.9799337 -73.596413 -8.9692869 -74.183174 -0.26996559 -90.404198
9206062500 -0.95018536 124.3885 -8.9838247 -73.587105 -8.9787617 -74.196205 -0.26942003 -90.372772
9206125000 -0.94967747 124.36112 -8.9833488 -73.56321 -8.9735212 -74.184685 -0.27687737 -90.386108
9206187500 -0.95155191 124.35632 -8.9757986 -73.579124 -8.9642572 -74.217873 -0.26546958 -90.353897
9206250000 -0.94982654 124.32204 -8.9662294 -73.616714 -8.9643326 -74.215775 -0.26441085 -90.340813
9206312500 -0.95116007 124.28493 -8.9634733 -73.674881 -8.9591045 -74.221573 -0.27098289 -90.34156
9206375000 -0.94509864 124.29554 -8.9553995 -73.576431 -8.9478598 -74.191299 -0.25738403 -90.295738
9206437500 -0.95241314 124.342 -8.9692192 -73.586311 -8.950572 -74.261284 -0.26223409 -90.321899
9206500000 -0.95078677 124.27949 -8.9754019 -73.571938 -8.9617338 -74.256416 -0.26559401 -90.276367
9206562500 -0.95541406 124.24748 -8.9717007 -73.533043 -8.9543562 -74.206291 -0.2631112 -90.277695
9206625000 -0.95028245 124.26463 -8.9575634 -73.552254 -8.9488535 -74.188797 -0.25292084 -90.241089
9206687500 -0.95256644 124.27525 -8.9536381 -73.533165 -8.9448528 -74.213608 -0.25124103 -90.191559
9206750000 -0.95990646 124.22429 -8.9581757 -73.576645 -8.9396801 -74.21637 -0.25297245 -90.215668
9206812500 -0.95202935 124.20851 -8.9535427 -73.571053 -8.9502831 -74.19371 -0.25637719 -90.164375
9206875000 -0.94822973 124.20142 -8.9542179 -73.485733 -8.9463711 -74.163414 -0.25711891 -90.122314
9206937500 -0.95086092 124.15099 -8.9639893 -73.562874 -8.943573 -74.164246 -0.25974274 -90.141472
9207000000 -0.95171672 124.14067 -8.9524345 -73.551666 -8.9418049 -74.179131 -0.2589995 -90.122154
9207062500 -0.9476288 124.09913 -8.9572134 -73.601479 -8.9473295 -74.19706 -0.25728822 -90.135643
9207125000 -0.94763947 124.09832 -8.9587936 -73.602409 -8.9478912 -74.19886 -0.27281705 -90.121262
9207187500 -0.9479655 124.07043 -8.9572706 -73.627571 -8.9457655 -74.147713 -0.26823333 -90.079239
9207250000 -0.94526821 124.05541 -8.9576435 -73.615746 -8.9536543 -74.185898 -0.27253383 -90.101563
9207312500 -0.94783151 124.02985 -8.958107 -73.56675 -8.9556313 -74.211426 -0.2756831 -90.131065
9207375000 -0.94890529 124.03206 -8.9594049 -73.597824 -8.9458723 -74.218315 -0.27512717 -90.077385
9207437500 -0.94950521 123.99905 -8.9529066 -73.573349 -8.9468641 -74.162636 -0.27132237 -90.037224
9207500000 -0.95449799 123.96481 -8.9555826 -73.626732 -8.9456625 -74.18219 -0.27480569 -90.01297
9207562500 -0.95173043 123.96696 -8.953557 -73.635216 -8.9486132 -74.25264 -0.27684277 -90.048103
9207625000 -0.9545266 123.8898 -8.9526243 -73.605293 -8.9369144 -74.195053 -0.27135342 -90.010818
9207687500 -0.95263135 123.94868 -8.9518061 -73.629822 -8.942318 -74.167557 -0.26234928 -89.979675
9207750000 -0.9575597 123.93688 -8.9497223 -73.632576 -8.9393845 -74.19722 -0.26484811 -89.967064
9207812500 -0.95620102 123.93761 -8.9500685 -73.61425 -8.9359655 -74.269066 -0.26480582 -89.980873
9207875000 -0.96062565 123.94298 -8.9524441 -73.586555 -8.9408169 -74.199669 -0.2622461 -89.907196
9207937500 -0.9575305 123.9519 -8.9613934 -73.559311 -8.9460173 -74.226044 -0.26146871 -89.902954
9208000000 -0.956631 123.92604 -8.9472809 -73.583229 -8.9373732 -74.293365 -0.26237297 -89.898323
9208062500 -0.95304275 123.88284 -8.9479189 -73.589394 -8.942544 -74.20459 -0.26687545 -89.832123
9208125000 -0.9571619 123.86234 -8.9577866 -73.593567 -8.945159 -74.155785 -0.27092919 -89.807777
9208187500 -0.954741 123.87051 -8.948781 -73.516838 -8.9423246 -74.158463 -0.27792844 -89.83474
9208250000 -0.95532966 123.87652 -8.9505587 -73.551949 -8.9453611 -74.117081 -0.27681905 -89.777901
9208312500 -0.95921344 123.87553 -8.9507904 -73.549095 -8.9372787 -74.184532 -0.27702454 -89.819542
9208375000 -0.95601988 123.8522 -8.9502392 -73.543213 -8.9368219 -74.168777 -0.27449784 -89.75013
9208437500 -0.94832551 123.83397 -8.9406414 -73.548134 -8.9425135 -74.174911 -0.2814391 -89.739059
9208500000 -0.95414138 123.81747 -8.9403048 -73.501953 -8.9330139 -74.127632 -0.27854541 -89.709763
9208562500 -0.95299864 123.78203 -8.9507895 -73.546043 -8.9290724 -74.125748 -0.27237368 -89.721329
9208625000 -0.95668781 123.75542 -8.944478 -73.563866 -8.9318352 -74.179268 -0.27349824 -89.715538
9208687500 -0.94885445 123.74095 -8.9324055 -73.601357 -8.9353657 -74.131569 -0.27119613 -89.68309
9208750000 -0.95146137 123.71275 -8.9445448 -73.609665 -8.9314442 -74.152 -0.27418959 -89.661041
9208812500 -0.95480227 123.72355 -8.9399185 -73.612076 -8.9341831 -74.213028 -0.27145272 -89.680794
9208875000 -0.95588696 123.71684 -8.9352179 -73.623726 -8.9292221 -74.237289 -0.27076605 -89.695313
9208937500 -0.95878971 123.73709 -8.9383497 -73.517174 -8.9311056 -74.115891 -0.27029207 -89.657013
9209000000 -0.95430607 123.74561 -8.941946 -73.536621 -8.9272556 -74.14373 -0.26331136 -89.63343
9209062500 -0.9550072 123.73535 -8.9408627 -73.492958 -8.9369993 -74.12793 -0.27625465 -89.617538
9209125000 -0.94887543 123.7317 -8.9356909 -73.520714 -8.9386024 -74.109306 -0.27480859 -89.575073
9209187500 -0.95574921 123.71989 -8.9329252 -73.475052 -8.9339819 -74.094673 -0.27441001 -89.558357
9209250000 -0.95725018 123.70958 -8.9343481 -73.629662 -8.9366789 -74.176315 -0.27849355 -89.59523
9209312500 -0.95293492 123.676 -8.9283285 -73.526833 -8.928937 -74.069656 -0.27428097 -89.527214
9209375000 -0.94783258 123.66299 -8.9274187 -73.544769 -8.933362 -74.175316 -0.28128934 -89.540428
9209437500 -0.95054966 123.61062 -8.9182377 -73.578651 -8.9335766 -74.10508 -0.27877682 -89.479446
9209500000 -0.94314903 123.60236 -8.9154549 -73.562904 -8.9284306 -74.119507 -0.27376303 -89.463463
9209562500 -0.95493531 123.59154 -8.9262486 -73.595459 -8.9292221 -74.101341 -0.27751371 -89.467628
9209625000 -0.95614278 123.5947 -8.9236841 -73.590752 -8.9242401 -74.133446 -0.26684016 -89.422684
9209687500 -0.95654273 123.56451 -8.9378042 -73.54071 -8.9312506 -74.09256 -0.27643278 -89.362541
9209750000 -0.9529478 123.56781 -8.9244699 -73.523872 -8.9203663 -74.12674 -0.27472886 -89.358994
9209812500 -0.95313299 123.52702 -8.931241 -73.582962 -8.922513 -74.176651 -0.27485195 -89.402481
9209875000 -0.95422363 123.53679 -8.9309015 -73.595177 -8.9205894 -74.183044 -0.27206567 -89.390198
9209937500 -0.95731801 123.53634 -8.9219532 -73.527008 -8.9155073 -74.143204 -0.27138609 -89.3293
9210000000 -0.95498818 123.48462 -8.9343462 -73.535912 -8.9153194 -74.101791 -0.26736605 -89.306442
9210062500 -0.95214856 123.48586 -8.9219332 -73.554962 -8.9164629 -74.059036 -0.26454729 -89.304413
9210125000 -0.95278758 123.49228 -8.9195032 -73.573059 -8.9125023 -74.110382 -0.26866642 -89.299843
9210187500 -0.94450867 123.47688 -8.9251966 -73.557976 -8.9177704 -74.044525 -0.27406099 -89.256371
9210250000 -0.95046616 123.46044 -8.9185286 -73.549622 -8.9158592 -74.077805 -0.27344805 -89.229408
9210312500 -0.95482957 123.43098 -8.9316568 -73.512497 -8.914403 -73.984306 -0.27686325 -89.155693
9210375000 -0.95034891 123.41978 -8.9227238 -73.476097 -8.9204512 -74.041847 -0.27824149 -89.16851
9210437500 -0.94916618 123.39682 -8.9230776 -73.524422 -8.9140787 -74.044579 -0.27970684 -89.197601
9210500000 -0.94366294 123.39457 -8.9184818 -73.447807 -8.9049759 -74.033394 -0.27477512 -89.143845
9210562500 -0.95095205 123.38702 -8.9252205 -73.489586 -8.9192133 -74.056503 -0.28657991 -89.156479
9210625000 -0.94689667 123.34595 -8.9344711 -73.468826 -8.9145508 -74.078476 -0.28390363 -89.15126
9210687500 -0.94825095 123.33877 -8.9270363 -73.468956 -8.917244 -74.064606 -0.28969657 -89.110695
9210750000 -0.94943053 123.30357 -8.9271164 -73.498375 -8.913805 -74.090034 -0.28776324 -89.103714
9210812500 -0.94784921 123.31531 -8.9134026 -73.481476 -8.9113483 -74.062248 -0.28164873 -89.09893
9210875000 -0.94756758 123.26926 -8.9165936 -73.435913 -8.9126673 -74.076546 -0.28573817 -89.051308
9210937500 -0.95121425 123.25351 -8.9164753 -73.457794 -8.9116011 -74.101601 -0.28850254 -89.066826
9211000000 -0.95313621 123.24867 -8.9278669 -73.477417 -8.9090996 -74.102692 -0.28359377 -89.057953
9211062500 -0.95279038 123.2066 -8.9171829 -73.517052 -8.9154558 -74.113792 -0.28441402 -89.039711
9211125000 -0.95818889 123.23225 -8.9194279 -73.495377 -8.9044571 -74.083542 -0.28020731 -89.041718
9211187500 -0.95486754 123.23675 -8.9152689 -73.53952 -8.9033041 -74.144188 -0.27673629 -89.03479
9211250000 -0.96010691 123.24747 -8.9128523 -73.533768 -8.9160252 -74.139275 -0.28636831 -89.072342
9211312500 -0.95502394 123.23502 -8.9191866 -73.547821 -8.9055691 -74.171196 -0.27183196 -89.079498
9211375000 -0.96296543 123.24947 -8.9139519 -73.511856 -8.911746 -74.075653 -0.27474356 -88.906609
9211437500 -0.96149993 123.18338 -8.9241982 -73.527367 -8.8998175 -74.081474 -0.26972786 -88.914116
9211500000 -0.96056527 123.1975 -8.910387 -73.477921 -8.8957605 -74.025696 -0.26901224 -88.848839
9211562500 -0.96246094 123.16883 -8.9195404 -73.529747 -8.9065609 -74.134468 -0.28448734 -88.918137
9211625000 -0.95597899 123.17647 -8.9122486 -73.453171 -8.900279 -74.059029 -0.28309673 -88.894623
9211687500 -0.95616114 123.16025 -8.9075785 -73.481705 -8.9110479 -73.999023 -0.28664479 -88.875557
9211750000 -0.95889163 123.13866 -8.9140558 -73.39389 -8.903574 -74.03344 -0.28784814 -88.870583
9211812500 -0.95653045 123.06349 -8.9081516 -73.503815 -8.9091673 -74.039696 -0.2855936 -88.834885
9211875000 -0.95256972 123.06511 -8.9052715 -73.479271 -8.9012833 -74.075401 -0.28463998 -88.822083
9211937500 -0.95962512 123.05585 -8.9076385 -73.505676 -8.9065189 -74.00309 -0.29010159 -88.763573
9212000000 -0.96327364 123.02061 -8.9050007 -73.452904 -8.8978052 -74.026581 -0.2826964 -88.740517
9212062500 -0.96021265 122.99079 -8.9031324 -73.546448 -8.8961611 -74.037827 -0.28242606 -88.677826
9212125000 -0.9589709 123.00753 -8.9045458 -73.502029 -8.9036226 -74.027229 -0.28907263 -88.707283
9212187500 -0.95875084 122.97349 -8.9004526 -73.494957 -8.8937635 -74.002007 -0.28448144 -88.706512
