!Agilent Technologies,N5242A,MY51221714,A.09.90.19
!Agilent N5242A: A.09.90.19
!Date: Saturday, March 16, 2024 09:35:38
!Correction: S11(Full 2 Port(1,2)) 
!S21(Full 2 Port(1,2)) 
!S12(Full 2 Port(1,2)) 
!S22(Full 2 Port(1,2)) 
!S2P File: Measurements: S11, S21, S12, S22:
# Hz S  dB   R 50
9200000000 -0.8990103 126.06332 -9.0695734 -72.854446 -9.0611172 -73.501785 -0.18759121 -91.714371
9200062500 -0.9025259 126.0726 -9.0687037 -72.84774 -9.0672979 -73.493134 -0.1908261 -91.691589
9200125000 -0.90654457 126.04009 -9.0768013 -72.810646 -9.0656357 -73.463005 -0.18474606 -91.662109
9200187500 -0.90397996 126.04156 -9.0779238 -72.903076 -9.0544958 -73.49324 -0.18804355 -91.648285
9200250000 -0.90018046 126.05801 -9.0766935 -72.834969 -9.0549974 -73.481697 -0.1851799 -91.658134
9200312500 -0.9021852 125.99043 -9.0731468 -72.867455 -9.0581551 -73.488503 -0.18881834 -91.620033
9200375000 -0.89507049 125.99255 -9.0709152 -72.933006 -9.0600786 -73.534431 -0.19316262 -91.630699
9200437500 -0.89619666 126.00996 -9.0713091 -72.868362 -9.0523767 -73.487633 -0.18195698 -91.575508
9200500000 -0.89978188 125.9731 -9.068119 -72.826714 -9.0493717 -73.458603 -0.19015364 -91.557014
9200562500 -0.89732689 125.94996 -9.0701675 -72.854637 -9.050745 -73.454811 -0.19250955 -91.543358
9200625000 -0.90106231 125.93784 -9.0695038 -72.858299 -9.0470228 -73.438576 -0.19217385 -91.551758
9200687500 -0.8991403 125.92137 -9.0734415 -72.833214 -9.046196 -73.43119 -0.18960784 -91.476311
9200750000 -0.89715004 125.94033 -9.0720158 -72.819328 -9.0454988 -73.458382 -0.19414639 -91.485489
9200812500 -0.8989622 125.87211 -9.062151 -72.852997 -9.0446262 -73.432671 -0.19567941 -91.416458
9200875000 -0.90524542 125.88219 -9.070076 -72.799568 -9.0462618 -73.419868 -0.20018572 -91.380165
9200937500 -0.89841545 125.89145 -9.0689535 -72.798012 -9.0463276 -73.410728 -0.19895473 -91.365875
9201000000 -0.90209454 125.88194 -9.0651846 -72.775452 -9.047266 -73.430878 -0.20005338 -91.381287
9201062500 -0.89749855 125.89462 -9.062644 -72.75856 -9.0425987 -73.447052 -0.19118279 -91.374107
9201125000 -0.90040523 125.85315 -9.0611477 -72.758934 -9.0478468 -73.412476 -0.19520378 -91.319313
9201187500 -0.8975786 125.86808 -9.0595875 -72.775124 -9.0455742 -73.428795 -0.19362219 -91.335068
9201250000 -0.8921774 125.84155 -9.0609035 -72.765335 -9.0518217 -73.467186 -0.19569731 -91.33577
9201312500 -0.89645624 125.78323 -9.0584373 -72.837463 -9.0477619 -73.381607 -0.19353347 -91.300072
9201375000 -0.8984586 125.78211 -9.0597305 -72.82756 -9.0456152 -73.434174 -0.19512042 -91.334305
9201437500 -0.90285468 125.7369 -9.0579071 -72.872627 -9.0530329 -73.421646 -0.19626355 -91.299309
9201500000 -0.90680087 125.73588 -9.0700979 -72.864807 -9.0436087 -73.420219 -0.19719552 -91.327751
9201562500 -0.90302759 125.73621 -9.0750751 -72.798393 -9.0462179 -73.367874 -0.19517514 -91.286446
9201625000 -0.90873218 125.73689 -9.0724411 -72.811417 -9.0371828 -73.417152 -0.19288056 -91.288177
9201687500 -0.90083438 125.70804 -9.0684443 -72.83754 -9.0458393 -73.403259 -0.19434528 -91.269691
9201750000 -0.8964256 125.70361 -9.0591574 -72.809196 -9.0442648 -73.365143 -0.19515182 -91.191971
9201812500 -0.90321285 125.69286 -9.0684433 -72.81028 -9.0488892 -73.361397 -0.2052443 -91.181541
9201875000 -0.90366107 125.64678 -9.0550442 -72.797493 -9.0332975 -73.408501 -0.19489552 -91.158592
9201937500 -0.90152448 125.64557 -9.0591631 -72.802574 -9.0456915 -73.366234 -0.20319577 -91.097351
9202000000 -0.89689666 125.63033 -9.0536633 -72.829178 -9.0346031 -73.399002 -0.19881575 -91.155502
9202062500 -0.8965506 125.61051 -9.0479317 -72.820076 -9.0350323 -73.374329 -0.19588771 -91.130013
9202125000 -0.89030325 125.61333 -9.0427351 -72.801537 -9.0377693 -73.361374 -0.19999446 -91.091766
9202187500 -0.89808726 125.57642 -9.0450706 -72.805191 -9.0403852 -73.410454 -0.19425867 -91.099686
9202250000 -0.9015547 125.59902 -9.0441561 -72.757133 -9.0313263 -73.468544 -0.1939759 -91.1222
9202312500 -0.90324253 125.57742 -9.0416117 -72.790657 -9.0416155 -73.394791 -0.19674055 -91.033958
9202375000 -0.89785391 125.55243 -9.0322952 -72.757545 -9.0454006 -73.460297 -0.19227724 -91.046432
9202437500 -0.9038316 125.54097 -9.0421963 -72.824577 -9.0362606 -73.3965 -0.19831111 -91.000122
9202500000 -0.90081567 125.56041 -9.0427208 -72.759819 -9.0357475 -73.403244 -0.20319754 -91.010017
9202562500 -0.89856017 125.56909 -9.0516376 -72.720833 -9.0399389 -73.428429 -0.20130423 -90.963608
9202625000 -0.90670848 125.52725 -9.0580549 -72.78582 -9.0376711 -73.376129 -0.20237726 -90.948578
9202687500 -0.90496022 125.47563 -9.0486593 -72.835991 -9.0312395 -73.404274 -0.20197567 -90.966721
9202750000 -0.89988589 125.50072 -9.0550737 -72.753342 -9.0377693 -73.410583 -0.20563444 -90.927315
9202812500 -0.90320301 125.48353 -9.0518608 -72.770462 -9.0358267 -73.377487 -0.21138646 -90.889732
9202875000 -0.90029246 125.46036 -9.0482111 -72.754005 -9.0359821 -73.350266 -0.20569211 -90.850975
9202937500 -0.89633662 125.43215 -9.0380917 -72.79834 -9.0272751 -73.401382 -0.19780956 -90.865509
9203000000 -0.90318269 125.43066 -9.0529737 -72.759109 -9.0274687 -73.328629 -0.2025335 -90.79718
9203062500 -0.89638251 125.42813 -9.0427017 -72.776329 -9.0326252 -73.333595 -0.20140614 -90.82589
9203125000 -0.89369667 125.38938 -9.0284996 -72.754906 -9.0436935 -73.373703 -0.2065673 -90.800842
9203187500 -0.8960731 125.37665 -9.0453587 -72.748062 -9.0284567 -73.374413 -0.19854707 -90.822044
9203250000 -0.90122646 125.36536 -9.0489206 -72.778442 -9.0260477 -73.35997 -0.20357953 -90.764191
9203312500 -0.89863849 125.35584 -9.0435867 -72.847237 -9.0291357 -73.414635 -0.20063384 -90.759819
9203375000 -0.90234232 125.33837 -9.0464306 -72.77002 -9.0269184 -73.376076 -0.2033098 -90.692657
9203437500 -0.9051528 125.32717 -9.0376167 -72.832954 -9.0239048 -73.418106 -0.20013529 -90.73243
9203500000 -0.90149343 125.29489 -9.0404711 -72.741699 -9.0236483 -73.367195 -0.19793811 -90.679543
9203562500 -0.90004736 125.28168 -9.038949 -72.759277 -9.0338984 -73.344734 -0.19910666 -90.616203
9203625000 -0.8981415 125.28444 -9.0392294 -72.757866 -9.0338306 -73.337166 -0.20700979 -90.625031
9203687500 -0.89782447 125.27328 -9.0369101 -72.831146 -9.0292215 -73.408257 -0.20874716 -90.681107
9203750000 -0.90370482 125.25136 -9.0472097 -72.803123 -9.0271101 -73.41256 -0.21035928 -90.605232
9203812500 -0.90239269 125.24471 -9.0422401 -72.710114 -9.0209608 -73.318367 -0.20712605 -90.602409
9203875000 -0.89920479 125.2125 -9.0245152 -72.747429 -9.0177679 -73.372742 -0.21116836 -90.616318
9203937500 -0.89599371 125.1951 -9.0332994 -72.788361 -9.0195961 -73.332069 -0.20595959 -90.568184
9204000000 -0.89896935 125.18182 -9.0400143 -72.774017 -9.0147743 -73.354561 -0.21841706 -90.569115
9204062500 -0.90350431 125.17348 -9.0436087 -72.810165 -9.0157614 -73.349167 -0.21763653 -90.585861
9204125000 -0.90168113 125.15069 -9.042985 -72.823685 -9.0089312 -73.318962 -0.21872388 -90.527809
9204187500 -0.89310181 125.17488 -9.0375776 -72.730087 -9.0194874 -73.353714 -0.21829906 -90.508507
9204250000 -0.89336622 125.15385 -9.037034 -72.732132 -9.018117 -73.326744 -0.21720925 -90.518974
9204312500 -0.89880383 125.16441 -9.0396919 -72.702293 -9.0155258 -73.308388 -0.21143317 -90.453156
9204375000 -0.89867777 125.11493 -9.03475 -72.752937 -9.0137072 -73.32798 -0.21303564 -90.438095
9204437500 -0.89142907 125.06763 -9.0355644 -72.767586 -9.0215082 -73.348381 -0.21549816 -90.417252
9204500000 -0.89152098 125.08441 -9.0295715 -72.736771 -9.0124607 -73.288368 -0.20674448 -90.382538
9204562500 -0.88805449 125.09618 -9.0318308 -72.699471 -9.0167503 -73.336761 -0.21052362 -90.379288
9204625000 -0.89403945 125.05059 -9.0269957 -72.719048 -9.0141897 -73.322655 -0.2019031 -90.351273
9204687500 -0.89000309 125.04278 -9.0230865 -72.727089 -9.007164 -73.331123 -0.20816128 -90.336258
9204750000 -0.8998515 125.01496 -9.0351276 -72.709663 -9.0159025 -73.280792 -0.21442845 -90.326454
9204812500 -0.89550811 125.03941 -9.0324621 -72.630562 -9.0076904 -73.388573 -0.20504124 -90.34668
9204875000 -0.89616442 125.0272 -9.0285645 -72.680565 -9.0100641 -73.300644 -0.20469597 -90.319839
9204937500 -0.89770508 125.03091 -9.0230198 -72.674042 -9.0146608 -73.302811 -0.21134946 -90.29763
9205000000 -0.89572549 124.98624 -9.0233736 -72.71154 -8.9996948 -73.286423 -0.20866531 -90.256874
9205062500 -0.89484936 124.98367 -9.014122 -72.671875 -9.0097075 -73.336647 -0.20310591 -90.29641
9205125000 -0.89727026 124.9549 -9.0206366 -72.73835 -9.0086813 -73.396706 -0.20946287 -90.253845
9205187500 -0.90005219 124.90723 -9.0245686 -72.683647 -9.0055075 -73.306625 -0.2090833 -90.224236
9205250000 -0.90551162 124.89169 -9.02069 -72.626862 -9.0063419 -73.312515 -0.19790006 -90.204269
9205312500 -0.90310627 124.90267 -9.0247288 -72.636497 -9.0091963 -73.340813 -0.20876715 -90.171761
9205375000 -0.90138716 124.88062 -9.0114326 -72.632828 -9.0066547 -73.351784 -0.20282221 -90.159676
9205437500 -0.9025808 124.86626 -9.0300913 -72.627586 -9.0127773 -73.306076 -0.21012302 -90.135887
9205500000 -0.90133095 124.82876 -9.0218801 -72.687721 -9.0099649 -73.344795 -0.20934416 -90.205711
9205562500 -0.89905417 124.83755 -9.0139914 -72.710732 -9.0122871 -73.291664 -0.20674573 -90.163589
9205625000 -0.90067697 124.84599 -9.0130453 -72.733978 -9.0134211 -73.336685 -0.20163339 -90.144394
9205687500 -0.89450461 124.81182 -9.0236683 -72.710335 -9.0147038 -73.321243 -0.21543054 -90.147736
9205750000 -0.89456099 124.81589 -9.0070744 -72.687004 -9.0100231 -73.328682 -0.21075013 -90.114578
9205812500 -0.89569628 124.80446 -9.009923 -72.68338 -9.0117083 -73.261467 -0.21266451 -90.087418
9205875000 -0.8934446 124.80764 -9.0092936 -72.696396 -9.0051508 -73.252228 -0.20578526 -90.046692
9205937500 -0.89602196 124.80668 -9.0155611 -72.63311 -9.0044441 -73.258919 -0.21329962 -90.003922
9206000000 -0.89118862 124.77342 -9.0117912 -72.608101 -9.0056019 -73.279907 -0.21402916 -90.007469
9206062500 -0.89144081 124.77548 -9.0092649 -72.588455 -9.0150576 -73.251099 -0.21612793 -89.968857
9206125000 -0.89366484 124.75841 -9.0095196 -72.710785 -9.0086555 -73.278389 -0.21675067 -89.964294
9206187500 -0.89616674 124.73726 -9.0083294 -72.610245 -9.0060997 -73.265755 -0.21429497 -89.909973
9206250000 -0.89544737 124.72891 -9.0081844 -72.695152 -9.000391 -73.307152 -0.20705032 -89.92704
9206312500 -0.89408618 124.70349 -8.9977198 -72.654228 -8.9838076 -73.312668 -0.20136157 -89.922333
9206375000 -0.89848125 124.7328 -9.0043001 -72.662781 -8.9947929 -73.307976 -0.20664647 -89.908272
9206437500 -0.89431918 124.71918 -9.004179 -72.685928 -8.9976358 -73.233627 -0.20969312 -89.880516
9206500000 -0.9000383 124.70753 -9.0107603 -72.626534 -8.9858961 -73.274643 -0.20543356 -89.886993
9206562500 -0.89434958 124.63787 -8.9956074 -72.638023 -8.991786 -73.289177 -0.20371023 -89.879768
9206625000 -0.89458346 124.66969 -8.9934607 -72.65081 -8.9860697 -73.324951 -0.19868542 -89.816078
9206687500 -0.89961725 124.60407 -9.002286 -72.647896 -8.990756 -73.25808 -0.20039135 -89.789886
9206750000 -0.90153998 124.62348 -8.995532 -72.630836 -8.9864845 -73.250755 -0.20153236 -89.764275
9206812500 -0.90246606 124.63734 -8.9881115 -72.605392 -8.9850197 -73.253937 -0.20040303 -89.718262
9206875000 -0.90322095 124.58212 -8.9930363 -72.616127 -8.9863596 -73.299713 -0.19978826 -89.751968
9206937500 -0.90216678 124.55099 -8.9930325 -72.628555 -8.9805498 -73.274071 -0.19768506 -89.705841
9207000000 -0.89709371 124.53728 -8.9932241 -72.633438 -8.9873781 -73.212746 -0.21110618 -89.676186
9207062500 -0.89530861 124.54919 -9.0020285 -72.589493 -8.9847174 -73.245537 -0.21127664 -89.672684
9207125000 -0.88751781 124.53397 -8.9889956 -72.626923 -8.9940805 -73.319672 -0.22117624 -89.677086
9207187500 -0.89216501 124.44982 -8.9845171 -72.709511 -9.0023861 -73.251404 -0.22487515 -89.674232
9207250000 -0.89205784 124.50233 -9.0014334 -72.612442 -9.0004864 -73.28643 -0.21994108 -89.66613
9207312500 -0.89683074 124.44662 -8.9995909 -72.677078 -8.9981508 -73.255074 -0.22352494 -89.641098
9207375000 -0.89790332 124.42696 -9.001049 -72.672691 -8.9837484 -73.261841 -0.21146098 -89.674217
9207437500 -0.89663541 124.38387 -8.9944859 -72.764145 -8.9833841 -73.306923 -0.21364306 -89.689247
9207500000 -0.9010517 124.38899 -8.9957237 -72.697083 -8.9835672 -73.226517 -0.21339369 -89.565475
9207562500 -0.89911485 124.36257 -8.9948978 -72.700989 -8.9875879 -73.203384 -0.21885121 -89.546112
9207625000 -0.89779824 124.30515 -8.9941244 -72.697075 -8.9825506 -73.258598 -0.21983342 -89.599075
9207687500 -0.90416485 124.35638 -8.9921923 -72.694801 -8.9811392 -73.264778 -0.21418226 -89.567375
9207750000 -0.89830011 124.32446 -8.9893446 -72.641655 -8.9745836 -73.258209 -0.20647213 -89.520454
9207812500 -0.90193141 124.31127 -8.9951611 -72.707291 -8.9851913 -73.317131 -0.20879221 -89.537628
9207875000 -0.89950055 124.35632 -8.9807577 -72.616585 -8.9773264 -73.253647 -0.20557009 -89.481728
9207937500 -0.89937884 124.33045 -8.9910412 -72.595688 -8.9807787 -73.238762 -0.20037733 -89.447327
9208000000 -0.90478706 124.33234 -8.9922161 -72.608849 -8.9813814 -73.267319 -0.20866819 -89.453079
9208062500 -0.90376306 124.33055 -8.99685 -72.582275 -8.9810972 -73.22261 -0.21016632 -89.412331
9208125000 -0.90171945 124.28414 -8.9897051 -72.644707 -8.9762955 -73.270454 -0.21414244 -89.426964
9208187500 -0.90544432 124.2989 -8.9894686 -72.589622 -8.9805317 -73.270729 -0.21510428 -89.350632
9208250000 -0.89779979 124.28082 -8.977807 -72.604721 -8.97686 -73.213737 -0.21794176 -89.370537
9208312500 -0.89384669 124.26633 -8.9830093 -72.614517 -8.9801235 -73.275108 -0.21947476 -89.373825
9208375000 -0.89870739 124.25773 -8.9865971 -72.571251 -8.9811687 -73.152588 -0.22660458 -89.310814
9208437500 -0.90100825 124.24807 -8.9947252 -72.614204 -8.9685469 -73.222504 -0.21454948 -89.319153
9208500000 -0.89897245 124.20866 -8.9796782 -72.628105 -8.9765091 -73.2388 -0.22050373 -89.319649
9208562500 -0.90097141 124.18399 -8.9882154 -72.64415 -8.9668388 -73.239532 -0.21741574 -89.335846
9208625000 -0.90151769 124.15234 -8.9877691 -72.685188 -8.9699879 -73.250206 -0.21499392 -89.310799
9208687500 -0.90187895 124.14819 -8.9780474 -72.675255 -8.9683189 -73.246185 -0.21728835 -89.288048
9208750000 -0.90105999 124.12887 -8.9853439 -72.671616 -8.9670143 -73.208778 -0.21081476 -89.260765
9208812500 -0.89963895 124.11333 -8.9796238 -72.712982 -8.9676714 -73.241989 -0.2119576 -89.236275
9208875000 -0.89882618 124.15978 -8.983532 -72.63575 -8.9641962 -73.235374 -0.21365511 -89.246094
9208937500 -0.90110058 124.1217 -8.9785528 -72.693047 -8.9679489 -73.124847 -0.21122895 -89.161575
9209000000 -0.90099072 124.1487 -8.9815569 -72.581497 -8.9802208 -73.282791 -0.22547126 -89.23468
9209062500 -0.89786953 124.13432 -8.9720736 -72.672478 -8.9717922 -73.229774 -0.21114458 -89.241943
9209125000 -0.89766085 124.13504 -8.9791355 -72.570053 -8.9767609 -73.200829 -0.22326215 -89.174896
9209187500 -0.89685118 124.15775 -8.9645681 -72.589394 -8.9679689 -73.170021 -0.21844569 -89.143692
9209250000 -0.89626318 124.10331 -8.9689369 -72.588455 -8.9758224 -73.214638 -0.21631053 -89.160538
9209312500 -0.89722484 124.09201 -8.9717274 -72.652069 -8.9664516 -73.151894 -0.21789689 -89.066429
9209375000 -0.89514732 124.05861 -8.9701443 -72.623871 -8.9706507 -73.157555 -0.21498044 -89.047523
9209437500 -0.89795196 124.04043 -8.9775982 -72.624229 -8.9748907 -73.171951 -0.22526109 -89.029968
9209500000 -0.89237672 124.02349 -8.9533558 -72.593338 -8.9727039 -73.202591 -0.21962346 -89.027176
9209562500 -0.90070927 124.01852 -8.9777899 -72.617447 -8.9697323 -73.217819 -0.21574076 -89.012444
9209625000 -0.90239435 123.98463 -8.9671507 -72.626396 -8.967082 -73.137375 -0.21246938 -88.995331
9209687500 -0.90238953 123.99359 -8.97153 -72.603249 -8.968318 -73.169861 -0.21742636 -88.978134
9209750000 -0.90435743 123.98955 -8.9738989 -72.549881 -8.9592705 -73.139282 -0.2110724 -88.929443
9209812500 -0.90096426 123.96832 -8.9698992 -72.64698 -8.9619484 -73.15863 -0.2172818 -88.931808
9209875000 -0.90281022 123.90821 -8.96908 -72.649536 -8.9531364 -73.139084 -0.20823558 -88.923691
9209937500 -0.89954114 123.91631 -8.9655609 -72.617073 -8.9550219 -73.189491 -0.21117979 -88.907471
9210000000 -0.89770854 123.92064 -8.9636641 -72.604736 -8.9704618 -73.095787 -0.21365884 -88.837021
9210062500 -0.90031362 123.91115 -8.9629545 -72.602013 -8.9637356 -73.152863 -0.21331647 -88.873619
9210125000 -0.89823514 123.91668 -8.9694433 -72.607216 -8.9596386 -73.173843 -0.2112717 -88.84697
9210187500 -0.89899164 123.89991 -8.9599581 -72.503098 -8.9550037 -73.073868 -0.21035077 -88.808022
9210250000 -0.89478904 123.87933 -8.9652195 -72.599403 -8.9453583 -73.074661 -0.21065009 -88.76899
9210312500 -0.89862734 123.86476 -8.9591551 -72.567299 -8.9510326 -73.146133 -0.22167537 -88.795639
9210375000 -0.89844686 123.80771 -8.9607859 -72.581238 -8.9575911 -73.115257 -0.21820842 -88.78904
9210437500 -0.89576483 123.82819 -8.9690924 -72.583771 -8.9582224 -73.108047 -0.22287729 -88.745735
9210500000 -0.89693487 123.78059 -8.9618359 -72.592102 -8.9608393 -73.042648 -0.22013661 -88.711906
9210562500 -0.89125609 123.79536 -8.9658451 -72.61277 -8.9550066 -73.094421 -0.21925958 -88.68824
9210625000 -0.88525909 123.75206 -8.9646664 -72.574478 -8.9542627 -73.102592 -0.22308652 -88.717987
9210687500 -0.8923561 123.754 -8.967721 -72.558372 -8.9542332 -73.156487 -0.23186067 -88.713058
9210750000 -0.8942579 123.72213 -8.9641418 -72.587006 -8.9601831 -73.093445 -0.22836992 -88.645134
9210812500 -0.89322573 123.69257 -8.9560623 -72.546608 -8.9480591 -73.129402 -0.22133996 -88.629517
9210875000 -0.89638871 123.7137 -8.9680347 -72.501823 -8.9568596 -73.148003 -0.2326477 -88.643219
9210937500 -0.89784169 123.65294 -8.9668102 -72.542717 -8.9456873 -73.131218 -0.22875465 -88.594704
9211000000 -0.89535606 123.6623 -8.9589701 -72.482758 -8.9478483 -73.101028 -0.22475538 -88.581131
9211062500 -0.89903843 123.63414 -8.9542561 -72.577461 -8.9477482 -73.165741 -0.21765335 -88.614494
9211125000 -0.90267968 123.63234 -8.9618187 -72.550331 -8.9488163 -73.12339 -0.21482475 -88.618309
9211187500 -0.90697348 123.65254 -8.9576588 -72.547142 -8.9497604 -73.131783 -0.21478218 -88.603264
9211250000 -0.90106535 123.62476 -8.9570274 -72.614799 -8.9356365 -73.146996 -0.21086584 -88.656487
9211312500 -0.9003579 123.62886 -8.9478445 -72.556923 -8.9411907 -73.130661 -0.21593872 -88.58934
9211375000 -0.90452623 123.63509 -8.9494429 -72.597763 -8.9501801 -73.153656 -0.21836898 -88.497833
9211437500 -0.90812325 123.63343 -8.9632282 -72.565948 -8.9394846 -73.211006 -0.21624522 -88.516319
9211500000 -0.90184337 123.60561 -8.9525928 -72.570076 -8.9453268 -73.179756 -0.22149813 -88.530792
9211562500 -0.90552253 123.57904 -8.9632473 -72.582199 -8.9405994 -73.110153 -0.21904783 -88.451538
9211625000 -0.900998 123.56677 -8.94631 -72.504379 -8.9429121 -73.094849 -0.21924612 -88.452225
9211687500 -0.90137452 123.5472 -8.9504461 -72.579582 -8.9438162 -73.108574 -0.22714329 -88.434982
9211750000 -0.90320146 123.49422 -8.9543295 -72.520912 -8.9517183 -73.108284 -0.22822489 -88.45961
9211812500 -0.8978771 123.5155 -8.94174 -72.518044 -8.9404726 -73.061188 -0.22681461 -88.396912
9211875000 -0.90128505 123.43364 -8.9491167 -72.53009 -8.9465542 -73.060478 -0.22881518 -88.37027
9211937500 -0.90532815 123.47305 -8.944561 -72.558022 -8.939106 -73.125 -0.22391333 -88.347771
9212000000 -0.90351391 123.44411 -8.9551239 -72.536652 -8.9450788 -73.069313 -0.22732787 -88.319862
9212062500 -0.91037637 123.40171 -8.9530239 -72.555206 -8.941515 -73.085342 -0.23154774 -88.261429
9212125000 -0.90590858 123.39435 -8.942193 -72.629341 -8.9401226 -73.111061 -0.22816642 -88.251663
9212187500 -0.90799052 123.38558 -8.9475012 -72.613434 -8.9403133 -73.065109 -0.22910032 -88.227493
