!Agilent Technologies,N5242A,MY51221714,A.09.90.19
!Agilent N5242A: A.09.90.19
!Date: Saturday, March 16, 2024 09:36:40
!Correction: S11(Full 2 Port(1,2)) 
!S21(Full 2 Port(1,2)) 
!S12(Full 2 Port(1,2)) 
!S22(Full 2 Port(1,2)) 
!S2P File: Measurements: S11, S21, S12, S22:
# Hz S  dB   R 50
9200000000 -0.99862307 125.12905 -9.054985 -74.247955 -9.0365839 -74.849174 -0.25812653 -92.283875
9200062500 -1.0000513 125.1255 -9.0545321 -74.232063 -9.0429058 -74.850456 -0.26175454 -92.276825
9200125000 -1.0035672 125.11417 -9.0567226 -74.242294 -9.0264177 -74.801613 -0.25645059 -92.206032
9200187500 -1.0014126 125.10081 -9.0550013 -74.244934 -9.0304947 -74.88475 -0.25717524 -92.271866
9200250000 -0.99692035 125.114 -9.0473127 -74.18782 -9.0337181 -74.872749 -0.25920659 -92.279686
9200312500 -0.99907362 125.05666 -9.0487976 -74.256058 -9.031477 -74.862526 -0.25814083 -92.224228
9200375000 -0.9955914 125.05448 -9.0525455 -74.293343 -9.0352936 -74.840973 -0.26142609 -92.176933
9200437500 -0.9925431 125.02332 -9.0435572 -74.294518 -9.028718 -74.88932 -0.25941026 -92.21376
9200500000 -0.9973805 125.03392 -9.0504379 -74.186958 -9.0274162 -74.865578 -0.2624892 -92.152328
9200562500 -0.99218535 125.0359 -9.0473042 -74.191071 -9.0243502 -74.865784 -0.26337463 -92.158501
9200625000 -0.99486995 125.00006 -9.0477343 -74.243103 -9.0278978 -74.810089 -0.26959068 -92.115936
9200687500 -0.9936111 124.9751 -9.0558319 -74.209129 -9.0317478 -74.885521 -0.27063426 -92.128052
9200750000 -0.99808508 124.99341 -9.0506182 -74.204666 -9.0308046 -74.781754 -0.27292848 -92.034119
9200812500 -0.99588251 124.96331 -9.04109 -74.154289 -9.0119047 -74.793205 -0.26206905 -92.010239
9200875000 -0.9945612 124.96317 -9.0364466 -74.211685 -9.0166683 -74.847504 -0.27042794 -92.032356
9200937500 -0.99490637 124.93229 -9.0506382 -74.194984 -9.0262203 -74.829468 -0.27689832 -91.969482
9201000000 -0.99636078 124.91895 -9.0471525 -74.168869 -9.0171957 -74.838791 -0.27178445 -91.975105
9201062500 -0.99570334 124.90533 -9.0324526 -74.261559 -9.0229874 -74.81842 -0.2709029 -91.953979
9201125000 -0.99022096 124.86945 -9.0277166 -74.207565 -9.0244484 -74.787697 -0.26771134 -91.935921
9201187500 -0.99092078 124.88708 -9.0258636 -74.221298 -9.0192156 -74.797516 -0.26679888 -91.933838
9201250000 -0.98564345 124.85538 -9.0269833 -74.131577 -9.0304766 -74.788788 -0.27096784 -91.894211
9201312500 -0.99183184 124.87424 -9.0333452 -74.159576 -9.017787 -74.772171 -0.26563641 -91.870544
9201375000 -0.99783736 124.83145 -9.0307217 -74.166176 -9.0212173 -74.824326 -0.26638883 -91.898415
9201437500 -0.99176967 124.8478 -9.0268049 -74.165329 -9.027873 -74.799164 -0.27299216 -91.890533
9201500000 -0.9994027 124.82639 -9.0478725 -74.15287 -9.018096 -74.803764 -0.26598307 -91.9039
9201562500 -1.0021487 124.77731 -9.0469303 -74.195885 -9.0260363 -74.795509 -0.27052128 -91.867012
9201625000 -0.99911153 124.80917 -9.0373554 -74.250786 -9.0207071 -74.777412 -0.2689068 -91.840607
9201687500 -1.0011292 124.83301 -9.0501175 -74.164017 -9.0212221 -74.80497 -0.27454898 -91.84597
9201750000 -0.99933589 124.7521 -9.0419674 -74.176384 -9.0218897 -74.800819 -0.2743938 -91.848404
9201812500 -0.99855673 124.74507 -9.0376263 -74.207855 -9.0141058 -74.71981 -0.26786152 -91.718994
9201875000 -0.99705923 124.70752 -9.0406895 -74.148537 -9.0207081 -74.75798 -0.27548626 -91.740059
9201937500 -0.99864954 124.70219 -9.0297213 -74.208061 -9.0193577 -74.729179 -0.27272618 -91.684303
9202000000 -0.99411654 124.70245 -9.0398512 -74.21154 -9.0079479 -74.741585 -0.27084818 -91.699112
9202062500 -0.99119353 124.69238 -9.0254803 -74.202538 -9.0154352 -74.801811 -0.27162424 -91.683929
9202125000 -0.99405444 124.66867 -9.0309772 -74.165039 -9.0092354 -74.778603 -0.26483867 -91.697487
9202187500 -0.99725121 124.63815 -9.0237818 -74.217224 -9.0109224 -74.761864 -0.26667246 -91.674889
9202250000 -0.99258721 124.67912 -9.0194502 -74.172775 -9.0129814 -74.804474 -0.27039814 -91.696411
9202312500 -0.99291688 124.62894 -9.021101 -74.148972 -9.0138502 -74.804871 -0.2664274 -91.651321
9202375000 -1.0009245 124.64627 -9.0182838 -74.155678 -9.0073595 -74.826622 -0.26791659 -91.608215
9202437500 -0.99962962 124.61866 -9.0249434 -74.187134 -9.0072355 -74.806641 -0.27076519 -91.569313
9202500000 -0.99791747 124.61098 -9.0183115 -74.191826 -9.017766 -74.815109 -0.27583888 -91.599281
9202562500 -0.99991328 124.57774 -9.0250864 -74.212662 -9.0210714 -74.821541 -0.27966779 -91.620102
9202625000 -0.99851835 124.57843 -9.0308533 -74.134933 -9.0194921 -74.788582 -0.28269315 -91.523476
9202687500 -1.0011523 124.57162 -9.0266914 -74.143967 -9.0075769 -74.767754 -0.282094 -91.538261
9202750000 -0.99838173 124.52988 -9.0239172 -74.192528 -9.0112324 -74.79483 -0.28177789 -91.523979
9202812500 -0.99930882 124.55161 -9.0305643 -74.169151 -9.0054941 -74.768852 -0.28074041 -91.468231
9202875000 -1.0002507 124.50497 -9.0284147 -74.182098 -9.0097713 -74.746735 -0.28255329 -91.466881
9202937500 -0.99903798 124.50016 -9.0219269 -74.163559 -9.0084677 -74.763817 -0.27833802 -91.445198
9203000000 -0.99371475 124.48151 -9.0187216 -74.18866 -9.0056858 -74.802559 -0.27550197 -91.434586
9203062500 -0.99684787 124.44694 -9.0138826 -74.199936 -9.0050278 -74.809952 -0.27461269 -91.451332
9203125000 -0.99932879 124.46593 -9.0199347 -74.190964 -9.0077953 -74.802605 -0.27788016 -91.419128
9203187500 -0.99552447 124.42582 -9.0126181 -74.149841 -9.0076809 -74.758514 -0.27196112 -91.326355
9203250000 -0.99820149 124.41435 -9.0085268 -74.139816 -9.0017958 -74.828979 -0.27162915 -91.37043
9203312500 -1.002021 124.44459 -9.0234327 -74.164101 -9.0046473 -74.749382 -0.27362773 -91.326546
9203375000 -0.99450737 124.39622 -9.0189486 -74.107567 -9.0096941 -74.7043 -0.27767187 -91.293159
9203437500 -0.99908191 124.40142 -9.0145855 -74.164711 -9.0020142 -74.761429 -0.27390197 -91.277199
9203500000 -0.99728674 124.3751 -9.0176783 -74.190384 -9.0068541 -74.744545 -0.27347839 -91.2649
9203562500 -0.99788058 124.36276 -9.0217028 -74.248741 -8.9998274 -74.777321 -0.28206855 -91.276321
9203625000 -0.99304074 124.3532 -9.014307 -74.087646 -9.0052567 -74.748352 -0.27667427 -91.194229
9203687500 -0.99849832 124.35072 -9.0089283 -74.177826 -8.9997263 -74.759216 -0.28204748 -91.233871
9203750000 -0.99817705 124.32578 -9.0115213 -74.198814 -9.0002031 -74.719635 -0.28223157 -91.192863
9203812500 -0.99664432 124.28692 -9.0077362 -74.170845 -8.9979076 -74.759041 -0.28366971 -91.214165
9203875000 -0.99513662 124.25379 -9.0074635 -74.203575 -9.0010405 -74.752563 -0.29396743 -91.167465
9203937500 -0.99169171 124.25621 -9.0101185 -74.157654 -8.9978237 -74.769684 -0.28951389 -91.199158
9204000000 -0.99215567 124.21999 -9.0066891 -74.157455 -8.9944191 -74.699875 -0.29086813 -91.116989
9204062500 -0.98962057 124.21516 -9.0098047 -74.178917 -8.9895611 -74.681778 -0.28512004 -91.098465
9204125000 -0.99271983 124.23209 -9.0111675 -74.17646 -8.9927988 -74.707619 -0.29398134 -91.144348
9204187500 -0.9945966 124.21738 -9.0132484 -74.124138 -8.9846964 -74.696182 -0.28530046 -91.083992
9204250000 -0.98469335 124.21804 -8.9979334 -74.165939 -8.9851284 -74.698868 -0.29702756 -91.062134
9204312500 -0.98895699 124.13963 -9.0112743 -74.11853 -8.9933548 -74.697083 -0.28982526 -91.061218
9204375000 -0.98687905 124.15116 -8.9990196 -74.172821 -8.9890957 -74.781448 -0.28458568 -91.037437
9204437500 -0.98813921 124.16248 -8.9955425 -74.096252 -8.9860945 -74.742538 -0.27781349 -91.02903
9204500000 -0.98656946 124.14 -9.0011044 -74.134224 -8.9850988 -74.718307 -0.28222528 -90.971878
9204562500 -0.98769838 124.15197 -8.9941282 -74.098824 -8.9896688 -74.756645 -0.27353293 -91.018898
9204625000 -0.98777133 124.11028 -8.9936247 -74.113876 -8.9865704 -74.77774 -0.27273667 -90.977661
9204687500 -0.98780751 124.12907 -9.0033007 -74.148766 -8.9899359 -74.735229 -0.28367159 -90.966728
9204750000 -0.99493104 124.09206 -9.0101023 -74.109604 -8.9851494 -74.744423 -0.27742091 -90.927292
9204812500 -0.99642861 124.0942 -9.0058708 -74.122177 -8.9833517 -74.706856 -0.27852643 -90.896744
9204875000 -0.98739403 124.08216 -8.9868803 -74.109344 -8.991312 -74.660164 -0.28486964 -90.864189
9204937500 -0.99678069 124.07124 -9.0081005 -74.129265 -8.9781351 -74.727028 -0.28462577 -90.904388
9205000000 -0.99582082 124.08724 -8.9994993 -74.088692 -8.9786119 -74.692902 -0.28357175 -90.858299
9205062500 -0.99891603 124.01912 -8.9954023 -74.148621 -8.977129 -74.686836 -0.28252026 -90.851601
9205125000 -0.99763322 123.9827 -9.0036898 -74.170174 -8.9878769 -74.686043 -0.28850994 -90.812469
9205187500 -0.99507898 123.99776 -8.9890938 -74.076759 -8.9881563 -74.751793 -0.29018947 -90.813087
9205250000 -0.99643528 123.96818 -8.9909573 -74.068321 -8.9843807 -74.747093 -0.28393841 -90.784874
9205312500 -1.0029297 123.93727 -8.9909592 -74.104065 -8.983798 -74.742867 -0.27652603 -90.779068
9205375000 -1.0019989 123.95454 -8.9935293 -74.079033 -8.9847422 -74.694229 -0.27909198 -90.74897
9205437500 -0.99881452 123.92639 -8.9911699 -74.058998 -8.9830256 -74.749519 -0.28108823 -90.790924
9205500000 -1.0012356 123.88626 -8.9866724 -74.130531 -8.9858379 -74.700096 -0.28712535 -90.712166
9205562500 -0.99705487 123.86487 -9.0019684 -74.072266 -8.9949532 -74.794937 -0.29078683 -90.752388
9205625000 -0.99311328 123.895 -8.9835339 -74.065674 -8.9819393 -74.746384 -0.2837427 -90.728729
9205687500 -0.99593616 123.85293 -8.9944353 -74.148575 -8.983614 -74.679039 -0.28078392 -90.705292
9205750000 -0.99953794 123.86209 -8.9930592 -74.116875 -8.9825697 -74.708755 -0.28093758 -90.68779
9205812500 -0.99247873 123.85957 -8.9844122 -74.097977 -8.9904585 -74.692139 -0.28343806 -90.631371
9205875000 -0.98934388 123.82208 -8.9877853 -74.086082 -8.9823608 -74.693954 -0.28492919 -90.677025
9205937500 -0.99124217 123.84311 -8.9824886 -74.146141 -8.9878693 -74.69664 -0.2854836 -90.628304
9206000000 -0.99275762 123.80971 -8.9875212 -74.069138 -8.9866858 -74.67337 -0.28510007 -90.615898
9206062500 -0.99580711 123.84061 -8.9854374 -74.114075 -8.9835949 -74.681412 -0.28848666 -90.58886
9206125000 -0.99253923 123.813 -8.9862976 -74.067039 -8.9835653 -74.708496 -0.28666112 -90.580597
9206187500 -0.99103904 123.82626 -8.9870462 -74.057999 -8.9758158 -74.672997 -0.28053465 -90.542389
9206250000 -0.99487501 123.79636 -8.9874077 -74.056725 -8.974226 -74.671318 -0.2854009 -90.488777
9206312500 -0.99447709 123.78365 -8.9919615 -74.084419 -8.9718838 -74.67511 -0.29182616 -90.514717
9206375000 -0.98690355 123.78743 -8.9667606 -74.086533 -8.9659214 -74.738571 -0.28272003 -90.516685
9206437500 -0.99779379 123.73302 -8.9843359 -74.077477 -8.9636078 -74.645798 -0.28202328 -90.457649
9206500000 -0.99347287 123.75403 -8.9819365 -74.083397 -8.9532366 -74.693268 -0.27154896 -90.481079
9206562500 -0.99020922 123.7114 -8.9678993 -74.046783 -8.9679222 -74.716858 -0.27978107 -90.447823
9206625000 -0.99991041 123.70557 -8.9728518 -74.058372 -8.9580946 -74.757698 -0.26890361 -90.425385
9206687500 -0.99756998 123.68069 -8.9654541 -74.062622 -8.9431934 -74.653839 -0.2677052 -90.374603
9206750000 -0.99949509 123.67905 -8.9654989 -74.032211 -8.9650784 -74.680603 -0.27401972 -90.345383
9206812500 -0.99757671 123.66302 -8.959692 -74.008453 -8.9556198 -74.672462 -0.27489793 -90.33918
9206875000 -0.99929351 123.6142 -8.9681101 -74.119247 -8.9505844 -74.679123 -0.27672312 -90.269348
9206937500 -1.0013965 123.61411 -8.9749603 -74.020531 -8.9640493 -74.715919 -0.28345978 -90.30513
9207000000 -0.9988026 123.58501 -8.9753132 -74.020386 -8.9591761 -74.686913 -0.28185323 -90.310226
9207062500 -0.98690641 123.57069 -8.9584732 -74.020264 -8.961483 -74.650711 -0.28485236 -90.262207
9207125000 -0.99189448 123.57034 -8.9737597 -74.07843 -8.9617319 -74.676422 -0.28828856 -90.290253
9207187500 -0.99133945 123.56475 -8.9752359 -74.052559 -8.9546041 -74.721329 -0.29054746 -90.259987
9207250000 -0.99282837 123.5136 -8.9707575 -74.097099 -8.9661703 -74.679459 -0.28757471 -90.251328
9207312500 -0.99261361 123.50777 -8.9666309 -74.079247 -8.9657393 -74.641411 -0.29118606 -90.249786
9207375000 -0.99165165 123.4902 -8.9721308 -74.088074 -8.9584846 -74.685951 -0.29030666 -90.229256
9207437500 -0.99243563 123.46003 -8.9692221 -74.117966 -8.9643822 -74.677345 -0.29226083 -90.201973
9207500000 -0.99530691 123.45255 -8.9658689 -74.078468 -8.9546385 -74.628731 -0.2912375 -90.188805
9207562500 -0.99021643 123.43521 -8.9599648 -74.036484 -8.9518776 -74.658379 -0.29023492 -90.158218
9207625000 -0.99868798 123.41799 -8.9580956 -74.101166 -8.9569969 -74.693123 -0.29758707 -90.191307
9207687500 -0.99969035 123.38709 -8.9598207 -74.097252 -8.9626179 -74.686401 -0.2916809 -90.169441
9207750000 -0.9987992 123.40841 -8.9576244 -74.052917 -8.9480658 -74.673462 -0.2832537 -90.171272
9207812500 -0.99803042 123.36886 -8.963975 -74.072441 -8.9538565 -74.680389 -0.2802389 -90.085121
9207875000 -1.0042381 123.35751 -8.9622755 -74.116768 -8.9500237 -74.769836 -0.27719048 -90.130577
9207937500 -1.0016207 123.37745 -8.9629221 -74.072105 -8.9511499 -74.670097 -0.28169683 -90.058685
9208000000 -1.0002756 123.37964 -8.9621449 -74.049294 -8.9450693 -74.676781 -0.28206128 -90.028656
9208062500 -1.0057517 123.36297 -8.9652233 -74.081337 -8.9553404 -74.714783 -0.28084272 -90.026192
9208125000 -0.99949753 123.35123 -8.9628983 -73.99395 -8.955205 -74.653671 -0.28663737 -89.955986
9208187500 -1.0048635 123.31669 -8.9671326 -74.014473 -8.944047 -74.651115 -0.29163191 -89.957558
9208250000 -0.99719131 123.37048 -8.9591265 -73.924126 -8.9491949 -74.656479 -0.29219812 -89.960136
9208312500 -1.0020003 123.31191 -8.9595118 -74.065117 -8.9523125 -74.658455 -0.29332057 -89.917709
9208375000 -1.0017929 123.28931 -8.9568329 -74.039925 -8.9474316 -74.626717 -0.2943331 -89.909973
9208437500 -0.99773055 123.2953 -8.9564123 -74.035706 -8.9460564 -74.596649 -0.29162356 -89.881004
9208500000 -0.99596453 123.2491 -8.9541044 -74.052536 -8.943841 -74.655067 -0.28859472 -89.895157
9208562500 -0.99745387 123.19466 -8.9503679 -74.123367 -8.9395895 -74.627823 -0.28590813 -89.881592
9208625000 -0.99538934 123.19183 -8.9519806 -74.085213 -8.9483738 -74.696846 -0.2916809 -89.905769
9208687500 -0.99703842 123.21174 -8.9586992 -74.108871 -8.931385 -74.677048 -0.28706819 -89.879883
9208750000 -1.0025512 123.18715 -8.9511585 -74.097649 -8.9335957 -74.651932 -0.28558305 -89.877228
9208812500 -0.99855709 123.17988 -8.9534378 -74.109634 -8.9431381 -74.682732 -0.29473311 -89.885971
9208875000 -1.0070595 123.16156 -8.948144 -74.055832 -8.9386482 -74.665794 -0.28780738 -89.855881
9208937500 -0.99346346 123.17974 -8.9421463 -74.073067 -8.9444628 -74.630417 -0.29087231 -89.812088
9209000000 -0.99529558 123.19869 -8.9421797 -74.011055 -8.9505005 -74.634308 -0.29484022 -89.811073
9209062500 -0.99906147 123.19675 -8.9448395 -73.970001 -8.9429846 -74.607208 -0.2910797 -89.787247
9209125000 -1.0019032 123.1879 -8.9428282 -74.047279 -8.9483185 -74.612015 -0.29513645 -89.743843
9209187500 -0.99949676 123.18013 -8.9434004 -74.035088 -8.9444246 -74.618706 -0.29333577 -89.772995
9209250000 -1.0002775 123.17747 -8.9409599 -74.016579 -8.9410877 -74.623924 -0.2962327 -89.738037
9209312500 -0.99990201 123.1339 -8.9395485 -73.977982 -8.9412241 -74.618629 -0.28906071 -89.686081
9209375000 -0.99726003 123.10683 -8.9502249 -74.045853 -8.9447393 -74.57373 -0.29605073 -89.690102
9209437500 -0.99949902 123.04904 -8.9402723 -74.027725 -8.9412489 -74.588905 -0.30004749 -89.649277
9209500000 -0.99321777 123.04655 -8.9433212 -74.08094 -8.9438744 -74.637497 -0.29969504 -89.609558
9209562500 -0.99657446 123.02798 -8.9402132 -74.073486 -8.9485312 -74.654915 -0.30099052 -89.606567
9209625000 -1.0026362 123.04362 -8.9439316 -73.993538 -8.9365959 -74.611977 -0.29088712 -89.589897
9209687500 -1.0000427 123.02445 -8.940671 -74.08316 -8.9329729 -74.644554 -0.28830609 -89.610252
9209750000 -1.0015812 123.01242 -8.9445934 -74.058723 -8.9328232 -74.616142 -0.29174107 -89.523293
9209812500 -1.0010477 122.99787 -8.9327278 -74.065773 -8.9265947 -74.603035 -0.28448698 -89.521584
9209875000 -1.0070372 122.99286 -8.9474249 -74.109322 -8.9293947 -74.646034 -0.28701621 -89.568748
9209937500 -1.0027694 122.9732 -8.9429808 -74.052597 -8.9313555 -74.650925 -0.28963032 -89.496582
9210000000 -1.0013279 122.96884 -8.9382105 -74.075729 -8.9194231 -74.611092 -0.2803686 -89.484528
9210062500 -0.99866134 122.94734 -8.9347582 -74.017906 -8.9268465 -74.54882 -0.28965056 -89.433716
9210125000 -0.99868953 122.93457 -8.9488621 -74.057716 -8.9185829 -74.559738 -0.27785334 -89.43
9210187500 -0.99588597 122.9012 -8.9323978 -73.931038 -8.9255056 -74.558769 -0.28826514 -89.370995
9210250000 -0.98726046 122.8851 -8.9192076 -74.04908 -8.9137564 -74.540833 -0.28415656 -89.385216
9210312500 -0.99793905 122.89381 -8.9257641 -73.991348 -8.9319477 -74.522881 -0.30113286 -89.349472
9210375000 -0.99498093 122.89781 -8.9316864 -74.022179 -8.9256992 -74.546501 -0.29528767 -89.334244
9210437500 -0.99368501 122.85351 -8.9323902 -73.962059 -8.9231739 -74.519005 -0.29243737 -89.3255
9210500000 -0.99293751 122.87898 -8.9331627 -74.005867 -8.9343119 -74.612907 -0.30602962 -89.354431
9210562500 -0.99697506 122.83714 -8.9295158 -74.022629 -8.9284744 -74.536133 -0.29793108 -89.383881
9210625000 -0.98847049 122.79038 -8.9296951 -74.026413 -8.9292336 -74.556763 -0.30330601 -89.320755
9210687500 -0.99310088 122.79082 -8.932539 -73.977623 -8.9204359 -74.549095 -0.30063814 -89.247826
9210750000 -0.99271816 122.75943 -8.9301605 -73.974442 -8.9292955 -74.568405 -0.30231854 -89.248833
9210812500 -0.99579018 122.75884 -8.9363098 -73.924568 -8.9263268 -74.588333 -0.30539763 -89.249763
9210875000 -0.98876661 122.75278 -8.9318371 -73.926292 -8.9218912 -74.5839 -0.29773557 -89.26355
9210937500 -0.99206275 122.73573 -8.9303122 -73.927528 -8.9186497 -74.623604 -0.30195668 -89.230446
9211000000 -0.99430752 122.6754 -8.9241409 -73.997452 -8.928113 -74.576645 -0.30426717 -89.193001
9211062500 -0.99878073 122.69581 -8.933176 -74.026154 -8.9189072 -74.60424 -0.30811054 -89.200783
9211125000 -0.99878508 122.68304 -8.9274378 -73.988312 -8.9166508 -74.597404 -0.29381081 -89.216034
9211187500 -1.0070584 122.70187 -8.9358501 -73.976364 -8.9176788 -74.56974 -0.29313156 -89.21312
9211250000 -1.0035255 122.69656 -8.9211693 -73.999557 -8.9147816 -74.547531 -0.29461876 -89.201317
9211312500 -1.0066293 122.69601 -8.9258404 -73.975174 -8.9144897 -74.643326 -0.28829795 -89.207703
9211375000 -1.0040683 122.69353 -8.9228735 -73.972939 -8.9099236 -74.564018 -0.28850594 -89.103165
9211437500 -1.0061876 122.6751 -8.9315681 -73.983231 -8.9089403 -74.606232 -0.2931149 -89.122841
9211500000 -1.0048796 122.62481 -8.9198475 -74.083374 -8.9200478 -74.54863 -0.29999343 -89.074257
9211562500 -1.0064449 122.63714 -8.9272156 -73.957764 -8.9067039 -74.582756 -0.29189265 -89.067528
9211625000 -1.0011687 122.56805 -8.9232035 -74.013947 -8.9221783 -74.574829 -0.30275828 -89.049988
9211687500 -1.0015883 122.58004 -8.9186945 -74.011383 -8.917798 -74.559128 -0.29996896 -89.05957
9211750000 -1.0035814 122.58755 -8.9297419 -73.910225 -8.9117594 -74.546913 -0.3014515 -89.021942
9211812500 -1.0080717 122.53091 -8.9223461 -74.032585 -8.9183836 -74.511696 -0.30884063 -89.027077
9211875000 -1.0054836 122.53623 -8.9201736 -73.960785 -8.9136572 -74.560745 -0.29887819 -88.972473
9211937500 -1.0038033 122.51373 -8.9167175 -73.918083 -8.9129553 -74.472862 -0.30270404 -88.904724
9212000000 -1.0068276 122.47832 -8.9183054 -73.972633 -8.9036121 -74.49012 -0.29884142 -88.858086
9212062500 -1.0013477 122.46871 -8.9084692 -73.976715 -8.9158354 -74.525848 -0.30613154 -88.848816
9212125000 -1.0054529 122.43728 -8.9212456 -74.026642 -8.9098616 -74.526588 -0.30154353 -88.867516
9212187500 -1.011037 122.41917 -8.9185915 -74.027664 -8.9004183 -74.492188 -0.30034745 -88.830528
9212250000 -1.0050186 122.38596 -8.9173346 -73.97187 -8.9092779 -74.533371 -0.30308291 -88.814384
