!Agilent Technologies,N5242A,MY51221714,A.09.90.19
!Agilent N5242A: A.09.90.19
!Date: Saturday, March 16, 2024 09:45:44
!Correction: S11(Full 2 Port(1,2)) 
!S21(Full 2 Port(1,2)) 
!S12(Full 2 Port(1,2)) 
!S22(Full 2 Port(1,2)) 
!S2P File: Measurements: S11, S21, S12, S22:
# Hz S  dB   R 50
9200000000 -0.89938051 126.20664 -9.0609579 -72.796257 -9.0509396 -73.422699 -0.18149787 -91.84063
9200062500 -0.9056195 126.2252 -9.0690107 -72.804527 -9.0527029 -73.431313 -0.18148185 -91.867279
9200125000 -0.90620685 126.25912 -9.0622768 -72.734108 -9.0496941 -73.409279 -0.17912865 -91.829956
9200187500 -0.90466958 126.19463 -9.0677042 -72.736778 -9.0455847 -73.392822 -0.18110879 -91.808502
9200250000 -0.9055239 126.19403 -9.0640869 -72.764229 -9.0499878 -73.48098 -0.1876438 -91.839157
9200312500 -0.89738363 126.18031 -9.059885 -72.811897 -9.0554485 -73.472145 -0.18258049 -91.802147
9200375000 -0.90315592 126.17574 -9.0660725 -72.823013 -9.0392809 -73.416168 -0.18334648 -91.780273
9200437500 -0.89792383 126.15259 -9.0586939 -72.802513 -9.0317373 -73.445923 -0.17904554 -91.776909
9200500000 -0.90116358 126.14644 -9.0630512 -72.786911 -9.0373497 -73.439758 -0.1840148 -91.746124
9200562500 -0.90099239 126.12731 -9.0594444 -72.846985 -9.0466776 -73.492599 -0.18742414 -91.748184
9200625000 -0.89851683 126.08949 -9.0538197 -72.761597 -9.0343361 -73.41655 -0.18424051 -91.682739
9200687500 -0.90428877 126.07314 -9.0637875 -72.786797 -9.0426407 -73.447647 -0.19588402 -91.681816
9200750000 -0.90522659 126.08904 -9.0636816 -72.754173 -9.0278664 -73.412117 -0.18884265 -91.605415
9200812500 -0.90443087 126.10588 -9.0620489 -72.714706 -9.033618 -73.442604 -0.19288364 -91.595695
9200875000 -0.90130585 126.0703 -9.0606909 -72.742584 -9.0361099 -73.3937 -0.19202636 -91.554153
9200937500 -0.90226978 126.07858 -9.0562897 -72.693336 -9.0245991 -73.396828 -0.19120118 -91.564735
9201000000 -0.89479738 126.04742 -9.0479784 -72.690613 -9.0330753 -73.394821 -0.19002786 -91.515556
9201062500 -0.90311748 126.03481 -9.0540066 -72.719841 -9.038825 -73.365784 -0.19238809 -91.507607
9201125000 -0.9003548 126.03686 -9.0467081 -72.69989 -9.0397158 -73.358795 -0.19712529 -91.482277
9201187500 -0.89526862 126.02304 -9.0500002 -72.755142 -9.0318613 -73.405846 -0.19073361 -91.516457
9201250000 -0.89592487 125.96254 -9.0539942 -72.789154 -9.0389481 -73.371666 -0.1959953 -91.470352
9201312500 -0.89729774 125.95411 -9.0426846 -72.778145 -9.0439358 -73.383667 -0.19928394 -91.487656
9201375000 -0.89934707 125.93492 -9.0528469 -72.71254 -9.0320768 -73.350746 -0.18848018 -91.472313
9201437500 -0.89837915 125.93051 -9.0416098 -72.773033 -9.0242758 -73.434113 -0.18783768 -91.511322
9201500000 -0.90382171 125.92082 -9.0580616 -72.743149 -9.0339966 -73.400726 -0.19196902 -91.469635
9201562500 -0.90598637 125.93108 -9.0513115 -72.791794 -9.0383005 -73.40686 -0.18918556 -91.441322
9201625000 -0.90649366 125.93466 -9.0613995 -72.731667 -9.0359783 -73.370163 -0.19302462 -91.418282
9201687500 -0.90676063 125.88505 -9.0600719 -72.718773 -9.0316162 -73.32119 -0.18904567 -91.396118
9201750000 -0.9061687 125.89851 -9.0581179 -72.748497 -9.0297594 -73.366844 -0.19314206 -91.400421
9201812500 -0.89897382 125.83665 -9.0441227 -72.721268 -9.0312681 -73.331383 -0.19134226 -91.323647
9201875000 -0.899436 125.81517 -9.0462227 -72.731567 -9.0320902 -73.359055 -0.19436654 -91.347061
9201937500 -0.89824653 125.8218 -9.0474005 -72.753395 -9.0269709 -73.339226 -0.19652402 -91.287743
9202000000 -0.89496022 125.79832 -9.0345507 -72.734123 -9.0301266 -73.345688 -0.19644728 -91.260696
9202062500 -0.90048653 125.80758 -9.0397148 -72.697075 -9.0312967 -73.348701 -0.19016442 -91.2164
9202125000 -0.90048796 125.78001 -9.0232563 -72.772232 -9.0317163 -73.39476 -0.19297692 -91.245529
9202187500 -0.90226817 125.78458 -9.036541 -72.675453 -9.0320492 -73.428581 -0.19411567 -91.233978
9202250000 -0.90341008 125.74982 -9.0318089 -72.732277 -9.0240107 -73.372574 -0.19107254 -91.184982
9202312500 -0.89615029 125.73161 -9.0307245 -72.742111 -9.0254049 -73.380104 -0.18861948 -91.210159
9202375000 -0.89769828 125.74924 -9.0290794 -72.698311 -9.0309191 -73.399887 -0.19036673 -91.209274
9202437500 -0.90205246 125.74306 -9.0351248 -72.727974 -9.0317364 -73.334045 -0.19380359 -91.146446
9202500000 -0.90171355 125.69392 -9.0321274 -72.734825 -9.0299873 -73.405174 -0.19496956 -91.139473
9202562500 -0.90501493 125.67974 -9.0422573 -72.730949 -9.0294285 -73.333717 -0.19926688 -91.127167
9202625000 -0.90434599 125.6886 -9.0325851 -72.694405 -9.0221443 -73.383041 -0.20144531 -91.144806
9202687500 -0.90236562 125.69634 -9.0406113 -72.723648 -9.0187273 -73.317444 -0.198184 -91.053719
9202750000 -0.90286946 125.67863 -9.0395842 -72.657303 -9.0217857 -73.355782 -0.19747154 -91.052948
9202812500 -0.90442616 125.66448 -9.0453691 -72.688187 -9.0208979 -73.296707 -0.19638403 -91.023285
9202875000 -0.89840561 125.6654 -9.0282497 -72.647675 -9.0209055 -73.32399 -0.19378366 -91.061943
9202937500 -0.89858884 125.59926 -9.0317755 -72.713188 -9.0212107 -73.383202 -0.19450198 -91.019913
9203000000 -0.90043253 125.56655 -9.0289135 -72.764229 -9.0136909 -73.321228 -0.19549711 -90.995857
9203062500 -0.89818418 125.55205 -9.0299988 -72.782509 -9.0163002 -73.35231 -0.19608621 -91.026665
9203125000 -0.90630674 125.55169 -9.034771 -72.70356 -9.0228634 -73.314354 -0.19734867 -90.951469
9203187500 -0.89863694 125.5587 -9.0277586 -72.676292 -9.0226202 -73.368591 -0.19330619 -90.969711
9203250000 -0.89698011 125.53451 -9.0256691 -72.747452 -9.0217781 -73.372406 -0.1989734 -90.941727
9203312500 -0.90019959 125.52445 -9.0301695 -72.7146 -9.0217838 -73.368423 -0.19998214 -90.932991
9203375000 -0.90218496 125.4887 -9.0227165 -72.781898 -9.0106401 -73.389709 -0.19376278 -90.908264
9203437500 -0.90357018 125.51194 -9.0361691 -72.734001 -9.0140543 -73.320976 -0.19286813 -90.874321
9203500000 -0.89442247 125.49126 -9.0209866 -72.729973 -9.0148706 -73.304405 -0.19838013 -90.794579
9203562500 -0.89922428 125.49143 -9.0331421 -72.739304 -9.0095053 -73.36792 -0.20311277 -90.86747
9203625000 -0.90080929 125.48129 -9.0215054 -72.654709 -9.0196638 -73.359032 -0.20238055 -90.82814
9203687500 -0.90258342 125.43857 -9.024003 -72.680771 -9.019949 -73.381378 -0.20485792 -90.820168
9203750000 -0.90287197 125.40214 -9.0275526 -72.757614 -9.0174837 -73.291695 -0.2065531 -90.781281
9203812500 -0.90048534 125.40804 -9.0214987 -72.72599 -9.0250635 -73.346893 -0.21392198 -90.76738
9203875000 -0.90634114 125.40934 -9.0263958 -72.648872 -9.0218287 -73.294357 -0.21625949 -90.744232
9203937500 -0.90458411 125.39597 -9.0289907 -72.702988 -9.0025358 -73.311874 -0.20388503 -90.769585
9204000000 -0.89591616 125.3593 -9.0246429 -72.688179 -9.0033722 -73.297264 -0.20970614 -90.674271
9204062500 -0.89892083 125.33008 -9.0296087 -72.731422 -9.0028801 -73.24334 -0.21058184 -90.665024
9204125000 -0.89673465 125.34084 -9.0241375 -72.734741 -9.0012112 -73.315262 -0.21287517 -90.697487
9204187500 -0.89807826 125.32862 -9.0294571 -72.731438 -9.0120459 -73.294945 -0.21775897 -90.661873
9204250000 -0.89064145 125.28333 -9.0292234 -72.764328 -8.9989805 -73.292633 -0.20709024 -90.637489
9204312500 -0.89959329 125.31649 -9.0257435 -72.668747 -8.9962473 -73.285233 -0.20715971 -90.634651
9204375000 -0.89149225 125.26991 -9.0099363 -72.676468 -8.9983892 -73.262924 -0.19827719 -90.597351
9204437500 -0.89232004 125.26295 -9.0148067 -72.657043 -8.9945688 -73.283524 -0.1986012 -90.599464
9204500000 -0.8970241 125.24261 -9.0140343 -72.603088 -9.0038538 -73.337563 -0.20447597 -90.613815
9204562500 -0.88956195 125.20502 -9.0105438 -72.690575 -9.0084305 -73.343689 -0.20627411 -90.549454
9204625000 -0.89454865 125.22548 -9.0153332 -72.584862 -8.9898834 -73.282257 -0.19401881 -90.508774
9204687500 -0.89465755 125.17052 -9.0125456 -72.694885 -8.9999638 -73.313705 -0.2039519 -90.508385
9204750000 -0.88964325 125.22205 -9.0094757 -72.603325 -8.9957542 -73.286247 -0.20202294 -90.508255
9204812500 -0.90050071 125.21873 -9.0229053 -72.577286 -8.9973793 -73.279793 -0.20525678 -90.476379
9204875000 -0.89475542 125.22849 -9.0165644 -72.611504 -9.0039654 -73.249969 -0.21184485 -90.445122
9204937500 -0.8988952 125.16472 -9.0134439 -72.676125 -8.994154 -73.267403 -0.20401955 -90.455772
9205000000 -0.89415044 125.19406 -9.0144825 -72.649078 -9.0005293 -73.304001 -0.21055076 -90.444878
9205062500 -0.89713621 125.17165 -9.0115452 -72.630455 -9.0052872 -73.272072 -0.20986801 -90.397865
9205125000 -0.90107822 125.12434 -9.0092306 -72.625984 -8.9951372 -73.283211 -0.19952208 -90.430161
9205187500 -0.90548736 125.08422 -9.0025587 -72.607826 -8.9949217 -73.278496 -0.19930008 -90.434341
9205250000 -0.9014101 125.0761 -9.0041666 -72.59346 -8.9966164 -73.368248 -0.19945213 -90.417892
9205312500 -0.90184581 125.05291 -9.0086613 -72.598 -9.012908 -73.301674 -0.21140796 -90.352356
9205375000 -0.90890914 125.01733 -9.0082684 -72.626884 -9.0095367 -73.330986 -0.20539154 -90.343895
9205437500 -0.90159476 125.03889 -9.015399 -72.593666 -8.9989653 -73.318909 -0.20212927 -90.294312
9205500000 -0.90222955 125.02075 -9.0019245 -72.611076 -9.0060863 -73.322823 -0.20241617 -90.349449
9205562500 -0.90096146 125.0239 -9.0045776 -72.659912 -8.9994144 -73.275841 -0.20501854 -90.319504
9205625000 -0.90013033 125.01137 -9.0018702 -72.62899 -9.003089 -73.300812 -0.20746298 -90.293549
9205687500 -0.89726776 124.99771 -9.0111265 -72.647766 -9.0016651 -73.252235 -0.20387676 -90.26844
9205750000 -0.90029186 124.98866 -9.0053167 -72.644363 -9.0017385 -73.236687 -0.20862865 -90.255402
9205812500 -0.89853132 124.99289 -9.0022726 -72.610016 -8.9945173 -73.255814 -0.20361938 -90.250381
9205875000 -0.89807326 124.99232 -9.0040331 -72.642952 -8.9969807 -73.224564 -0.20196788 -90.184326
9205937500 -0.90131581 124.97568 -9.0147972 -72.618179 -8.9955196 -73.258522 -0.20473294 -90.155785
9206000000 -0.89528084 124.94997 -9.0075817 -72.632065 -8.9944201 -73.253891 -0.20681086 -90.152382
9206062500 -0.89397144 124.93594 -8.9961033 -72.625885 -8.9982109 -73.322403 -0.21582769 -90.168877
9206125000 -0.89555675 124.93913 -9.0015631 -72.580231 -8.9970312 -73.256767 -0.21017863 -90.146057
9206187500 -0.89074504 124.93428 -8.9933805 -72.637787 -8.9855452 -73.276894 -0.20618308 -90.091843
9206250000 -0.89323795 124.91055 -8.9960985 -72.594307 -8.9953318 -73.198425 -0.21001972 -90.082108
9206312500 -0.89384973 124.91117 -8.9998837 -72.607933 -8.9900055 -73.273399 -0.206182 -90.066605
9206375000 -0.89895993 124.89385 -8.9923782 -72.618179 -8.9884682 -73.287193 -0.20255774 -90.101456
9206437500 -0.89288688 124.85325 -8.9913616 -72.615707 -8.9837103 -73.211845 -0.20161377 -90.006363
9206500000 -0.89274609 124.88235 -8.9970512 -72.53772 -8.9812212 -73.279327 -0.20582654 -90.042831
9206562500 -0.89075768 124.85262 -8.9848652 -72.531837 -8.9819698 -73.269089 -0.20044787 -90.031998
9206625000 -0.89905804 124.82271 -8.9876719 -72.57325 -8.9742107 -73.245995 -0.19513187 -89.941612
9206687500 -0.89648432 124.81352 -8.9815559 -72.586334 -8.9819689 -73.241394 -0.19716272 -89.909599
9206750000 -0.89959532 124.79608 -8.9911051 -72.547897 -8.9696388 -73.234718 -0.19669345 -89.918694
9206812500 -0.90283388 124.76456 -8.9797001 -72.607445 -8.9745722 -73.207153 -0.19938886 -89.907135
9206875000 -0.89802194 124.7685 -8.9801559 -72.533958 -8.9650068 -73.247955 -0.19582443 -89.90287
9206937500 -0.89937019 124.73969 -8.9915028 -72.610603 -8.9755325 -73.221375 -0.2035078 -89.874947
9207000000 -0.89511895 124.73145 -8.9768248 -72.58477 -8.960988 -73.219955 -0.19737066 -89.872246
9207062500 -0.89575636 124.69411 -8.9830065 -72.629601 -8.9793081 -73.222015 -0.2144485 -89.864311
9207125000 -0.88862419 124.71255 -8.9786673 -72.579056 -8.9784584 -73.197517 -0.20405942 -89.788895
9207187500 -0.8931796 124.67493 -8.9789219 -72.601479 -8.9820919 -73.21312 -0.21027952 -89.852875
9207250000 -0.88921076 124.65146 -8.9763641 -72.618073 -8.9806404 -73.167923 -0.21086103 -89.801071
9207312500 -0.89603919 124.64728 -8.9840527 -72.589317 -8.9625101 -73.235191 -0.20669231 -89.804344
9207375000 -0.89789283 124.58688 -8.989501 -72.637634 -8.9708872 -73.178398 -0.21105696 -89.786865
9207437500 -0.89597064 124.58202 -8.9768333 -72.611694 -8.9712219 -73.236679 -0.20954528 -89.820541
9207500000 -0.89635277 124.55455 -8.9867506 -72.584404 -8.9701662 -73.217377 -0.21140411 -89.7826
9207562500 -0.89994824 124.51606 -8.9790792 -72.610153 -8.9716444 -73.220932 -0.2152715 -89.738029
9207625000 -0.90107155 124.51425 -8.9832764 -72.687149 -8.9631968 -73.213921 -0.21194376 -89.764229
9207687500 -0.90184939 124.48965 -8.9797716 -72.668282 -8.9742832 -73.233002 -0.20411642 -89.716431
9207750000 -0.90413284 124.4904 -8.9781361 -72.61335 -8.9717226 -73.225998 -0.20463267 -89.709435
9207812500 -0.90092891 124.51791 -8.9674664 -72.557755 -8.9613571 -73.218369 -0.19917683 -89.695992
9207875000 -0.90312535 124.48534 -8.971714 -72.615105 -8.9655581 -73.187752 -0.19587554 -89.640411
9207937500 -0.90181595 124.52465 -8.9758377 -72.576904 -8.9624929 -73.209511 -0.1969566 -89.614838
9208000000 -0.90617132 124.4918 -8.9780846 -72.570427 -8.9711723 -73.225716 -0.20317493 -89.540482
9208062500 -0.90256023 124.48354 -8.9774332 -72.558708 -8.9777613 -73.181168 -0.21050315 -89.576469
9208125000 -0.90353614 124.4989 -8.9815483 -72.570381 -8.965888 -73.25457 -0.20652081 -89.56324
9208187500 -0.90423697 124.46569 -8.9922504 -72.576042 -8.9714966 -73.141502 -0.21656635 -89.524551
9208250000 -0.89646298 124.47786 -8.9811087 -72.536354 -8.9622059 -73.249619 -0.20982775 -89.5466
9208312500 -0.89653552 124.45769 -8.9742317 -72.525154 -8.9639311 -73.219742 -0.21207793 -89.51165
9208375000 -0.9054001 124.43298 -8.9785366 -72.557892 -8.9646091 -73.130951 -0.2146443 -89.469368
9208437500 -0.90642136 124.4118 -8.9840527 -72.537506 -8.9637136 -73.153862 -0.215002 -89.45446
9208500000 -0.89837021 124.40321 -8.9694252 -72.551407 -8.9619484 -73.175468 -0.21473034 -89.496178
9208562500 -0.90175736 124.36581 -8.9616909 -72.563538 -8.9680014 -73.191124 -0.21734728 -89.458328
9208625000 -0.89455479 124.33494 -8.9611282 -72.575432 -8.9644442 -73.204094 -0.21217589 -89.425484
9208687500 -0.90274096 124.32141 -8.9747162 -72.56826 -8.9570208 -73.179832 -0.21002729 -89.461037
9208750000 -0.90313518 124.31322 -8.9675732 -72.618614 -8.961298 -73.200195 -0.21477778 -89.43763
9208812500 -0.9025389 124.29484 -8.9712887 -72.633438 -8.9559526 -73.142952 -0.21031269 -89.38237
9208875000 -0.90155172 124.27876 -8.9710693 -72.616783 -8.9612856 -73.165268 -0.21091945 -89.39016
9208937500 -0.90450156 124.30332 -8.9648981 -72.553932 -8.9612045 -73.19091 -0.21171752 -89.427589
9209000000 -0.90135652 124.31173 -8.9610882 -72.515503 -8.9515686 -73.176079 -0.21411936 -89.381676
9209062500 -0.90199375 124.32806 -8.9718208 -72.562584 -8.9560909 -73.152283 -0.21296075 -89.396637
9209125000 -0.90622687 124.31934 -8.9680262 -72.5149 -8.9579096 -73.152122 -0.21269217 -89.350479
9209187500 -0.90459818 124.29286 -8.9611883 -72.554398 -8.9623871 -73.182289 -0.21797051 -89.325348
9209250000 -0.90257621 124.29164 -8.9611292 -72.585022 -8.9578362 -73.204643 -0.21569014 -89.320686
9209312500 -0.89444053 124.27171 -8.9495974 -72.529076 -8.9632502 -73.166946 -0.2147322 -89.238846
9209375000 -0.89755994 124.24797 -8.9584103 -72.488152 -8.9592409 -73.191666 -0.2175356 -89.253571
9209437500 -0.89843506 124.20136 -8.9541445 -72.519356 -8.9661541 -73.124802 -0.21730568 -89.189873
9209500000 -0.89733636 124.19875 -8.9521894 -72.563431 -8.9675026 -73.111626 -0.21612078 -89.169563
9209562500 -0.90250885 124.18713 -8.9571915 -72.593796 -8.9619856 -73.161964 -0.21794893 -89.161064
9209625000 -0.90353054 124.16855 -8.9557819 -72.495323 -8.9555159 -73.111038 -0.21080661 -89.083191
9209687500 -0.90399528 124.14033 -8.9570684 -72.545273 -8.9473486 -73.125732 -0.21445911 -89.129311
9209750000 -0.89369351 124.10798 -8.9498606 -72.585236 -8.958395 -73.158585 -0.20898512 -89.085205
9209812500 -0.90790129 124.12629 -8.9597521 -72.491234 -8.9550467 -73.115868 -0.20520298 -89.084244
9209875000 -0.90870613 124.13184 -8.9639931 -72.502144 -8.9462976 -73.176582 -0.21080047 -89.096947
9209937500 -0.90159863 124.09047 -8.9542484 -72.557716 -8.9507828 -73.147049 -0.20622 -89.015121
9210000000 -0.89796776 124.10049 -8.9455891 -72.533745 -8.9463987 -73.154343 -0.21307193 -89.059776
9210062500 -0.90352911 124.07466 -8.9591932 -72.525162 -8.9448776 -73.150711 -0.20841682 -89.040604
9210125000 -0.89563733 124.05095 -8.9506845 -72.570457 -8.947772 -73.072357 -0.20919181 -88.972443
9210187500 -0.89844567 124.05745 -8.9500561 -72.541473 -8.9496288 -73.124054 -0.20633782 -89.02211
9210250000 -0.9008587 124.01997 -8.9468632 -72.478035 -8.9486332 -73.052322 -0.20836075 -88.920158
9210312500 -0.89882416 123.99696 -8.9525938 -72.497551 -8.9462194 -73.07473 -0.21851937 -88.95475
9210375000 -0.89579451 124.01138 -8.9491386 -72.487488 -8.9350348 -73.106094 -0.2105995 -88.983559
9210437500 -0.89475667 123.98209 -8.9503212 -72.507072 -8.9454432 -73.107574 -0.21980606 -88.929703
9210500000 -0.8972109 123.98611 -8.9470711 -72.518219 -8.9512777 -73.140854 -0.22057526 -88.921356
9210562500 -0.89422381 123.94773 -8.938652 -72.481308 -8.9499664 -73.072365 -0.22172283 -88.8834
9210625000 -0.89325821 123.91697 -8.9480495 -72.494789 -8.945756 -73.065331 -0.22241017 -88.857079
9210687500 -0.89501125 123.89162 -8.9561596 -72.559685 -8.9499769 -73.065468 -0.22238138 -88.834435
9210750000 -0.89797181 123.86287 -8.9560528 -72.502373 -8.9539108 -73.057327 -0.22934128 -88.824921
9210812500 -0.89487839 123.89384 -8.9515162 -72.447899 -8.9382582 -73.157532 -0.22198376 -88.831253
9210875000 -0.89400816 123.84074 -8.9486656 -72.50119 -8.9409647 -73.071091 -0.21819004 -88.789268
9210937500 -0.89392895 123.81722 -8.9507751 -72.552094 -8.9350491 -73.122345 -0.22030529 -88.825279
9211000000 -0.89939952 123.83131 -8.9607401 -72.473083 -8.9226027 -73.095757 -0.21193238 -88.761803
9211062500 -0.90235978 123.81097 -8.9507675 -72.491142 -8.9429188 -73.170906 -0.22010684 -88.773842
9211125000 -0.90600455 123.80975 -8.9498053 -72.505577 -8.9319201 -73.136612 -0.22027822 -88.793594
9211187500 -0.89763623 123.8007 -8.9414759 -72.492928 -8.9285383 -73.176613 -0.21039379 -88.796822
9211250000 -0.90979254 123.81581 -8.949935 -72.498886 -8.9355755 -73.162842 -0.21794488 -88.776794
9211312500 -0.90841109 123.82545 -8.9474688 -72.498001 -8.9367332 -73.108002 -0.21379746 -88.771965
9211375000 -0.90433079 123.79903 -8.948411 -72.491135 -8.9432735 -73.138084 -0.22067741 -88.668556
9211437500 -0.9035331 123.78503 -8.9400377 -72.548416 -8.939702 -73.09729 -0.21812294 -88.693863
9211500000 -0.9064728 123.78233 -8.9455471 -72.545273 -8.932024 -73.159645 -0.22258803 -88.682434
9211562500 -0.90055889 123.78591 -8.9304428 -72.495987 -8.9336576 -73.107018 -0.22008479 -88.644249
9211625000 -0.90307617 123.72635 -8.9450483 -72.471619 -8.9340048 -73.086067 -0.21955483 -88.633957
9211687500 -0.90432382 123.69765 -8.9393187 -72.492615 -8.9445953 -73.048508 -0.22905533 -88.589355
9211750000 -0.89880335 123.6741 -8.9419603 -72.422661 -8.93468 -73.049538 -0.22358999 -88.634201
9211812500 -0.90588528 123.68527 -8.9440851 -72.485519 -8.9355268 -73.055054 -0.22627547 -88.541756
9211875000 -0.90257633 123.66708 -8.9448452 -72.540222 -8.9311228 -73.070572 -0.22707921 -88.56971
9211937500 -0.90204918 123.60628 -8.9277687 -72.452484 -8.9299078 -73.07666 -0.21796511 -88.467613
9212000000 -0.90445197 123.59818 -8.9324408 -72.51516 -8.9372816 -73.108421 -0.22672737 -88.487549
9212062500 -0.91037017 123.61491 -8.9395123 -72.526398 -8.9203262 -73.074417 -0.21802147 -88.457314
9212125000 -0.90644145 123.56087 -8.9285879 -72.568031 -8.9301147 -73.065758 -0.22277857 -88.412689
9212187500 -0.91048437 123.55681 -8.9369011 -72.508163 -8.9184542 -73.016296 -0.21924073 -88.403824
