!Agilent Technologies,N5242A,MY51221714,A.09.90.19
!Agilent N5242A: A.09.90.19
!Date: Saturday, March 16, 2024 09:44:19
!Correction: S11(Full 2 Port(1,2)) 
!S21(Full 2 Port(1,2)) 
!S12(Full 2 Port(1,2)) 
!S22(Full 2 Port(1,2)) 
!S2P File: Measurements: S11, S21, S12, S22:
# Hz S  dB   R 50
9200000000 -0.89570433 126.536 -9.1113129 -72.769745 -9.0945139 -73.384697 -0.18465818 -92.029785
9200062500 -0.90063667 126.51008 -9.1120472 -72.757126 -9.0916214 -73.400032 -0.18209873 -92.007751
9200125000 -0.9016456 126.51722 -9.1111593 -72.8041 -9.0933895 -73.377472 -0.18045308 -91.98745
9200187500 -0.89975375 126.50932 -9.1135168 -72.741219 -9.0882893 -73.340523 -0.18302353 -91.985725
9200250000 -0.89651054 126.47054 -9.1075115 -72.774094 -9.0885315 -73.443146 -0.18782529 -92.044136
9200312500 -0.89378011 126.4596 -9.105298 -72.751572 -9.0876665 -73.453621 -0.18654461 -91.972687
9200375000 -0.89164573 126.47462 -9.0998993 -72.74102 -9.091033 -73.391273 -0.19147842 -91.948784
9200437500 -0.89753592 126.44659 -9.0998497 -72.76033 -9.0746651 -73.423698 -0.18229847 -91.967163
9200500000 -0.89414674 126.43884 -9.0978632 -72.753029 -9.0852737 -73.438438 -0.18969651 -91.914536
9200562500 -0.89054781 126.39765 -9.0922127 -72.734657 -9.0894794 -73.374252 -0.18877999 -91.86438
9200625000 -0.89305323 126.38182 -9.1093016 -72.80394 -9.0779953 -73.404419 -0.1929142 -91.885643
9200687500 -0.89774346 126.38457 -9.106863 -72.683075 -9.0863485 -73.366524 -0.20090911 -91.830208
9200750000 -0.89586818 126.35207 -9.1081686 -72.793839 -9.0905151 -73.358238 -0.2012713 -91.761826
9200812500 -0.89721727 126.36608 -9.10466 -72.763741 -9.0724773 -73.372665 -0.19795039 -91.763504
9200875000 -0.8933984 126.37457 -9.1011238 -72.678581 -9.0786142 -73.417419 -0.19789238 -91.769562
9200937500 -0.89795369 126.32804 -9.1024656 -72.689949 -9.080636 -73.415016 -0.1968163 -91.741379
9201000000 -0.90034109 126.29095 -9.1059351 -72.756989 -9.0747061 -73.385483 -0.19369051 -91.703941
9201062500 -0.89398009 126.30091 -9.0978708 -72.691536 -9.0802851 -73.353317 -0.20046996 -91.711632
9201125000 -0.88828588 126.29773 -9.097682 -72.695999 -9.0752459 -73.36097 -0.18934268 -91.680923
9201187500 -0.89087379 126.26571 -9.0856476 -72.723282 -9.085372 -73.325111 -0.19562025 -91.653351
9201250000 -0.88444674 126.25497 -9.0874186 -72.713554 -9.0862646 -73.338783 -0.19330174 -91.647217
9201312500 -0.89408523 126.26874 -9.0943203 -72.719536 -9.0785885 -73.327873 -0.19128723 -91.654892
9201375000 -0.89306664 126.23461 -9.0894079 -72.747147 -9.0835285 -73.291687 -0.19127981 -91.629189
9201437500 -0.89407623 126.18045 -9.085824 -72.781464 -9.0802584 -73.361275 -0.18969299 -91.634865
9201500000 -0.90058643 126.18217 -9.1021156 -72.729294 -9.0758057 -73.371643 -0.1927949 -91.641388
9201562500 -0.89441329 126.2002 -9.0893755 -72.741982 -9.0799189 -73.313408 -0.19492038 -91.588943
9201625000 -0.8964017 126.19402 -9.0990553 -72.66288 -9.0814505 -73.327965 -0.19321688 -91.598915
9201687500 -0.89879978 126.17165 -9.0953655 -72.760132 -9.0712681 -73.313652 -0.18594886 -91.596046
9201750000 -0.89791399 126.15405 -9.1039858 -72.771538 -9.0734215 -73.387863 -0.19849202 -91.579628
9201812500 -0.89369094 126.13367 -9.094758 -72.744263 -9.0691547 -73.299484 -0.19313841 -91.538353
9201875000 -0.89794385 126.13766 -9.0904961 -72.678513 -9.074851 -73.297668 -0.19906083 -91.500923
9201937500 -0.89393336 126.12126 -9.0855122 -72.747025 -9.0712347 -73.307106 -0.19782348 -91.461487
9202000000 -0.89305729 126.08286 -9.088707 -72.761208 -9.07127 -73.290451 -0.19186398 -91.458618
9202062500 -0.88902247 126.0782 -9.0771246 -72.698647 -9.0711327 -73.28286 -0.19771826 -91.460197
9202125000 -0.89071018 126.09612 -9.075284 -72.662132 -9.0705385 -73.355835 -0.19325441 -91.450096
9202187500 -0.89320838 126.0627 -9.0822811 -72.658463 -9.0699081 -73.339394 -0.19427456 -91.462273
9202250000 -0.89398468 126.04913 -9.079277 -72.649597 -9.0642395 -73.402344 -0.1953132 -91.428764
9202312500 -0.89349478 126.02184 -9.0736094 -72.693405 -9.0772238 -73.375183 -0.19333564 -91.399055
9202375000 -0.89626724 126.01968 -9.088213 -72.714203 -9.0710144 -73.317337 -0.19125253 -91.364059
9202437500 -0.89639539 125.99429 -9.0774937 -72.650322 -9.0621872 -73.374367 -0.19368201 -91.340302
9202500000 -0.89943528 126.01244 -9.0859222 -72.676598 -9.0642529 -73.420372 -0.20020662 -91.381554
9202562500 -0.89365226 126.01227 -9.0830345 -72.69574 -9.0734301 -73.337296 -0.20524602 -91.316727
9202625000 -0.8981362 125.99567 -9.0803633 -72.707039 -9.0650454 -73.310226 -0.20157771 -91.262947
9202687500 -0.89592558 125.99059 -9.0783587 -72.667641 -9.0674276 -73.33268 -0.20523992 -91.267487
9202750000 -0.90066457 125.94159 -9.0817184 -72.662582 -9.0742321 -73.385513 -0.20888473 -91.276535
9202812500 -0.89811271 125.91156 -9.0780306 -72.692497 -9.0672789 -73.319435 -0.20405917 -91.209755
9202875000 -0.89687634 125.90005 -9.0796633 -72.715225 -9.0642948 -73.305946 -0.20023763 -91.218338
9202937500 -0.8953805 125.89122 -9.0834541 -72.656898 -9.0664549 -73.351646 -0.20178469 -91.17086
9203000000 -0.89259386 125.82986 -9.0790329 -72.751656 -9.0699644 -73.340416 -0.20827739 -91.168312
9203062500 -0.89687592 125.86673 -9.0791531 -72.743378 -9.0597076 -73.364616 -0.19876924 -91.163406
9203125000 -0.89687568 125.85215 -9.0823793 -72.695419 -9.0625401 -73.289215 -0.20359869 -91.117043
9203187500 -0.89836556 125.82555 -9.0786724 -72.692863 -9.0605831 -73.281746 -0.20123182 -91.138107
9203250000 -0.89258218 125.84888 -9.0784264 -72.686516 -9.0670662 -73.361046 -0.20932999 -91.127373
9203312500 -0.8993811 125.83169 -9.0802002 -72.729752 -9.0684109 -73.320656 -0.1988752 -91.116684
9203375000 -0.89746439 125.80238 -9.0768728 -72.763908 -9.0635347 -73.343338 -0.20251243 -91.068901
9203437500 -0.8988567 125.78869 -9.0763969 -72.69989 -9.0581303 -73.347786 -0.19644254 -91.068352
9203500000 -0.89717835 125.77758 -9.0751667 -72.720245 -9.0630093 -73.313774 -0.20433848 -91.00737
9203562500 -0.89443731 125.72629 -9.0723019 -72.704292 -9.0608988 -73.331566 -0.20341119 -91.012779
9203625000 -0.89537901 125.71928 -9.0737972 -72.659729 -9.0580282 -73.32238 -0.20566531 -90.967255
9203687500 -0.8948983 125.70336 -9.0672312 -72.672997 -9.0633879 -73.324951 -0.20846462 -90.972649
9203750000 -0.89305621 125.70146 -9.0655909 -72.696228 -9.062376 -73.294495 -0.21524324 -90.946968
9203812500 -0.89823467 125.71404 -9.0743608 -72.686653 -9.0525551 -73.309464 -0.21014518 -90.926559
9203875000 -0.89883578 125.68801 -9.0731916 -72.651848 -9.0540171 -73.298691 -0.20970446 -90.929337
9203937500 -0.89230239 125.68641 -9.076333 -72.637909 -9.054389 -73.309479 -0.2081549 -90.947388
9204000000 -0.8887915 125.63928 -9.074194 -72.688835 -9.0619278 -73.270729 -0.22164427 -90.914139
9204062500 -0.8911494 125.65629 -9.0725708 -72.729286 -9.0468912 -73.312622 -0.21233106 -90.902405
9204125000 -0.89194345 125.64733 -9.069953 -72.63459 -9.047061 -73.249908 -0.21730745 -90.822334
9204187500 -0.88967186 125.58718 -9.0695314 -72.728455 -9.0434399 -73.229813 -0.20762965 -90.818062
9204250000 -0.8897388 125.6412 -9.0727062 -72.645187 -9.0415373 -73.312866 -0.21700457 -90.853821
9204312500 -0.8884908 125.59699 -9.0754004 -72.731163 -9.0468006 -73.252197 -0.21408319 -90.78347
9204375000 -0.88400668 125.54743 -9.0597534 -72.647484 -9.0504494 -73.244331 -0.21039268 -90.742928
9204437500 -0.88669258 125.56594 -9.0609627 -72.663986 -9.0448246 -73.255333 -0.20740856 -90.76828
9204500000 -0.88707465 125.53876 -9.067975 -72.656059 -9.0416975 -73.2668 -0.20193483 -90.712166
9204562500 -0.8846575 125.53806 -9.0649004 -72.612396 -9.0451727 -73.308449 -0.20286395 -90.715485
9204625000 -0.88681281 125.52971 -9.0628977 -72.644455 -9.045639 -73.315208 -0.20675211 -90.740379
9204687500 -0.88608766 125.49877 -9.0632172 -72.602791 -9.0392971 -73.286934 -0.20206487 -90.730927
9204750000 -0.88484228 125.4959 -9.0628595 -72.632767 -9.0529003 -73.214722 -0.2135459 -90.671989
9204812500 -0.89003247 125.48654 -9.0615406 -72.647148 -9.0389156 -73.254219 -0.20417932 -90.674652
9204875000 -0.88889533 125.52151 -9.0518427 -72.624985 -9.043148 -73.299515 -0.2067586 -90.711884
9204937500 -0.89168864 125.4907 -9.0637789 -72.612671 -9.0461359 -73.285126 -0.20790844 -90.661263
9205000000 -0.89381212 125.48865 -9.0576582 -72.610641 -9.0339985 -73.284416 -0.20827937 -90.62529
9205062500 -0.89304012 125.45177 -9.0468416 -72.6203 -9.0471773 -73.228233 -0.20823272 -90.583496
9205125000 -0.89409447 125.39915 -9.0597467 -72.598846 -9.0421276 -73.2173 -0.20655793 -90.567986
9205187500 -0.89342773 125.39663 -9.0424786 -72.559166 -9.053525 -73.337532 -0.21067016 -90.586365
9205250000 -0.89385182 125.33706 -9.0541086 -72.63826 -9.0463018 -73.248947 -0.20537822 -90.551216
9205312500 -0.9011085 125.35202 -9.0520372 -72.586494 -9.0374012 -73.282005 -0.20602949 -90.539665
9205375000 -0.89729381 125.3399 -9.0479126 -72.626869 -9.0356646 -73.218002 -0.20101653 -90.503616
9205437500 -0.89439493 125.30151 -9.0578766 -72.57872 -9.0512791 -73.223129 -0.20844226 -90.501427
9205500000 -0.89605683 125.31819 -9.0498676 -72.558502 -9.0487051 -73.231155 -0.20676593 -90.482407
9205562500 -0.89445865 125.32719 -9.0481606 -72.602859 -9.0481968 -73.177124 -0.20249961 -90.467415
9205625000 -0.89758521 125.2683 -9.0448256 -72.643044 -9.0461216 -73.258858 -0.20631327 -90.453613
9205687500 -0.89234221 125.26152 -9.0527811 -72.664154 -9.045969 -73.166779 -0.2074701 -90.431046
9205750000 -0.89231372 125.24868 -9.0477543 -72.61499 -9.0471706 -73.225494 -0.20750062 -90.42939
9205812500 -0.88956994 125.25727 -9.0415688 -72.640251 -9.0421124 -73.220032 -0.20587309 -90.408661
9205875000 -0.8910445 125.2393 -9.0471964 -72.628357 -9.0445213 -73.221237 -0.21108177 -90.436668
9205937500 -0.89400959 125.24457 -9.0544291 -72.583313 -9.0430098 -73.147369 -0.21122997 -90.304451
9206000000 -0.89255333 125.27265 -9.0510092 -72.58905 -9.0436792 -73.202995 -0.21219084 -90.336212
9206062500 -0.8885532 125.20787 -9.0428543 -72.648964 -9.0391655 -73.191483 -0.2106545 -90.294319
9206125000 -0.88680112 125.21745 -9.0476589 -72.604759 -9.0452423 -73.181709 -0.22100686 -90.315338
9206187500 -0.88940442 125.22169 -9.0486174 -72.520729 -9.0355282 -73.158508 -0.20800443 -90.245117
9206250000 -0.8926844 125.19463 -9.0554066 -72.583755 -9.0334425 -73.174889 -0.20833543 -90.278648
9206312500 -0.88720959 125.17963 -9.0327692 -72.598633 -9.0340977 -73.24321 -0.20855807 -90.237602
9206375000 -0.8854748 125.16997 -9.0352936 -72.580688 -9.033886 -73.190842 -0.20961843 -90.218811
9206437500 -0.88892287 125.16792 -9.0396929 -72.548721 -9.0354061 -73.271027 -0.21112563 -90.234253
9206500000 -0.89060557 125.17436 -9.0375004 -72.51786 -9.015317 -73.247528 -0.20431671 -90.237534
9206562500 -0.89397269 125.16521 -9.0311861 -72.543831 -9.0193777 -73.274414 -0.20012689 -90.187119
9206625000 -0.88926178 125.1421 -9.0249987 -72.544182 -9.0291376 -73.253548 -0.20579927 -90.166298
9206687500 -0.89957869 125.1305 -9.030159 -72.538048 -9.0113783 -73.172844 -0.19586147 -90.14373
9206750000 -0.89629316 125.08365 -9.0257473 -72.603897 -9.0161686 -73.157944 -0.19811068 -90.078926
9206812500 -0.89225274 125.07133 -9.0247889 -72.546906 -9.0144567 -73.211853 -0.19815923 -90.071915
9206875000 -0.89296454 125.06217 -9.0174265 -72.526237 -9.0159388 -73.201363 -0.19587724 -90.097672
9206937500 -0.89125377 125.01506 -9.0287075 -72.586235 -9.009201 -73.16304 -0.19929899 -90.022018
9207000000 -0.89249516 125.03104 -9.0312252 -72.503296 -9.0240583 -73.195206 -0.21112218 -90.030769
9207062500 -0.88952452 124.95553 -9.0265656 -72.604492 -9.0171957 -73.156731 -0.20676929 -90.023125
9207125000 -0.88956141 124.97995 -9.031373 -72.597443 -9.0243311 -73.219803 -0.20988096 -90.013222
9207187500 -0.89011317 124.98318 -9.0337658 -72.611008 -9.0229988 -73.17749 -0.21177147 -90.03093
9207250000 -0.88901097 124.93002 -9.0316172 -72.562859 -9.0241995 -73.199181 -0.21453761 -89.959984
9207312500 -0.88915747 124.90441 -9.0312672 -72.597054 -9.0186739 -73.185898 -0.21205644 -89.990479
9207375000 -0.88858026 124.87221 -9.0246353 -72.608963 -9.0051861 -73.188049 -0.20485446 -89.96949
9207437500 -0.88509053 124.87642 -9.0307055 -72.556999 -9.0205793 -73.225235 -0.21579164 -90.001839
9207500000 -0.89161676 124.87514 -9.0296354 -72.615707 -9.0212774 -73.187904 -0.22201744 -89.955833
9207562500 -0.89302987 124.82872 -9.0297871 -72.614075 -9.0132151 -73.14402 -0.21651477 -89.937996
9207625000 -0.89458328 124.81554 -9.0263062 -72.542488 -9.0162935 -73.224579 -0.21337377 -89.905411
9207687500 -0.89798075 124.79984 -9.0193176 -72.619881 -9.0113096 -73.223442 -0.21213123 -89.903465
9207750000 -0.89261127 124.8166 -9.0269651 -72.541656 -9.0092192 -73.226738 -0.20700027 -89.889091
9207812500 -0.90066731 124.83778 -9.0338125 -72.535263 -9.0043516 -73.262321 -0.2001363 -89.88739
9207875000 -0.88997442 124.7989 -9.0232372 -72.531586 -9.0153322 -73.171234 -0.20874742 -89.790199
9207937500 -0.90137863 124.7511 -9.024539 -72.577942 -9.0127344 -73.243874 -0.20067176 -89.838692
9208000000 -0.8953352 124.79783 -9.0181885 -72.584686 -9.0115423 -73.220978 -0.20772116 -89.788971
9208062500 -0.89442939 124.77589 -9.0194063 -72.563828 -9.0213718 -73.191795 -0.20874803 -89.746239
9208125000 -0.89989126 124.7563 -9.0298319 -72.537285 -9.0200405 -73.216553 -0.21395241 -89.748436
9208187500 -0.89848059 124.74133 -9.0263395 -72.512642 -9.0185509 -73.236061 -0.216849 -89.740433
9208250000 -0.89380836 124.75015 -9.0183516 -72.506485 -9.0105476 -73.144066 -0.21373944 -89.6903
9208312500 -0.89918745 124.732 -9.0291519 -72.536209 -9.0165253 -73.162491 -0.21758249 -89.702118
9208375000 -0.89773375 124.73457 -9.0316238 -72.51413 -9.0112514 -73.16658 -0.21977679 -89.6819
9208437500 -0.89614606 124.6886 -9.0227032 -72.56765 -9.0093298 -73.141411 -0.22021736 -89.649872
9208500000 -0.89428437 124.68298 -9.0198755 -72.487411 -9.0020237 -73.138428 -0.2139919 -89.618752
9208562500 -0.89673907 124.63164 -9.0124283 -72.540825 -9.0054903 -73.157768 -0.21441402 -89.619537
9208625000 -0.89036018 124.65068 -9.0118141 -72.574867 -9.0072317 -73.160133 -0.21383356 -89.598564
9208687500 -0.89623767 124.59641 -9.0181885 -72.55983 -9.0037937 -73.236786 -0.21216741 -89.61322
9208750000 -0.89248151 124.60444 -9.0179195 -72.574455 -8.9982586 -73.204529 -0.20445165 -89.608658
9208812500 -0.89506423 124.59267 -9.0178204 -72.603279 -9.0065088 -73.156677 -0.21749283 -89.555214
9208875000 -0.89769453 124.59518 -9.0093298 -72.591278 -9.0020237 -73.184807 -0.20801841 -89.586037
9208937500 -0.89243025 124.60813 -9.0189724 -72.524681 -9.0042267 -73.149948 -0.21786191 -89.532867
9209000000 -0.90077829 124.63969 -9.020112 -72.566895 -9.0000849 -73.188469 -0.21722673 -89.55555
9209062500 -0.89688057 124.63847 -9.0056896 -72.502693 -9.013587 -73.159462 -0.21800689 -89.509857
9209125000 -0.89378512 124.64684 -9.0179033 -72.462204 -9.000267 -73.194717 -0.21594405 -89.518936
9209187500 -0.88945138 124.60924 -9.0022993 -72.501137 -9.0015392 -73.160599 -0.21304014 -89.51725
9209250000 -0.8937121 124.57442 -9.0021868 -72.469131 -8.9970226 -73.124214 -0.21165997 -89.431641
9209312500 -0.89308894 124.56203 -9.0067101 -72.51622 -9.0081873 -73.130356 -0.21867201 -89.475739
9209375000 -0.88951159 124.54226 -9.0049658 -72.536819 -8.9993153 -73.105423 -0.21564917 -89.385757
9209437500 -0.89137596 124.50307 -8.9995747 -72.531052 -9.000391 -73.128967 -0.21662891 -89.373085
9209500000 -0.89148837 124.48985 -9.0031719 -72.559021 -9.0035896 -73.106155 -0.21548748 -89.373268
9209562500 -0.89275569 124.48549 -8.9972429 -72.504089 -9.0011654 -73.111198 -0.21491078 -89.325294
9209625000 -0.89721054 124.48371 -9.0097017 -72.474411 -9.0004072 -73.104767 -0.21499978 -89.324028
9209687500 -0.89286715 124.44782 -8.9926023 -72.51416 -8.9924259 -73.132874 -0.21244539 -89.330086
9209750000 -0.89574599 124.41983 -9.0010195 -72.527367 -9.0024509 -73.179703 -0.21529315 -89.336227
9209812500 -0.89573884 124.40113 -9.0034275 -72.600182 -8.9982605 -73.100082 -0.21097109 -89.282143
9209875000 -0.89378136 124.43242 -9.0123558 -72.523186 -9.0020084 -73.140984 -0.21593343 -89.253807
9209937500 -0.89677328 124.40372 -9.0007896 -72.546265 -8.9996252 -73.103035 -0.2142086 -89.233688
9210000000 -0.89443719 124.39661 -9.0031481 -72.521088 -8.9947882 -73.118416 -0.20977247 -89.242302
9210062500 -0.89456046 124.37985 -8.9988222 -72.48172 -8.9889946 -73.101067 -0.20462477 -89.226654
9210125000 -0.89098924 124.34735 -8.9965439 -72.539078 -8.9898844 -73.043419 -0.20976751 -89.159431
9210187500 -0.89027637 124.31747 -8.9925938 -72.518814 -8.9925976 -73.109009 -0.21352887 -89.19767
9210250000 -0.88671237 124.33383 -8.9949007 -72.461311 -8.997221 -73.060654 -0.22167654 -89.128067
9210312500 -0.89204991 124.3294 -8.9992771 -72.471344 -8.9904728 -73.019676 -0.21313864 -89.092262
9210375000 -0.88974017 124.31443 -9.003273 -72.46907 -8.9952736 -73.086594 -0.22539307 -89.117188
9210437500 -0.8926416 124.29485 -8.9992323 -72.477814 -8.9945297 -73.121666 -0.22166531 -89.123444
9210500000 -0.89029372 124.29439 -9.0044622 -72.462883 -8.9915466 -73.015137 -0.21990006 -89.022614
9210562500 -0.88644493 124.25726 -9.0035553 -72.447182 -8.9952869 -73.076996 -0.22581303 -89.046806
9210625000 -0.88923949 124.2627 -9.0045872 -72.51123 -8.9976578 -73.037849 -0.22737348 -89.012054
9210687500 -0.88781744 124.18634 -8.9983549 -72.46389 -8.9882174 -73.13295 -0.22244377 -89.075844
9210750000 -0.88792878 124.21646 -8.9969625 -72.415482 -8.9833937 -73.10054 -0.22707182 -89.019691
9210812500 -0.89111906 124.16587 -9.0053511 -72.435791 -8.983489 -73.129395 -0.22615692 -89.020012
9210875000 -0.89051276 124.15092 -8.9975252 -72.422134 -8.9844503 -73.075378 -0.21698987 -88.947357
9210937500 -0.89619219 124.13927 -8.9976254 -72.45697 -8.9771032 -73.057228 -0.21880753 -88.944756
9211000000 -0.8929922 124.12759 -8.9975729 -72.4478 -8.977232 -73.08934 -0.22251058 -88.919006
9211062500 -0.88996875 124.1364 -8.9904556 -72.406334 -8.9770594 -73.105591 -0.22096106 -88.922348
9211125000 -0.89826339 124.11962 -9.0012321 -72.455605 -8.9882383 -73.135277 -0.22329186 -88.951355
9211187500 -0.8942461 124.12518 -8.9914732 -72.45768 -8.9803572 -73.081978 -0.21787617 -88.946655
9211250000 -0.90031415 124.11482 -8.9878101 -72.48452 -8.9806995 -73.117218 -0.21619682 -88.960617
9211312500 -0.89566028 124.09148 -8.992281 -72.470901 -8.9871235 -73.130737 -0.22715256 -88.977951
9211375000 -0.898507 124.1041 -8.9874897 -72.474083 -8.980154 -73.123703 -0.207399 -88.833199
9211437500 -0.90008396 124.07174 -8.985918 -72.518257 -8.9784231 -73.12101 -0.21324515 -88.875687
9211500000 -0.89416784 124.08103 -8.9770384 -72.450912 -8.9732218 -73.08905 -0.21328185 -88.852058
9211562500 -0.89796489 124.04398 -8.9880733 -72.444153 -8.9770555 -72.996162 -0.2204078 -88.756874
9211625000 -0.89804983 124.03323 -8.9887123 -72.480141 -8.9778166 -73.025894 -0.22058229 -88.773865
9211687500 -0.8975479 123.99519 -8.9913521 -72.450165 -8.9787903 -73.070183 -0.22580238 -88.799324
9211750000 -0.89356279 124.00625 -8.981144 -72.444481 -8.9755335 -73.028381 -0.22381516 -88.791733
9211812500 -0.90098637 123.98186 -8.989543 -72.457703 -8.9780645 -73.047005 -0.22722827 -88.738419
9211875000 -0.89926594 123.93306 -8.9882889 -72.477005 -8.9811239 -73.019638 -0.22814143 -88.724289
9211937500 -0.90172756 123.9413 -8.9827938 -72.482765 -8.9721403 -73.014725 -0.22430006 -88.671204
9212000000 -0.90233856 123.90025 -8.9826345 -72.507179 -8.9756432 -72.964073 -0.22420238 -88.602867
9212062500 -0.90090829 123.90126 -8.9804449 -72.443558 -8.9897499 -72.993134 -0.23203777 -88.584679
9212125000 -0.89826912 123.90648 -8.9662952 -72.486259 -8.9772043 -73.086372 -0.23055074 -88.607155
9212187500 -0.9045884 123.87171 -8.971899 -72.460258 -8.9688282 -73.062645 -0.22627531 -88.548477
