!Agilent Technologies,N5242A,MY51221714,A.09.90.19
!Agilent N5242A: A.09.90.19
!Date: Saturday, March 16, 2024 09:39:27
!Correction: S11(Full 2 Port(1,2)) 
!S21(Full 2 Port(1,2)) 
!S12(Full 2 Port(1,2)) 
!S22(Full 2 Port(1,2)) 
!S2P File: Measurements: S11, S21, S12, S22:
# Hz S  dB   R 50
9200000000 -0.90816599 125.68884 -9.006958 -73.016624 -8.9976845 -73.603424 -0.17830685 -91.712578
9200062500 -0.90575856 125.66712 -9.0086756 -73.015511 -8.9986992 -73.650429 -0.17957573 -91.706635
9200125000 -0.91270661 125.67773 -9.0112419 -72.979836 -8.99827 -73.617317 -0.17748182 -91.659088
9200187500 -0.90918189 125.63132 -9.0129366 -73.040367 -8.9946938 -73.627632 -0.1799724 -91.683273
9200250000 -0.91289532 125.64813 -9.0082865 -73.011154 -8.9860373 -73.638626 -0.17208283 -91.650574
9200312500 -0.91154277 125.63372 -9.0077276 -73.024971 -8.9820528 -73.649071 -0.17352034 -91.649757
9200375000 -0.90394276 125.62497 -8.9988785 -72.957993 -8.9753208 -73.661804 -0.17350061 -91.645546
9200437500 -0.89893508 125.62762 -9.0026646 -72.97052 -8.9762974 -73.613373 -0.17238815 -91.624001
9200500000 -0.90423012 125.59439 -9.0026436 -72.952209 -8.9911804 -73.606537 -0.18518424 -91.543732
9200562500 -0.90263778 125.58188 -9.0016155 -72.980476 -8.9832621 -73.618713 -0.17933628 -91.536736
9200625000 -0.90210176 125.57818 -8.9987288 -72.933609 -8.9771109 -73.610985 -0.18360345 -91.499077
9200687500 -0.90148419 125.5413 -9.0006495 -72.947533 -8.9770126 -73.582664 -0.18944122 -91.47831
9200750000 -0.9049353 125.51006 -8.9997845 -72.989403 -8.9765463 -73.56089 -0.18924797 -91.436607
9200812500 -0.90773702 125.52146 -9.0012608 -72.919495 -8.980442 -73.608231 -0.18729393 -91.438034
9200875000 -0.90510225 125.53445 -9.0033302 -72.869385 -8.9804449 -73.564857 -0.18599062 -91.418877
9200937500 -0.90748543 125.49573 -9.0000191 -72.956505 -8.9780807 -73.552521 -0.18924518 -91.374756
9201000000 -0.90541077 125.50455 -8.9960728 -72.923454 -8.9737606 -73.56501 -0.18593726 -91.403984
9201062500 -0.89927411 125.49148 -8.9884109 -72.927895 -8.9754286 -73.569313 -0.18172204 -91.363251
9201125000 -0.90110743 125.4367 -8.9913082 -72.888863 -8.9817734 -73.579468 -0.18714437 -91.35434
9201187500 -0.90098774 125.42879 -8.9888906 -72.973106 -8.9801207 -73.574577 -0.18427251 -91.348618
9201250000 -0.89720225 125.38372 -8.9915066 -72.977211 -8.9725513 -73.553078 -0.18008836 -91.284882
9201312500 -0.89957625 125.41107 -8.9901485 -72.962234 -8.9804125 -73.543312 -0.18037346 -91.282509
9201375000 -0.903956 125.38686 -8.9874716 -72.917824 -8.9759073 -73.56382 -0.1813954 -91.28846
9201437500 -0.90179938 125.37088 -8.9871998 -72.982735 -8.9764872 -73.548882 -0.18553346 -91.321419
9201500000 -0.91427773 125.34022 -8.9945173 -73.014488 -8.983861 -73.49926 -0.18657532 -91.280968
9201562500 -0.90996671 125.36137 -8.9943085 -72.947716 -8.9748459 -73.560844 -0.1786999 -91.262993
9201625000 -0.90552998 125.34489 -8.9855509 -72.931541 -8.9656525 -73.567398 -0.17551155 -91.265465
9201687500 -0.90269423 125.35151 -8.9871807 -72.913719 -8.9703255 -73.551491 -0.18804562 -91.207748
9201750000 -0.90548307 125.33923 -8.9956207 -72.943962 -8.9668665 -73.613731 -0.18862711 -91.272118
9201812500 -0.90449065 125.3144 -8.987381 -72.911209 -8.957469 -73.555984 -0.18392566 -91.177849
9201875000 -0.90122199 125.28909 -8.9824219 -72.928131 -8.9689941 -73.512611 -0.18811104 -91.120903
9201937500 -0.90771723 125.25641 -8.9834871 -72.921638 -8.962266 -73.502495 -0.18604843 -91.141304
9202000000 -0.90275633 125.25071 -8.9828835 -72.938568 -8.9699106 -73.482475 -0.18973652 -91.130577
9202062500 -0.90550423 125.23928 -8.9856243 -72.972092 -8.9631577 -73.504189 -0.18384945 -91.09539
9202125000 -0.89738244 125.20428 -8.972249 -72.940094 -8.9785891 -73.470428 -0.18784095 -91.028114
9202187500 -0.90385234 125.17469 -8.982357 -73.004852 -8.959918 -73.535515 -0.18219931 -91.076866
9202250000 -0.90158999 125.17638 -8.9752951 -72.952606 -8.9664469 -73.56675 -0.18189611 -91.079536
9202312500 -0.90209067 125.1808 -8.9656811 -72.898811 -8.9685135 -73.605637 -0.18893372 -91.061035
9202375000 -0.90150094 125.15282 -8.9743557 -72.904449 -8.9710579 -73.561333 -0.18627338 -91.035454
9202437500 -0.9022274 125.13072 -8.9788465 -72.951294 -8.9717026 -73.554039 -0.19035822 -90.99556
9202500000 -0.90940875 125.15376 -8.9779558 -72.91481 -8.9678593 -73.592499 -0.18610761 -90.994156
9202562500 -0.90879071 125.10464 -8.9791546 -72.907028 -8.9707575 -73.527954 -0.1918177 -90.966537
9202625000 -0.90938109 125.13321 -8.9781647 -72.874321 -8.9682083 -73.515388 -0.19066425 -90.926201
9202687500 -0.90730411 125.10011 -8.9776087 -72.936279 -8.9551544 -73.551277 -0.18868066 -90.959946
9202750000 -0.90686142 125.08483 -8.9818182 -72.959427 -8.9644957 -73.548889 -0.1947796 -90.908401
9202812500 -0.90472335 125.12169 -8.9847069 -72.899345 -8.9679537 -73.568542 -0.19565468 -90.887794
9202875000 -0.90690869 125.07083 -8.9811926 -72.946983 -8.9635983 -73.528992 -0.19407189 -90.845787
9202937500 -0.90556842 125.03499 -8.9690199 -72.911461 -8.9609299 -73.531898 -0.19253768 -90.835526
9203000000 -0.89892948 125.02742 -8.9634266 -72.90554 -8.9562874 -73.483536 -0.19499035 -90.799179
9203062500 -0.90015298 125.02657 -8.9712858 -72.883026 -8.9583797 -73.501625 -0.19248892 -90.820076
9203125000 -0.90452832 125.01546 -8.9812851 -72.920135 -8.9541578 -73.565643 -0.1923883 -90.814964
9203187500 -0.90380919 124.99664 -8.971468 -72.970009 -8.9598675 -73.521439 -0.19339445 -90.797447
9203250000 -0.8952474 124.97185 -8.9664841 -72.923805 -8.9612513 -73.555336 -0.19116004 -90.779175
9203312500 -0.90605551 124.95679 -8.974946 -72.893295 -8.957283 -73.505913 -0.18788166 -90.753105
9203375000 -0.90513158 124.94371 -8.9653111 -72.948387 -8.9589663 -73.515694 -0.18850192 -90.716003
9203437500 -0.90213799 124.94917 -8.9701357 -72.876465 -8.9517441 -73.55294 -0.18537302 -90.700333
9203500000 -0.90366578 124.92184 -8.9698868 -72.933159 -8.95504 -73.522888 -0.18911314 -90.65255
9203562500 -0.90306699 124.92352 -8.9645681 -72.917747 -8.9609585 -73.447021 -0.19895206 -90.654289
9203625000 -0.91067022 124.90186 -8.9811974 -72.934052 -8.9601669 -73.485367 -0.19744602 -90.614273
9203687500 -0.90243351 124.87224 -8.9631519 -72.933334 -8.9574232 -73.512825 -0.19636717 -90.618164
9203750000 -0.90227306 124.83465 -8.9663162 -72.917717 -8.9553261 -73.494087 -0.19377518 -90.611694
9203812500 -0.90678978 124.84872 -8.9676561 -72.913383 -8.9556942 -73.54332 -0.20582807 -90.622391
9203875000 -0.91054738 124.82161 -8.9680634 -72.873352 -8.9575405 -73.477936 -0.20106429 -90.588303
9203937500 -0.90914065 124.7969 -8.9744596 -72.943512 -8.9441156 -73.472862 -0.19849865 -90.581017
9204000000 -0.90352529 124.7829 -8.9631605 -72.90844 -8.9493847 -73.571358 -0.20012715 -90.597977
9204062500 -0.89872617 124.79275 -8.961401 -72.853561 -8.9462156 -73.510696 -0.1976261 -90.562912
9204125000 -0.89658904 124.77114 -8.9612522 -72.884781 -8.953928 -73.475616 -0.21110231 -90.504524
9204187500 -0.89914691 124.76618 -8.9778204 -72.931564 -8.9435186 -73.446739 -0.20861816 -90.510666
9204250000 -0.9007557 124.75931 -8.9655428 -72.896103 -8.9392281 -73.478333 -0.20900244 -90.542778
9204312500 -0.90188271 124.72369 -8.9589987 -72.915428 -8.9415054 -73.423233 -0.200684 -90.444748
9204375000 -0.89334655 124.72236 -8.9566889 -72.86602 -8.9413023 -73.532906 -0.20205979 -90.470375
9204437500 -0.90065718 124.67719 -8.9613218 -72.901733 -8.9394951 -73.429993 -0.1958418 -90.420029
9204500000 -0.89632398 124.67823 -8.9536362 -72.853271 -8.9428701 -73.514191 -0.19581288 -90.401825
9204562500 -0.89262843 124.67175 -8.9549904 -72.888962 -8.932435 -73.448639 -0.18794718 -90.362396
9204625000 -0.89645594 124.64057 -8.9542465 -72.869003 -8.9396114 -73.535187 -0.19103232 -90.403961
9204687500 -0.89745462 124.6412 -8.9541168 -72.88282 -8.9387999 -73.449387 -0.18814003 -90.362656
9204750000 -0.90200835 124.64751 -8.9629755 -72.841827 -8.9321022 -73.500504 -0.19262184 -90.352036
9204812500 -0.89804715 124.6277 -8.9471216 -72.836555 -8.9427786 -73.447319 -0.19318418 -90.300323
9204875000 -0.90166152 124.62 -8.9510317 -72.826836 -8.9373074 -73.518219 -0.19538771 -90.333771
9204937500 -0.90162706 124.60059 -8.9549713 -72.846779 -8.9364243 -73.4394 -0.19536479 -90.32666
9205000000 -0.90198618 124.63064 -8.9496193 -72.879639 -8.938158 -73.439781 -0.2007376 -90.266785
9205062500 -0.9004339 124.57204 -8.9521399 -72.884773 -8.9453487 -73.511269 -0.20734647 -90.293388
9205125000 -0.90533274 124.59189 -8.9541864 -72.79995 -8.9403286 -73.495377 -0.19963102 -90.253464
9205187500 -0.90367806 124.55491 -8.9385586 -72.772888 -8.9395599 -73.434608 -0.1881122 -90.23703
9205250000 -0.90864903 124.51463 -8.9518862 -72.829247 -8.9395723 -73.473755 -0.19676501 -90.201454
9205312500 -0.9041642 124.48741 -8.9485464 -72.827744 -8.9543123 -73.440773 -0.19984019 -90.153183
9205375000 -0.90402293 124.48812 -8.9463663 -72.825645 -8.9417639 -73.458527 -0.19235632 -90.197357
9205437500 -0.90971774 124.4745 -8.9438848 -72.853676 -8.9387693 -73.442429 -0.19426848 -90.141754
9205500000 -0.90276402 124.48316 -8.9488792 -72.79348 -8.9315834 -73.446762 -0.19218729 -90.116112
9205562500 -0.90270865 124.46024 -8.9406443 -72.75032 -8.9366798 -73.494629 -0.19662102 -90.137581
9205625000 -0.89899606 124.46104 -8.9397097 -72.783714 -8.9448671 -73.461143 -0.1988747 -90.144547
9205687500 -0.90191728 124.41518 -8.9412479 -72.894608 -8.9337797 -73.393974 -0.19382621 -90.107002
9205750000 -0.89599055 124.38907 -8.9391088 -72.855797 -8.9356308 -73.471397 -0.19714011 -90.116852
9205812500 -0.89997053 124.41265 -8.9393406 -72.793388 -8.9441566 -73.458382 -0.19966228 -90.1157
9205875000 -0.90138274 124.38231 -8.9452333 -72.788902 -8.9336157 -73.44825 -0.19334348 -90.064758
9205937500 -0.90144569 124.37576 -8.9431715 -72.861252 -8.9457245 -73.417435 -0.20453283 -90.035133
9206000000 -0.89741325 124.3988 -8.9505911 -72.772873 -8.9331703 -73.431351 -0.19875243 -90.000893
9206062500 -0.90106356 124.35642 -8.9446144 -72.793457 -8.9329834 -73.411888 -0.19745618 -89.97715
9206125000 -0.90255523 124.36143 -8.9477625 -72.819695 -8.9268284 -73.406303 -0.19505168 -89.955513
9206187500 -0.903431 124.32219 -8.9411392 -72.814125 -8.939147 -73.490036 -0.2041602 -89.964653
9206250000 -0.9037469 124.34918 -8.939435 -72.816811 -8.9387159 -73.420647 -0.20060194 -89.920502
9206312500 -0.89654905 124.34492 -8.9396324 -72.764259 -8.9249086 -73.460464 -0.1976753 -89.944901
9206375000 -0.89611477 124.31518 -8.9329424 -72.835526 -8.9267673 -73.486229 -0.20032237 -89.949165
9206437500 -0.9042747 124.31465 -8.9396887 -72.778549 -8.9242783 -73.480095 -0.19452435 -89.920113
9206500000 -0.89662039 124.27828 -8.9276228 -72.785164 -8.9162254 -73.430069 -0.18489146 -89.856735
9206562500 -0.89686316 124.29864 -8.9317904 -72.691597 -8.925848 -73.443245 -0.20026651 -89.838806
9206625000 -0.90205711 124.28996 -8.9366322 -72.797234 -8.9225492 -73.423363 -0.19521122 -89.812698
9206687500 -0.90408123 124.23911 -8.9175806 -72.824165 -8.9131336 -73.426483 -0.18816929 -89.797455
9206750000 -0.91102964 124.21317 -8.9274597 -72.802338 -8.9101782 -73.400787 -0.19183522 -89.756783
9206812500 -0.91015542 124.22751 -8.92768 -72.734276 -8.9100761 -73.434624 -0.18953255 -89.793114
9206875000 -0.90090376 124.20986 -8.9267979 -72.760651 -8.9100342 -73.424957 -0.1945276 -89.727325
9206937500 -0.90719622 124.16119 -8.9322538 -72.810905 -8.9116182 -73.385719 -0.19563049 -89.703392
9207000000 -0.90145677 124.13892 -8.9225979 -72.760231 -8.9114475 -73.417892 -0.19247751 -89.725449
9207062500 -0.89602357 124.10448 -8.9183331 -72.809425 -8.9197998 -73.404099 -0.19995585 -89.704346
9207125000 -0.89531261 124.12016 -8.9166393 -72.799118 -8.9127884 -73.408287 -0.19804884 -89.667397
9207187500 -0.8938694 124.10052 -8.9229269 -72.808029 -8.9159307 -73.40081 -0.20344542 -89.683083
9207250000 -0.89790183 124.08465 -8.929985 -72.763802 -8.9261713 -73.374947 -0.20322827 -89.619469
9207312500 -0.90210158 124.0666 -8.9310732 -72.830215 -8.9219379 -73.413193 -0.20676191 -89.675194
9207375000 -0.90391171 124.04414 -8.9252739 -72.818695 -8.9094877 -73.416794 -0.20088956 -89.602806
9207437500 -0.90253454 124.00572 -8.9238329 -72.796074 -8.9081841 -73.383797 -0.20589738 -89.593216
9207500000 -0.90222287 124.01147 -8.9303122 -72.823868 -8.9106836 -73.394768 -0.20307 -89.639114
9207562500 -0.90479225 123.99021 -8.9249716 -72.843697 -8.9074707 -73.426506 -0.20078543 -89.58577
9207625000 -0.8998093 123.95193 -8.9157696 -72.823753 -8.9063053 -73.516701 -0.20140159 -89.626389
9207687500 -0.90409064 123.95385 -8.9232063 -72.795319 -8.9111023 -73.444298 -0.20329276 -89.559319
9207750000 -0.9090336 123.92152 -8.9250946 -72.857491 -8.9015436 -73.406311 -0.19923244 -89.539833
9207812500 -0.90572524 123.93919 -8.9323912 -72.825394 -8.9114418 -73.411629 -0.19759414 -89.524895
9207875000 -0.90866637 123.92188 -8.9178658 -72.783165 -8.9112616 -73.371979 -0.19069576 -89.504051
9207937500 -0.90972072 123.9249 -8.9180622 -72.793373 -8.9128418 -73.458992 -0.19910565 -89.489365
9208000000 -0.90867698 123.93036 -8.9173145 -72.799614 -8.9087553 -73.392029 -0.19085331 -89.404274
9208062500 -0.90648276 123.91832 -8.9223366 -72.781891 -8.9110794 -73.45726 -0.19653505 -89.435303
9208125000 -0.90646869 123.87973 -8.9166088 -72.771378 -8.9078417 -73.386833 -0.20105188 -89.374603
9208187500 -0.90461892 123.91429 -8.9148922 -72.726555 -8.9114141 -73.370422 -0.20641284 -89.330147
9208250000 -0.90575671 123.90479 -8.9133749 -72.759636 -8.9099407 -73.423401 -0.20151392 -89.397751
9208312500 -0.90754849 123.85522 -8.9188242 -72.721344 -8.9060249 -73.343979 -0.20674628 -89.366074
9208375000 -0.90545869 123.84282 -8.9259586 -72.735214 -8.9090605 -73.383247 -0.20820528 -89.355247
9208437500 -0.90745884 123.80438 -8.9190454 -72.803818 -8.904211 -73.301666 -0.2054026 -89.316673
9208500000 -0.90348691 123.86497 -8.908988 -72.705727 -8.9032125 -73.333344 -0.20633157 -89.271599
9208562500 -0.90458024 123.77235 -8.9113979 -72.739716 -8.9024343 -73.401131 -0.21032213 -89.29557
9208625000 -0.90320277 123.79775 -8.9105568 -72.765045 -8.9030704 -73.328033 -0.20119429 -89.214439
9208687500 -0.90127295 123.72491 -8.9127855 -72.85878 -8.9041538 -73.333939 -0.20252468 -89.283638
9208750000 -0.90619981 123.69942 -8.9053221 -72.868164 -8.9004364 -73.33992 -0.20288216 -89.228577
9208812500 -0.90857512 123.71022 -8.9106874 -72.830002 -8.8941164 -73.35981 -0.19990541 -89.267601
9208875000 -0.90700382 123.7013 -8.9096346 -72.787918 -8.8998671 -73.363968 -0.2024757 -89.24646
9208937500 -0.90289497 123.74844 -8.8998747 -72.821129 -8.8968306 -73.399307 -0.19734961 -89.247742
9209000000 -0.90876377 123.75668 -8.9082088 -72.734169 -8.902688 -73.315559 -0.20955525 -89.191742
9209062500 -0.9030574 123.73345 -8.9014111 -72.758179 -8.8933039 -73.388 -0.19798101 -89.165985
9209125000 -0.90524143 123.74036 -8.8973045 -72.707718 -8.8974285 -73.374542 -0.20153783 -89.161491
9209187500 -0.90494817 123.71332 -8.8997641 -72.795769 -8.9009752 -73.340714 -0.20995376 -89.158043
9209250000 -0.90291137 123.71262 -8.9037714 -72.724541 -8.9017687 -73.346268 -0.20822911 -89.133018
9209312500 -0.90117854 123.67908 -8.9007006 -72.770569 -8.900733 -73.31678 -0.20485674 -89.12793
9209375000 -0.90011865 123.66056 -8.8973646 -72.79599 -8.8963375 -73.312881 -0.20687993 -89.039337
9209437500 -0.89460301 123.62965 -8.8987627 -72.779686 -8.9091959 -73.33046 -0.21230534 -89.025078
9209500000 -0.90219772 123.58092 -8.8917999 -72.792526 -8.9050627 -73.338921 -0.20877077 -89.060951
9209562500 -0.90598136 123.62581 -8.9035778 -72.692909 -8.8947992 -73.335838 -0.20493387 -89.017006
9209625000 -0.90584886 123.59264 -8.8967733 -72.764809 -8.8973722 -73.364532 -0.20365207 -88.960556
9209687500 -0.90070873 123.53323 -8.8967819 -72.818596 -8.9045486 -73.322357 -0.20710909 -88.952164
9209750000 -0.90704542 123.51437 -8.8964653 -72.800621 -8.8870125 -73.344597 -0.20325874 -88.954979
9209812500 -0.90592915 123.54334 -8.8954258 -72.806747 -8.8967199 -73.283684 -0.20281379 -88.927467
9209875000 -0.90613484 123.54397 -8.9049768 -72.840584 -8.8962173 -73.363899 -0.20276028 -88.956627
9209937500 -0.90696663 123.51594 -8.898591 -72.7453 -8.8874207 -73.317604 -0.20196307 -88.914268
9210000000 -0.90532535 123.48875 -8.8894606 -72.759216 -8.8801336 -73.268951 -0.19641702 -88.873962
9210062500 -0.90480465 123.51759 -8.89118 -72.749779 -8.8813772 -73.344292 -0.19861367 -88.882484
9210125000 -0.89828974 123.48083 -8.8873596 -72.739868 -8.8770657 -73.27179 -0.19681726 -88.854332
9210187500 -0.8986975 123.46233 -8.8886042 -72.763893 -8.8935366 -73.296265 -0.20087817 -88.822403
9210250000 -0.89911944 123.46432 -8.8817825 -72.750893 -8.8745832 -73.283081 -0.1956847 -88.843849
9210312500 -0.8993991 123.41884 -8.8915348 -72.719635 -8.8847675 -73.243027 -0.19952148 -88.751228
9210375000 -0.89963955 123.43686 -8.8941469 -72.682816 -8.8787346 -73.237831 -0.20843251 -88.732048
9210437500 -0.89539957 123.43093 -8.8946781 -72.695541 -8.8848782 -73.282539 -0.20632629 -88.769691
9210500000 -0.89944559 123.4217 -8.8902655 -72.661697 -8.8790216 -73.27784 -0.20589569 -88.74678
9210562500 -0.90578538 123.39655 -8.9021492 -72.707932 -8.8818979 -73.268372 -0.20973581 -88.706367
9210625000 -0.89883834 123.37791 -8.8960705 -72.707253 -8.8824463 -73.297821 -0.2162461 -88.748177
9210687500 -0.89670503 123.32317 -8.8970766 -72.742523 -8.8774595 -73.330383 -0.2121577 -88.727554
9210750000 -0.89987391 123.31399 -8.8928328 -72.692703 -8.8806419 -73.297226 -0.21231787 -88.666885
9210812500 -0.90196836 123.29675 -8.8943605 -72.769661 -8.8788748 -73.274788 -0.21196474 -88.623451
9210875000 -0.89656162 123.31207 -8.8874454 -72.645218 -8.8777914 -73.294785 -0.21164046 -88.657806
9210937500 -0.89928299 123.29459 -8.8823347 -72.680244 -8.8780413 -73.298561 -0.21291734 -88.632957
9211000000 -0.90216839 123.28009 -8.8942289 -72.664291 -8.869936 -73.281502 -0.20699587 -88.585365
9211062500 -0.90844083 123.22858 -8.8871288 -72.682716 -8.8816767 -73.284958 -0.21303712 -88.62735
9211125000 -0.9124552 123.2316 -8.8864603 -72.71096 -8.8648138 -73.301544 -0.20259014 -88.62587
9211187500 -0.91283828 123.24397 -8.8865519 -72.735672 -8.8751812 -73.234245 -0.20958249 -88.603104
9211250000 -0.90762472 123.24948 -8.8764448 -72.774506 -8.874032 -73.364426 -0.21174331 -88.688911
9211312500 -0.90445733 123.22477 -8.8789454 -72.735352 -8.8741789 -73.355865 -0.20405689 -88.634323
9211375000 -0.90818989 123.22015 -8.8844986 -72.74324 -8.8750706 -73.296532 -0.20707445 -88.523285
9211437500 -0.90805233 123.22973 -8.882781 -72.735855 -8.8753033 -73.296745 -0.21018271 -88.482216
9211500000 -0.90461308 123.22857 -8.8844938 -72.757263 -8.87356 -73.306435 -0.20937674 -88.488029
9211562500 -0.90515679 123.1918 -8.8734312 -72.67775 -8.8708944 -73.296753 -0.21089715 -88.486115
9211625000 -0.90766001 123.15326 -8.8835869 -72.637962 -8.8728647 -73.251144 -0.21039633 -88.419022
9211687500 -0.90745831 123.1179 -8.877841 -72.672989 -8.8738241 -73.256172 -0.21619448 -88.475693
9211750000 -0.90625525 123.07729 -8.8766594 -72.702339 -8.8729563 -73.278465 -0.21082543 -88.435036
9211812500 -0.90632242 123.12542 -8.8729763 -72.686523 -8.8643799 -73.269081 -0.21265966 -88.40802
9211875000 -0.9078508 123.09864 -8.8771639 -72.652763 -8.870697 -73.240677 -0.21708058 -88.355972
9211937500 -0.91038543 123.06178 -8.874155 -72.658615 -8.8674774 -73.252335 -0.21673892 -88.297417
9212000000 -0.91294885 123.02447 -8.8689165 -72.725761 -8.8695974 -73.244095 -0.21354856 -88.359573
9212062500 -0.90999228 123.01237 -8.8718739 -72.741646 -8.8684883 -73.264671 -0.21499678 -88.325211
9212125000 -0.90761673 123.02933 -8.8623648 -72.678421 -8.8704281 -73.264961 -0.21572724 -88.259285
9212187500 -0.9135077 123.00461 -8.8708124 -72.699791 -8.8688564 -73.261696 -0.21873945 -88.242401
