!Agilent Technologies,N5242A,MY51221714,A.09.90.19
!Agilent N5242A: A.09.90.19
!Date: Saturday, March 16, 2024 09:40:41
!Correction: S11(Full 2 Port(1,2)) 
!S21(Full 2 Port(1,2)) 
!S12(Full 2 Port(1,2)) 
!S22(Full 2 Port(1,2)) 
!S2P File: Measurements: S11, S21, S12, S22:
# Hz S  dB   R 50
9200000000 -0.91439062 125.74754 -8.9731426 -72.930138 -8.9617376 -73.598938 -0.18764628 -91.70137
9200062500 -0.91880423 125.69239 -8.9807196 -72.989441 -8.954875 -73.566513 -0.1823322 -91.683273
9200125000 -0.91491306 125.70255 -8.9772425 -72.969879 -8.9626226 -73.618187 -0.18693843 -91.693771
9200187500 -0.91114491 125.68275 -8.9727526 -72.993477 -8.9509296 -73.565399 -0.17762551 -91.623581
9200250000 -0.91306818 125.63241 -8.9750061 -73.044083 -8.9574108 -73.570953 -0.18893826 -91.674843
9200312500 -0.90729159 125.67101 -8.9718714 -72.93338 -8.9486275 -73.592766 -0.18309951 -91.633171
9200375000 -0.90753073 125.67609 -8.9648924 -72.921875 -8.9553823 -73.606651 -0.18869354 -91.635612
9200437500 -0.90900612 125.64883 -8.9680729 -72.975555 -8.949872 -73.567543 -0.19041003 -91.601433
9200500000 -0.90609258 125.62345 -8.9576807 -72.954628 -8.9530134 -73.564529 -0.18985637 -91.545479
9200562500 -0.91384244 125.60505 -8.9690609 -72.981232 -8.9506321 -73.62384 -0.18783118 -91.550034
9200625000 -0.91296464 125.60113 -8.9742994 -72.962517 -8.9427052 -73.588654 -0.18853137 -91.524269
9200687500 -0.91375446 125.59516 -8.9735641 -72.948486 -8.9439039 -73.669533 -0.19298734 -91.516251
9200750000 -0.91382647 125.55447 -8.9638853 -72.944893 -8.9398079 -73.607895 -0.19428472 -91.500214
9200812500 -0.91210741 125.56693 -8.9640121 -72.872665 -8.9428015 -73.571274 -0.19417226 -91.445366
9200875000 -0.91569674 125.54099 -8.9657221 -72.912804 -8.9394274 -73.576645 -0.18488738 -91.452888
9200937500 -0.91288555 125.52469 -8.9738379 -72.902122 -8.9461823 -73.535698 -0.19990632 -91.360031
9201000000 -0.90735769 125.50684 -8.9653845 -72.936638 -8.9387121 -73.517365 -0.1930266 -91.338928
9201062500 -0.90959173 125.522 -8.9567156 -72.874008 -8.9507103 -73.553894 -0.19653316 -91.343544
9201125000 -0.9092012 125.52879 -8.954237 -72.870399 -8.946641 -73.549652 -0.19603406 -91.376396
9201187500 -0.90942782 125.47192 -8.9610767 -72.951591 -8.9470339 -73.631897 -0.19834523 -91.368858
9201250000 -0.91166306 125.45522 -8.9536057 -72.92646 -8.9392548 -73.544968 -0.18584487 -91.331726
9201312500 -0.91152942 125.43549 -8.9560938 -72.940804 -8.9470196 -73.646179 -0.19990531 -91.348488
9201375000 -0.90888619 125.4338 -8.9519167 -72.951157 -8.9447613 -73.532906 -0.19361189 -91.32415
9201437500 -0.91370797 125.43727 -8.9553719 -72.923195 -8.9406281 -73.545128 -0.19717173 -91.307983
9201500000 -0.91917217 125.40189 -8.9669075 -72.941277 -8.93993 -73.529198 -0.19260758 -91.307381
9201562500 -0.90894073 125.37356 -8.9509163 -72.982597 -8.9484768 -73.574974 -0.18668947 -91.293594
9201625000 -0.92071086 125.39825 -8.9659786 -72.879189 -8.9435644 -73.524139 -0.19244924 -91.301865
9201687500 -0.91609538 125.37724 -8.9637289 -72.905525 -8.9376822 -73.560249 -0.19306237 -91.244514
9201750000 -0.91210622 125.33939 -8.9595985 -72.956451 -8.9393511 -73.499893 -0.1915983 -91.205864
9201812500 -0.91188008 125.3299 -8.9539938 -72.924171 -8.9387884 -73.5271 -0.19793253 -91.178848
9201875000 -0.91123372 125.34108 -8.9577522 -72.921883 -8.9396687 -73.535446 -0.19789584 -91.173615
9201937500 -0.90648705 125.30201 -8.954113 -72.887978 -8.9400997 -73.52742 -0.20275611 -91.141624
9202000000 -0.90368956 125.2534 -8.9540272 -72.928749 -8.9357615 -73.455292 -0.19779381 -91.114037
9202062500 -0.90792382 125.26688 -8.9501591 -72.882401 -8.939765 -73.550552 -0.20351657 -91.163239
9202125000 -0.90894347 125.23802 -8.9461861 -72.930122 -8.9323549 -73.529251 -0.18977781 -91.066864
9202187500 -0.90911484 125.25266 -8.9396248 -72.919319 -8.9369831 -73.569366 -0.19691834 -91.113625
9202250000 -0.90278685 125.22494 -8.9330139 -72.910553 -8.934804 -73.55452 -0.19616404 -91.070572
9202312500 -0.91041803 125.22649 -8.9430094 -72.876083 -8.9296703 -73.537201 -0.19165787 -91.020683
9202375000 -0.91348094 125.23573 -8.9424868 -72.883606 -8.933898 -73.599983 -0.19513834 -91.050903
9202437500 -0.91462159 125.1581 -8.9414234 -72.917213 -8.9313297 -73.568726 -0.19359462 -91.015518
9202500000 -0.91130209 125.21606 -8.9361773 -72.827881 -8.9271841 -73.549385 -0.1957871 -91.024658
9202562500 -0.9130854 125.18476 -8.9421616 -72.926262 -8.9344215 -73.519341 -0.19919677 -91.002769
9202625000 -0.91414952 125.16299 -8.9411821 -72.916306 -8.9377918 -73.48555 -0.2056946 -90.949852
9202687500 -0.9106608 125.1824 -8.9472265 -72.888023 -8.9352427 -73.539856 -0.20256099 -90.937614
9202750000 -0.91357797 125.11417 -8.9496584 -72.931282 -8.9255695 -73.525017 -0.20385183 -90.952164
9202812500 -0.90895444 125.11414 -8.9484339 -72.946533 -8.9337769 -73.500793 -0.20275643 -90.875809
9202875000 -0.91490537 125.11266 -8.9403 -72.956512 -8.9318466 -73.539772 -0.19997102 -90.861115
9202937500 -0.91004878 125.11512 -8.9433699 -72.861183 -8.9185228 -73.55127 -0.20436196 -90.880157
9203000000 -0.91376436 125.09718 -8.9479294 -72.913666 -8.927598 -73.53434 -0.20095795 -90.858414
9203062500 -0.91044843 125.05437 -8.9387369 -72.892334 -8.9294043 -73.490265 -0.2039579 -90.825729
9203125000 -0.91135609 125.02566 -8.9425735 -72.919838 -8.9224386 -73.478584 -0.20329821 -90.778923
9203187500 -0.91325247 125.04681 -8.937377 -72.88855 -8.9188328 -73.510162 -0.19487044 -90.815399
9203250000 -0.91381758 125.00658 -8.9293623 -72.880356 -8.9239988 -73.54126 -0.19333583 -90.751389
9203312500 -0.90877473 125.01077 -8.9396448 -72.93837 -8.9203377 -73.507538 -0.20418137 -90.769836
9203375000 -0.91035825 124.98244 -8.9295168 -72.920914 -8.9343596 -73.503693 -0.20363341 -90.750267
9203437500 -0.91404033 124.9569 -8.9364204 -72.912994 -8.9303122 -73.557777 -0.20760638 -90.737114
9203500000 -0.90391594 124.96658 -8.9370718 -72.90358 -8.930788 -73.571289 -0.20867133 -90.732712
9203562500 -0.91335571 124.96284 -8.9318676 -72.863747 -8.9200954 -73.48819 -0.20305853 -90.68396
9203625000 -0.91145438 124.95061 -8.9318352 -72.882523 -8.9262619 -73.486671 -0.20669787 -90.609863
9203687500 -0.91527855 124.9311 -8.9441938 -72.861382 -8.9173117 -73.504776 -0.20221031 -90.636162
9203750000 -0.91109079 124.88967 -8.9177151 -72.946762 -8.922863 -73.478058 -0.20523649 -90.632568
9203812500 -0.91149575 124.8993 -8.9289608 -72.914528 -8.9251556 -73.506615 -0.20871092 -90.611435
9203875000 -0.91449344 124.83011 -8.9328823 -72.924629 -8.9147968 -73.462875 -0.2075436 -90.603256
9203937500 -0.91112804 124.83856 -8.9392986 -72.896347 -8.9164877 -73.460663 -0.2153402 -90.560684
9204000000 -0.91225487 124.83149 -8.9437685 -72.901382 -8.915781 -73.510208 -0.21330237 -90.542519
9204062500 -0.90676445 124.84241 -8.9309893 -72.887367 -8.9156971 -73.525246 -0.21943726 -90.56472
9204125000 -0.90678602 124.83579 -8.9382057 -72.850586 -8.9130545 -73.465797 -0.21775231 -90.506081
9204187500 -0.90690541 124.78243 -8.9321413 -72.879051 -8.9031115 -73.475479 -0.21514374 -90.531738
9204250000 -0.90042514 124.7984 -8.936204 -72.861366 -8.9108667 -73.445023 -0.20909524 -90.469521
9204312500 -0.90789354 124.74232 -8.9341135 -72.841881 -8.9117823 -73.427803 -0.20788854 -90.468857
9204375000 -0.90350914 124.74365 -8.9239969 -72.835648 -8.9071102 -73.43457 -0.20908237 -90.436455
9204437500 -0.90651721 124.73209 -8.928175 -72.869751 -8.9164362 -73.502251 -0.21150777 -90.45816
9204500000 -0.90351957 124.7177 -8.9190121 -72.851303 -8.9079971 -73.475212 -0.20085011 -90.418518
9204562500 -0.90057141 124.72932 -8.9200125 -72.839561 -8.9077797 -73.442886 -0.20141582 -90.389961
9204625000 -0.90340441 124.67999 -8.9153833 -72.780884 -8.9073439 -73.468651 -0.20355022 -90.378708
9204687500 -0.89961666 124.73047 -8.9224405 -72.763214 -8.9112072 -73.491608 -0.20298582 -90.374939
9204750000 -0.90700972 124.68396 -8.921854 -72.81382 -8.90487 -73.518227 -0.20688058 -90.363899
9204812500 -0.90305388 124.70926 -8.9153357 -72.790443 -8.9088812 -73.519409 -0.2080137 -90.379547
9204875000 -0.90544373 124.67683 -8.9216957 -72.776711 -8.9095182 -73.473404 -0.21278751 -90.326149
9204937500 -0.91056329 124.65419 -8.9242144 -72.84256 -8.9024401 -73.438118 -0.2039597 -90.312912
9205000000 -0.90912938 124.66635 -8.9097996 -72.78775 -8.9120455 -73.489258 -0.21236563 -90.339508
9205062500 -0.9102115 124.61023 -8.9233437 -72.834259 -8.908308 -73.459229 -0.20934924 -90.293564
9205125000 -0.91024691 124.60854 -8.9118919 -72.82756 -8.9046431 -73.479897 -0.20449644 -90.317596
9205187500 -0.91626322 124.59332 -8.9197226 -72.759995 -8.9015932 -73.512169 -0.20266064 -90.251228
9205250000 -0.91536164 124.54205 -8.9095497 -72.84861 -8.9072685 -73.511971 -0.20135453 -90.29232
9205312500 -0.91601312 124.54207 -8.9176598 -72.784187 -8.9004469 -73.500702 -0.2054316 -90.248878
9205375000 -0.91182709 124.49591 -8.9117041 -72.850273 -8.9044333 -73.465942 -0.20597334 -90.196785
9205437500 -0.91641921 124.47688 -8.9140692 -72.827591 -8.9106321 -73.464287 -0.20580639 -90.183006
9205500000 -0.91505641 124.48658 -8.9145422 -72.783188 -8.9102163 -73.468391 -0.20742774 -90.159515
9205562500 -0.90769929 124.49934 -8.9086494 -72.804146 -8.9022789 -73.474075 -0.20228603 -90.144943
9205625000 -0.90734386 124.52104 -8.9097996 -72.77594 -8.903985 -73.443436 -0.20927702 -90.094276
9205687500 -0.90818763 124.50201 -8.9068155 -72.808113 -8.8999062 -73.457596 -0.20173001 -90.159775
9205750000 -0.9078728 124.46104 -8.9148445 -72.862 -8.9033756 -73.44603 -0.20728029 -90.117676
9205812500 -0.90370011 124.47324 -8.9045639 -72.795029 -8.9113283 -73.430275 -0.21339792 -90.093483
9205875000 -0.90709478 124.44312 -8.9136639 -72.829605 -8.9053526 -73.401604 -0.21216272 -90.077309
9205937500 -0.90886211 124.4778 -8.9168863 -72.763184 -8.8989649 -73.433418 -0.2106377 -90.026184
9206000000 -0.90490979 124.41653 -8.9114408 -72.777458 -8.9067287 -73.452072 -0.2163142 -90.031456
9206062500 -0.90829819 124.37878 -8.914073 -72.766296 -8.9024239 -73.401703 -0.21468818 -89.990036
9206125000 -0.90286499 124.389 -8.91082 -72.721001 -8.8988123 -73.431816 -0.2083849 -89.968941
9206187500 -0.90903449 124.40276 -8.9162216 -72.7724 -8.8935947 -73.439674 -0.20438269 -89.949585
9206250000 -0.90586644 124.42606 -8.9003468 -72.762215 -8.8906231 -73.384476 -0.20259359 -89.933487
9206312500 -0.90639484 124.38087 -8.9070702 -72.794998 -8.8938627 -73.423561 -0.20697333 -89.945221
9206375000 -0.90549457 124.3494 -8.9040976 -72.79451 -8.8913765 -73.431343 -0.21164165 -89.908035
9206437500 -0.91107428 124.35404 -8.9035158 -72.75901 -8.8952961 -73.45369 -0.20603858 -89.894859
9206500000 -0.90314156 124.32868 -8.8948565 -72.800079 -8.8917589 -73.493698 -0.21077569 -89.913719
9206562500 -0.90614778 124.34193 -8.8926706 -72.759521 -8.8910904 -73.455582 -0.20220071 -89.897095
9206625000 -0.91004837 124.29516 -8.8914042 -72.788284 -8.886692 -73.485649 -0.20441549 -89.822678
9206687500 -0.90915263 124.29373 -8.891675 -72.766647 -8.8892879 -73.420639 -0.20862849 -89.795784
9206750000 -0.91165853 124.24401 -8.890069 -72.725113 -8.8745661 -73.399124 -0.1953526 -89.783936
9206812500 -0.91350144 124.25459 -8.8806686 -72.767586 -8.87432 -73.381409 -0.1923193 -89.759727
9206875000 -0.91389829 124.22915 -8.8889885 -72.688179 -8.8772402 -73.420944 -0.19403069 -89.761299
9206937500 -0.90830773 124.20382 -8.8852148 -72.764977 -8.8801956 -73.406532 -0.20539767 -89.734001
9207000000 -0.90689319 124.21272 -8.8940964 -72.723793 -8.8742924 -73.396294 -0.20069581 -89.688309
9207062500 -0.91218245 124.17288 -8.8907728 -72.789917 -8.8808775 -73.456146 -0.20423973 -89.718292
9207125000 -0.90136576 124.19737 -8.8936872 -72.730438 -8.8818302 -73.406425 -0.21071693 -89.696098
9207187500 -0.90025252 124.15902 -8.8803644 -72.821465 -8.8895779 -73.430588 -0.21856618 -89.700043
9207250000 -0.90429437 124.17026 -8.8857422 -72.720215 -8.8878822 -73.384224 -0.21123977 -89.647621
9207312500 -0.90772676 124.11175 -8.8975859 -72.784409 -8.8829155 -73.390663 -0.21904385 -89.64415
9207375000 -0.90720969 124.09004 -8.8924637 -72.805565 -8.8879414 -73.482269 -0.21912314 -89.696724
9207437500 -0.90809095 124.06674 -8.8938427 -72.78875 -8.8826866 -73.377411 -0.21975642 -89.63089
9207500000 -0.90508211 124.0294 -8.8927698 -72.80117 -8.8741264 -73.360916 -0.21321486 -89.616982
9207562500 -0.91088122 123.99822 -8.8924055 -72.874001 -8.8772354 -73.419815 -0.21887477 -89.625763
9207625000 -0.91078913 123.99952 -8.8892279 -72.781456 -8.8738394 -73.410675 -0.2155803 -89.614601
9207687500 -0.91403705 123.96535 -8.8883142 -72.880791 -8.8707399 -73.401657 -0.21154033 -89.59053
9207750000 -0.91802782 123.98344 -8.885498 -72.81501 -8.8689814 -73.455948 -0.20067711 -89.565742
9207812500 -0.91349524 123.96657 -8.8823748 -72.802895 -8.8724298 -73.442528 -0.20393114 -89.576691
9207875000 -0.91654003 124.00273 -8.8807888 -72.765549 -8.8749809 -73.426949 -0.20747359 -89.545227
9207937500 -0.91835105 123.98295 -8.8806 -72.737373 -8.8761005 -73.446838 -0.20119576 -89.480049
9208000000 -0.91433454 123.93627 -8.8845673 -72.780449 -8.8789415 -73.371529 -0.20360041 -89.430946
9208062500 -0.91908747 123.93081 -8.8860264 -72.724991 -8.8725681 -73.420105 -0.20934689 -89.471992
9208125000 -0.91875577 123.95535 -8.8864336 -72.752884 -8.8754082 -73.410995 -0.21146213 -89.451408
9208187500 -0.90862751 123.93398 -8.8855715 -72.772148 -8.8895626 -73.366417 -0.21297085 -89.376068
9208250000 -0.91439915 123.96646 -8.8817406 -72.717468 -8.8784685 -73.352295 -0.21822292 -89.371361
9208312500 -0.91554403 123.93178 -8.8885679 -72.749321 -8.87047 -73.316628 -0.21937042 -89.396179
9208375000 -0.91035557 123.89022 -8.8843098 -72.735092 -8.8718395 -73.398521 -0.21776152 -89.346916
9208437500 -0.91502303 123.86409 -8.883276 -72.713181 -8.8693552 -73.38134 -0.22080329 -89.331276
9208500000 -0.90591776 123.83032 -8.8764582 -72.740425 -8.8660622 -73.295959 -0.20849946 -89.290909
9208562500 -0.90542692 123.8073 -8.874342 -72.766701 -8.8619947 -73.40551 -0.20945725 -89.352341
9208625000 -0.91009569 123.78054 -8.8791313 -72.755302 -8.8642282 -73.323257 -0.21323951 -89.249512
9208687500 -0.90571284 123.79013 -8.876071 -72.76989 -8.8606062 -73.35997 -0.20943108 -89.293335
9208750000 -0.91225541 123.77591 -8.8751421 -72.819328 -8.8608294 -73.313713 -0.20885874 -89.237106
9208812500 -0.91201752 123.73345 -8.8723507 -72.806503 -8.870738 -73.344963 -0.21689455 -89.276077
9208875000 -0.91158193 123.78692 -8.8705902 -72.76725 -8.8667698 -73.369904 -0.21184163 -89.215904
9208937500 -0.91596574 123.76404 -8.8772421 -72.843849 -8.8618956 -73.371796 -0.20814189 -89.286613
9209000000 -0.91286421 123.80311 -8.8729954 -72.759178 -8.8649788 -73.283546 -0.21737957 -89.18425
9209062500 -0.91017997 123.83133 -8.8706999 -72.716568 -8.8719749 -73.415367 -0.21739973 -89.229256
9209125000 -0.91211814 123.77577 -8.8723736 -72.755913 -8.870079 -73.361725 -0.21523108 -89.227325
9209187500 -0.9171257 123.82326 -8.8777637 -72.678947 -8.8657846 -73.348106 -0.21741399 -89.154503
9209250000 -0.91155934 123.76807 -8.8698521 -72.699646 -8.8726845 -73.323608 -0.22075154 -89.114922
9209312500 -0.90833431 123.7035 -8.8641834 -72.738594 -8.8647127 -73.322311 -0.21527344 -89.138412
9209375000 -0.91093475 123.6898 -8.8655157 -72.741226 -8.8638077 -73.304436 -0.21634126 -89.0681
9209437500 -0.91057742 123.67898 -8.8704748 -72.734238 -8.8614569 -73.28643 -0.21389866 -89.048721
9209500000 -0.91021025 123.63455 -8.8626194 -72.686981 -8.8612242 -73.31559 -0.21505654 -89.041298
9209562500 -0.90309936 123.6646 -8.8627787 -72.70639 -8.8639574 -73.300919 -0.21946602 -89.064087
9209625000 -0.90997994 123.63865 -8.8631821 -72.709854 -8.8558998 -73.291817 -0.2098916 -88.982094
9209687500 -0.91364032 123.60842 -8.8741579 -72.750473 -8.8576603 -73.285225 -0.21089865 -88.978218
9209750000 -0.91772735 123.63208 -8.8656015 -72.741409 -8.8665514 -73.31752 -0.22105496 -88.954643
9209812500 -0.92071319 123.61554 -8.8729143 -72.734863 -8.8523064 -73.326286 -0.20793714 -88.925423
9209875000 -0.91638595 123.62145 -8.8640118 -72.72979 -8.8547115 -73.301025 -0.2105034 -88.899803
9209937500 -0.91136956 123.55679 -8.8525009 -72.743301 -8.8490896 -73.329468 -0.20205767 -88.867058
9210000000 -0.91771388 123.5581 -8.8648672 -72.762177 -8.846221 -73.292191 -0.20218834 -88.870346
9210062500 -0.90683067 123.54427 -8.8545876 -72.737762 -8.8472013 -73.329018 -0.20704958 -88.90976
9210125000 -0.90865058 123.53959 -8.8596382 -72.703163 -8.852787 -73.262955 -0.20942111 -88.841896
9210187500 -0.90740931 123.52862 -8.850934 -72.709953 -8.8526373 -73.290123 -0.21014215 -88.861488
9210250000 -0.90986818 123.49031 -8.8627319 -72.717682 -8.846158 -73.29277 -0.21157295 -88.828812
9210312500 -0.90726477 123.47242 -8.8578215 -72.742584 -8.8511639 -73.215103 -0.21196055 -88.77092
9210375000 -0.90628016 123.4995 -8.8508415 -72.674126 -8.8497343 -73.301353 -0.2177476 -88.804581
9210437500 -0.90792692 123.43826 -8.8565493 -72.734871 -8.8543472 -73.239616 -0.22019956 -88.751068
9210500000 -0.90770644 123.43558 -8.8613195 -72.71077 -8.8552361 -73.247002 -0.22347228 -88.768478
9210562500 -0.90444088 123.43694 -8.8600559 -72.674927 -8.8478346 -73.251923 -0.21968098 -88.680222
9210625000 -0.90384716 123.40074 -8.8591928 -72.66716 -8.8539457 -73.269173 -0.22290015 -88.720535
9210687500 -0.90035695 123.37855 -8.8553762 -72.675117 -8.8509331 -73.268723 -0.2178624 -88.682747
9210750000 -0.90216362 123.35311 -8.8552084 -72.658943 -8.8522148 -73.250122 -0.23492683 -88.669426
9210812500 -0.90318954 123.31513 -8.8502903 -72.691864 -8.8495903 -73.260841 -0.230373 -88.677429
9210875000 -0.90587473 123.30618 -8.8555727 -72.692406 -8.8457775 -73.336006 -0.22514796 -88.663445
9210937500 -0.89931417 123.2996 -8.8468199 -72.682266 -8.8385925 -73.290558 -0.21842211 -88.588333
9211000000 -0.91317719 123.26598 -8.8617077 -72.707489 -8.8456049 -73.313873 -0.22579761 -88.627754
9211062500 -0.90859419 123.29314 -8.8530426 -72.683235 -8.84058 -73.293953 -0.21800263 -88.577301
9211125000 -0.91041821 123.29156 -8.851841 -72.654724 -8.8390131 -73.361267 -0.21351847 -88.679321
9211187500 -0.91714555 123.28567 -8.8465872 -72.675346 -8.837842 -73.349648 -0.21377929 -88.634285
9211250000 -0.91646612 123.30276 -8.8435507 -72.691628 -8.8357286 -73.340126 -0.21377523 -88.668999
9211312500 -0.91817242 123.27383 -8.8517427 -72.73806 -8.8442316 -73.285034 -0.22559647 -88.623451
9211375000 -0.91196835 123.25449 -8.8389187 -72.723511 -8.8411369 -73.283508 -0.21215135 -88.486305
9211437500 -0.9135884 123.26083 -8.8466158 -72.691559 -8.8420048 -73.310806 -0.21388531 -88.516411
9211500000 -0.91473317 123.26227 -8.8427105 -72.691254 -8.8422728 -73.281746 -0.22317925 -88.515167
9211562500 -0.91611952 123.18682 -8.8611526 -72.669403 -8.8300753 -73.252907 -0.21696462 -88.471405
9211625000 -0.91437352 123.19833 -8.846036 -72.648689 -8.8421688 -73.291718 -0.22270307 -88.517715
9211687500 -0.91645515 123.17362 -8.8513365 -72.695732 -8.8357725 -73.262772 -0.22965603 -88.483459
9211750000 -0.91120529 123.16553 -8.8431988 -72.67308 -8.8393431 -73.21946 -0.22246687 -88.439522
9211812500 -0.91548556 123.15295 -8.8477392 -72.679482 -8.8319817 -73.254051 -0.22303902 -88.448784
9211875000 -0.91103119 123.10842 -8.8446846 -72.672493 -8.8451958 -73.260849 -0.23359098 -88.398239
9211937500 -0.91761678 123.10851 -8.850914 -72.681252 -8.8333721 -73.209175 -0.22838715 -88.347748
9212000000 -0.91512376 123.06959 -8.8378887 -72.709656 -8.8392458 -73.264412 -0.23243968 -88.375298
9212062500 -0.91637498 123.0388 -8.8366528 -72.661041 -8.8243551 -73.191475 -0.22481099 -88.284439
9212125000 -0.91673487 123.06008 -8.8302479 -72.638588 -8.8366947 -73.28035 -0.2265479 -88.270607
9212187500 -0.92167127 123.03265 -8.8381424 -72.717308 -8.8328953 -73.238869 -0.23035476 -88.226318
