!Agilent Technologies,N5242A,MY51221714,A.09.90.19
!Agilent N5242A: A.09.90.19
!Date: Saturday, March 16, 2024 09:42:14
!Correction: S11(Full 2 Port(1,2)) 
!S21(Full 2 Port(1,2)) 
!S12(Full 2 Port(1,2)) 
!S22(Full 2 Port(1,2)) 
!S2P File: Measurements: S11, S21, S12, S22:
# Hz S  dB   R 50
9200000000 -0.92369348 125.90869 -9.0132885 -73.036819 -8.9945259 -73.659515 -0.19374537 -91.888268
9200062500 -0.92572802 125.86224 -9.0118437 -73.00013 -8.9876995 -73.678802 -0.18345086 -91.889923
9200125000 -0.92495674 125.86765 -9.009469 -72.972992 -8.98664 -73.657829 -0.1898597 -91.860565
9200187500 -0.92459083 125.84776 -9.0114021 -72.987831 -8.9901972 -73.648567 -0.18654896 -91.839874
9200250000 -0.92125309 125.82986 -9.0132151 -73.014366 -8.9939661 -73.630249 -0.1993174 -91.80719
9200312500 -0.91775966 125.78774 -9.0062485 -72.987488 -8.9870377 -73.670456 -0.18555225 -91.838936
9200375000 -0.9247039 125.75472 -9.0101156 -73.050919 -8.9838762 -73.626114 -0.1898413 -91.772903
9200437500 -0.91946048 125.79386 -9.0089617 -72.994179 -8.9789352 -73.644424 -0.18854874 -91.771393
9200500000 -0.92243892 125.75097 -9.0083065 -72.985283 -8.9780245 -73.638008 -0.1873146 -91.766945
9200562500 -0.91634691 125.73721 -8.9962797 -72.997787 -8.9835443 -73.629333 -0.19751304 -91.736664
9200625000 -0.919725 125.75597 -8.9996519 -72.91758 -8.9755154 -73.565895 -0.19197905 -91.671425
9200687500 -0.91937566 125.7466 -9.0050211 -72.984436 -8.9752512 -73.581093 -0.19966209 -91.631882
9200750000 -0.92302763 125.68916 -9.0076408 -72.994736 -8.9810286 -73.643845 -0.2111793 -91.679085
9200812500 -0.91930211 125.72185 -8.9969969 -72.888214 -8.9796839 -73.633362 -0.20356739 -91.656342
9200875000 -0.91779834 125.68148 -9.0092182 -72.923309 -8.9812346 -73.571556 -0.20278491 -91.571426
9200937500 -0.91991591 125.67847 -9.0103111 -72.962509 -8.9823484 -73.580223 -0.20606132 -91.571548
9201000000 -0.91562349 125.68105 -8.9938564 -72.901245 -8.9835062 -73.60228 -0.20410474 -91.538002
9201062500 -0.91996622 125.66223 -8.9987144 -72.926277 -8.9813042 -73.54026 -0.20582923 -91.531593
9201125000 -0.91167504 125.64998 -8.9935417 -72.955803 -8.973793 -73.597603 -0.2035837 -91.57618
9201187500 -0.9164452 125.64372 -9.0000076 -72.917656 -8.973506 -73.62114 -0.19975571 -91.535973
9201250000 -0.9103803 125.59928 -8.9767256 -72.927956 -8.9689198 -73.570152 -0.19887492 -91.489929
9201312500 -0.91361183 125.58651 -8.9889412 -72.966988 -8.9718933 -73.563744 -0.19730076 -91.478325
9201375000 -0.91962045 125.58362 -8.9881163 -72.927666 -8.9823208 -73.556519 -0.20517342 -91.47123
9201437500 -0.91756558 125.58139 -8.9945793 -72.941521 -8.9796324 -73.592552 -0.2011006 -91.486191
9201500000 -0.92344451 125.56908 -8.9984827 -72.947716 -8.9818163 -73.561073 -0.20319583 -91.477051
9201562500 -0.92305964 125.56808 -8.9982271 -73.005646 -8.9782152 -73.563614 -0.19829334 -91.431335
9201625000 -0.91503584 125.5222 -8.9812222 -72.900871 -8.9796181 -73.550964 -0.19858971 -91.423439
9201687500 -0.91812986 125.50024 -8.9929142 -72.979965 -8.9741344 -73.545044 -0.20574716 -91.431198
9201750000 -0.92147601 125.50205 -8.9921732 -72.926491 -8.9807339 -73.504494 -0.20474672 -91.379097
9201812500 -0.92385876 125.50876 -9.0088425 -72.955742 -8.9694576 -73.510178 -0.19666061 -91.359299
9201875000 -0.91837835 125.45825 -8.9902039 -72.991196 -8.9671936 -73.508919 -0.19956616 -91.351746
9201937500 -0.91834551 125.46464 -8.9866228 -72.971207 -8.968646 -73.607979 -0.20516832 -91.348671
9202000000 -0.91696846 125.43029 -8.9837437 -72.943123 -8.9694405 -73.553146 -0.20399933 -91.298393
9202062500 -0.92190415 125.4118 -8.9895535 -72.955368 -8.9848156 -73.513176 -0.21535482 -91.267899
9202125000 -0.92125094 125.38307 -8.9822969 -73.0308 -8.9733925 -73.569725 -0.20219624 -91.289001
9202187500 -0.91722018 125.39303 -8.9794712 -72.914848 -8.9737501 -73.632744 -0.20683078 -91.276299
9202250000 -0.91661304 125.41125 -8.9712486 -72.869598 -8.9825726 -73.57711 -0.20394005 -91.269341
9202312500 -0.91843975 125.36012 -8.972806 -72.91394 -8.9702082 -73.587059 -0.20322905 -91.249481
9202375000 -0.91576713 125.37074 -8.9693613 -72.887436 -8.9743156 -73.588409 -0.19853169 -91.201729
9202437500 -0.92282873 125.34866 -8.9781065 -72.960869 -8.9681911 -73.556686 -0.20174524 -91.209465
9202500000 -0.91700381 125.34792 -8.9772854 -72.943359 -8.9731188 -73.569786 -0.21079105 -91.19352
9202562500 -0.92232382 125.29256 -8.9774456 -72.935432 -8.9720316 -73.509773 -0.20587002 -91.142906
9202625000 -0.91787493 125.3019 -8.9824829 -72.91655 -8.9697361 -73.497719 -0.20998389 -91.106247
9202687500 -0.92496133 125.31138 -8.9974785 -72.909416 -8.9640703 -73.522575 -0.210024 -91.088966
9202750000 -0.9240725 125.27526 -8.9758987 -72.935951 -8.968812 -73.553574 -0.2138117 -91.061272
9202812500 -0.92619771 125.28396 -8.9857521 -72.913582 -8.9726772 -73.530518 -0.20702317 -91.071472
9202875000 -0.92417866 125.26466 -8.9864616 -72.88501 -8.9596577 -73.542549 -0.20738155 -91.101768
9202937500 -0.91640985 125.24747 -8.9761209 -72.912033 -8.9724293 -73.570343 -0.21283937 -91.064888
9203000000 -0.91538453 125.23443 -8.9743233 -72.865883 -8.963418 -73.572083 -0.21019903 -91.039825
9203062500 -0.91939956 125.20636 -8.9712362 -72.946716 -8.9625664 -73.565613 -0.2053771 -91.03791
9203125000 -0.91939479 125.15573 -8.967351 -72.95443 -8.9675093 -73.599846 -0.21319668 -90.994728
9203187500 -0.91638142 125.21471 -8.9727411 -72.900375 -8.951704 -73.525734 -0.1987084 -90.963013
9203250000 -0.92139184 125.18767 -8.9768744 -72.876488 -8.9592524 -73.588425 -0.20805755 -90.965317
9203312500 -0.91939431 125.16151 -8.9805155 -72.957558 -8.9636841 -73.531296 -0.21241693 -90.923744
9203375000 -0.9198786 125.15409 -8.9756823 -72.945435 -8.9599733 -73.507736 -0.20501208 -90.898766
9203437500 -0.91613221 125.14161 -8.9754076 -72.968216 -8.9596615 -73.559547 -0.20458645 -90.886398
9203500000 -0.92163324 125.11713 -8.9789143 -72.948013 -8.9611902 -73.525856 -0.20740433 -90.862175
9203562500 -0.91829586 125.07283 -8.9782181 -72.982841 -8.9693356 -73.567841 -0.21403009 -90.859184
9203625000 -0.92061788 125.11215 -8.979641 -72.905273 -8.9639482 -73.507278 -0.21229537 -90.813171
9203687500 -0.91877574 125.03653 -8.9607964 -72.942001 -8.9589024 -73.565269 -0.21378598 -90.80793
9203750000 -0.91763234 125.04083 -8.9660969 -72.898659 -8.9528484 -73.518501 -0.2098899 -90.823769
9203812500 -0.91651505 125.02947 -8.9661465 -72.913315 -8.9645309 -73.519119 -0.2193815 -90.783272
9203875000 -0.92376405 125.01624 -8.9649935 -72.888031 -8.9563179 -73.552139 -0.22056629 -90.769554
9203937500 -0.92045903 124.98163 -8.9792881 -72.971359 -8.952672 -73.50071 -0.22432528 -90.762886
9204000000 -0.91865826 124.99835 -8.9801807 -72.936897 -8.9603977 -73.462875 -0.22689293 -90.693382
9204062500 -0.91796809 124.97449 -8.9748831 -72.887558 -8.9575291 -73.507874 -0.22612143 -90.720299
9204125000 -0.91374773 124.97044 -8.9786472 -72.944183 -8.9474354 -73.516685 -0.22522347 -90.709587
9204187500 -0.91298658 124.96263 -8.9697495 -72.94593 -8.9395332 -73.505669 -0.21613489 -90.693954
9204250000 -0.90908045 124.94765 -8.9684305 -72.877571 -8.9514894 -73.464806 -0.22474597 -90.708916
9204312500 -0.91314262 124.9312 -8.9699783 -72.88105 -8.9498758 -73.508324 -0.22084264 -90.66539
9204375000 -0.91458434 124.92162 -8.9632339 -72.852783 -8.9496174 -73.510284 -0.22540542 -90.667458
9204437500 -0.91194808 124.90755 -8.9643373 -72.869705 -8.9389648 -73.505585 -0.21628365 -90.626411
9204500000 -0.91505313 124.87068 -8.9684429 -72.909668 -8.9424133 -73.533218 -0.21494953 -90.583168
9204562500 -0.91361743 124.85191 -8.9589376 -72.852402 -8.9451342 -73.507866 -0.21266828 -90.569939
9204625000 -0.91077995 124.81563 -8.9564238 -72.856583 -8.9459581 -73.500412 -0.20614272 -90.517448
9204687500 -0.9160254 124.82112 -8.9604759 -72.930405 -8.949461 -73.493317 -0.21391957 -90.508904
9204750000 -0.91227901 124.79394 -8.9506474 -72.879753 -8.9372969 -73.466286 -0.21158834 -90.506035
9204812500 -0.91502684 124.85423 -8.9577923 -72.7948 -8.945797 -73.472733 -0.21302575 -90.485291
9204875000 -0.91310996 124.81473 -8.9591446 -72.885246 -8.9414301 -73.450897 -0.2183302 -90.482735
9204937500 -0.91406381 124.79463 -8.9519615 -72.84977 -8.9417048 -73.520607 -0.21450166 -90.501801
9205000000 -0.91634393 124.79966 -8.9575958 -72.84893 -8.9404449 -73.503563 -0.22277105 -90.498146
9205062500 -0.91601568 124.77484 -8.9618101 -72.876953 -8.9458036 -73.467278 -0.21526082 -90.406639
9205125000 -0.91631049 124.73935 -8.950819 -72.86647 -8.9376125 -73.42292 -0.21630605 -90.427185
9205187500 -0.92143452 124.75217 -8.9528208 -72.830742 -8.9464207 -73.538475 -0.21823546 -90.454659
9205250000 -0.92483789 124.69151 -8.9612932 -72.799835 -8.9430923 -73.57061 -0.21481739 -90.432709
9205312500 -0.92073429 124.68804 -8.9494648 -72.841492 -8.9428864 -73.550568 -0.21401258 -90.393173
9205375000 -0.92313141 124.61092 -8.9435644 -72.849586 -8.9397259 -73.472313 -0.21003054 -90.372681
9205437500 -0.91873866 124.64874 -8.9479599 -72.825493 -8.9426966 -73.490631 -0.20738642 -90.355545
9205500000 -0.92163622 124.63228 -8.942708 -72.825027 -8.9410286 -73.480301 -0.20895897 -90.349586
9205562500 -0.9210071 124.60642 -8.950922 -72.898041 -8.9447222 -73.462181 -0.21580043 -90.331215
9205625000 -0.92012316 124.62125 -8.9477501 -72.835121 -8.9491243 -73.422821 -0.21403937 -90.265625
9205687500 -0.9171778 124.63689 -8.9525671 -72.882782 -8.9515657 -73.491371 -0.21795991 -90.298584
9205750000 -0.92034405 124.60883 -8.9491835 -72.796196 -8.944972 -73.388351 -0.21527445 -90.272797
9205812500 -0.91757661 124.57186 -8.9364481 -72.850967 -8.9431391 -73.452568 -0.21322905 -90.238701
9205875000 -0.91424066 124.59694 -8.9442234 -72.850067 -8.940361 -73.489006 -0.2107202 -90.289604
9205937500 -0.91767913 124.58406 -8.9456434 -72.797028 -8.9454975 -73.464149 -0.21730389 -90.252556
9206000000 -0.91616797 124.56537 -8.9523544 -72.883675 -8.9435472 -73.430405 -0.22294562 -90.173965
9206062500 -0.91450298 124.54166 -8.9490576 -72.790665 -8.9341736 -73.382683 -0.21708924 -90.160675
9206125000 -0.91739893 124.57414 -8.9476442 -72.840797 -8.9422894 -73.428825 -0.22063953 -90.157021
9206187500 -0.91339713 124.54698 -8.9429369 -72.820572 -8.9337158 -73.438385 -0.22215991 -90.135338
9206250000 -0.91238403 124.53687 -8.9468946 -72.829407 -8.9391479 -73.496002 -0.22142693 -90.148209
9206312500 -0.91468775 124.52759 -8.9429159 -72.782028 -8.9316654 -73.46138 -0.21988495 -90.098999
9206375000 -0.91727751 124.51606 -8.9363117 -72.792885 -8.9319696 -73.468536 -0.21665752 -90.071266
9206437500 -0.91296858 124.52946 -8.9399471 -72.817734 -8.9299421 -73.475037 -0.21474454 -90.05674
9206500000 -0.91924405 124.4706 -8.9309559 -72.749062 -8.9297724 -73.463356 -0.20889196 -90.072861
9206562500 -0.91698229 124.4799 -8.939352 -72.793449 -8.9163589 -73.483429 -0.20604946 -90.045113
9206625000 -0.9185406 124.45632 -8.9329062 -72.796371 -8.9169865 -73.455269 -0.20499425 -90.01564
9206687500 -0.91960084 124.46352 -8.9320154 -72.781685 -8.9122715 -73.443123 -0.20335846 -89.981926
9206750000 -0.91934693 124.40141 -8.9221792 -72.772911 -8.9074278 -73.446091 -0.19731563 -89.931602
9206812500 -0.9196294 124.42104 -8.923069 -72.747078 -8.9165878 -73.493561 -0.20983574 -89.961464
9206875000 -0.92038393 124.39366 -8.9284639 -72.817055 -8.911953 -73.428268 -0.2068108 -89.894012
9206937500 -0.91615689 124.36425 -8.9202499 -72.767342 -8.9220448 -73.44767 -0.21186258 -89.853317
9207000000 -0.9184947 124.3343 -8.9278402 -72.786209 -8.9174118 -73.374985 -0.21506521 -89.845131
9207062500 -0.91134393 124.31275 -8.9213152 -72.803856 -8.9204416 -73.433937 -0.2159591 -89.898842
9207125000 -0.91386068 124.33384 -8.9341879 -72.842529 -8.925786 -73.410477 -0.22231129 -89.88913
9207187500 -0.91244942 124.28711 -8.9303322 -72.822258 -8.930768 -73.41188 -0.22250883 -89.810219
9207250000 -0.91289705 124.26831 -8.9369593 -72.809578 -8.9174967 -73.436523 -0.22063342 -89.837326
9207312500 -0.91945243 124.22266 -8.9302359 -72.842049 -8.9133606 -73.368378 -0.21510138 -89.803123
9207375000 -0.91369236 124.22001 -8.9235144 -72.874031 -8.9134951 -73.434425 -0.22130086 -89.863953
9207437500 -0.91264337 124.22871 -8.9283895 -72.815643 -8.9147148 -73.424789 -0.22251438 -89.791512
9207500000 -0.91436446 124.17947 -8.9251499 -72.77285 -8.9194975 -73.428886 -0.22594549 -89.805908
9207562500 -0.91699839 124.17017 -8.9238758 -72.834824 -8.9260321 -73.422081 -0.23039506 -89.807663
9207625000 -0.92090172 124.16537 -8.9246216 -72.806473 -8.9123659 -73.395393 -0.22338213 -89.754898
9207687500 -0.92135322 124.13086 -8.9253559 -72.81176 -8.9117088 -73.408928 -0.21516405 -89.718498
9207750000 -0.92139202 124.11779 -8.9192276 -72.835434 -8.9087849 -73.455818 -0.20905501 -89.781792
9207812500 -0.91869634 124.13374 -8.9187212 -72.727982 -8.9046926 -73.440102 -0.20815308 -89.735497
9207875000 -0.9201467 124.16377 -8.9199381 -72.756386 -8.9071302 -73.411995 -0.21135469 -89.68911
9207937500 -0.92075723 124.11976 -8.922368 -72.772079 -8.9188948 -73.427284 -0.21229199 -89.64843
9208000000 -0.92125118 124.09878 -8.9167728 -72.802208 -8.9175043 -73.439705 -0.2108198 -89.632195
9208062500 -0.92046976 124.10934 -8.9170599 -72.744011 -8.9116011 -73.433281 -0.20718548 -89.593956
9208125000 -0.92132294 124.10879 -8.917161 -72.776474 -8.9103527 -73.479424 -0.21947277 -89.631859
9208187500 -0.92106742 124.05724 -8.9231205 -72.759651 -8.9119787 -73.401482 -0.22001156 -89.553375
9208250000 -0.9198119 124.07323 -8.9230947 -72.736656 -8.9114075 -73.353592 -0.22334735 -89.526611
9208312500 -0.91891915 124.0591 -8.9226952 -72.767174 -8.9103985 -73.369766 -0.22793385 -89.534561
9208375000 -0.91548419 124.03778 -8.915843 -72.751389 -8.9179668 -73.379967 -0.2294479 -89.507462
9208437500 -0.91823483 124.03481 -8.9243784 -72.728767 -8.9061069 -73.402618 -0.22996792 -89.56012
9208500000 -0.91369796 124.00721 -8.9030552 -72.745911 -8.9140682 -73.352814 -0.22504622 -89.452904
9208562500 -0.91826957 123.99075 -8.9121103 -72.75119 -8.9078722 -73.352058 -0.22754696 -89.462112
9208625000 -0.92058951 123.95364 -8.9173584 -72.811867 -8.9028492 -73.420807 -0.22313319 -89.46447
9208687500 -0.91561961 123.94405 -8.9078388 -72.802505 -8.8990746 -73.407692 -0.22028141 -89.486549
9208750000 -0.91595888 123.93498 -8.9068174 -72.839478 -8.9043427 -73.350647 -0.22212292 -89.38559
9208812500 -0.91893327 123.93498 -8.9131775 -72.81855 -8.89925 -73.391022 -0.22076049 -89.471581
9208875000 -0.91917413 123.90533 -8.9103079 -72.775711 -8.8950071 -73.41478 -0.21786962 -89.426636
9208937500 -0.9228881 123.95131 -8.9142218 -72.754265 -8.9006281 -73.430054 -0.22523038 -89.431519
9209000000 -0.91602659 123.95369 -8.9115715 -72.751587 -8.897254 -73.401833 -0.22059985 -89.407646
9209062500 -0.91709656 123.973 -8.9103489 -72.719162 -8.9021616 -73.387474 -0.22432807 -89.382347
9209125000 -0.9207437 123.9225 -8.9101238 -72.734322 -8.9049263 -73.374863 -0.22348534 -89.395065
9209187500 -0.91837174 123.90624 -8.9043379 -72.748001 -8.9106035 -73.359009 -0.22945838 -89.325851
9209250000 -0.920012 123.90396 -8.9019499 -72.72654 -8.9028807 -73.369759 -0.2275923 -89.316216
9209312500 -0.91610235 123.85555 -8.9014044 -72.685616 -8.9102468 -73.317886 -0.22475784 -89.287788
9209375000 -0.91873693 123.8372 -8.9051638 -72.784187 -8.8947535 -73.347298 -0.22176796 -89.275185
9209437500 -0.9195053 123.80817 -8.8995113 -72.763748 -8.898509 -73.35791 -0.22322203 -89.248627
9209500000 -0.91896015 123.80727 -8.9082088 -72.750923 -8.9133396 -73.357765 -0.23194303 -89.207733
9209562500 -0.92221206 123.79147 -8.9019442 -72.787064 -8.8996687 -73.355156 -0.22896948 -89.209358
9209625000 -0.92475331 123.79441 -8.906045 -72.767876 -8.900136 -73.345375 -0.22549693 -89.21405
9209687500 -0.91855288 123.76882 -8.9006042 -72.763329 -8.898818 -73.353966 -0.21991247 -89.164879
9209750000 -0.9254235 123.75633 -8.9009323 -72.768616 -8.8954077 -73.36824 -0.22637881 -89.142792
9209812500 -0.91823661 123.72635 -8.8971987 -72.826698 -8.8921108 -73.345619 -0.21916811 -89.131714
9209875000 -0.91941959 123.72042 -8.904254 -72.852142 -8.8959074 -73.350334 -0.22110631 -89.064209
9209937500 -0.91997766 123.72567 -8.8966131 -72.750931 -8.8932371 -73.361229 -0.22169006 -89.096954
9210000000 -0.92159706 123.70885 -8.9018335 -72.73851 -8.889966 -73.357376 -0.22108443 -89.077995
9210062500 -0.91882622 123.68786 -8.9005804 -72.811707 -8.8845596 -73.303558 -0.21566483 -89.062035
9210125000 -0.91493076 123.66747 -8.8917437 -72.71801 -8.8830557 -73.269424 -0.21888635 -88.982788
9210187500 -0.91352516 123.66462 -8.8960295 -72.692986 -8.8959427 -73.300072 -0.22413556 -89.015541
9210250000 -0.91724318 123.66882 -8.9019337 -72.730591 -8.8854246 -73.244072 -0.21830855 -88.966522
9210312500 -0.91588432 123.6303 -8.8938942 -72.718086 -8.8821955 -73.325867 -0.22277372 -88.96537
9210375000 -0.91701388 123.58779 -8.8939342 -72.788231 -8.8814583 -73.243439 -0.22199206 -88.933014
9210437500 -0.91444761 123.58843 -8.8900108 -72.701363 -8.8799562 -73.278145 -0.22658034 -88.922905
9210500000 -0.91540271 123.59554 -8.8927813 -72.699913 -8.8916912 -73.296043 -0.2303568 -88.893242
9210562500 -0.91234225 123.57782 -8.8980494 -72.709114 -8.8854904 -73.264107 -0.22866948 -88.912735
9210625000 -0.91002393 123.5499 -8.8954058 -72.651817 -8.8919468 -73.30043 -0.2301355 -88.882004
9210687500 -0.91000563 123.53334 -8.8905945 -72.666321 -8.8794785 -73.332237 -0.23062687 -88.90435
9210750000 -0.91403496 123.5234 -8.9031715 -72.740135 -8.8920622 -73.324501 -0.23994564 -88.86866
9210812500 -0.91728413 123.4779 -8.891098 -72.70948 -8.8878813 -73.2714 -0.23369989 -88.811607
9210875000 -0.91193223 123.456 -8.8926287 -72.700195 -8.8892927 -73.272377 -0.23662074 -88.799629
9210937500 -0.91609472 123.44159 -8.8925381 -72.661804 -8.8772898 -73.334343 -0.2286814 -88.839005
9211000000 -0.92214346 123.44621 -8.8983698 -72.750862 -8.8834925 -73.343315 -0.23785959 -88.778366
9211062500 -0.92470139 123.43402 -8.8934336 -72.730705 -8.8829689 -73.329338 -0.23233292 -88.806381
9211125000 -0.92307246 123.43382 -8.8930626 -72.711708 -8.8817806 -73.355423 -0.22964317 -88.811119
9211187500 -0.92451251 123.43715 -8.8878679 -72.74765 -8.8750172 -73.296104 -0.22417845 -88.838112
9211250000 -0.92077821 123.4328 -8.8882055 -72.76416 -8.8750553 -73.374153 -0.22245628 -88.820221
9211312500 -0.92599553 123.42377 -8.8871975 -72.729645 -8.87535 -73.337311 -0.22400229 -88.833366
9211375000 -0.92191792 123.42088 -8.8893127 -72.752747 -8.8813772 -73.344482 -0.2249447 -88.71344
9211437500 -0.92214757 123.39024 -8.8859959 -72.756523 -8.8758278 -73.30526 -0.22648126 -88.695473
9211500000 -0.92111647 123.3951 -8.8825512 -72.732712 -8.8759956 -73.297554 -0.22672144 -88.663048
9211562500 -0.9184866 123.39072 -8.8792744 -72.721436 -8.8773804 -73.298897 -0.22999157 -88.672684
9211625000 -0.92406201 123.34759 -8.8904209 -72.725586 -8.8784275 -73.313744 -0.2358419 -88.6875
9211687500 -0.92340994 123.36981 -8.8809652 -72.710175 -8.8728065 -73.298508 -0.2357793 -88.644592
9211750000 -0.91954291 123.29602 -8.873579 -72.707436 -8.8689661 -73.279739 -0.23424231 -88.644341
9211812500 -0.92432028 123.28767 -8.8841028 -72.679993 -8.8750887 -73.222542 -0.23315677 -88.557762
9211875000 -0.92639762 123.28942 -8.8784399 -72.660469 -8.8784237 -73.32917 -0.23728554 -88.604301
9211937500 -0.92482448 123.23429 -8.8804464 -72.690437 -8.8806276 -73.222404 -0.23304819 -88.534927
9212000000 -0.9272902 123.22498 -8.8782387 -72.67495 -8.8757114 -73.274521 -0.23537791 -88.518532
9212062500 -0.923944 123.20171 -8.8771362 -72.683853 -8.8685627 -73.258568 -0.23796506 -88.45359
9212125000 -0.92557502 123.16843 -8.867341 -72.731293 -8.8653851 -73.222282 -0.22741273 -88.436119
9212187500 -0.9226253 123.16673 -8.8782425 -72.689041 -8.8659506 -73.221863 -0.23555051 -88.393929
