!Agilent Technologies,N5242A,MY51221714,A.09.90.19
!Agilent N5242A: A.09.90.19
!Date: Saturday, March 16, 2024 09:43:16
!Correction: S11(Full 2 Port(1,2)) 
!S21(Full 2 Port(1,2)) 
!S12(Full 2 Port(1,2)) 
!S22(Full 2 Port(1,2)) 
!S2P File: Measurements: S11, S21, S12, S22:
# Hz S  dB   R 50
9200000000 -0.94405079 125.46243 -8.9304628 -73.512581 -8.9151249 -74.179955 -0.23070754 -92.061264
9200062500 -0.94839156 125.45671 -8.9453173 -73.478905 -8.9215212 -74.184998 -0.23415731 -92.039474
9200125000 -0.94739223 125.44482 -8.9379559 -73.573341 -8.9179325 -74.184196 -0.23017766 -92.028244
9200187500 -0.94787341 125.43164 -8.9293251 -73.623543 -8.9200916 -74.214859 -0.23742314 -92.028267
9200250000 -0.94765818 125.43015 -8.9345951 -73.518257 -8.9189224 -74.172707 -0.23103352 -91.987427
9200312500 -0.94247746 125.39479 -8.9368258 -73.559509 -8.9182234 -74.202583 -0.23873678 -91.946457
9200375000 -0.94269347 125.41109 -8.9317436 -73.58609 -8.9109859 -74.23175 -0.22975521 -91.99025
9200437500 -0.94000185 125.38062 -8.930604 -73.582008 -8.9098549 -74.200882 -0.23838107 -91.921295
9200500000 -0.93954962 125.37733 -8.9276237 -73.554665 -8.9065065 -74.194542 -0.24033995 -91.944534
9200562500 -0.93891972 125.34544 -8.9282084 -73.559784 -8.9063721 -74.186333 -0.23813386 -91.91188
9200625000 -0.94174039 125.34245 -8.9228497 -73.557106 -8.9043779 -74.207939 -0.24075182 -91.871513
9200687500 -0.94029874 125.34486 -8.924633 -73.480789 -8.9065571 -74.110733 -0.24591966 -91.829414
9200750000 -0.94714731 125.31806 -8.9329128 -73.504051 -8.9122982 -74.146164 -0.25150383 -91.800522
9200812500 -0.94688475 125.32561 -8.9369192 -73.463158 -8.888649 -74.201004 -0.24028097 -91.835281
9200875000 -0.95104313 125.28963 -8.9342461 -73.458473 -8.9009247 -74.156296 -0.24307428 -91.769775
9200937500 -0.94431585 125.30015 -8.9235802 -73.467888 -8.8979778 -74.200539 -0.24559277 -91.763802
9201000000 -0.93989033 125.30137 -8.9214458 -73.502716 -8.9047346 -74.136581 -0.23909245 -91.738235
9201062500 -0.93542469 125.23918 -8.919734 -73.503548 -8.9091806 -74.094444 -0.24267516 -91.671082
9201125000 -0.94049537 125.25742 -8.9143848 -73.492805 -8.8961811 -74.155533 -0.23374622 -91.699242
9201187500 -0.94284898 125.23448 -8.9230623 -73.485962 -8.9001818 -74.089691 -0.23831521 -91.644882
9201250000 -0.94189316 125.19646 -8.9117193 -73.486923 -8.8971109 -74.113518 -0.23747584 -91.669502
9201312500 -0.93811101 125.15143 -8.9179258 -73.553566 -8.9082632 -74.204422 -0.24720766 -91.710892
9201375000 -0.94028765 125.17965 -8.9159298 -73.567444 -8.8987789 -74.146255 -0.23606275 -91.659218
9201437500 -0.94578087 125.18974 -8.9207745 -73.468849 -8.9026632 -74.173309 -0.24419177 -91.686287
9201500000 -0.94280088 125.14681 -8.9204292 -73.559639 -8.9034081 -74.122421 -0.23779425 -91.656776
9201562500 -0.9426145 125.17222 -8.9179611 -73.48278 -8.898922 -74.075523 -0.2430696 -91.589294
9201625000 -0.94723713 125.14501 -8.9205427 -73.482796 -8.9030809 -74.133667 -0.2408469 -91.616867
9201687500 -0.94669932 125.10778 -8.9210873 -73.563171 -8.8954306 -74.121498 -0.23635514 -91.603828
9201750000 -0.94429886 125.10221 -8.9130459 -73.540596 -8.9043446 -74.114113 -0.24130739 -91.593826
9201812500 -0.93688023 125.09806 -8.9199581 -73.502533 -8.8937445 -74.093056 -0.24656282 -91.504128
9201875000 -0.93870485 125.02882 -8.9063063 -73.508163 -8.8910885 -74.090981 -0.23790804 -91.548241
9201937500 -0.94163734 125.04712 -8.9080811 -73.487427 -8.8922138 -74.194328 -0.23943016 -91.550278
9202000000 -0.94439 125.03445 -8.9165421 -73.516129 -8.8852673 -74.140724 -0.24193783 -91.494965
9202062500 -0.94310331 124.99125 -8.9143076 -73.463158 -8.8966799 -74.104927 -0.2410766 -91.456146
9202125000 -0.94329256 124.95984 -8.8976393 -73.532806 -8.886611 -74.088333 -0.23239516 -91.472549
9202187500 -0.94344413 125.01717 -8.9084463 -73.471222 -8.8954868 -74.14521 -0.24226524 -91.439575
9202250000 -0.94571859 124.98543 -8.906395 -73.476883 -8.8938313 -74.147232 -0.24113254 -91.449768
9202312500 -0.94193351 124.96211 -8.8969536 -73.489723 -8.8857479 -74.169876 -0.2319283 -91.413307
9202375000 -0.94466805 124.9667 -8.8981218 -73.499336 -8.9039431 -74.116745 -0.24695422 -91.344604
9202437500 -0.94702238 124.96106 -8.9073753 -73.53405 -8.8994894 -74.182518 -0.24547945 -91.396629
9202500000 -0.94848627 124.94419 -8.9084635 -73.512772 -8.8864079 -74.15168 -0.24669917 -91.398003
9202562500 -0.95078766 124.9233 -8.9030943 -73.540649 -8.8922892 -74.12561 -0.24914061 -91.322083
9202625000 -0.94870907 124.88852 -8.9091825 -73.492661 -8.893548 -74.124527 -0.25013378 -91.306679
9202687500 -0.94651383 124.88751 -8.9030676 -73.512054 -8.8965712 -74.080994 -0.25022411 -91.25679
9202750000 -0.94304729 124.88048 -8.9029007 -73.495834 -8.8907595 -74.139023 -0.2519215 -91.323097
9202812500 -0.94377244 124.83559 -8.9048233 -73.558838 -8.8940468 -74.15728 -0.24983764 -91.285805
9202875000 -0.94404656 124.82428 -8.9002972 -73.458702 -8.8865042 -74.136536 -0.24551578 -91.243652
9202937500 -0.93959731 124.82883 -8.9003124 -73.522018 -8.8871641 -74.105972 -0.24706383 -91.235718
9203000000 -0.94231182 124.85774 -8.9032707 -73.417488 -8.8869333 -74.093903 -0.25162977 -91.165108
9203062500 -0.94171053 124.79677 -8.8979101 -73.484749 -8.885828 -74.163025 -0.25269505 -91.190369
9203125000 -0.94141006 124.74799 -8.8891649 -73.509666 -8.8790932 -74.10862 -0.24444102 -91.160217
9203187500 -0.94283003 124.76786 -8.8991451 -73.515297 -8.8763428 -74.066307 -0.24686787 -91.109138
9203250000 -0.94791406 124.75198 -8.9058962 -73.508057 -8.8786049 -74.141678 -0.24630146 -91.138199
9203312500 -0.94949305 124.71709 -8.8981552 -73.480042 -8.8881464 -74.096504 -0.25270349 -91.087082
9203375000 -0.93873757 124.76292 -8.8930149 -73.414558 -8.8778591 -74.111389 -0.24387909 -91.109695
9203437500 -0.94733238 124.71986 -8.8942175 -73.509453 -8.8836746 -74.094193 -0.24514024 -91.096581
9203500000 -0.94079524 124.71333 -8.8983431 -73.447876 -8.8838892 -74.161362 -0.24437274 -91.069824
9203562500 -0.94177514 124.68098 -8.8973656 -73.528992 -8.8871222 -74.124451 -0.25023386 -91.037262
9203625000 -0.94068724 124.65083 -8.9003868 -73.549736 -8.8776236 -74.058701 -0.24834199 -90.995712
9203687500 -0.94316959 124.6736 -8.8929348 -73.493393 -8.8776407 -74.108444 -0.25370067 -90.976265
9203750000 -0.93791461 124.63456 -8.8882608 -73.486115 -8.895874 -74.017097 -0.26335999 -90.94632
9203812500 -0.94634867 124.63747 -8.8958759 -73.46859 -8.8852711 -74.06002 -0.25624892 -90.941582
9203875000 -0.94136542 124.61459 -8.8896818 -73.507591 -8.8819084 -74.119278 -0.25951421 -90.967407
9203937500 -0.9418937 124.58926 -8.8898735 -73.467499 -8.867094 -74.049004 -0.2567659 -90.925957
9204000000 -0.94078243 124.61372 -8.8885632 -73.448021 -8.8740139 -74.091629 -0.26159525 -90.94841
9204062500 -0.93855357 124.57912 -8.8943043 -73.443588 -8.8735819 -74.080986 -0.26071286 -90.904358
9204125000 -0.93907446 124.55695 -8.8958435 -73.457306 -8.8702841 -74.06739 -0.26337004 -90.883308
9204187500 -0.93761772 124.54504 -8.8986435 -73.493248 -8.8679085 -74.107971 -0.26127592 -90.888344
9204250000 -0.93704039 124.5312 -8.9009733 -73.426933 -8.8649073 -74.075127 -0.25781626 -90.864655
9204312500 -0.93805784 124.51245 -8.894125 -73.480782 -8.8716583 -74.047707 -0.26175854 -90.861031
9204375000 -0.93629789 124.4759 -8.8856134 -73.426605 -8.8570719 -74.110664 -0.25233909 -90.856239
9204437500 -0.93528247 124.49083 -8.889226 -73.44854 -8.8595343 -74.064629 -0.25050148 -90.803017
9204500000 -0.93169492 124.48959 -8.8862963 -73.390915 -8.8686066 -74.07402 -0.25237724 -90.782593
9204562500 -0.93527955 124.45114 -8.877636 -73.48053 -8.8659334 -74.078316 -0.25001544 -90.763168
9204625000 -0.93186039 124.42255 -8.8708687 -73.424301 -8.8686829 -74.056274 -0.24847503 -90.723335
9204687500 -0.94218439 124.44888 -8.8922501 -73.369202 -8.8729191 -74.061005 -0.25884131 -90.72525
9204750000 -0.94063073 124.42448 -8.884944 -73.423927 -8.8724508 -74.087334 -0.25888225 -90.713539
9204812500 -0.93852586 124.42191 -8.8831072 -73.503433 -8.8563833 -74.083664 -0.25552043 -90.694534
9204875000 -0.94337475 124.42518 -8.8948174 -73.395164 -8.8636084 -74.048035 -0.25332215 -90.680229
9204937500 -0.93939322 124.42034 -8.8811445 -73.402893 -8.8602295 -74.064217 -0.25373524 -90.669212
9205000000 -0.94202656 124.39893 -8.8816538 -73.409691 -8.8575096 -74.029449 -0.24976915 -90.63662
9205062500 -0.94457382 124.38966 -8.879034 -73.392967 -8.8597088 -74.069122 -0.25110838 -90.644447
9205125000 -0.94494259 124.33705 -8.8736687 -73.459023 -8.8587198 -74.075287 -0.24614006 -90.686546
9205187500 -0.94327635 124.30859 -8.8764 -73.412148 -8.8644323 -74.068123 -0.25518808 -90.593224
9205250000 -0.93940783 124.28903 -8.863307 -73.426941 -8.8684225 -74.065468 -0.25665185 -90.574898
9205312500 -0.9413051 124.2512 -8.8689709 -73.400124 -8.8631887 -74.061241 -0.24566616 -90.597748
9205375000 -0.94723547 124.27241 -8.8731785 -73.384247 -8.8638077 -74.073204 -0.24718787 -90.559883
9205437500 -0.94463664 124.24959 -8.8683443 -73.40052 -8.8619671 -74.112938 -0.25260651 -90.555168
9205500000 -0.94753754 124.21845 -8.8717699 -73.402832 -8.8655424 -74.055908 -0.25027835 -90.53199
9205562500 -0.94964314 124.22953 -8.8751917 -73.380455 -8.8597031 -74.075645 -0.25045916 -90.520386
9205625000 -0.94424099 124.24024 -8.8736401 -73.389786 -8.8608112 -74.029846 -0.25246799 -90.488319
9205687500 -0.94485861 124.23629 -8.8706617 -73.440956 -8.8634624 -74.047707 -0.25663844 -90.522041
9205750000 -0.93907762 124.20168 -8.8778896 -73.418671 -8.8688726 -74.036461 -0.25837636 -90.45932
9205812500 -0.94148648 124.18149 -8.8640776 -73.397728 -8.8539305 -74.055237 -0.25429708 -90.486565
9205875000 -0.93892086 124.17206 -8.8691835 -73.429512 -8.8656502 -73.990959 -0.25681511 -90.43425
9205937500 -0.93945962 124.16632 -8.8684483 -73.420929 -8.869935 -74.029984 -0.2631951 -90.387367
9206000000 -0.9405154 124.12944 -8.8660336 -73.382355 -8.8701868 -73.982117 -0.2629711 -90.341255
9206062500 -0.94179368 124.17188 -8.8761024 -73.361809 -8.8696518 -74.023148 -0.26318094 -90.300926
9206125000 -0.93975657 124.14281 -8.8639545 -73.439232 -8.8529911 -73.993935 -0.25382057 -90.301323
9206187500 -0.93715876 124.08221 -8.8677483 -73.376869 -8.8566151 -74.000137 -0.25178751 -90.335648
9206250000 -0.94322151 124.1257 -8.8744078 -73.296852 -8.8604298 -73.991364 -0.26374125 -90.277985
9206312500 -0.93613201 124.1189 -8.8596907 -73.381981 -8.8495417 -74.082474 -0.25456107 -90.320137
9206375000 -0.94424498 124.07632 -8.8558674 -73.370293 -8.8458176 -74.027977 -0.25425905 -90.296944
9206437500 -0.9376747 124.09588 -8.8580084 -73.341454 -8.8469439 -74.024788 -0.2513974 -90.233765
9206500000 -0.93650138 124.10568 -8.8492384 -73.278381 -8.8407125 -73.999832 -0.24789277 -90.203888
9206562500 -0.94784385 124.06651 -8.859128 -73.347794 -8.8416243 -74.031769 -0.24940777 -90.200218
9206625000 -0.94066417 124.05221 -8.8564644 -73.363838 -8.8420496 -74.053474 -0.24815568 -90.199364
9206687500 -0.94715923 124.03408 -8.8599243 -73.343941 -8.8373795 -74.032387 -0.24587986 -90.168228
9206750000 -0.94890958 124.03266 -8.8448963 -73.345673 -8.835103 -73.955002 -0.24302961 -90.096062
9206812500 -0.94625354 124.01134 -8.8569336 -73.350769 -8.8390942 -73.973686 -0.24805771 -90.093307
9206875000 -0.94370717 123.96994 -8.852026 -73.3517 -8.8411484 -73.994713 -0.24965525 -90.045082
9206937500 -0.94449049 123.94548 -8.8557692 -73.375687 -8.8440952 -73.998222 -0.25277352 -90.068581
9207000000 -0.94082731 123.95831 -8.841032 -73.319565 -8.8416166 -74.025688 -0.25575614 -90.074554
9207062500 -0.94201928 123.94045 -8.8461933 -73.374352 -8.841548 -74.052086 -0.25617269 -90.073891
9207125000 -0.93476218 123.89136 -8.8446198 -73.335167 -8.8548594 -73.975464 -0.26660091 -90.049599
9207187500 -0.93552923 123.8726 -8.8551893 -73.36795 -8.8425589 -73.997009 -0.26401618 -90.037178
9207250000 -0.93540227 123.84809 -8.8542862 -73.394318 -8.8436966 -73.965767 -0.26472703 -89.975159
9207312500 -0.93473053 123.83931 -8.8550034 -73.375977 -8.8413992 -74.012337 -0.258203 -90.011566
9207375000 -0.93964028 123.8156 -8.8463945 -73.414009 -8.8468723 -74.040634 -0.26793087 -89.997238
9207437500 -0.93846107 123.78479 -8.8503513 -73.413971 -8.8424492 -73.972839 -0.2670131 -90.001854
9207500000 -0.94272596 123.77986 -8.8506975 -73.374413 -8.8366499 -73.981857 -0.26456064 -89.969559
9207562500 -0.94001848 123.74034 -8.8465729 -73.398712 -8.8330126 -74.032425 -0.27059647 -89.986633
9207625000 -0.93950349 123.73618 -8.8413754 -73.430496 -8.8418484 -73.96624 -0.26464322 -89.974861
9207687500 -0.93939412 123.73425 -8.8407507 -73.411987 -8.8379974 -74.031967 -0.26564246 -89.9487
9207750000 -0.94248199 123.74415 -8.8490152 -73.37133 -8.8333397 -74.010544 -0.2592558 -89.916023
9207812500 -0.94744241 123.69669 -8.8399191 -73.411575 -8.8282757 -73.984344 -0.24642348 -89.873703
9207875000 -0.94702172 123.7334 -8.8419571 -73.3871 -8.8303728 -74.044945 -0.25066289 -89.863922
9207937500 -0.94806015 123.7324 -8.8387394 -73.338463 -8.8348408 -74.049522 -0.24860339 -89.844147
9208000000 -0.9420675 123.72646 -8.8409081 -73.390976 -8.8309002 -74.039291 -0.25093874 -89.824646
9208062500 -0.94639796 123.69994 -8.8469219 -73.316017 -8.8333378 -74.043915 -0.2606298 -89.77301
9208125000 -0.94336981 123.70105 -8.8435631 -73.364746 -8.8313618 -73.975807 -0.26009256 -89.738289
9208187500 -0.94701058 123.68974 -8.8406324 -73.29303 -8.826829 -73.929131 -0.26121402 -89.729263
9208250000 -0.94488609 123.65892 -8.8433609 -73.350204 -8.8344355 -74.001839 -0.2621507 -89.759712
9208312500 -0.94601572 123.65482 -8.8516254 -73.308662 -8.8299274 -73.943642 -0.26599342 -89.708176
9208375000 -0.94207293 123.66327 -8.8352976 -73.3433 -8.83675 -73.982246 -0.27087519 -89.72039
9208437500 -0.94259346 123.61901 -8.8407984 -73.346352 -8.8308821 -73.940422 -0.26634917 -89.680084
9208500000 -0.9428876 123.61165 -8.8411331 -73.354378 -8.8256531 -73.970314 -0.26308322 -89.676384
9208562500 -0.94187796 123.59978 -8.8348274 -73.33432 -8.8295355 -73.950264 -0.26345465 -89.664749
9208625000 -0.94244164 123.54745 -8.8340206 -73.342316 -8.8255281 -73.959053 -0.25824988 -89.651978
9208687500 -0.94153476 123.51168 -8.836319 -73.41613 -8.8236361 -74.02607 -0.26022989 -89.660156
9208750000 -0.94413972 123.51221 -8.8347626 -73.372841 -8.8284779 -73.998146 -0.26265281 -89.657303
9208812500 -0.94610488 123.47609 -8.8331203 -73.378777 -8.8232679 -73.938972 -0.26378366 -89.582977
9208875000 -0.94220746 123.52746 -8.8261271 -73.37188 -8.8234711 -73.964859 -0.26198733 -89.647911
9208937500 -0.94357228 123.52576 -8.8253536 -73.298523 -8.8270397 -73.983421 -0.26523691 -89.595123
9209000000 -0.94359505 123.53066 -8.8257437 -73.329971 -8.8206167 -73.966034 -0.26754546 -89.596786
9209062500 -0.94881409 123.52666 -8.8320618 -73.366737 -8.8266315 -73.960464 -0.26331422 -89.5895
9209125000 -0.94453901 123.5463 -8.8267546 -73.294868 -8.8197613 -73.951004 -0.25779369 -89.527077
9209187500 -0.9462052 123.51243 -8.8261185 -73.327591 -8.82973 -73.967484 -0.26268214 -89.542351
9209250000 -0.94246483 123.51923 -8.8282375 -73.309502 -8.830677 -73.86644 -0.26616293 -89.456337
9209312500 -0.94552523 123.48524 -8.8267937 -73.38221 -8.827239 -73.929047 -0.27353218 -89.450058
9209375000 -0.94152439 123.45015 -8.8183117 -73.355507 -8.8186626 -73.887306 -0.26517493 -89.401291
9209437500 -0.93604863 123.39964 -8.8123226 -73.339149 -8.8313246 -73.999344 -0.26887083 -89.436844
9209500000 -0.93991435 123.40342 -8.8137646 -73.294167 -8.823144 -73.904678 -0.26920909 -89.374817
9209562500 -0.94322914 123.39249 -8.8229589 -73.309189 -8.8225536 -73.87883 -0.26225731 -89.379898
9209625000 -0.94848293 123.33867 -8.8159332 -73.424408 -8.8095655 -73.923927 -0.26233804 -89.361076
9209687500 -0.94745684 123.34647 -8.8286943 -73.358444 -8.8197775 -73.900673 -0.26241389 -89.329697
9209750000 -0.94215322 123.36245 -8.8292961 -73.30764 -8.8136168 -73.936569 -0.25881571 -89.331459
9209812500 -0.94516402 123.34853 -8.8172588 -73.329277 -8.8064337 -73.922066 -0.25857055 -89.321693
9209875000 -0.94701892 123.31232 -8.8274145 -73.384995 -8.808363 -73.905304 -0.25639221 -89.294502
9209937500 -0.94905782 123.28329 -8.8242998 -73.400375 -8.81003 -73.97068 -0.2623542 -89.321365
9210000000 -0.94112897 123.2531 -8.8104162 -73.331116 -8.8011417 -73.922852 -0.25621748 -89.276817
9210062500 -0.94330329 123.26608 -8.8224974 -73.336647 -8.8101139 -73.908417 -0.26028192 -89.233269
9210125000 -0.94296998 123.25171 -8.8205481 -73.358879 -8.8015184 -73.890289 -0.25835842 -89.234123
9210187500 -0.93888539 123.24582 -8.8198938 -73.323647 -8.807395 -73.870331 -0.25743076 -89.200836
9210250000 -0.93852967 123.24634 -8.8147678 -73.296951 -8.8064642 -73.885574 -0.25878999 -89.213875
9210312500 -0.9355346 123.22857 -8.8094921 -73.284485 -8.8084173 -73.8228 -0.26480407 -89.097633
9210375000 -0.94075519 123.20509 -8.8175726 -73.304344 -8.8167315 -73.818771 -0.26677954 -89.126091
9210437500 -0.94266576 123.19683 -8.8262367 -73.297279 -8.8073702 -73.866928 -0.26456925 -89.162109
9210500000 -0.93529356 123.14241 -8.8103695 -73.330917 -8.8033571 -73.874802 -0.26493362 -89.104294
9210562500 -0.94097775 123.18088 -8.8315334 -73.326477 -8.8139048 -73.892838 -0.2697984 -89.093681
9210625000 -0.93437988 123.15765 -8.8188 -73.25779 -8.8133888 -73.871628 -0.27480575 -89.091949
9210687500 -0.93625444 123.10207 -8.8160019 -73.296761 -8.818347 -73.860786 -0.28100467 -89.049973
9210750000 -0.93846554 123.09184 -8.8159218 -73.312363 -8.8026199 -73.933411 -0.27826983 -89.079918
9210812500 -0.94101119 123.09599 -8.8210182 -73.261612 -8.8017788 -73.880394 -0.26676142 -89.005577
9210875000 -0.93250215 123.04825 -8.8081141 -73.300262 -8.7979441 -73.926003 -0.27343297 -89.047058
9210937500 -0.94471973 123.01785 -8.811697 -73.31752 -8.8024778 -73.867256 -0.27159578 -88.975471
9211000000 -0.94246572 123.01476 -8.8038292 -73.286919 -8.8073673 -73.919601 -0.27195552 -88.972977
9211062500 -0.94596028 123.0241 -8.8105669 -73.27832 -8.7997065 -73.933525 -0.26782829 -89.000908
9211125000 -0.94628388 123.02437 -8.8110914 -73.300331 -8.8022137 -73.913322 -0.27119321 -89.011063
9211187500 -0.94962949 123.04895 -8.8082504 -73.272308 -8.8043966 -73.940224 -0.26759762 -88.974403
9211250000 -0.94649547 122.9929 -8.8091116 -73.305611 -8.8027468 -73.948341 -0.27053505 -89.027939
9211312500 -0.94800782 123.00563 -8.803731 -73.285294 -8.7948751 -73.933083 -0.26472867 -88.988777
9211375000 -0.95244515 123.01154 -8.8042097 -73.303589 -8.798213 -73.950134 -0.2630752 -88.88633
9211437500 -0.94392514 122.99597 -8.808013 -73.317413 -8.7958546 -73.875404 -0.2702302 -88.856781
9211500000 -0.95355833 122.99597 -8.8079481 -73.287567 -8.7977009 -73.89061 -0.27261761 -88.86097
9211562500 -0.94521827 122.95645 -8.8096771 -73.328888 -8.7945805 -73.883347 -0.27199844 -88.868477
9211625000 -0.94635987 122.9528 -8.8067675 -73.270889 -8.793108 -73.89608 -0.27657014 -88.860336
9211687500 -0.94964844 122.92239 -8.8111963 -73.236244 -8.795063 -73.771378 -0.27857941 -88.782867
9211750000 -0.94759798 122.91952 -8.8018675 -73.200081 -8.7899628 -73.810463 -0.27022213 -88.791031
9211812500 -0.94898206 122.88444 -8.8023891 -73.27182 -8.794981 -73.80513 -0.26958454 -88.753922
9211875000 -0.94411802 122.85871 -8.7928753 -73.305702 -8.7893877 -73.895882 -0.27120462 -88.766907
9211937500 -0.94926083 122.87297 -8.7990065 -73.269287 -8.7911263 -73.857147 -0.27322733 -88.71283
9212000000 -0.95108891 122.83751 -8.8014889 -73.318504 -8.7983341 -73.884171 -0.27658442 -88.714668
9212062500 -0.94843316 122.77645 -8.797842 -73.304657 -8.7901945 -73.88282 -0.2771053 -88.672348
9212125000 -0.95357221 122.79317 -8.8025837 -73.27063 -8.7927504 -73.872177 -0.27436784 -88.5896
9212187500 -0.95030099 122.74915 -8.795146 -73.321976 -8.7895784 -73.774605 -0.27666497 -88.57296
