!Agilent Technologies,N5242A,MY51221714,A.09.90.19
!Agilent N5242A: A.09.90.19
!Date: Saturday, March 16, 2024 09:50:08
!Correction: S11(Full 2 Port(1,2)) 
!S21(Full 2 Port(1,2)) 
!S12(Full 2 Port(1,2)) 
!S22(Full 2 Port(1,2)) 
!S2P File: Measurements: S11, S21, S12, S22:
# Hz S  dB   R 50
9200000000 -0.83559239 128.92906 -9.134284 -69.582535 -9.1187363 -70.206802 -0.10018206 -89.361702
9200062500 -0.82994664 128.94023 -9.1182241 -69.574463 -9.1224937 -70.21508 -0.10210216 -89.3591
9200125000 -0.83862323 128.92282 -9.1322327 -69.567886 -9.1162796 -70.17514 -0.096114866 -89.310089
9200187500 -0.83960205 128.90219 -9.1402435 -69.585487 -9.1143074 -70.215981 -0.096734278 -89.338234
9200250000 -0.83590221 128.91617 -9.1347971 -69.539337 -9.116457 -70.206673 -0.10393324 -89.323593
9200312500 -0.83313304 128.89357 -9.1237593 -69.548569 -9.1170893 -70.193336 -0.098435737 -89.29776
9200375000 -0.82773614 128.85483 -9.1248426 -69.512321 -9.1102076 -70.210991 -0.099252395 -89.27623
9200437500 -0.83296335 128.8499 -9.1314449 -69.549828 -9.1160898 -70.14035 -0.098925054 -89.21711
9200500000 -0.82993364 128.80672 -9.1191092 -69.597717 -9.1040897 -70.234184 -0.09733361 -89.245911
9200562500 -0.8297286 128.82581 -9.1304531 -69.577568 -9.102272 -70.193466 -0.10201848 -89.240936
9200625000 -0.8297556 128.78922 -9.1223679 -69.585365 -9.1020002 -70.199768 -0.10490766 -89.189713
9200687500 -0.83254516 128.82068 -9.1284237 -69.550789 -9.1146755 -70.181374 -0.10718888 -89.169518
9200750000 -0.83295774 128.79109 -9.1304026 -69.528099 -9.097085 -70.142502 -0.10250475 -89.130127
9200812500 -0.83274066 128.74217 -9.1304216 -69.519653 -9.1076279 -70.138824 -0.10962383 -89.105064
9200875000 -0.83176267 128.80992 -9.1243258 -69.421173 -9.098176 -70.163834 -0.10730632 -89.047729
9200937500 -0.83165574 128.75476 -9.1304073 -69.495338 -9.0969563 -70.139496 -0.10044461 -89.046822
9201000000 -0.83560932 128.72852 -9.1271448 -69.531525 -9.1030998 -70.186188 -0.10361148 -89.044266
9201062500 -0.83190364 128.70529 -9.1134367 -69.474724 -9.1062975 -70.094582 -0.10886502 -88.997467
9201125000 -0.8298164 128.75504 -9.1251354 -69.483879 -9.1043415 -70.157104 -0.10263348 -89.007385
9201187500 -0.82513297 128.69638 -9.1175547 -69.452576 -9.1030664 -70.193703 -0.10661769 -88.944962
9201250000 -0.8264733 128.68732 -9.1185579 -69.530357 -9.1020794 -70.205734 -0.10671368 -88.997169
9201312500 -0.82929915 128.66969 -9.1218443 -69.525032 -9.1063404 -70.189667 -0.10905936 -89.025253
9201375000 -0.8305698 128.62502 -9.1221552 -69.593567 -9.1101999 -70.193703 -0.11600799 -88.994797
9201437500 -0.83472472 128.61349 -9.1248617 -69.532097 -9.1075716 -70.177773 -0.10863624 -88.998787
9201500000 -0.8398729 128.64934 -9.1315327 -69.512886 -9.0995522 -70.160881 -0.10327075 -88.978134
9201562500 -0.83655906 128.64429 -9.127491 -69.507271 -9.1055183 -70.136284 -0.10661592 -88.942268
9201625000 -0.8361277 128.62119 -9.1250658 -69.434311 -9.1079159 -70.08828 -0.096610509 -88.878899
9201687500 -0.83329099 128.57083 -9.1276102 -69.495209 -9.1015739 -70.103935 -0.10700081 -88.888611
9201750000 -0.83062911 128.56091 -9.1165113 -69.550613 -9.1039562 -70.154633 -0.11068574 -88.873497
9201812500 -0.83162773 128.53523 -9.1215963 -69.50602 -9.0936623 -70.115562 -0.10711683 -88.856674
9201875000 -0.82947809 128.53516 -9.1167974 -69.497833 -9.0969658 -70.147034 -0.10783786 -88.849648
9201937500 -0.83156335 128.52132 -9.1125546 -69.462646 -9.1004744 -70.103889 -0.10909195 -88.807167
9202000000 -0.82839054 128.46698 -9.1121588 -69.511703 -9.09338 -70.139603 -0.10106554 -88.804398
9202062500 -0.82928693 128.49585 -9.1045771 -69.512077 -9.1002865 -70.108513 -0.10532699 -88.758751
9202125000 -0.82400584 128.48715 -9.103013 -69.453033 -9.1000872 -70.086037 -0.1073639 -88.734032
9202187500 -0.82938188 128.48637 -9.1045036 -69.450676 -9.0956945 -70.125946 -0.10840622 -88.711685
9202250000 -0.83054173 128.44371 -9.1053162 -69.515388 -9.1088257 -70.1147 -0.10478126 -88.719917
9202312500 -0.83184969 128.44293 -9.1012373 -69.475418 -9.0985146 -70.108032 -0.10377349 -88.729729
9202375000 -0.83057952 128.42102 -9.0974159 -69.531647 -9.0952892 -70.154762 -0.10344371 -88.713882
9202437500 -0.82936507 128.3992 -9.1032181 -69.517044 -9.1008348 -70.129944 -0.10436086 -88.695686
9202500000 -0.82684159 128.39047 -9.1024132 -69.518188 -9.1032925 -70.184387 -0.10756663 -88.687126
9202562500 -0.83099478 128.40131 -9.1096411 -69.421402 -9.1034203 -70.12648 -0.11225537 -88.65097
9202625000 -0.83041322 128.39755 -9.1083717 -69.479683 -9.1018562 -70.103317 -0.12308092 -88.605682
9202687500 -0.83137172 128.35928 -9.1090193 -69.51754 -9.096282 -70.112564 -0.12163701 -88.588264
9202750000 -0.83672476 128.38109 -9.1100388 -69.451912 -9.089015 -70.109871 -0.11251461 -88.576218
9202812500 -0.83258557 128.35722 -9.1053419 -69.336891 -9.0824356 -70.088844 -0.10529397 -88.557693
9202875000 -0.83778971 128.32419 -9.1169758 -69.433014 -9.0983438 -70.060875 -0.11148333 -88.513443
9202937500 -0.82904261 128.30281 -9.1007547 -69.521675 -9.0925283 -70.127739 -0.11154837 -88.547287
9203000000 -0.83369845 128.31763 -9.1103516 -69.40168 -9.0882025 -70.052917 -0.10770169 -88.476006
9203062500 -0.83298242 128.27025 -9.1008778 -69.445259 -9.0837822 -70.106888 -0.10516775 -88.48996
9203125000 -0.83068478 128.3213 -9.1017799 -69.441383 -9.0887957 -70.086639 -0.11412017 -88.467438
9203187500 -0.83051902 128.23482 -9.1050882 -69.476418 -9.0878839 -70.080597 -0.11094398 -88.435844
9203250000 -0.83039337 128.24319 -9.1010075 -69.474075 -9.0897446 -70.134247 -0.11536386 -88.484726
9203312500 -0.83654249 128.22716 -9.1117859 -69.517624 -9.0857658 -70.136246 -0.10380616 -88.450012
9203375000 -0.83445501 128.19241 -9.1090937 -69.477997 -9.0883007 -70.108696 -0.10704248 -88.377983
9203437500 -0.83152872 128.2245 -9.0959244 -69.394325 -9.0877934 -70.060074 -0.10885675 -88.31868
9203500000 -0.83110631 128.20624 -9.1034975 -69.451813 -9.0988817 -70.123116 -0.11367 -88.343842
9203562500 -0.82834077 128.15945 -9.1046867 -69.519051 -9.0883741 -70.100159 -0.11338478 -88.287163
9203625000 -0.8352747 128.15236 -9.1011324 -69.498505 -9.0886602 -70.096733 -0.10897935 -88.331909
9203687500 -0.83039874 128.14339 -9.0859566 -69.507263 -9.0869522 -70.09716 -0.11375485 -88.292633
9203750000 -0.83431286 128.13148 -9.1013308 -69.424805 -9.0826597 -70.069267 -0.11315702 -88.282997
9203812500 -0.82950717 128.11182 -9.1032152 -69.445831 -9.0911837 -70.06897 -0.11932925 -88.248009
9203875000 -0.83326209 128.10199 -9.0937195 -69.478149 -9.0845861 -70.063171 -0.11993722 -88.261169
9203937500 -0.83116567 128.07002 -9.0983753 -69.462097 -9.0793962 -70.046593 -0.12552066 -88.188957
9204000000 -0.82963085 128.06636 -9.1026201 -69.424347 -9.0883656 -70.021759 -0.13015634 -88.20005
9204062500 -0.83018684 128.0714 -9.1113119 -69.443657 -9.0804415 -70.068565 -0.12689112 -88.233658
9204125000 -0.82419831 128.03828 -9.0965805 -69.447372 -9.0880508 -70.009033 -0.13336232 -88.149025
9204187500 -0.83010244 128.02406 -9.1063366 -69.426613 -9.0714464 -70.110878 -0.12019136 -88.167267
9204250000 -0.82757366 127.97984 -9.0966816 -69.46949 -9.0704603 -70.032814 -0.11952122 -88.123718
9204312500 -0.82420301 128.04381 -9.1063671 -69.442429 -9.0792236 -70.048286 -0.1214167 -88.117264
9204375000 -0.82150936 127.97983 -9.0977716 -69.44696 -9.0840054 -70.021393 -0.11968411 -88.119301
9204437500 -0.82025045 127.98367 -9.0920992 -69.380508 -9.0763798 -70.031204 -0.11319165 -88.072556
9204500000 -0.82216889 127.94107 -9.0919504 -69.431404 -9.0760689 -70.071175 -0.11460968 -88.06781
9204562500 -0.81972307 127.92716 -9.0917759 -69.422226 -9.0768929 -70.070221 -0.10582153 -88.0541
9204625000 -0.82547194 127.9339 -9.0900736 -69.41938 -9.0774126 -70.116501 -0.10895155 -88.051666
9204687500 -0.82375473 127.92799 -9.0804825 -69.394341 -9.0772467 -70.039444 -0.1137718 -87.990402
9204750000 -0.82218051 127.91931 -9.085597 -69.390327 -9.0814009 -70.039856 -0.1217519 -87.98893
9204812500 -0.82476717 127.94909 -9.0893784 -69.3172 -9.0706539 -70.061073 -0.11441798 -87.984703
9204875000 -0.82300782 127.90269 -9.0854473 -69.425926 -9.0682316 -70.018326 -0.11673773 -87.98941
9204937500 -0.82600135 127.85329 -9.0827446 -69.458221 -9.0675077 -70.057419 -0.11601618 -87.964378
9205000000 -0.82322943 127.90643 -9.0831442 -69.397842 -9.0697432 -70.057121 -0.11366846 -87.944664
9205062500 -0.82442963 127.87269 -9.0812531 -69.377205 -9.073267 -70.022629 -0.121295 -87.934135
9205125000 -0.82779866 127.84074 -9.0776625 -69.306366 -9.0687113 -70.052719 -0.11415555 -87.940033
9205187500 -0.82776409 127.7941 -9.0800028 -69.37574 -9.0735521 -70.033348 -0.11785155 -87.866585
9205250000 -0.82605416 127.80991 -9.0773439 -69.365028 -9.0718164 -70.076286 -0.11801015 -87.925613
9205312500 -0.8281346 127.73904 -9.0793419 -69.354668 -9.0803795 -70.063385 -0.12180586 -87.851944
9205375000 -0.82825893 127.74741 -9.0750008 -69.343567 -9.0698986 -70.010696 -0.11047103 -87.829651
9205437500 -0.82842541 127.77373 -9.080286 -69.367256 -9.0796328 -70.063087 -0.11537842 -87.815239
9205500000 -0.82776022 127.71934 -9.0697575 -69.348831 -9.0706453 -70.055649 -0.11279691 -87.815353
9205562500 -0.83226967 127.71619 -9.0748138 -69.378677 -9.0725946 -70.02951 -0.10866878 -87.766205
9205625000 -0.8287611 127.71245 -9.0836401 -69.366875 -9.0711155 -69.987541 -0.11605226 -87.811188
9205687500 -0.83167821 127.73939 -9.0840626 -69.400055 -9.076273 -70.048203 -0.11643411 -87.78643
9205750000 -0.82922959 127.67047 -9.0804834 -69.358078 -9.0762453 -69.987289 -0.11655064 -87.747597
9205812500 -0.82921702 127.69305 -9.08113 -69.355186 -9.0771255 -69.95192 -0.12267177 -87.724419
9205875000 -0.82689708 127.68649 -9.0769062 -69.412773 -9.0763903 -69.981888 -0.12502053 -87.664642
9205937500 -0.82182431 127.64706 -9.0695858 -69.337685 -9.0768623 -69.969528 -0.12097725 -87.641167
9206000000 -0.82452977 127.65058 -9.0791073 -69.345184 -9.072094 -69.970558 -0.11637019 -87.609215
9206062500 -0.82547832 127.67901 -9.0806179 -69.349899 -9.0762634 -69.961044 -0.12302928 -87.595657
9206125000 -0.83191502 127.63412 -9.0825949 -69.344246 -9.0702934 -70.008087 -0.12458749 -87.622444
9206187500 -0.82140183 127.62573 -9.0763769 -69.374603 -9.0664167 -69.975426 -0.12470381 -87.583366
9206250000 -0.82253271 127.62195 -9.0690832 -69.342186 -9.0701132 -70.0429 -0.11882842 -87.622391
9206312500 -0.8214581 127.60139 -9.0666208 -69.338913 -9.064579 -69.999489 -0.12195875 -87.532341
9206375000 -0.8209762 127.59213 -9.0697565 -69.343994 -9.0586548 -70.049309 -0.11436591 -87.59639
9206437500 -0.82214195 127.57119 -9.0682611 -69.357864 -9.0616941 -70.045082 -0.12172087 -87.524261
9206500000 -0.82551968 127.59519 -9.0700979 -69.293526 -9.0588865 -69.996407 -0.11924003 -87.506332
9206562500 -0.8259964 127.56227 -9.0734158 -69.289917 -9.0553122 -70.004745 -0.11135986 -87.501572
9206625000 -0.8280564 127.55473 -9.0630989 -69.272232 -9.0474644 -69.98185 -0.10524356 -87.429306
9206687500 -0.82661021 127.52877 -9.062233 -69.288445 -9.0585327 -70.013214 -0.10888983 -87.422348
9206750000 -0.83151001 127.50174 -9.0607166 -69.34919 -9.0469646 -69.972183 -0.10381784 -87.419525
9206812500 -0.83330166 127.52675 -9.0554695 -69.307327 -9.0447302 -69.963211 -0.10353423 -87.37291
9206875000 -0.83554369 127.49835 -9.0532494 -69.24382 -9.0378656 -70.012367 -0.10219655 -87.355949
9206937500 -0.82749933 127.47053 -9.0683308 -69.305763 -9.047533 -69.92997 -0.10518272 -87.332108
9207000000 -0.8292948 127.45709 -9.0628862 -69.264351 -9.046279 -69.98674 -0.11364151 -87.378036
9207062500 -0.82344097 127.44114 -9.0617189 -69.344101 -9.0507317 -69.960747 -0.11439888 -87.369301
9207125000 -0.82146919 127.4406 -9.061945 -69.268173 -9.0519552 -69.962776 -0.11932348 -87.349319
9207187500 -0.81941766 127.3921 -9.065505 -69.363007 -9.0536842 -69.973061 -0.12078597 -87.306541
9207250000 -0.8187924 127.31996 -9.0554152 -69.381927 -9.0570793 -69.956436 -0.11886644 -87.330086
9207312500 -0.82208645 127.32097 -9.0615664 -69.344902 -9.0571823 -69.955864 -0.12335189 -87.316116
9207375000 -0.82491022 127.30135 -9.0610094 -69.407776 -9.0540524 -69.967133 -0.11809394 -87.291031
9207437500 -0.82168639 127.30056 -9.0503139 -69.333076 -9.0443869 -69.953377 -0.12335362 -87.257088
9207500000 -0.83046359 127.22179 -9.0611706 -69.427887 -9.0553646 -69.953377 -0.12907247 -87.28698
9207562500 -0.82699949 127.25335 -9.0599375 -69.305679 -9.0480661 -69.938095 -0.12163713 -87.25013
9207625000 -0.82890141 127.1859 -9.0555964 -69.391006 -9.0453405 -69.963036 -0.1219264 -87.235031
9207687500 -0.83266938 127.24033 -9.0587511 -69.307114 -9.044734 -69.914497 -0.1124676 -87.199242
9207750000 -0.82984573 127.23148 -9.0627365 -69.282616 -9.0409527 -69.961044 -0.11410586 -87.177841
9207812500 -0.82830632 127.23286 -9.058526 -69.308624 -9.0516453 -69.975761 -0.11046731 -87.187309
9207875000 -0.83310926 127.22041 -9.05408 -69.348274 -9.0358763 -70.01255 -0.11132484 -87.211487
9207937500 -0.83752936 127.22378 -9.0574608 -69.276505 -9.0427094 -70.006401 -0.10945264 -87.124863
9208000000 -0.83660358 127.21308 -9.0637693 -69.310974 -9.0486193 -70.005653 -0.11124461 -87.066109
9208062500 -0.83563381 127.20879 -9.0549278 -69.252243 -9.0460091 -70.007233 -0.11685285 -87.080093
9208125000 -0.82886994 127.21146 -9.0612116 -69.260315 -9.0462914 -69.913231 -0.12148322 -87.018227
9208187500 -0.82855642 127.19046 -9.0627861 -69.257591 -9.0558043 -69.967484 -0.12869562 -87.056
9208250000 -0.83156902 127.1752 -9.0608969 -69.2369 -9.0537939 -69.900742 -0.13131562 -86.977188
9208312500 -0.82470119 127.15986 -9.058075 -69.277199 -9.0436058 -69.933464 -0.12667711 -86.94294
9208375000 -0.82973295 127.17047 -9.0505219 -69.247017 -9.0403662 -69.929413 -0.12425584 -86.947021
9208437500 -0.8299123 127.1274 -9.057971 -69.292587 -9.0446777 -69.866608 -0.11764927 -86.940498
9208500000 -0.83110607 127.10285 -9.0568724 -69.322998 -9.0542088 -69.910622 -0.12689352 -86.938545
9208562500 -0.82882786 127.10011 -9.06042 -69.313866 -9.0462799 -69.933937 -0.1246256 -86.99205
9208625000 -0.82801092 127.06123 -9.0535955 -69.307793 -9.0402174 -69.909744 -0.12536137 -86.883217
9208687500 -0.8283633 127.02837 -9.0483875 -69.32946 -9.0384054 -69.933067 -0.12444135 -86.946098
9208750000 -0.82824373 126.97832 -9.0524006 -69.334427 -9.0488415 -69.876762 -0.12151103 -86.888931
9208812500 -0.8285442 126.99842 -9.0442829 -69.350609 -9.0368605 -69.934402 -0.11555426 -86.914543
9208875000 -0.82673824 127.01451 -9.042407 -69.317451 -9.0390654 -69.907417 -0.1151511 -86.906815
9208937500 -0.83254904 127.03645 -9.0570345 -69.255493 -9.0511751 -69.959877 -0.12373601 -86.854355
9209000000 -0.82658315 127.04237 -9.0435305 -69.215103 -9.0499048 -69.859741 -0.12370372 -86.798882
9209062500 -0.8298046 127.05619 -9.047946 -69.275513 -9.0368376 -69.877014 -0.11350479 -86.810036
9209125000 -0.83045244 127.0088 -9.043479 -69.284393 -9.0474968 -69.86924 -0.12578261 -86.819748
9209187500 -0.82755935 127.04786 -9.0440416 -69.269218 -9.037425 -69.913315 -0.12849492 -86.787476
9209250000 -0.82480073 127.03706 -9.0376463 -69.189949 -9.0352106 -69.87352 -0.12428016 -86.774712
9209312500 -0.82528609 126.95287 -9.0330763 -69.259247 -9.0428267 -69.813301 -0.12793635 -86.69442
9209375000 -0.82730985 126.93188 -9.0370646 -69.287148 -9.0380096 -69.858093 -0.12291972 -86.702469
9209437500 -0.82473028 126.9296 -9.0500717 -69.252899 -9.0500154 -69.839127 -0.12919125 -86.657784
9209500000 -0.82434636 126.89352 -9.0351429 -69.274521 -9.0446005 -69.837685 -0.12487844 -86.666206
9209562500 -0.82722795 126.87287 -9.0399179 -69.308838 -9.0445957 -69.863014 -0.1281171 -86.649071
9209625000 -0.826738 126.88646 -9.0378342 -69.291092 -9.0411739 -69.85907 -0.12529236 -86.625275
9209687500 -0.8246448 126.84334 -9.0295897 -69.312027 -9.0361423 -69.853462 -0.12039863 -86.591873
9209750000 -0.82685137 126.84766 -9.0349464 -69.265785 -9.0432405 -69.854309 -0.11998682 -86.601784
9209812500 -0.82860488 126.82166 -9.0411272 -69.298309 -9.032258 -69.884575 -0.12026604 -86.596939
9209875000 -0.82596517 126.84158 -9.0402689 -69.275444 -9.0312214 -69.837616 -0.12277529 -86.51165
9209937500 -0.82744467 126.81365 -9.0347061 -69.32711 -9.0325928 -69.849312 -0.11413312 -86.512489
9210000000 -0.82926321 126.80083 -9.0364103 -69.233398 -9.0243502 -69.872971 -0.11730053 -86.500267
9210062500 -0.82703167 126.79663 -9.0363445 -69.262939 -9.0248051 -69.819016 -0.11647863 -86.463417
9210125000 -0.82710564 126.79572 -9.0410662 -69.211647 -9.0282412 -69.83075 -0.11982913 -86.470497
9210187500 -0.82449895 126.78021 -9.0387058 -69.193748 -9.025404 -69.77372 -0.11262813 -86.431702
9210250000 -0.82491857 126.71809 -9.0315762 -69.278191 -9.0225286 -69.806648 -0.11485845 -86.451981
9210312500 -0.82914025 126.72889 -9.0400705 -69.222549 -9.027998 -69.762177 -0.12171301 -86.425095
9210375000 -0.82964164 126.74007 -9.04597 -69.205589 -9.0281544 -69.849823 -0.12691851 -86.421295
9210437500 -0.82715714 126.74251 -9.0313969 -69.181938 -9.0255032 -69.795753 -0.12777388 -86.378189
9210500000 -0.82194239 126.72916 -9.037941 -69.176704 -9.0250368 -69.778175 -0.1253209 -86.362473
9210562500 -0.82405466 126.70686 -9.0401363 -69.190552 -9.0254745 -69.752808 -0.1325444 -86.342476
9210625000 -0.81641924 126.65512 -9.0286036 -69.213043 -9.0426073 -69.832268 -0.13901983 -86.375519
9210687500 -0.82056171 126.62368 -9.0309029 -69.22644 -9.0215034 -69.83947 -0.13074861 -86.327271
9210750000 -0.82263726 126.65517 -9.0330839 -69.194023 -9.0279341 -69.786736 -0.12739663 -86.293503
9210812500 -0.82474446 126.60314 -9.0430956 -69.201149 -9.0267305 -69.826546 -0.13193697 -86.29425
9210875000 -0.82508761 126.57822 -9.0470352 -69.207191 -9.0259504 -69.774452 -0.13643399 -86.235626
9210937500 -0.82500768 126.56175 -9.0383015 -69.172264 -9.0270634 -69.854942 -0.13210653 -86.239021
9211000000 -0.82740837 126.56576 -9.0360193 -69.187355 -9.0175819 -69.851761 -0.12363902 -86.24131
9211062500 -0.83608973 126.54387 -9.0367165 -69.219215 -9.0151901 -69.842545 -0.1312502 -86.221642
9211125000 -0.83122605 126.56168 -9.0320663 -69.199478 -9.0210648 -69.823082 -0.13081576 -86.268394
9211187500 -0.82868451 126.55226 -9.0287008 -69.235222 -9.0143557 -69.86882 -0.11943369 -86.289215
9211250000 -0.82967412 126.52966 -9.0245466 -69.243233 -9.0227318 -69.850342 -0.12578115 -86.248604
9211312500 -0.83287358 126.55997 -9.0282736 -69.258705 -9.027566 -69.894119 -0.12634717 -86.279144
9211375000 -0.83886063 126.5223 -9.0342751 -69.199371 -9.0196867 -69.811363 -0.12039267 -86.136452
9211437500 -0.83185065 126.52705 -9.0226288 -69.201309 -9.0260048 -69.813164 -0.13032159 -86.114517
9211500000 -0.83103836 126.50747 -9.0250368 -69.237 -9.0175867 -69.861946 -0.12367519 -86.169273
9211562500 -0.8335371 126.46434 -9.0319757 -69.195511 -9.0199318 -69.778137 -0.12596211 -86.07093
9211625000 -0.8328799 126.4689 -9.0310707 -69.215729 -9.0210447 -69.781555 -0.13596138 -86.075462
9211687500 -0.83385581 126.41862 -9.0344524 -69.150452 -9.0258389 -69.803207 -0.13157277 -86.09568
9211750000 -0.82578218 126.4379 -9.0238085 -69.208771 -9.0261412 -69.797569 -0.1304774 -86.061104
9211812500 -0.82957524 126.38831 -9.0293379 -69.193832 -9.0283527 -69.756981 -0.13316078 -86.01149
9211875000 -0.83261281 126.36304 -9.0279884 -69.172348 -9.0179844 -69.722221 -0.13659067 -85.971291
9211937500 -0.83148545 126.33688 -9.0189209 -69.196869 -9.0216465 -69.763901 -0.13598697 -85.982513
9212000000 -0.83190018 126.33442 -9.0215864 -69.226288 -9.015233 -69.783653 -0.13174704 -85.95359
9212062500 -0.83514971 126.32597 -9.0230532 -69.218948 -9.0152979 -69.790344 -0.12960175 -85.945114
9212125000 -0.83672482 126.28613 -9.0141802 -69.197739 -9.0205069 -69.744705 -0.13298354 -85.822113
9212187500 -0.83512878 126.27995 -9.015213 -69.21862 -9.0235319 -69.705757 -0.13625103 -85.860474
