!Agilent Technologies,N5242A,MY51221714,A.09.90.19
!Agilent N5242A: A.09.90.19
!Date: Saturday, March 16, 2024 10:16:45
!Correction: S11(Full 2 Port(1,2)) 
!S21(Full 2 Port(1,2)) 
!S12(Full 2 Port(1,2)) 
!S22(Full 2 Port(1,2)) 
!S2P File: Measurements: S11, S21, S12, S22:
# Hz S  dB   R 50
9200000000 -0.8856712 120.80875 -8.9459181 -72.54644 -8.9387484 -73.098251 -0.1921984 -86.089355
9200062500 -0.88992631 120.80164 -8.9468632 -72.525871 -8.9387341 -73.101685 -0.19468521 -86.100471
9200125000 -0.88632876 120.79109 -8.9453554 -72.460648 -8.9319057 -73.141914 -0.18581882 -86.086227
9200187500 -0.88707542 120.77105 -8.9484653 -72.47934 -8.9289322 -73.092346 -0.18750457 -86.042076
9200250000 -0.88312835 120.74649 -8.9452934 -72.487335 -8.9282217 -73.116829 -0.1888248 -86.023941
9200312500 -0.88120472 120.75311 -8.9467497 -72.530807 -8.9233465 -73.094368 -0.18807594 -85.981339
9200375000 -0.88412184 120.75536 -8.9403801 -72.472557 -8.9288521 -73.093246 -0.19376691 -85.998405
9200437500 -0.88153362 120.72388 -8.9348984 -72.562668 -8.9221134 -73.097031 -0.18715219 -85.958603
9200500000 -0.8829149 120.66669 -8.9369869 -72.565544 -8.9255915 -73.113564 -0.19476306 -85.973862
9200562500 -0.88494796 120.67464 -8.9383249 -72.574486 -8.9184914 -73.145798 -0.18967149 -85.925743
9200625000 -0.88023865 120.68245 -8.9381008 -72.467178 -8.9199677 -73.034782 -0.19253683 -85.869972
9200687500 -0.88725436 120.66879 -8.9482479 -72.466454 -8.9295578 -73.07415 -0.19782542 -85.867859
9200750000 -0.88179284 120.66088 -8.9390965 -72.487228 -8.9165945 -73.101898 -0.19670895 -85.854469
9200812500 -0.88098222 120.66059 -8.9367266 -72.459648 -8.9162788 -73.085999 -0.19674693 -85.827324
9200875000 -0.87942874 120.60237 -8.9334421 -72.430611 -8.9188814 -73.122978 -0.20619884 -85.798874
9200937500 -0.88314021 120.63833 -8.9372301 -72.448578 -8.922946 -73.049332 -0.20369957 -85.73304
9201000000 -0.88263172 120.59945 -8.9250917 -72.445251 -8.9148235 -73.079742 -0.19848642 -85.743958
9201062500 -0.88179266 120.58009 -8.9309654 -72.505295 -8.9103746 -73.132698 -0.20009981 -85.773888
9201125000 -0.87693095 120.54792 -8.9266243 -72.462936 -8.9208212 -73.052895 -0.2030744 -85.703285
9201187500 -0.87898523 120.54407 -8.9220934 -72.44175 -8.9205666 -73.115883 -0.20096633 -85.692062
9201250000 -0.87877631 120.53014 -8.9193296 -72.435867 -8.9093628 -73.033127 -0.19247952 -85.670944
9201312500 -0.88035768 120.5278 -8.9272461 -72.493217 -8.9141703 -73.10463 -0.19514135 -85.706749
9201375000 -0.88226867 120.48368 -8.9273272 -72.485756 -8.9244642 -73.027412 -0.19794591 -85.679817
9201437500 -0.88068026 120.46074 -8.9310198 -72.479019 -8.913516 -73.059967 -0.19448338 -85.71711
9201500000 -0.88488078 120.49129 -8.9310179 -72.451317 -8.9184866 -73.073524 -0.19771011 -85.688644
9201562500 -0.88114619 120.4963 -8.92418 -72.407196 -8.9102669 -73.083275 -0.19306298 -85.672707
9201625000 -0.88735682 120.50133 -8.9305506 -72.425858 -8.9126873 -73.042015 -0.18564194 -85.668137
9201687500 -0.87996793 120.44741 -8.9299374 -72.440826 -8.9150944 -73.000687 -0.19890356 -85.638214
9201750000 -0.88400924 120.41373 -8.9372244 -72.451447 -8.9166641 -73.034195 -0.20051754 -85.565971
9201812500 -0.88699532 120.44296 -8.9244337 -72.420639 -8.9091473 -73.003525 -0.19376563 -85.540268
9201875000 -0.88073754 120.41444 -8.932168 -72.392601 -8.9130449 -72.987846 -0.19705148 -85.52594
9201937500 -0.88271683 120.39368 -8.9242382 -72.480179 -8.9084682 -72.966095 -0.20008478 -85.508156
9202000000 -0.87735146 120.35699 -8.9248457 -72.465019 -8.9136858 -73.00798 -0.20815371 -85.520531
9202062500 -0.87436318 120.33833 -8.9212828 -72.444878 -8.9133711 -73.000732 -0.19288878 -85.47361
9202125000 -0.87915266 120.3431 -8.9141598 -72.466812 -8.9125051 -73.023453 -0.20354412 -85.486435
9202187500 -0.87931764 120.29424 -8.9130249 -72.495087 -8.9062815 -73.046715 -0.19657589 -85.461685
9202250000 -0.87989444 120.33844 -8.9124556 -72.394012 -8.911665 -73.046425 -0.19903927 -85.463249
9202312500 -0.88511491 120.34572 -8.9141064 -72.405243 -8.9166927 -73.091911 -0.19602549 -85.448898
9202375000 -0.8837105 120.29623 -8.9067936 -72.391571 -8.9105263 -73.060013 -0.19671533 -85.402748
9202437500 -0.89285874 120.27563 -8.9232521 -72.4776 -8.917592 -73.097382 -0.20086029 -85.421089
9202500000 -0.8880043 120.25347 -8.9207354 -72.500824 -8.9120016 -73.020737 -0.20446064 -85.36586
9202562500 -0.88062167 120.25447 -8.907197 -72.377983 -8.9087772 -73.036957 -0.20127775 -85.363464
9202625000 -0.88557965 120.23947 -8.9133053 -72.424355 -8.9036856 -73.015816 -0.20432363 -85.316109
9202687500 -0.88579285 120.21268 -8.9165201 -72.450104 -8.9143276 -73.031914 -0.20402265 -85.281387
9202750000 -0.88452047 120.2327 -8.9183397 -72.400391 -8.9065056 -73.032494 -0.20740885 -85.292747
9202812500 -0.88445115 120.20132 -8.9160805 -72.440842 -8.9063702 -73.005157 -0.20479324 -85.223923
9202875000 -0.88552582 120.13788 -8.9163771 -72.470215 -8.9061871 -73.019562 -0.2075801 -85.28083
9202937500 -0.8856684 120.15274 -8.921526 -72.474739 -8.9068127 -73.024475 -0.20419781 -85.227142
9203000000 -0.88178939 120.12877 -8.9093962 -72.45977 -8.9030266 -72.991302 -0.20092952 -85.198166
9203062500 -0.8841114 120.13731 -8.9115143 -72.434578 -8.8999329 -73.004425 -0.20371151 -85.190132
9203125000 -0.87418002 120.13146 -8.8951616 -72.445503 -8.8998384 -73.060837 -0.19837138 -85.214394
9203187500 -0.88625401 120.08755 -8.912034 -72.463562 -8.9078922 -72.963882 -0.20255049 -85.09742
9203250000 -0.88398862 120.10385 -8.9088058 -72.463181 -8.8997078 -73.006447 -0.19946237 -85.147026
9203312500 -0.88255429 120.08952 -8.9008303 -72.432419 -8.8931007 -73.025589 -0.20217119 -85.149269
9203375000 -0.88427693 120.08009 -8.912385 -72.388359 -8.9043579 -73.019882 -0.19725847 -85.09597
9203437500 -0.88721067 120.00742 -8.9022722 -72.485924 -8.9081831 -72.990288 -0.20299628 -85.052071
9203500000 -0.88408899 120.00111 -8.9160576 -72.450439 -8.901041 -73.007851 -0.20907427 -85.037857
9203562500 -0.884022 120.03824 -8.9090109 -72.439026 -8.9048672 -73.032738 -0.20521881 -85.036957
9203625000 -0.87940431 120.00018 -8.8990803 -72.42482 -8.8955116 -73.021271 -0.20020843 -85.047951
9203687500 -0.88181597 119.99759 -8.90518 -72.410583 -8.90446 -72.988426 -0.20907718 -84.975937
9203750000 -0.87995803 119.97139 -8.8989706 -72.373459 -8.8940687 -72.974373 -0.20979732 -84.978401
9203812500 -0.88684756 119.93436 -8.9130812 -72.436195 -8.8930588 -72.993935 -0.20423071 -84.979691
9203875000 -0.8866545 119.93696 -8.9052658 -72.467377 -8.8983812 -72.976189 -0.21092142 -84.959976
9203937500 -0.87617886 119.93222 -8.9033279 -72.45697 -8.8862514 -73.017181 -0.2137472 -84.930801
9204000000 -0.87743586 119.95311 -8.906354 -72.41713 -8.8918943 -72.983528 -0.21512969 -84.933105
9204062500 -0.88238448 119.89119 -8.9038143 -72.428131 -8.8913651 -72.998795 -0.22097716 -84.922546
9204125000 -0.87862289 119.90433 -8.901535 -72.404022 -8.8825178 -72.958733 -0.21746668 -84.901001
9204187500 -0.87327588 119.8678 -8.8963423 -72.446892 -8.8871498 -72.993721 -0.22048481 -84.894188
9204250000 -0.8790518 119.89251 -8.9102707 -72.388588 -8.8912621 -72.952019 -0.21835411 -84.864838
9204312500 -0.87069249 119.80921 -8.899785 -72.457275 -8.8816319 -72.989311 -0.21346153 -84.813583
9204375000 -0.88086998 119.83588 -8.8979816 -72.400017 -8.8784256 -72.978737 -0.21097508 -84.853859
9204437500 -0.87386829 119.83634 -8.892643 -72.383377 -8.8850088 -72.997566 -0.20728363 -84.821533
9204500000 -0.87445962 119.81843 -8.8941641 -72.34359 -8.8940191 -72.960434 -0.21194729 -84.750275
9204562500 -0.87105042 119.78995 -8.8911848 -72.394997 -8.8828917 -72.951042 -0.20913732 -84.758026
9204625000 -0.87556821 119.76295 -8.8944073 -72.400475 -8.8870487 -72.982628 -0.21233813 -84.723587
9204687500 -0.87558675 119.74655 -8.9033337 -72.410683 -8.8904161 -72.994591 -0.21153252 -84.709938
9204750000 -0.87148368 119.7552 -8.8915939 -72.386871 -8.8830585 -72.976822 -0.20753497 -84.731216
9204812500 -0.87217593 119.73648 -8.8916121 -72.358688 -8.8882523 -73.007141 -0.20229709 -84.724419
9204875000 -0.8744328 119.71274 -8.8880472 -72.379257 -8.8769846 -72.959816 -0.20788348 -84.717461
9204937500 -0.87935483 119.7225 -8.8925476 -72.345818 -8.884943 -72.976357 -0.2096449 -84.680183
9205000000 -0.87794811 119.72694 -8.8832483 -72.335808 -8.8781939 -72.916161 -0.20800363 -84.620468
9205062500 -0.88434094 119.7067 -8.8928471 -72.395103 -8.8781776 -72.941704 -0.20731227 -84.66053
9205125000 -0.88220656 119.70126 -8.8886404 -72.364098 -8.8842497 -72.93045 -0.20959476 -84.598877
9205187500 -0.88552195 119.66511 -8.8912563 -72.30674 -8.8816795 -72.977524 -0.20728469 -84.642868
9205250000 -0.88103545 119.64401 -8.8811417 -72.329834 -8.8793974 -72.945236 -0.20932196 -84.612785
9205312500 -0.88642836 119.59039 -8.8849497 -72.348488 -8.8762093 -72.977051 -0.20718943 -84.539131
9205375000 -0.88747597 119.56091 -8.8923607 -72.354576 -8.8809481 -72.988594 -0.21208642 -84.596176
9205437500 -0.88167804 119.55121 -8.8912458 -72.326363 -8.8852825 -72.92691 -0.20866741 -84.540329
9205500000 -0.88729382 119.59773 -8.883194 -72.311966 -8.8773909 -72.969978 -0.20626323 -84.54332
9205562500 -0.88361859 119.58539 -8.8803959 -72.373688 -8.8868933 -72.938873 -0.21471183 -84.521751
9205625000 -0.88166988 119.57046 -8.8813324 -72.308533 -8.8860502 -72.948944 -0.20515138 -84.473465
9205687500 -0.87882835 119.57369 -8.8830051 -72.319748 -8.8781443 -72.87117 -0.20558262 -84.412323
9205750000 -0.88060182 119.52282 -8.8829775 -72.366516 -8.8740463 -72.900978 -0.19987684 -84.421928
9205812500 -0.8763653 119.53252 -8.8772116 -72.315903 -8.8861446 -73.006607 -0.21070094 -84.489258
9205875000 -0.88223964 119.55222 -8.8852625 -72.30748 -8.8777084 -72.955223 -0.20873562 -84.395073
9205937500 -0.87921751 119.48112 -8.8806276 -72.350983 -8.8770647 -72.933578 -0.21090069 -84.403023
9206000000 -0.87760139 119.47588 -8.8743105 -72.331245 -8.8820009 -72.893501 -0.21649168 -84.346146
9206062500 -0.87517643 119.45864 -8.8736706 -72.349686 -8.8780441 -72.908615 -0.21460961 -84.36779
9206125000 -0.87452853 119.4463 -8.8706131 -72.351074 -8.8773975 -72.890465 -0.21565454 -84.314339
9206187500 -0.87351269 119.49144 -8.870554 -72.348251 -8.8798723 -72.935455 -0.21711627 -84.329033
9206250000 -0.87900758 119.46568 -8.8750744 -72.322891 -8.8742981 -72.887917 -0.21289212 -84.292999
9206312500 -0.87570751 119.44614 -8.8803816 -72.289688 -8.8697376 -72.941063 -0.21104191 -84.262772
9206375000 -0.87273705 119.42852 -8.8704834 -72.31591 -8.8671598 -72.938293 -0.20801905 -84.279129
9206437500 -0.87949812 119.41319 -8.8766699 -72.362503 -8.8616714 -72.999962 -0.20915447 -84.283852
9206500000 -0.87633318 119.42845 -8.875453 -72.360542 -8.8677254 -72.941185 -0.20791893 -84.229591
9206562500 -0.8779906 119.41142 -8.8718052 -72.313087 -8.8662243 -72.954407 -0.20662044 -84.2603
9206625000 -0.88046283 119.37609 -8.8635283 -72.292816 -8.852809 -72.913994 -0.19624917 -84.182716
9206687500 -0.88525599 119.32857 -8.8653545 -72.332314 -8.8539257 -72.887444 -0.19462435 -84.136353
9206750000 -0.88430756 119.36073 -8.865943 -72.253181 -8.8591738 -72.863327 -0.20328932 -84.082741
9206812500 -0.88586032 119.32809 -8.8617954 -72.319717 -8.8555079 -72.83754 -0.19999053 -84.090973
9206875000 -0.88623273 119.30166 -8.8575983 -72.273262 -8.8555737 -72.863045 -0.20096685 -84.084969
9206937500 -0.88569701 119.29768 -8.8671923 -72.313095 -8.8568659 -72.969604 -0.2055642 -84.119629
9207000000 -0.87736624 119.26616 -8.8599148 -72.31916 -8.854845 -72.94693 -0.20858079 -84.102798
9207062500 -0.88206434 119.21413 -8.8689289 -72.360138 -8.8605099 -72.925446 -0.21093291 -84.062859
9207125000 -0.8745091 119.2141 -8.8691788 -72.287605 -8.8618507 -72.906273 -0.21581022 -84.008919
9207187500 -0.87670028 119.21923 -8.8576221 -72.311699 -8.859621 -72.844223 -0.21058924 -84.031982
9207250000 -0.87521166 119.17625 -8.8596306 -72.323921 -8.8648453 -72.915665 -0.21944712 -84.01001
9207312500 -0.88164443 119.16441 -8.8647728 -72.337616 -8.8608646 -72.821205 -0.21827108 -84.032166
9207375000 -0.87428713 119.1364 -8.8521633 -72.321701 -8.8587313 -72.85704 -0.22242056 -83.977844
9207437500 -0.88165873 119.11794 -8.866127 -72.385666 -8.8605947 -72.916039 -0.21949372 -84.008377
9207500000 -0.87846124 119.08992 -8.8639698 -72.382401 -8.855195 -72.928482 -0.21916087 -83.977303
9207562500 -0.88262296 119.06924 -8.8663979 -72.332405 -8.8394413 -72.928841 -0.21187013 -83.995995
9207625000 -0.87964875 119.06012 -8.8598452 -72.360367 -8.857131 -72.861504 -0.21743773 -83.909012
9207687500 -0.88274765 119.04281 -8.8627291 -72.333115 -8.842041 -72.88002 -0.20599413 -83.928261
9207750000 -0.88458025 119.05444 -8.8590126 -72.321136 -8.8494978 -72.901207 -0.20968334 -83.952339
9207812500 -0.88554388 119.06935 -8.8534803 -72.242302 -8.8465052 -72.929932 -0.20105715 -83.888611
9207875000 -0.88730311 119.01599 -8.8626118 -72.37072 -8.8561573 -72.934525 -0.20795682 -83.879944
9207937500 -0.88536203 119.06565 -8.8611403 -72.265472 -8.8509169 -72.938667 -0.21007633 -83.842468
9208000000 -0.8887555 119.03526 -8.8516321 -72.31823 -8.8432798 -72.915504 -0.19767427 -83.814117
9208062500 -0.87953746 119.02328 -8.8477001 -72.315376 -8.8610287 -72.906982 -0.2132017 -83.826782
9208125000 -0.88831222 118.9933 -8.8593416 -72.27639 -8.847002 -72.890175 -0.20688246 -83.737328
9208187500 -0.88293302 119.00172 -8.8548079 -72.28331 -8.8526211 -72.875038 -0.21214762 -83.73243
9208250000 -0.88624996 118.95271 -8.8647089 -72.283958 -8.8511915 -72.823059 -0.21648866 -83.703079
9208312500 -0.88170677 118.99935 -8.8532028 -72.242538 -8.8495131 -72.911263 -0.21467166 -83.697945
9208375000 -0.88082117 118.96852 -8.8505707 -72.261421 -8.8488674 -72.869347 -0.21729484 -83.677513
9208437500 -0.87958074 118.97063 -8.8581676 -72.265503 -8.8542061 -72.847923 -0.22504899 -83.686569
9208500000 -0.87899822 118.89111 -8.8478003 -72.302193 -8.8536634 -72.855186 -0.22408195 -83.680855
9208562500 -0.88351727 118.92029 -8.8460464 -72.272346 -8.8451366 -72.883324 -0.21875949 -83.676529
9208625000 -0.88008034 118.84629 -8.8457222 -72.341095 -8.8479338 -72.81147 -0.21685161 -83.622215
9208687500 -0.88014233 118.86221 -8.841856 -72.313614 -8.839324 -72.840683 -0.21240191 -83.627472
9208750000 -0.87838769 118.82939 -8.8454065 -72.338104 -8.8518105 -72.820129 -0.21968862 -83.598503
9208812500 -0.88347852 118.82493 -8.8471479 -72.318748 -8.8380766 -72.83374 -0.21326658 -83.589264
9208875000 -0.88401055 118.83714 -8.8424129 -72.350578 -8.8472519 -72.850861 -0.21860491 -83.594978
9208937500 -0.8850503 118.85213 -8.8460922 -72.267426 -8.8431921 -72.860283 -0.21739075 -83.583565
9209000000 -0.88295394 118.84518 -8.8492718 -72.280212 -8.8418999 -72.849785 -0.21660852 -83.579735
9209062500 -0.88714361 118.84921 -8.847558 -72.237465 -8.8465958 -72.806519 -0.22048582 -83.558945
9209125000 -0.88330388 118.84509 -8.8507977 -72.31427 -8.8458614 -72.858528 -0.21764596 -83.535675
9209187500 -0.87854588 118.8576 -8.8415699 -72.254379 -8.8475037 -72.831444 -0.21976088 -83.525948
9209250000 -0.87883532 118.79789 -8.8301964 -72.291756 -8.8474302 -72.884659 -0.21923421 -83.520401
9209312500 -0.87361145 118.78907 -8.8346071 -72.29229 -8.8463087 -72.848343 -0.21472901 -83.465324
9209375000 -0.87992674 118.78426 -8.8290806 -72.199219 -8.844986 -72.850822 -0.21678397 -83.447929
9209437500 -0.87984729 118.7411 -8.8382063 -72.295685 -8.8385201 -72.817627 -0.21933438 -83.423927
9209500000 -0.87767142 118.70248 -8.83535 -72.286278 -8.8520594 -72.803368 -0.22712167 -83.356544
9209562500 -0.87972057 118.73604 -8.8320589 -72.227448 -8.8345585 -72.849785 -0.22119378 -83.353531
9209625000 -0.88432062 118.69354 -8.8370056 -72.299309 -8.8427496 -72.846054 -0.21954212 -83.381783
9209687500 -0.88673007 118.67294 -8.8392115 -72.290794 -8.8331099 -72.815964 -0.21490526 -83.3255
9209750000 -0.88399446 118.67203 -8.8357182 -72.29216 -8.8284206 -72.827927 -0.2120937 -83.302208
9209812500 -0.88729995 118.6731 -8.8420553 -72.302933 -8.8332319 -72.84713 -0.21240155 -83.327568
9209875000 -0.88944292 118.61651 -8.8432283 -72.363533 -8.833086 -72.801575 -0.21212573 -83.267792
9209937500 -0.8843444 118.62592 -8.8329134 -72.272835 -8.8294535 -72.806038 -0.20894767 -83.253296
9210000000 -0.87780893 118.62447 -8.8326015 -72.266968 -8.8333664 -72.810669 -0.21469767 -83.268204
9210062500 -0.8803823 118.62605 -8.8261843 -72.272003 -8.8187399 -72.816559 -0.20372428 -83.23362
9210125000 -0.87965649 118.63951 -8.8303928 -72.247803 -8.8332949 -72.817581 -0.21627641 -83.235252
9210187500 -0.87919223 118.55141 -8.8306541 -72.290169 -8.823348 -72.747986 -0.20934208 -83.177536
9210250000 -0.87281591 118.5788 -8.8317451 -72.230293 -8.825036 -72.733376 -0.21494821 -83.137375
9210312500 -0.87916058 118.57764 -8.8281775 -72.264351 -8.8253164 -72.727486 -0.21143396 -83.163841
9210375000 -0.88040751 118.53911 -8.8288307 -72.234398 -8.8321953 -72.742477 -0.21914072 -83.128113
9210437500 -0.88035131 118.55207 -8.838953 -72.205109 -8.8214874 -72.756783 -0.21602264 -83.11068
9210500000 -0.88058716 118.49084 -8.8334827 -72.226089 -8.8357172 -72.801811 -0.22783607 -83.109039
9210562500 -0.87816709 118.49679 -8.8230057 -72.221031 -8.8217745 -72.766823 -0.22131878 -83.094444
9210625000 -0.87357289 118.46674 -8.8279266 -72.230103 -8.8313932 -72.709114 -0.22303353 -83.058952
9210687500 -0.87290049 118.43919 -8.8374662 -72.229744 -8.8331633 -72.747673 -0.2348285 -83.046806
9210750000 -0.87354273 118.42289 -8.821909 -72.2174 -8.8281603 -72.783157 -0.2287771 -83.001617
9210812500 -0.87815887 118.39703 -8.8285294 -72.242165 -8.8204756 -72.746391 -0.22810021 -82.998169
9210875000 -0.87518066 118.40952 -8.8268442 -72.18541 -8.8289986 -72.784683 -0.23651893 -82.97641
9210937500 -0.87882429 118.36929 -8.8259983 -72.226837 -8.8204241 -72.795586 -0.2247753 -83.007942
9211000000 -0.88027859 118.34628 -8.8287191 -72.252068 -8.8153095 -72.802628 -0.22098236 -83.001945
9211062500 -0.88041306 118.36547 -8.8220892 -72.169243 -8.8236532 -72.8396 -0.22335778 -82.980431
9211125000 -0.88432854 118.37608 -8.8286257 -72.23954 -8.8254395 -72.799026 -0.22606157 -82.946785
9211187500 -0.88440245 118.31235 -8.8244476 -72.305099 -8.8263073 -72.829636 -0.22396381 -83.001579
9211250000 -0.8890301 118.32885 -8.8269348 -72.249947 -8.8236418 -72.801865 -0.2231418 -83.012634
9211312500 -0.88803941 118.32972 -8.820138 -72.296661 -8.8317232 -72.758003 -0.22489385 -82.98645
9211375000 -0.88636899 118.36476 -8.8235788 -72.255783 -8.8121681 -72.802628 -0.21540131 -82.859215
9211437500 -0.88226724 118.31747 -8.8211365 -72.248802 -8.8145161 -72.824654 -0.21739475 -82.90641
9211500000 -0.8878392 118.299 -8.8192673 -72.216606 -8.821805 -72.80661 -0.2171745 -82.863106
9211562500 -0.88757491 118.28698 -8.8192272 -72.256172 -8.8161144 -72.737602 -0.2273304 -82.802826
9211625000 -0.8863315 118.28866 -8.8199472 -72.201553 -8.8082809 -72.772781 -0.22064495 -82.849556
9211687500 -0.88653249 118.24671 -8.8277254 -72.24704 -8.8130035 -72.772102 -0.22434805 -82.848389
9211750000 -0.88207072 118.20626 -8.8197231 -72.233772 -8.8158321 -72.733513 -0.22542924 -82.792976
9211812500 -0.88634044 118.19112 -8.8203173 -72.213722 -8.8143415 -72.741943 -0.22605523 -82.776344
9211875000 -0.88562411 118.17683 -8.8135109 -72.236382 -8.8131208 -72.714996 -0.22528958 -82.747116
9211937500 -0.8868596 118.15537 -8.8171053 -72.210907 -8.8153982 -72.723259 -0.22975868 -82.709984
9212000000 -0.88828772 118.12367 -8.814991 -72.242653 -8.8133821 -72.731888 -0.22990948 -82.645805
9212062500 -0.88831359 118.14349 -8.8183193 -72.233406 -8.8151741 -72.735878 -0.227749 -82.650566
9212125000 -0.8886537 118.10565 -8.8097534 -72.241669 -8.808918 -72.765274 -0.23326556 -82.624161
9212187500 -0.88439345 118.0577 -8.8035994 -72.243568 -8.8068686 -72.656128 -0.22516751 -82.575272
