!Agilent Technologies,N5242A,MY51221714,A.09.90.19
!Agilent N5242A: A.09.90.19
!Date: Saturday, March 16, 2024 10:17:45
!Correction: S11(Full 2 Port(1,2)) 
!S21(Full 2 Port(1,2)) 
!S12(Full 2 Port(1,2)) 
!S22(Full 2 Port(1,2)) 
!S2P File: Measurements: S11, S21, S12, S22:
# Hz S  dB   R 50
9200000000 -0.88922477 121.04032 -8.970439 -72.592567 -8.9653587 -73.115486 -0.20240106 -86.276314
9200062500 -0.887043 121.03967 -8.9698772 -72.504761 -8.9600992 -73.070396 -0.20214279 -86.247604
9200125000 -0.89067101 121.07413 -8.9770126 -72.454033 -8.9623709 -73.071953 -0.19804904 -86.259819
9200187500 -0.88851714 121.02113 -8.9768515 -72.512383 -8.9635363 -73.087578 -0.20003253 -86.218971
9200250000 -0.88864839 121.01481 -8.9715996 -72.550568 -8.9504309 -73.156265 -0.20690441 -86.264961
9200312500 -0.88223249 120.99699 -8.9759779 -72.57222 -8.9576359 -73.137566 -0.20347798 -86.212997
9200375000 -0.87848151 121.0041 -8.9555454 -72.546158 -8.953824 -73.084053 -0.20599388 -86.171242
9200437500 -0.88592267 120.96552 -8.971323 -72.53994 -8.9470901 -73.155739 -0.20267995 -86.187225
9200500000 -0.87865174 120.96052 -8.9553461 -72.563492 -8.9492483 -73.154236 -0.20045441 -86.170609
9200562500 -0.88448501 120.94357 -8.9668646 -72.497482 -8.9483147 -73.146454 -0.20505719 -86.129837
9200625000 -0.88458312 120.93141 -8.9679108 -72.495102 -8.945466 -73.061386 -0.2115421 -86.115356
9200687500 -0.88253319 120.93169 -8.9726725 -72.46991 -8.9495029 -73.121155 -0.21264446 -86.039391
9200750000 -0.88131684 120.90554 -8.9686556 -72.501411 -8.9474916 -73.083427 -0.21171698 -86.045525
9200812500 -0.88237673 120.93425 -8.9671268 -72.48127 -8.944191 -73.106583 -0.20950741 -86.038132
9200875000 -0.88507873 120.88562 -8.9697762 -72.447861 -8.9489918 -73.086952 -0.2196642 -86.041115
9200937500 -0.88214999 120.87002 -8.9592943 -72.476173 -8.9459963 -73.0354 -0.20899135 -85.978951
9201000000 -0.88099951 120.88628 -8.9555922 -72.471237 -8.9405756 -73.087425 -0.20796324 -85.973114
9201062500 -0.88285047 120.80791 -8.9607496 -72.500603 -8.9445124 -73.085289 -0.21019554 -85.94323
9201125000 -0.88189328 120.85052 -8.955718 -72.466629 -8.9526606 -73.03064 -0.21129002 -85.891823
9201187500 -0.87783557 120.78781 -8.9474363 -72.515228 -8.9547005 -73.124603 -0.22083919 -85.957787
9201250000 -0.88100034 120.771 -8.9569874 -72.497849 -8.9458561 -73.064552 -0.21057235 -85.884232
9201312500 -0.87993902 120.77454 -8.9461088 -72.497818 -8.9419832 -73.079117 -0.21383902 -85.902931
9201375000 -0.87829721 120.78565 -8.9533529 -72.483711 -8.9440346 -73.074791 -0.20426668 -85.895866
9201437500 -0.88543856 120.80456 -8.9633732 -72.469727 -8.9451466 -73.061417 -0.21573916 -85.877312
9201500000 -0.88565201 120.73673 -8.9587641 -72.495262 -8.9461164 -73.048256 -0.21048975 -85.875259
9201562500 -0.88285697 120.75777 -8.9664488 -72.503647 -8.9376183 -73.089882 -0.20679915 -85.850952
9201625000 -0.88762116 120.72062 -8.9668694 -72.487717 -8.9469833 -73.030548 -0.20990589 -85.833977
9201687500 -0.88431787 120.70882 -8.955759 -72.507393 -8.9438353 -73.058922 -0.20787084 -85.830307
9201750000 -0.88647956 120.71986 -8.9608135 -72.467751 -8.9394283 -72.976219 -0.21204324 -85.727989
9201812500 -0.8830722 120.64011 -8.9552317 -72.489601 -8.9374352 -72.965446 -0.20537755 -85.725243
9201875000 -0.88012594 120.63574 -8.9542303 -72.452011 -8.9411364 -73.021339 -0.20673145 -85.717537
9201937500 -0.88378346 120.6285 -8.957181 -72.540489 -8.9286909 -72.972839 -0.20614579 -85.693504
9202000000 -0.87777305 120.6012 -8.9387197 -72.471359 -8.9353495 -73.053352 -0.21040773 -85.67701
9202062500 -0.87821496 120.60445 -8.9492903 -72.494164 -8.9349298 -73.085037 -0.21320674 -85.725861
9202125000 -0.88224357 120.61077 -8.9395914 -72.455566 -8.9373455 -73.026649 -0.20921521 -85.652115
9202187500 -0.88277441 120.58946 -8.9360476 -72.449577 -8.935894 -73.023232 -0.20910612 -85.646896
9202250000 -0.88160473 120.61035 -8.9380541 -72.4412 -8.9414139 -73.070511 -0.20979707 -85.652489
9202312500 -0.88388366 120.55433 -8.9411974 -72.509407 -8.9363337 -73.094398 -0.21323977 -85.650826
9202375000 -0.88746899 120.52991 -8.9395123 -72.424934 -8.9402246 -73.096382 -0.20920891 -85.650467
9202437500 -0.88619989 120.55965 -8.9374962 -72.454628 -8.9355659 -73.085052 -0.21487401 -85.607826
9202500000 -0.88171208 120.53643 -8.9392519 -72.482796 -8.9440527 -73.038635 -0.21217719 -85.531059
9202562500 -0.88971502 120.52216 -8.9519644 -72.440041 -8.9439678 -73.033417 -0.2168757 -85.563263
9202625000 -0.88654536 120.5099 -8.9395056 -72.419014 -8.9390144 -73.044769 -0.22080746 -85.530922
9202687500 -0.8874622 120.49768 -8.9438047 -72.435486 -8.9408255 -72.988068 -0.22507767 -85.483704
9202750000 -0.88380378 120.46877 -8.9393892 -72.41925 -8.9341793 -73.044701 -0.22219862 -85.501411
9202812500 -0.88664609 120.46925 -8.9462175 -72.43898 -8.9315729 -73.033195 -0.21477918 -85.473427
9202875000 -0.88308746 120.43125 -8.9472456 -72.481911 -8.9378223 -73.043686 -0.22126113 -85.429993
9202937500 -0.8837778 120.41976 -8.9430466 -72.494652 -8.9244108 -72.994461 -0.21632883 -85.392029
9203000000 -0.88357681 120.42063 -8.943059 -72.465279 -8.9350214 -73.008743 -0.21457104 -85.401917
9203062500 -0.8801685 120.4035 -8.9397058 -72.463745 -8.9288855 -73.003609 -0.21508846 -85.378258
9203125000 -0.87959027 120.40057 -8.9357395 -72.440575 -8.9377089 -73.031456 -0.21765496 -85.378761
9203187500 -0.88254625 120.35251 -8.9373798 -72.489227 -8.927042 -73.073425 -0.21708678 -85.413582
9203250000 -0.88403141 120.36887 -8.9378443 -72.363884 -8.9309454 -73.078522 -0.21466444 -85.378197
9203312500 -0.88933796 120.35709 -8.934535 -72.480644 -8.9242554 -73.020203 -0.21532588 -85.312675
9203375000 -0.88529313 120.32626 -8.9414358 -72.429901 -8.9307117 -73.052483 -0.21391858 -85.343445
9203437500 -0.88420194 120.34075 -8.9391308 -72.471413 -8.9296541 -72.977966 -0.21451055 -85.264297
9203500000 -0.87888551 120.29152 -8.9353371 -72.474236 -8.9271145 -73.009789 -0.21695411 -85.232483
9203562500 -0.88587487 120.29688 -8.9362936 -72.451797 -8.9290829 -73.000061 -0.22231501 -85.237732
9203625000 -0.88444841 120.27699 -8.9288568 -72.435814 -8.9326048 -73.061104 -0.22208615 -85.242401
9203687500 -0.87914318 120.27958 -8.9275675 -72.424126 -8.935544 -73.031654 -0.22528923 -85.237617
9203750000 -0.8828963 120.23946 -8.926405 -72.478867 -8.9263754 -72.973457 -0.22220537 -85.188995
9203812500 -0.88403016 120.25745 -8.928072 -72.441597 -8.9268341 -73.065033 -0.22449951 -85.233093
9203875000 -0.88959771 120.2097 -8.9312887 -72.462029 -8.9304523 -72.970818 -0.22844693 -85.153
9203937500 -0.88108116 120.17202 -8.9322882 -72.499046 -8.9151154 -73.027328 -0.22289245 -85.145325
9204000000 -0.88424355 120.17574 -8.9269972 -72.453789 -8.9265003 -73.007256 -0.23587489 -85.159233
9204062500 -0.87735265 120.18996 -8.9366026 -72.433998 -8.9138107 -73.01651 -0.22842099 -85.128967
9204125000 -0.8778941 120.14838 -8.9360056 -72.423706 -8.9170685 -73.014366 -0.23183857 -85.1157
9204187500 -0.87612873 120.14315 -8.9319668 -72.405174 -8.9165058 -73.025047 -0.23063688 -85.077141
9204250000 -0.87802714 120.14189 -8.9311209 -72.375999 -8.9124222 -72.933067 -0.22825623 -85.057526
9204312500 -0.87792408 120.09428 -8.9334126 -72.45475 -8.9192352 -72.93544 -0.22982244 -85.037643
9204375000 -0.87380207 120.08393 -8.9288073 -72.451813 -8.9138298 -72.968811 -0.22533967 -85.043884
9204437500 -0.87619925 120.09084 -8.929698 -72.429352 -8.917305 -72.944939 -0.22599216 -84.998665
9204500000 -0.87433833 120.069 -8.9248209 -72.380356 -8.9096298 -72.976456 -0.21316494 -84.988441
9204562500 -0.87176418 120.06174 -8.9206638 -72.361786 -8.9196072 -72.941223 -0.21311243 -84.932121
9204625000 -0.8749513 120.03764 -8.9228411 -72.435524 -8.9131536 -72.9338 -0.21683222 -84.950943
9204687500 -0.87196404 119.99625 -8.9128485 -72.44751 -8.9181042 -72.996567 -0.2205812 -84.988808
9204750000 -0.87355739 120.02802 -8.9205637 -72.388382 -8.9120016 -72.956383 -0.2213185 -84.9039
9204812500 -0.8744359 119.98885 -8.9177923 -72.399384 -8.9185581 -72.970032 -0.22420406 -84.92878
9204875000 -0.87938237 119.99401 -8.9207144 -72.384209 -8.9085226 -72.969864 -0.22442918 -84.894524
9204937500 -0.8815555 120.01149 -8.9308491 -72.366562 -8.9029894 -73.052834 -0.22392392 -84.884209
9205000000 -0.87782782 120.00681 -8.9243031 -72.411346 -8.9085894 -72.975227 -0.22450833 -84.886948
9205062500 -0.87992042 119.98171 -8.9094553 -72.384987 -8.9113445 -72.962326 -0.22070502 -84.830887
9205125000 -0.88490438 119.95125 -8.9179201 -72.360725 -8.9141006 -72.995461 -0.22252099 -84.848907
9205187500 -0.88173425 119.94632 -8.9152584 -72.328293 -8.9133453 -72.999382 -0.22713168 -84.779488
9205250000 -0.88480288 119.86426 -8.9112711 -72.381401 -8.907876 -73.017365 -0.22181214 -84.814903
9205312500 -0.88735628 119.86045 -8.9189329 -72.351524 -8.9120731 -72.938904 -0.22059785 -84.748878
9205375000 -0.88263154 119.83147 -8.9088821 -72.369026 -8.912468 -72.920242 -0.21962208 -84.732269
9205437500 -0.88287604 119.82969 -8.9104366 -72.362061 -8.9100075 -72.981415 -0.21685489 -84.752312
9205500000 -0.8811903 119.79867 -8.9096746 -72.382996 -8.9116564 -72.936279 -0.22155483 -84.731316
9205562500 -0.88265038 119.81403 -8.9124899 -72.394165 -8.9037771 -72.911598 -0.21640305 -84.707649
9205625000 -0.88336432 119.82697 -8.9101 -72.3862 -8.9114618 -72.94854 -0.21916606 -84.706604
9205687500 -0.88267201 119.79461 -8.9121571 -72.42836 -8.9076586 -72.971123 -0.22216254 -84.708794
9205750000 -0.87599516 119.79618 -8.908082 -72.356293 -8.9245214 -72.920059 -0.23012105 -84.643387
9205812500 -0.88049662 119.78203 -8.9015522 -72.371109 -8.8997746 -72.930038 -0.21354434 -84.628555
9205875000 -0.87931871 119.80481 -8.9145947 -72.396721 -8.9177561 -72.978394 -0.23022719 -84.644882
9205937500 -0.8816539 119.77375 -8.9073353 -72.360138 -8.9122019 -72.962624 -0.22916603 -84.613319
9206000000 -0.87865943 119.76414 -8.904007 -72.399841 -8.9151278 -72.930962 -0.2288769 -84.599762
9206062500 -0.87286061 119.77943 -8.9076281 -72.347321 -8.9116201 -73.005226 -0.23032843 -84.583885
9206125000 -0.87508553 119.73475 -8.9052658 -72.327072 -8.9075241 -72.911034 -0.22424954 -84.557915
9206187500 -0.87538588 119.70479 -8.9112463 -72.371529 -8.8997393 -72.886032 -0.22119536 -84.497009
9206250000 -0.87084532 119.74018 -8.9032707 -72.343613 -8.9009905 -72.928436 -0.22448294 -84.48999
9206312500 -0.87789154 119.71152 -8.9030504 -72.328224 -8.8987846 -72.928703 -0.22129264 -84.444229
9206375000 -0.87829852 119.69976 -8.89711 -72.350952 -8.9035921 -72.907959 -0.22125259 -84.436989
9206437500 -0.87974155 119.68196 -8.9039402 -72.295578 -8.8965092 -72.941742 -0.22243817 -84.471756
9206500000 -0.87878156 119.66997 -8.8951349 -72.288658 -8.8914452 -72.989586 -0.21833284 -84.455452
9206562500 -0.88238829 119.66039 -8.893795 -72.299873 -8.8918724 -72.956131 -0.21302216 -84.422935
9206625000 -0.88442779 119.63637 -8.8974733 -72.332359 -8.89466 -72.955215 -0.21817243 -84.365585
9206687500 -0.88217604 119.61095 -8.8890982 -72.292961 -8.8798294 -72.960197 -0.20918268 -84.356171
9206750000 -0.88167465 119.6044 -8.8862982 -72.316238 -8.8821878 -72.931946 -0.21237986 -84.366081
9206812500 -0.88541269 119.58636 -8.8938417 -72.315018 -8.881114 -72.896027 -0.21809061 -84.267372
9206875000 -0.88480401 119.58406 -8.8912773 -72.249649 -8.8838406 -72.908615 -0.21637729 -84.298492
9206937500 -0.87881756 119.56989 -8.8857069 -72.346481 -8.8855352 -72.992767 -0.22204742 -84.314537
9207000000 -0.8784734 119.5391 -8.8871698 -72.316208 -8.8939657 -72.928482 -0.22961876 -84.261971
9207062500 -0.87671167 119.5349 -8.8923225 -72.339386 -8.887867 -72.913162 -0.2252484 -84.2593
9207125000 -0.87658477 119.49377 -8.8842001 -72.379021 -8.8928471 -72.892021 -0.22985461 -84.263145
9207187500 -0.87848139 119.46874 -8.9020233 -72.368362 -8.8884602 -72.931351 -0.22804359 -84.241783
9207250000 -0.87537122 119.44573 -8.888773 -72.382927 -8.8938522 -72.867943 -0.23284754 -84.186234
9207312500 -0.87503475 119.42068 -8.9038286 -72.361221 -8.887805 -72.897079 -0.23476563 -84.220451
9207375000 -0.87707943 119.41875 -8.8917036 -72.283791 -8.8911486 -72.851868 -0.23393971 -84.156113
9207437500 -0.87648934 119.3651 -8.8911018 -72.431702 -8.8821955 -72.913208 -0.23109579 -84.19062
9207500000 -0.87805212 119.35081 -8.888608 -72.370506 -8.885745 -72.903641 -0.22992818 -84.158798
9207562500 -0.87706196 119.32689 -8.8844128 -72.422867 -8.8821087 -72.928238 -0.22625084 -84.148857
9207625000 -0.87947857 119.34108 -8.8855658 -72.38414 -8.8802118 -72.903008 -0.23325878 -84.127327
9207687500 -0.88081789 119.34293 -8.8881702 -72.304428 -8.8879614 -72.887184 -0.22898518 -84.120308
9207750000 -0.88135898 119.32753 -8.8807993 -72.346176 -8.8857126 -72.890182 -0.2235807 -84.095085
9207812500 -0.88419032 119.30076 -8.8814249 -72.332138 -8.8795805 -72.924904 -0.21667071 -84.070358
9207875000 -0.88489348 119.35062 -8.8882494 -72.259445 -8.875124 -72.960037 -0.22022893 -84.083542
9207937500 -0.8883397 119.31161 -8.8871508 -72.299583 -8.8845253 -72.908768 -0.22157338 -84.00827
9208000000 -0.88571471 119.30887 -8.8814659 -72.309929 -8.8786936 -72.955605 -0.21827909 -84.025742
9208062500 -0.88459969 119.27781 -8.8817177 -72.323959 -8.8799124 -72.870735 -0.2227442 -83.966164
9208125000 -0.88515794 119.28303 -8.8869801 -72.259819 -8.8775721 -72.878807 -0.22081444 -83.929581
9208187500 -0.88059008 119.25759 -8.8881626 -72.340233 -8.8808126 -72.86763 -0.22868873 -83.944977
9208250000 -0.87756509 119.26739 -8.8761301 -72.300163 -8.8823318 -72.899376 -0.23143978 -83.916321
9208312500 -0.88214451 119.22765 -8.8848639 -72.371101 -8.8817091 -72.895805 -0.22934736 -83.932732
9208375000 -0.87618726 119.23544 -8.876832 -72.294373 -8.882328 -72.853584 -0.23789096 -83.84697
9208437500 -0.8801257 119.1795 -8.8800945 -72.316711 -8.8767986 -72.822678 -0.23387371 -83.881859
9208500000 -0.88215494 119.21244 -8.8800688 -72.275917 -8.8774137 -72.87162 -0.22859573 -83.844429
9208562500 -0.87948245 119.1358 -8.871356 -72.337685 -8.8749104 -72.862816 -0.22779249 -83.848923
9208625000 -0.87462622 119.09529 -8.872076 -72.311096 -8.8783216 -72.852287 -0.23204981 -83.81665
9208687500 -0.88567299 119.09939 -8.8831768 -72.326584 -8.8663197 -72.896286 -0.22532515 -83.852318
9208750000 -0.8826232 119.07835 -8.8766241 -72.404762 -8.8711672 -72.819397 -0.22655201 -83.781837
9208812500 -0.87928373 119.08136 -8.8725729 -72.378822 -8.878788 -72.914452 -0.22650188 -83.854439
9208875000 -0.88428283 119.10841 -8.8707495 -72.311432 -8.8754768 -72.892487 -0.22479199 -83.788681
9208937500 -0.88450152 119.11166 -8.8825178 -72.343491 -8.8723679 -72.878952 -0.22460608 -83.811203
9209000000 -0.88474411 119.10607 -8.8767881 -72.35408 -8.873805 -72.857872 -0.23033802 -83.802795
9209062500 -0.8850106 119.16403 -8.8736334 -72.244118 -8.8755732 -72.88768 -0.23454152 -83.772766
9209125000 -0.88217616 119.17822 -8.8744678 -72.241234 -8.8798218 -72.862152 -0.23281239 -83.73745
9209187500 -0.88225204 119.09341 -8.8730211 -72.311775 -8.8770065 -72.802071 -0.2299235 -83.735077
9209250000 -0.88667041 119.08051 -8.8716526 -72.306999 -8.8780355 -72.881012 -0.23178905 -83.698853
9209312500 -0.88289255 119.06129 -8.8679533 -72.275482 -8.8821669 -72.826958 -0.23672532 -83.66571
9209375000 -0.88248491 119.02999 -8.8589125 -72.274132 -8.8772068 -72.817276 -0.23303874 -83.612915
9209437500 -0.87601638 119.01192 -8.8551588 -72.318565 -8.871789 -72.853035 -0.23456949 -83.620529
9209500000 -0.88057834 118.9741 -8.8544331 -72.309074 -8.869318 -72.88147 -0.23138762 -83.622101
9209562500 -0.88367337 118.97079 -8.8714237 -72.285889 -8.8590641 -72.845734 -0.22412421 -83.59893
9209625000 -0.88339931 118.95903 -8.8706741 -72.377426 -8.8723907 -72.869682 -0.22978848 -83.539139
9209687500 -0.88284135 118.93359 -8.8605509 -72.34407 -8.8662148 -72.787865 -0.22614381 -83.503967
9209750000 -0.88506973 118.92944 -8.8577404 -72.316231 -8.8601665 -72.803337 -0.22753784 -83.491631
9209812500 -0.88814676 118.94343 -8.8733835 -72.326195 -8.8565807 -72.797226 -0.21918985 -83.480888
9209875000 -0.88750857 118.92094 -8.860774 -72.354843 -8.862627 -72.822533 -0.22297038 -83.473846
9209937500 -0.8846314 118.88704 -8.8607264 -72.339279 -8.8582125 -72.840019 -0.22604595 -83.465912
9210000000 -0.88488442 118.88742 -8.8607883 -72.295708 -8.8564634 -72.841179 -0.2273922 -83.464096
9210062500 -0.88502717 118.89437 -8.8554964 -72.293877 -8.8590946 -72.842194 -0.22378795 -83.443642
9210125000 -0.87935954 118.83998 -8.8586807 -72.319389 -8.8534498 -72.742279 -0.21482277 -83.407768
9210187500 -0.88070989 118.85886 -8.8647366 -72.243172 -8.8617811 -72.78125 -0.22728997 -83.386108
9210250000 -0.87723917 118.8645 -8.8479738 -72.290146 -8.8590813 -72.798828 -0.22594199 -83.396713
9210312500 -0.88159722 118.82296 -8.8593931 -72.238419 -8.8540764 -72.73909 -0.22825235 -83.364731
9210375000 -0.8744486 118.81341 -8.8542957 -72.232468 -8.8594322 -72.79512 -0.23126538 -83.325722
9210437500 -0.87886077 118.82944 -8.8581648 -72.255135 -8.8505116 -72.769577 -0.23394386 -83.316757
9210500000 -0.87777036 118.74867 -8.8629618 -72.297363 -8.8519888 -72.763275 -0.2296474 -83.321808
9210562500 -0.87926179 118.75901 -8.8602343 -72.250191 -8.8698807 -72.762733 -0.24330033 -83.267662
9210625000 -0.87267435 118.73067 -8.8543577 -72.287369 -8.8603935 -72.778877 -0.23901592 -83.298416
9210687500 -0.87295151 118.70186 -8.8491297 -72.21904 -8.8560419 -72.805771 -0.23945771 -83.24437
9210750000 -0.8769564 118.71511 -8.8586645 -72.258957 -8.8582277 -72.775932 -0.23999879 -83.23172
9210812500 -0.8818903 118.66982 -8.8639832 -72.250153 -8.8528271 -72.788551 -0.24402049 -83.240433
9210875000 -0.86943763 118.61151 -8.8389254 -72.213036 -8.8519335 -72.821533 -0.24396591 -83.168541
9210937500 -0.87947673 118.62978 -8.8540478 -72.246025 -8.850605 -72.764214 -0.23486176 -83.143089
9211000000 -0.88281357 118.62176 -8.8584681 -72.19474 -8.8577967 -72.783539 -0.24228254 -83.161102
9211062500 -0.88687551 118.63029 -8.8542299 -72.226051 -8.8570547 -72.875275 -0.24214894 -83.211502
9211125000 -0.88112372 118.61391 -8.8460236 -72.213394 -8.8521538 -72.794563 -0.24467193 -83.171211
9211187500 -0.88647652 118.61867 -8.8494282 -72.247765 -8.8495674 -72.835945 -0.23737861 -83.194817
9211250000 -0.88968194 118.59624 -8.8511925 -72.313316 -8.8459253 -72.800812 -0.23353504 -83.197319
9211312500 -0.88684589 118.59853 -8.8429193 -72.26268 -8.856451 -72.783089 -0.23688176 -83.189041
9211375000 -0.89055645 118.58602 -8.8467703 -72.37191 -8.8451109 -72.851608 -0.22792007 -83.092812
9211437500 -0.88546652 118.58333 -8.846714 -72.30249 -8.8525658 -72.811951 -0.2350294 -83.091751
9211500000 -0.88253665 118.55849 -8.8453884 -72.260208 -8.8482618 -72.766502 -0.23155315 -83.045631
9211562500 -0.88309693 118.54964 -8.843483 -72.275215 -8.8451691 -72.790169 -0.23662446 -83.081688
9211625000 -0.88298935 118.55445 -8.8482323 -72.20549 -8.8472366 -72.752037 -0.23292476 -82.978828
9211687500 -0.88699621 118.48486 -8.8463612 -72.233261 -8.8515463 -72.737434 -0.2381697 -83.026947
9211750000 -0.88399404 118.5078 -8.8474455 -72.218704 -8.8452911 -72.760117 -0.24527054 -83.033043
9211812500 -0.8776657 118.47245 -8.8406906 -72.237007 -8.847496 -72.739655 -0.24377543 -82.951912
9211875000 -0.8856073 118.44985 -8.8435736 -72.21386 -8.8460293 -72.761147 -0.23633206 -82.957848
9211937500 -0.89104939 118.42454 -8.8529139 -72.218597 -8.8505411 -72.791748 -0.24594089 -82.941055
9212000000 -0.88887268 118.38412 -8.8404322 -72.289406 -8.8442707 -72.692863 -0.23826791 -82.830666
9212062500 -0.89322889 118.39932 -8.8500481 -72.284203 -8.8477154 -72.763145 -0.24535406 -82.838394
9212125000 -0.88805813 118.36298 -8.8402882 -72.273056 -8.8404417 -72.769112 -0.23703693 -82.837151
9212187500 -0.88928604 118.33623 -8.8409405 -72.302635 -8.8409653 -72.752502 -0.23473427 -82.781601
