!Agilent Technologies,N5242A,MY51221714,A.09.90.19
!Agilent N5242A: A.09.90.19
!Date: Saturday, March 16, 2024 10:19:49
!Correction: S11(Full 2 Port(1,2)) 
!S21(Full 2 Port(1,2)) 
!S12(Full 2 Port(1,2)) 
!S22(Full 2 Port(1,2)) 
!S2P File: Measurements: S11, S21, S12, S22:
# Hz S  dB   R 50
9200000000 -0.86647171 121.65294 -9.0943794 -72.247337 -9.0797062 -72.783051 -0.15690094 -86.552895
9200062500 -0.86498731 121.67302 -9.0789433 -72.200142 -9.0819912 -72.815544 -0.15723523 -86.509727
9200125000 -0.86016327 121.65697 -9.0727615 -72.170097 -9.0746832 -72.834679 -0.15652958 -86.549301
9200187500 -0.86373085 121.66303 -9.0855865 -72.206749 -9.0767145 -72.746567 -0.15699124 -86.550461
9200250000 -0.86270177 121.60818 -9.0821466 -72.207352 -9.0723858 -72.807999 -0.15435663 -86.507835
9200312500 -0.8664701 121.60664 -9.0816622 -72.206955 -9.0681057 -72.793747 -0.15801835 -86.487282
9200375000 -0.86096001 121.59576 -9.081007 -72.261536 -9.0614204 -72.874496 -0.15321451 -86.487503
9200437500 -0.85818785 121.58984 -9.0751133 -72.222359 -9.073432 -72.784294 -0.15591849 -86.444366
9200500000 -0.85912436 121.5599 -9.0774298 -72.246689 -9.0664253 -72.805023 -0.16023099 -86.462799
9200562500 -0.86301464 121.56536 -9.0836697 -72.180367 -9.0685701 -72.799492 -0.1686738 -86.401215
9200625000 -0.86485207 121.53927 -9.0873899 -72.195747 -9.0700912 -72.847458 -0.16694303 -86.397522
9200687500 -0.8631587 121.52009 -9.0750351 -72.192879 -9.0630636 -72.800941 -0.16635884 -86.369331
9200750000 -0.86301184 121.52202 -9.0836134 -72.172195 -9.062397 -72.778099 -0.17032632 -86.291801
9200812500 -0.86551142 121.49759 -9.0818815 -72.151962 -9.0655308 -72.719009 -0.1623437 -86.258926
9200875000 -0.8633582 121.51511 -9.0719576 -72.125702 -9.0617495 -72.777863 -0.17142953 -86.269089
9200937500 -0.86471343 121.47642 -9.0785913 -72.148216 -9.068861 -72.799416 -0.17120732 -86.231018
9201000000 -0.86199242 121.40857 -9.0773573 -72.17347 -9.0601902 -72.800758 -0.16884185 -86.239723
9201062500 -0.85662901 121.43548 -9.0684614 -72.16613 -9.0640745 -72.794907 -0.16972901 -86.193481
9201125000 -0.85993505 121.42046 -9.0749416 -72.104294 -9.0641613 -72.746407 -0.16098495 -86.166153
9201187500 -0.85440928 121.44314 -9.0633678 -72.13768 -9.0560036 -72.809631 -0.16529828 -86.186874
9201250000 -0.86168551 121.40145 -9.0686522 -72.167839 -9.0597124 -72.807709 -0.15897971 -86.215515
9201312500 -0.86096156 121.36705 -9.0643578 -72.228859 -9.0522528 -72.778023 -0.16229382 -86.168755
9201375000 -0.86573625 121.35838 -9.0753374 -72.209099 -9.0662384 -72.782524 -0.16566159 -86.189857
9201437500 -0.85744101 121.3626 -9.0709429 -72.158546 -9.0710888 -72.796959 -0.16665296 -86.182457
9201500000 -0.8625862 121.33681 -9.0721207 -72.166847 -9.0517635 -72.753082 -0.16019417 -86.147873
9201562500 -0.86197227 121.34856 -9.0692739 -72.20285 -9.0642347 -72.745201 -0.16044289 -86.122513
9201625000 -0.86430603 121.32428 -9.0847301 -72.181938 -9.0596285 -72.714325 -0.16502374 -86.082062
9201687500 -0.86460632 121.3159 -9.0745564 -72.180344 -9.0625486 -72.721466 -0.1659148 -86.079239
9201750000 -0.85837883 121.32367 -9.0739384 -72.129929 -9.0570936 -72.782471 -0.17117764 -86.087799
9201812500 -0.86661029 121.26875 -9.0713406 -72.194931 -9.0539942 -72.686569 -0.16299477 -86.018867
9201875000 -0.86059189 121.26421 -9.0689936 -72.156761 -9.059473 -72.714584 -0.17122146 -86.029915
9201937500 -0.86232376 121.23827 -9.0638866 -72.243172 -9.0551357 -72.739647 -0.17020659 -85.990395
9202000000 -0.8625946 121.23808 -9.0702257 -72.141762 -9.0588713 -72.710602 -0.1677895 -85.950142
9202062500 -0.86553264 121.2467 -9.07232 -72.056824 -9.0512896 -72.760269 -0.16673256 -85.970123
9202125000 -0.85864604 121.21973 -9.0626593 -72.161598 -9.0549927 -72.714882 -0.16692904 -85.947075
9202187500 -0.86166668 121.18368 -9.0569515 -72.145203 -9.0553646 -72.753082 -0.16417092 -85.917206
9202250000 -0.86588359 121.13623 -9.0563745 -72.259323 -9.0559835 -72.760925 -0.16888522 -85.931625
9202312500 -0.86377883 121.16163 -9.0524311 -72.173058 -9.0484915 -72.807236 -0.16096196 -85.916481
9202375000 -0.86443591 121.15604 -9.0490112 -72.129089 -9.0587521 -72.779793 -0.16410755 -85.919464
9202437500 -0.86378121 121.13618 -9.0503016 -72.180038 -9.056695 -72.742058 -0.17035817 -85.863228
9202500000 -0.86369973 121.09341 -9.0517044 -72.184349 -9.0497284 -72.737198 -0.16605128 -85.815056
9202562500 -0.86657101 121.08419 -9.059103 -72.18158 -9.0480509 -72.728943 -0.16936055 -85.789322
9202625000 -0.86382252 121.1292 -9.0560875 -72.128548 -9.0522919 -72.75663 -0.17136057 -85.817345
9202687500 -0.86587429 121.07819 -9.0621204 -72.203171 -9.0583153 -72.759331 -0.18472227 -85.818245
9202750000 -0.86714035 121.10208 -9.0661764 -72.139786 -9.0483646 -72.767296 -0.17713144 -85.770218
9202812500 -0.86409342 121.06171 -9.0610847 -72.165108 -9.0520363 -72.698814 -0.17251171 -85.743256
9202875000 -0.865466 121.02525 -9.0585003 -72.170341 -9.04811 -72.69796 -0.17009035 -85.720886
9202937500 -0.86142433 121.02924 -9.0559483 -72.163719 -9.0416346 -72.795181 -0.16860329 -85.73777
9203000000 -0.86493218 121.03814 -9.0545149 -72.138092 -9.0444689 -72.738701 -0.1720504 -85.651001
9203062500 -0.85960633 120.97339 -9.0549974 -72.142326 -9.0481644 -72.733223 -0.16917478 -85.669289
9203125000 -0.85813111 120.93992 -9.0547571 -72.184784 -9.0454483 -72.699013 -0.17119139 -85.650864
9203187500 -0.86367875 120.97857 -9.0464802 -72.137001 -9.0405159 -72.777321 -0.16924566 -85.638542
9203250000 -0.86028719 120.96235 -9.0511312 -72.139473 -9.0472422 -72.743561 -0.1717331 -85.598534
9203312500 -0.86590409 120.97358 -9.0451469 -72.152069 -9.0412493 -72.727608 -0.17109907 -85.595665
9203375000 -0.86454481 120.92683 -9.0477695 -72.135635 -9.0447874 -72.724686 -0.1671918 -85.562759
9203437500 -0.86187607 120.91947 -9.0463333 -72.147736 -9.0470047 -72.737045 -0.17042445 -85.54512
9203500000 -0.86491495 120.91882 -9.0517349 -72.130959 -9.0406265 -72.777992 -0.16229564 -85.556839
9203562500 -0.86447734 120.89559 -9.0462084 -72.167526 -9.0494184 -72.769829 -0.17200474 -85.545105
9203625000 -0.86066794 120.88239 -9.0433159 -72.135979 -9.0435915 -72.74398 -0.16921346 -85.479439
9203687500 -0.86305183 120.88113 -9.0419321 -72.138657 -9.0418844 -72.713654 -0.1781891 -85.487175
9203750000 -0.85804677 120.80537 -9.0357304 -72.207298 -9.0436087 -72.648201 -0.17092048 -85.435379
9203812500 -0.86291897 120.80618 -9.048934 -72.17157 -9.0434141 -72.724648 -0.17522335 -85.467827
9203875000 -0.86417621 120.81874 -9.0521374 -72.114723 -9.0404625 -72.700661 -0.17925408 -85.440353
9203937500 -0.86322707 120.82169 -9.0426712 -72.116272 -9.0330973 -72.68219 -0.18126905 -85.424767
9204000000 -0.85902381 120.79301 -9.0422125 -72.178429 -9.0308857 -72.737137 -0.18708077 -85.412933
9204062500 -0.85564625 120.76761 -9.0483923 -72.172195 -9.0335197 -72.709427 -0.17964697 -85.422279
9204125000 -0.85737503 120.76125 -9.0499029 -72.133995 -9.0238819 -72.709534 -0.18426505 -85.354477
9204187500 -0.85361385 120.75777 -9.0386906 -72.117996 -9.029911 -72.631477 -0.18711229 -85.346367
9204250000 -0.85122281 120.76324 -9.0442162 -72.082832 -9.0282497 -72.67701 -0.1869743 -85.355705
9204312500 -0.85253704 120.71294 -9.042654 -72.126358 -9.0299492 -72.727463 -0.18067314 -85.301117
9204375000 -0.85686731 120.7086 -9.0478897 -72.073006 -9.0273895 -72.66716 -0.17910305 -85.29277
9204437500 -0.85455436 120.65865 -9.0349808 -72.088997 -9.026041 -72.685509 -0.17784983 -85.257622
9204500000 -0.85214895 120.69909 -9.033123 -72.078087 -9.030385 -72.705193 -0.17739147 -85.238045
9204562500 -0.85450572 120.68622 -9.0395908 -72.07695 -9.0304785 -72.667389 -0.17159919 -85.249565
9204625000 -0.85182655 120.62405 -9.0308619 -72.140488 -9.0329628 -72.708687 -0.17614315 -85.237686
9204687500 -0.85846442 120.64163 -9.0421705 -72.073723 -9.0213757 -72.64196 -0.17057702 -85.204308
9204750000 -0.8595565 120.61201 -9.034379 -72.171158 -9.0189734 -72.680954 -0.17707101 -85.224983
9204812500 -0.85637587 120.62603 -9.0267973 -72.08432 -9.0243044 -72.685837 -0.17828085 -85.17009
9204875000 -0.85881644 120.64187 -9.0233746 -72.075722 -9.0224514 -72.716484 -0.17438729 -85.164162
9204937500 -0.85754842 120.63895 -9.0334902 -72.036385 -9.0154676 -72.735229 -0.17646761 -85.167633
9205000000 -0.8655743 120.58218 -9.0279274 -72.051048 -9.010745 -72.67733 -0.17373483 -85.146187
9205062500 -0.8613255 120.57425 -9.0302639 -72.065613 -9.0242281 -72.684746 -0.17827748 -85.143852
9205125000 -0.86297119 120.53821 -9.0354176 -72.095917 -9.027667 -72.681892 -0.17372401 -85.070457
9205187500 -0.86569881 120.4978 -9.0306311 -72.10112 -9.024806 -72.656738 -0.17998569 -85.058868
9205250000 -0.86979812 120.49131 -9.0285444 -72.045937 -9.0251427 -72.658401 -0.17819093 -85.050735
9205312500 -0.86575329 120.48121 -9.0283031 -72.062584 -9.0240736 -72.709427 -0.17513199 -85.05777
9205375000 -0.86649048 120.43043 -9.0203342 -72.064217 -9.0191269 -72.595085 -0.17056128 -85.00415
9205437500 -0.86484194 120.44092 -9.027072 -72.039276 -9.0236168 -72.672882 -0.1716364 -85.01442
9205500000 -0.86258733 120.42334 -9.0232439 -72.062691 -9.0230198 -72.659775 -0.17097208 -84.968765
9205562500 -0.8593415 120.41852 -9.0253143 -72.09343 -9.0213165 -72.647606 -0.17795482 -84.981873
9205625000 -0.86642861 120.41124 -9.0325012 -72.058624 -9.0283718 -72.684082 -0.18144768 -84.97805
9205687500 -0.86017859 120.41753 -9.0216742 -72.069511 -9.0313225 -72.639641 -0.17976253 -84.983765
9205750000 -0.86326939 120.39812 -9.0189075 -72.076218 -9.0275879 -72.647453 -0.17662087 -84.931877
9205812500 -0.85519767 120.36013 -9.0192289 -72.097832 -9.0269985 -72.589424 -0.18174931 -84.887062
9205875000 -0.85899621 120.3593 -9.0293903 -72.063461 -9.0268936 -72.64798 -0.18149395 -84.878929
9205937500 -0.85593498 120.33904 -9.0193424 -72.088341 -9.0304384 -72.609375 -0.18381096 -84.857544
9206000000 -0.85449588 120.35387 -9.0229435 -72.063019 -9.0293541 -72.622154 -0.1801378 -84.843178
9206062500 -0.8553983 120.32075 -9.0165138 -72.069366 -9.020566 -72.611183 -0.18262704 -84.837891
9206125000 -0.85687464 120.34805 -9.0257902 -72.016136 -9.0212498 -72.634743 -0.17852351 -84.781067
9206187500 -0.85701996 120.33113 -9.0164595 -72.013039 -9.012044 -72.672821 -0.17606047 -84.796722
9206250000 -0.85543388 120.33374 -9.0184898 -72.01722 -9.0180521 -72.632423 -0.18014592 -84.779495
9206312500 -0.86055207 120.30977 -9.0137386 -72.031929 -9.0109491 -72.601814 -0.17906152 -84.765213
9206375000 -0.85420281 120.3035 -9.0153332 -72.060883 -9.0155716 -72.645493 -0.17451714 -84.771721
9206437500 -0.86089629 120.28526 -9.0161095 -72.030746 -9.0027847 -72.689743 -0.16455045 -84.761093
9206500000 -0.86238706 120.24992 -9.0112276 -72.038475 -9.0046434 -72.671448 -0.17848808 -84.682182
9206562500 -0.85587972 120.24954 -9.0101013 -71.994354 -8.9974756 -72.667473 -0.16568089 -84.653069
9206625000 -0.86164635 120.22787 -9.0127392 -72.028198 -8.9980459 -72.643242 -0.16877171 -84.672043
9206687500 -0.85989523 120.23707 -9.001543 -71.985794 -9.0022736 -72.589996 -0.16491085 -84.618637
9206750000 -0.86114168 120.2351 -9.0043478 -71.982452 -8.9992399 -72.607849 -0.16576779 -84.588318
9206812500 -0.85971308 120.21184 -8.9984045 -71.934067 -8.9974813 -72.557693 -0.16641678 -84.542419
9206875000 -0.86386001 120.1704 -9.0045519 -72.046661 -8.9971104 -72.647346 -0.16669817 -84.557777
9206937500 -0.85809726 120.12891 -9.0040331 -71.945114 -8.9981613 -72.594841 -0.17069453 -84.48864
9207000000 -0.8542282 120.14887 -9.0064993 -71.960159 -9.011385 -72.645454 -0.18063588 -84.528465
9207062500 -0.85431945 120.12721 -9.0062246 -72.028946 -9.0090914 -72.635696 -0.17882974 -84.546082
9207125000 -0.85956371 120.09039 -9.0048103 -71.993149 -9.0029125 -72.657951 -0.18290821 -84.545113
9207187500 -0.85498345 120.08176 -9.013361 -71.994514 -9.0062513 -72.628578 -0.18597873 -84.516121
9207250000 -0.8549068 120.05354 -9.0064697 -72.037285 -9.0006561 -72.591255 -0.18569963 -84.481499
9207312500 -0.85742271 120.02197 -9.0103693 -72.093666 -8.9978828 -72.616341 -0.18677171 -84.485909
9207375000 -0.85198081 120.00237 -8.9997063 -72.120728 -9.0032034 -72.572983 -0.17915241 -84.508102
9207437500 -0.85585797 119.96374 -9.0024757 -72.03643 -9.0003986 -72.574821 -0.18771002 -84.453522
9207500000 -0.85184616 119.95453 -8.9943018 -72.055641 -8.9978237 -72.5718 -0.18588921 -84.434166
9207562500 -0.85904515 119.93526 -8.9994078 -72.098785 -9.0004873 -72.621315 -0.18396045 -84.437408
9207625000 -0.86263341 119.91971 -9.0076399 -72.108208 -8.9906616 -72.605965 -0.18723638 -84.401802
9207687500 -0.86279047 119.91665 -9.0016661 -72.078629 -8.9947796 -72.572258 -0.17502524 -84.38652
9207750000 -0.86407411 119.91998 -9.0048504 -72.043114 -8.9925709 -72.5728 -0.17932096 -84.303368
9207812500 -0.86167288 119.92131 -8.9992094 -72.105232 -8.9944029 -72.61969 -0.17372516 -84.360519
9207875000 -0.86671388 119.90792 -9.0061121 -72.050636 -8.9919672 -72.629532 -0.16981789 -84.309425
9207937500 -0.86531574 119.89481 -8.9909019 -72.060944 -8.9933844 -72.661972 -0.16886957 -84.327942
9208000000 -0.86422944 119.92185 -8.9995527 -72.050461 -8.9983301 -72.634407 -0.17802936 -84.281395
9208062500 -0.86340111 119.90267 -8.9962912 -71.973045 -8.9973335 -72.59359 -0.17961411 -84.222595
9208125000 -0.8645224 119.87619 -9.0001783 -71.994659 -9.0024776 -72.62365 -0.18355712 -84.237602
9208187500 -0.86620939 119.87832 -9.0118332 -71.958145 -8.9990559 -72.58345 -0.18572345 -84.192558
9208250000 -0.85789669 119.89814 -8.9960012 -71.951561 -8.9959335 -72.559685 -0.18487942 -84.179276
9208312500 -0.86114115 119.85176 -8.9994345 -72.02684 -8.9951696 -72.605545 -0.18543909 -84.208618
9208375000 -0.85401642 119.82706 -8.9894104 -71.967949 -8.9995146 -72.52095 -0.19228995 -84.153893
9208437500 -0.86437351 119.80441 -8.9891882 -71.981789 -8.9915552 -72.557129 -0.19086902 -84.1343
9208500000 -0.85733551 119.81101 -8.9901142 -71.932503 -8.9882498 -72.558151 -0.18378201 -84.104317
9208562500 -0.86273009 119.78947 -8.9896822 -71.980637 -8.9900599 -72.525848 -0.18763129 -84.091629
9208625000 -0.8595593 119.72516 -8.9841585 -72.042709 -8.9890251 -72.546028 -0.18293862 -84.114288
9208687500 -0.85617191 119.70105 -8.9811668 -72.05011 -8.9895039 -72.538589 -0.18462637 -84.078232
9208750000 -0.86085534 119.69908 -8.99508 -72.043602 -8.9899015 -72.515244 -0.17685898 -84.05632
9208812500 -0.85832298 119.68945 -8.9777613 -72.056534 -8.9847851 -72.554359 -0.17605475 -84.064201
9208875000 -0.86495852 119.70738 -8.9827614 -71.984192 -8.9814796 -72.621132 -0.17615944 -84.089668
9208937500 -0.86676043 119.69241 -8.9890509 -72.0578 -8.9924374 -72.588402 -0.18866973 -84.065323
9209000000 -0.8588677 119.71593 -8.9925928 -71.989441 -8.9865332 -72.530487 -0.18480606 -84.021919
9209062500 -0.86304563 119.72272 -8.9896851 -71.988434 -8.992713 -72.508049 -0.18477577 -84.011116
9209125000 -0.86355948 119.74199 -8.9805069 -71.964172 -8.9900761 -72.599129 -0.18931974 -84.011658
9209187500 -0.86003172 119.70177 -8.976079 -71.983231 -8.9886904 -72.508484 -0.18200488 -83.957451
9209250000 -0.86069 119.69254 -8.9796543 -71.995338 -8.9819174 -72.555092 -0.18077379 -83.985916
9209312500 -0.85891372 119.61787 -8.9819002 -72.012177 -8.9803743 -72.533424 -0.18276708 -83.931389
9209375000 -0.86099404 119.64992 -8.9815636 -71.952927 -8.9855499 -72.545227 -0.18266015 -83.923309
9209437500 -0.86053461 119.60075 -8.9792242 -71.957779 -8.9862127 -72.511063 -0.19159421 -83.842209
9209500000 -0.85539627 119.58492 -8.973155 -72.001572 -8.9842386 -72.489105 -0.17904018 -83.852592
9209562500 -0.86114675 119.56841 -8.9778833 -71.975235 -8.9863186 -72.507866 -0.18723802 -83.852272
9209625000 -0.86437821 119.54432 -8.9799728 -72.006577 -8.9787397 -72.512085 -0.18271942 -83.869164
9209687500 -0.8646583 119.54585 -8.9701242 -72.033302 -8.9764986 -72.477699 -0.18171398 -83.817307
9209750000 -0.86770606 119.53069 -8.9854403 -72.003136 -8.9835777 -72.534653 -0.18497664 -83.776093
9209812500 -0.85995674 119.54247 -8.9691057 -71.973969 -8.9754028 -72.477425 -0.17792268 -83.753769
9209875000 -0.86636209 119.52657 -8.9908667 -72.022774 -8.9801617 -72.479118 -0.17963703 -83.715706
9209937500 -0.86227763 119.5148 -8.9818821 -71.967964 -8.9801941 -72.489906 -0.18341568 -83.731361
9210000000 -0.86554223 119.48226 -8.9832697 -71.999802 -8.9714918 -72.481171 -0.17838153 -83.677345
9210062500 -0.86075848 119.45389 -8.9721508 -71.94017 -8.9680452 -72.513817 -0.17407374 -83.685257
9210125000 -0.86074674 119.45214 -8.9766855 -71.986343 -8.9735651 -72.485466 -0.17263198 -83.672401
9210187500 -0.8597005 119.47001 -8.979413 -71.953178 -8.9698954 -72.415199 -0.18184635 -83.657845
9210250000 -0.85979879 119.43246 -8.9745426 -71.999718 -8.9637375 -72.466202 -0.17696406 -83.66008
9210312500 -0.85998791 119.38167 -8.9796343 -72.044983 -8.9639244 -72.447327 -0.1793908 -83.635406
9210375000 -0.85636902 119.41006 -8.9759626 -71.945442 -8.9622679 -72.484451 -0.18233329 -83.61396
9210437500 -0.85313094 119.3944 -8.9704437 -71.94796 -8.9746132 -72.489914 -0.19311933 -83.611725
9210500000 -0.85362709 119.36922 -8.9654694 -71.936768 -8.9660969 -72.466782 -0.18283236 -83.558769
9210562500 -0.85907 119.37766 -8.9749479 -71.984413 -8.9754944 -72.515976 -0.19682156 -83.562279
9210625000 -0.85252404 119.3549 -8.9762306 -71.866814 -8.9703894 -72.441086 -0.19230641 -83.511681
9210687500 -0.85481602 119.26241 -8.973031 -71.984299 -8.9667549 -72.420143 -0.19260778 -83.489487
9210750000 -0.85675371 119.30026 -8.9705334 -71.966705 -8.9626017 -72.4842 -0.19204646 -83.498222
9210812500 -0.85132086 119.26501 -8.9662952 -71.906715 -8.9698973 -72.485512 -0.18835445 -83.510468
9210875000 -0.86177361 119.24341 -8.9714575 -71.960503 -8.9642868 -72.503357 -0.19515631 -83.47303
9210937500 -0.85629112 119.23292 -8.9700308 -71.85244 -8.964901 -72.495056 -0.19017455 -83.455353
9211000000 -0.8580783 119.22125 -8.9610062 -71.920311 -8.9673548 -72.492149 -0.19754247 -83.401436
9211062500 -0.86219376 119.21339 -8.9729958 -71.907784 -8.9573202 -72.494186 -0.18894462 -83.427994
9211125000 -0.86473286 119.22311 -8.9724302 -71.915977 -8.9716387 -72.513718 -0.19097075 -83.464935
9211187500 -0.86169297 119.19358 -8.9624662 -71.957832 -8.9694977 -72.52433 -0.19281846 -83.426155
9211250000 -0.86231399 119.20859 -8.9624567 -71.999512 -8.961792 -72.510658 -0.18539037 -83.443718
9211312500 -0.86056793 119.23409 -8.9579048 -71.965179 -8.9664354 -72.488052 -0.18833965 -83.491142
9211375000 -0.86602688 119.20322 -8.9625101 -71.951302 -8.9626808 -72.432022 -0.18079035 -83.319321
9211437500 -0.86291826 119.18958 -8.9568567 -71.97139 -8.9625072 -72.522751 -0.188326 -83.336517
9211500000 -0.86354154 119.20795 -8.9604282 -71.931931 -8.9624605 -72.462769 -0.18239781 -83.327385
9211562500 -0.86248064 119.15636 -8.9629822 -71.964066 -8.9564457 -72.442024 -0.18549465 -83.294907
9211625000 -0.86359823 119.12906 -8.957695 -71.900375 -8.9568529 -72.461433 -0.18735011 -83.282272
9211687500 -0.86466956 119.12641 -8.961421 -71.92038 -8.9636612 -72.483505 -0.19555366 -83.303017
9211750000 -0.8598789 119.08368 -8.9596643 -71.937752 -8.9627275 -72.458496 -0.19961916 -83.257614
9211812500 -0.86729741 119.05659 -8.9619703 -71.949745 -8.9642363 -72.413261 -0.19840324 -83.179306
9211875000 -0.86751151 119.06502 -8.9633322 -71.964928 -8.9602394 -72.445847 -0.19800581 -83.162331
9211937500 -0.86761802 119.03638 -8.9549961 -71.956902 -8.9550104 -72.385391 -0.195871 -83.151062
9212000000 -0.8685841 118.9845 -8.9517784 -71.956512 -8.9540787 -72.435257 -0.19181764 -83.174225
9212062500 -0.867998 118.97008 -8.949688 -72.019653 -8.9603243 -72.506569 -0.19920753 -83.130013
9212125000 -0.86964649 118.93153 -8.9558725 -71.991058 -8.9529829 -72.409149 -0.19745627 -83.07653
9212187500 -0.86770195 118.8876 -8.9523907 -71.930222 -8.95327 -72.402092 -0.19867285 -83.06382
