!Agilent Technologies,N5242A,MY51221714,A.09.90.19
!Agilent N5242A: A.09.90.19
!Date: Saturday, March 16, 2024 10:18:49
!Correction: S11(Full 2 Port(1,2)) 
!S21(Full 2 Port(1,2)) 
!S12(Full 2 Port(1,2)) 
!S22(Full 2 Port(1,2)) 
!S2P File: Measurements: S11, S21, S12, S22:
# Hz S  dB   R 50
9200000000 -0.86990416 121.5515 -9.0922861 -72.263565 -9.0858421 -72.780159 -0.15436573 -86.359306
9200062500 -0.87039453 121.60748 -9.0929766 -72.205574 -9.0892038 -72.796989 -0.15962666 -86.339729
9200125000 -0.86827791 121.57386 -9.0909214 -72.161537 -9.0795135 -72.792076 -0.15144576 -86.3703
9200187500 -0.86493146 121.5602 -9.0865011 -72.217461 -9.0869589 -72.774643 -0.15129563 -86.316933
9200250000 -0.86710256 121.57054 -9.0913239 -72.16114 -9.0812159 -72.772957 -0.15515016 -86.28685
9200312500 -0.8612389 121.52657 -9.0966501 -72.181496 -9.0685654 -72.760063 -0.14823073 -86.30323
9200375000 -0.86253923 121.51739 -9.087924 -72.212761 -9.0712214 -72.821129 -0.15083703 -86.309158
9200437500 -0.85929376 121.48233 -9.0869598 -72.216377 -9.0834084 -72.820992 -0.15395677 -86.304672
9200500000 -0.85937041 121.45145 -9.0873899 -72.246063 -9.0750036 -72.769157 -0.15170629 -86.261086
9200562500 -0.86471605 121.48754 -9.0896263 -72.199547 -9.0707531 -72.80014 -0.15981275 -86.211327
9200625000 -0.86581939 121.45266 -9.0911198 -72.19838 -9.0665131 -72.80127 -0.16056873 -86.220779
9200687500 -0.86508858 121.446 -9.0991211 -72.113853 -9.0679026 -72.746803 -0.16056642 -86.166786
9200750000 -0.8638925 121.44437 -9.0921383 -72.123131 -9.0726509 -72.77359 -0.15859611 -86.14991
9200812500 -0.8636654 121.43204 -9.0970316 -72.141083 -9.0712967 -72.778381 -0.16558136 -86.173828
9200875000 -0.86108333 121.41206 -9.087121 -72.159241 -9.0597715 -72.768082 -0.16023551 -86.106476
9200937500 -0.86638683 121.41712 -9.0944366 -72.169128 -9.0693769 -72.735748 -0.16681117 -86.064995
9201000000 -0.8594895 121.37391 -9.0803289 -72.095291 -9.062151 -72.769547 -0.16275397 -86.031754
9201062500 -0.85900718 121.36392 -9.0824976 -72.145996 -9.0759516 -72.746368 -0.1650714 -86.025627
9201125000 -0.86247158 121.36737 -9.0816345 -72.105377 -9.0605755 -72.736061 -0.16016103 -86.038528
9201187500 -0.85500515 121.33058 -9.0724573 -72.136093 -9.0741711 -72.769836 -0.16857521 -86.011284
9201250000 -0.85862052 121.30164 -9.080883 -72.173302 -9.0727654 -72.747765 -0.1635772 -86.006378
9201312500 -0.85789025 121.29263 -9.0723267 -72.198708 -9.0656881 -72.718658 -0.1595988 -85.981651
9201375000 -0.86189234 121.30361 -9.0781384 -72.155914 -9.0776653 -72.782852 -0.16540004 -86.023079
9201437500 -0.86438578 121.28 -9.0821295 -72.173141 -9.0660915 -72.763916 -0.15856205 -86.017334
9201500000 -0.86688429 121.28892 -9.082777 -72.174339 -9.064537 -72.780991 -0.16074196 -86.016075
9201562500 -0.86321455 121.29037 -9.0793571 -72.142395 -9.0693951 -72.716446 -0.16409989 -85.968201
9201625000 -0.8695938 121.26195 -9.0866594 -72.139069 -9.0636368 -72.697205 -0.15690242 -85.959312
9201687500 -0.86150593 121.24583 -9.0792427 -72.085426 -9.0694914 -72.727432 -0.15855458 -85.900459
9201750000 -0.86190945 121.18271 -9.0815134 -72.193481 -9.0660648 -72.697731 -0.16320893 -85.863556
9201812500 -0.86329144 121.22358 -9.0817757 -72.134689 -9.0644732 -72.696976 -0.161506 -85.896484
9201875000 -0.85708624 121.17062 -9.0697737 -72.200882 -9.0640526 -72.698807 -0.16106914 -85.83754
9201937500 -0.85807639 121.15954 -9.0681658 -72.137825 -9.0624924 -72.720306 -0.1642036 -85.832672
9202000000 -0.85944462 121.15054 -9.0700178 -72.156326 -9.0572758 -72.702141 -0.16417845 -85.838013
9202062500 -0.85406017 121.09968 -9.0619659 -72.126396 -9.0642681 -72.727577 -0.15779999 -85.791832
9202125000 -0.86072373 121.13332 -9.0604467 -72.119995 -9.0604181 -72.730003 -0.1654865 -85.798805
9202187500 -0.85816258 121.12047 -9.0619421 -72.115936 -9.0662584 -72.690491 -0.15829325 -85.784821
9202250000 -0.85401487 121.11673 -9.0608721 -72.133301 -9.058876 -72.789368 -0.16453753 -85.759102
9202312500 -0.85852724 121.09207 -9.0645123 -72.123695 -9.0504904 -72.69902 -0.15840155 -85.720856
9202375000 -0.86627996 121.12214 -9.0644493 -72.09108 -9.0674715 -72.709511 -0.16670412 -85.690201
9202437500 -0.86141771 121.09515 -9.0584631 -72.109795 -9.0639381 -72.726128 -0.16731028 -85.651611
9202500000 -0.86201257 121.05551 -9.0668468 -72.104927 -9.0609751 -72.752495 -0.1676731 -85.675575
9202562500 -0.86151636 121.04794 -9.0604134 -72.144699 -9.072999 -72.757973 -0.17202988 -85.671867
9202625000 -0.86226588 121.0453 -9.0642853 -72.084038 -9.060132 -72.76561 -0.16544347 -85.633781
9202687500 -0.8605535 121.00396 -9.0616465 -72.135712 -9.06917 -72.680794 -0.17337815 -85.612526
9202750000 -0.86403954 121.01759 -9.0716839 -72.120285 -9.0568962 -72.640938 -0.16835161 -85.562653
9202812500 -0.86436522 120.98324 -9.0715771 -72.129364 -9.0545931 -72.704376 -0.17141829 -85.551338
9202875000 -0.8658039 120.97878 -9.0711298 -72.06871 -9.0536442 -72.703423 -0.17056999 -85.529045
9202937500 -0.86004943 120.9769 -9.0502777 -72.060791 -9.0568857 -72.720612 -0.16022316 -85.522591
9203000000 -0.85858285 120.94109 -9.0603905 -72.11174 -9.0537043 -72.732803 -0.16702387 -85.549133
9203062500 -0.85969108 120.90162 -9.056179 -72.206215 -9.0532484 -72.67569 -0.1616025 -85.498024
9203125000 -0.85721171 120.89886 -9.0579042 -72.154488 -9.0571747 -72.708542 -0.17219645 -85.500481
9203187500 -0.86272603 120.88529 -9.0536118 -72.1577 -9.0556297 -72.716003 -0.1635866 -85.459167
9203250000 -0.86290723 120.89987 -9.0583782 -72.097168 -9.0508585 -72.686577 -0.1601422 -85.422897
9203312500 -0.86062819 120.85152 -9.0492764 -72.1474 -9.0478315 -72.70533 -0.16493298 -85.386536
9203375000 -0.86534506 120.87425 -9.058033 -72.121094 -9.0563602 -72.745468 -0.17130986 -85.389397
9203437500 -0.86354995 120.8686 -9.0505791 -72.06414 -9.0477276 -72.712029 -0.16484182 -85.380989
9203500000 -0.85821962 120.83827 -9.0622244 -72.138618 -9.0496387 -72.67347 -0.16755225 -85.342438
9203562500 -0.85907888 120.83897 -9.0609303 -72.084496 -9.0532284 -72.643791 -0.17190346 -85.328423
9203625000 -0.85843116 120.79974 -9.0503731 -72.153519 -9.0516796 -72.680336 -0.16653569 -85.318413
9203687500 -0.86405689 120.78052 -9.0501232 -72.163849 -9.0550623 -72.686783 -0.17562388 -85.293816
9203750000 -0.86106539 120.79146 -9.0549965 -72.12606 -9.0483627 -72.664513 -0.17362012 -85.239922
9203812500 -0.8648572 120.76104 -9.0594263 -72.105431 -9.0537529 -72.648979 -0.17878619 -85.253487
9203875000 -0.85991544 120.72069 -9.0506983 -72.148125 -9.045743 -72.680237 -0.17301486 -85.261002
9203937500 -0.86171269 120.72195 -9.0466833 -72.173828 -9.0439854 -72.700562 -0.17432025 -85.248161
9204000000 -0.8593787 120.75294 -9.05441 -72.05249 -9.0442734 -72.719704 -0.17884745 -85.283386
9204062500 -0.85715705 120.69443 -9.0521984 -72.091629 -9.0389147 -72.618622 -0.17662342 -85.182579
9204125000 -0.85868102 120.6989 -9.0662146 -72.107582 -9.0297508 -72.681412 -0.17625812 -85.186531
9204187500 -0.85566622 120.6773 -9.0524273 -72.161171 -9.0360918 -72.718369 -0.18438123 -85.224701
9204250000 -0.85406142 120.64329 -9.049509 -72.100136 -9.0358381 -72.671494 -0.1796757 -85.165901
9204312500 -0.85961843 120.61536 -9.0520563 -72.132095 -9.0352926 -72.632523 -0.17132664 -85.123726
9204375000 -0.85684747 120.62798 -9.0512762 -72.045036 -9.032383 -72.63092 -0.17714813 -85.067558
9204437500 -0.85240632 120.58466 -9.0472221 -72.094704 -9.0472937 -72.640671 -0.1743962 -85.07357
9204500000 -0.8444258 120.58336 -9.0390263 -72.026108 -9.0384312 -72.620872 -0.17458133 -85.046593
9204562500 -0.852615 120.56748 -9.0493889 -72.062439 -9.0350075 -72.598495 -0.16878016 -85.053017
9204625000 -0.85363305 120.57921 -9.0407763 -72.050102 -9.0365105 -72.623848 -0.17264102 -85.025742
9204687500 -0.85222787 120.57008 -9.0337515 -72.079338 -9.0417509 -72.686852 -0.17661695 -85.003265
9204750000 -0.85447091 120.56235 -9.0377321 -72.055176 -9.0364962 -72.627289 -0.17009382 -85.012871
9204812500 -0.85287207 120.55462 -9.0439777 -72.023209 -9.0346527 -72.666489 -0.17452048 -84.990547
9204875000 -0.85847121 120.53007 -9.0394545 -72.014374 -9.0334063 -72.682343 -0.17830874 -85.002922
9204937500 -0.85904562 120.53294 -9.0433569 -72.022362 -9.0299768 -72.588867 -0.16830154 -84.936188
9205000000 -0.85604674 120.53034 -9.0459661 -72.019409 -9.0320206 -72.637634 -0.17727485 -84.955643
9205062500 -0.85702711 120.51963 -9.0416021 -72.000648 -9.0320005 -72.675453 -0.16993879 -84.964294
9205125000 -0.85934585 120.49889 -9.0331993 -72.001366 -9.0234461 -72.650322 -0.17149608 -84.947144
9205187500 -0.86298335 120.45619 -9.0331392 -72.02549 -9.0299349 -72.673203 -0.17036165 -84.93663
9205250000 -0.86552161 120.40237 -9.0406427 -72.060059 -9.0464363 -72.647743 -0.17754093 -84.902939
9205312500 -0.86415386 120.39722 -9.0393724 -72.002731 -9.0337315 -72.615196 -0.16850974 -84.88028
9205375000 -0.85991222 120.36913 -9.0340748 -72.001495 -9.0310564 -72.677422 -0.17477751 -84.895149
9205437500 -0.86385494 120.37121 -9.0362539 -72.025803 -9.031105 -72.609406 -0.16762806 -84.831253
9205500000 -0.85987252 120.34357 -9.0285006 -72.014664 -9.0311708 -72.613945 -0.17007858 -84.792625
9205562500 -0.85861927 120.34889 -9.032712 -72.044312 -9.0395947 -72.652107 -0.16977313 -84.842934
9205625000 -0.85783118 120.33419 -9.0317612 -72.044601 -9.0331316 -72.622978 -0.16995052 -84.79641
9205687500 -0.86250001 120.3332 -9.0257998 -72.03978 -9.0312614 -72.58551 -0.17302226 -84.792389
9205750000 -0.85616148 120.33666 -9.036273 -72.0541 -9.0400839 -72.681084 -0.18598337 -84.835175
9205812500 -0.85933363 120.27969 -9.0305729 -72.062187 -9.0277796 -72.597572 -0.16844153 -84.732277
9205875000 -0.85706151 120.29231 -9.0384426 -72.083405 -9.0395412 -72.588882 -0.17766328 -84.686958
9205937500 -0.85499889 120.28822 -9.0275545 -72.035469 -9.027648 -72.604576 -0.17777249 -84.725487
9206000000 -0.8575865 120.27825 -9.0271769 -71.982407 -9.0381737 -72.639023 -0.17854251 -84.669167
9206062500 -0.85700494 120.26637 -9.0353374 -72.0448 -9.0273943 -72.62439 -0.17108592 -84.685432
9206125000 -0.85377949 120.28364 -9.0298338 -71.983513 -9.0215311 -72.602409 -0.17528681 -84.627434
9206187500 -0.85716087 120.2816 -9.0357161 -71.997276 -9.0227165 -72.551041 -0.17562819 -84.560158
9206250000 -0.86005855 120.22437 -9.0361395 -71.966095 -9.0206728 -72.544273 -0.17476641 -84.556229
9206312500 -0.855443 120.26081 -9.0200968 -72.022247 -9.0240688 -72.576065 -0.17623399 -84.58239
9206375000 -0.86137873 120.20174 -9.0353317 -71.998726 -9.0188284 -72.534904 -0.16934365 -84.54715
9206437500 -0.85909402 120.23963 -9.019105 -71.960579 -9.018075 -72.632248 -0.17113546 -84.542076
9206500000 -0.86524558 120.2014 -9.0194912 -72.007164 -9.0139046 -72.632927 -0.17198154 -84.554985
9206562500 -0.86289871 120.19503 -9.0224953 -72.003052 -9.0235186 -72.652504 -0.17497465 -84.53447
9206625000 -0.86101097 120.21279 -9.0168524 -71.921989 -9.0145416 -72.574844 -0.16652189 -84.503265
9206687500 -0.86541742 120.13295 -9.0079193 -72.001259 -9.0000839 -72.619278 -0.15804707 -84.477127
9206750000 -0.86281407 120.15722 -9.0149708 -71.989082 -9.0061932 -72.627251 -0.16719602 -84.438354
9206812500 -0.86518782 120.1273 -9.0077486 -71.933228 -9.012269 -72.58049 -0.15891667 -84.37413
9206875000 -0.86666578 120.08493 -9.0120564 -71.927628 -9.0018396 -72.586754 -0.16456813 -84.37722
9206937500 -0.85999829 120.08279 -9.0062332 -71.946136 -9.0085917 -72.550591 -0.16700864 -84.337975
9207000000 -0.85910261 120.07657 -9.021389 -71.964676 -9.004756 -72.57827 -0.17273073 -84.379959
9207062500 -0.85620475 120.04461 -9.0186119 -72.016571 -9.01085 -72.587662 -0.17460348 -84.376534
9207125000 -0.85345626 120.02861 -9.0112944 -71.958839 -9.0071497 -72.518852 -0.17076848 -84.306953
9207187500 -0.85488331 119.98984 -9.0149355 -72.03241 -9.0169382 -72.581444 -0.18482876 -84.373901
9207250000 -0.85084659 119.96852 -9.0043306 -72.026337 -9.0133677 -72.549477 -0.17745267 -84.334427
9207312500 -0.85267913 119.92823 -9.0149708 -72.033379 -9.0197172 -72.540115 -0.18517175 -84.323959
9207375000 -0.85607487 119.91661 -9.0129118 -72.049721 -9.0078831 -72.550232 -0.17683226 -84.322144
9207437500 -0.85730922 119.91658 -9.0101757 -72.038284 -9.0131025 -72.547508 -0.17564368 -84.227798
9207500000 -0.85475725 119.87035 -9.0093546 -71.996384 -9.0120611 -72.516518 -0.18072103 -84.271133
9207562500 -0.85859591 119.89479 -9.0250483 -72.053085 -9.0050011 -72.482635 -0.1797006 -84.237709
9207625000 -0.85879767 119.89108 -9.0162058 -72.01606 -9.0035906 -72.536217 -0.1789584 -84.252403
9207687500 -0.85768676 119.84531 -9.0048094 -72.069092 -9.0020771 -72.587524 -0.1807972 -84.241982
9207750000 -0.85879058 119.82371 -9.0020075 -71.978317 -9.0065956 -72.572914 -0.17330232 -84.235527
9207812500 -0.86635309 119.84597 -9.0042152 -71.963699 -9.0054026 -72.57431 -0.17106073 -84.193947
9207875000 -0.86269635 119.8398 -9.0026417 -71.993225 -8.9977036 -72.568253 -0.1704562 -84.160576
9207937500 -0.8637504 119.85442 -9.0036201 -72.013412 -9.0021915 -72.593102 -0.16814648 -84.143608
9208000000 -0.8678019 119.86665 -9.0131025 -71.957359 -8.9995575 -72.631744 -0.16496493 -84.1138
9208062500 -0.86635661 119.82779 -9.0037994 -72.019623 -9.0074177 -72.579109 -0.17508025 -84.083481
9208125000 -0.86427295 119.82552 -9.0051107 -71.963097 -9.0095263 -72.578918 -0.17805834 -84.07634
9208187500 -0.86346072 119.79485 -9.0140104 -71.979546 -9.0035572 -72.513237 -0.18152787 -84.02597
9208250000 -0.85952383 119.79554 -9.0040779 -71.935349 -9.0051556 -72.565063 -0.18616658 -84.029716
9208312500 -0.85170233 119.81239 -8.9992313 -71.937805 -9.0051937 -72.570847 -0.18258856 -84.015739
9208375000 -0.86107224 119.76169 -9.005578 -71.953133 -9.0021067 -72.486778 -0.18490984 -83.988762
9208437500 -0.86473519 119.77045 -9.0034571 -71.953285 -8.9984379 -72.504654 -0.18148598 -83.935822
9208500000 -0.85967219 119.7267 -9.0070419 -71.99839 -9.0002689 -72.521637 -0.17879541 -83.913269
9208562500 -0.85751921 119.68764 -8.9889812 -72.010933 -8.9876976 -72.525955 -0.1756362 -83.898651
9208625000 -0.86001527 119.70468 -8.9942636 -71.95475 -8.9966364 -72.608253 -0.18128315 -83.954811
9208687500 -0.85919452 119.65478 -8.9967756 -72.006577 -8.979805 -72.509712 -0.17373171 -83.918159
9208750000 -0.86063224 119.6269 -8.9924965 -72.023773 -8.9884653 -72.576019 -0.17731671 -83.958351
9208812500 -0.85959429 119.64508 -8.9911623 -71.952812 -8.9953747 -72.519333 -0.18103401 -83.898338
9208875000 -0.859303 119.60159 -8.999239 -72.020348 -8.989543 -72.497971 -0.18098935 -83.900764
9208937500 -0.86248529 119.63989 -8.9943657 -71.954361 -8.9985914 -72.520927 -0.17614588 -83.911194
9209000000 -0.8584035 119.63844 -8.993928 -71.99279 -9.0057325 -72.472084 -0.18384397 -83.824341
9209062500 -0.85899979 119.64669 -8.9980316 -71.989967 -8.9980259 -72.536751 -0.18288863 -83.840897
9209125000 -0.85919553 119.67385 -8.9922438 -71.977455 -8.9964876 -72.527237 -0.17956272 -83.846581
9209187500 -0.85890603 119.65758 -8.9904747 -71.954224 -8.9993496 -72.541374 -0.18318135 -83.767807
9209250000 -0.85712039 119.63477 -8.9963741 -71.948837 -8.9987249 -72.537476 -0.18498071 -83.816277
9209312500 -0.85308582 119.59671 -8.9882698 -71.933876 -8.9947815 -72.495453 -0.18286821 -83.716553
9209375000 -0.85846239 119.59814 -8.9877062 -71.937027 -8.9902039 -72.485558 -0.17968339 -83.734558
9209437500 -0.85452354 119.5367 -8.9827166 -71.972458 -8.988821 -72.480034 -0.1827687 -83.692635
9209500000 -0.85665858 119.50702 -8.9803762 -71.960258 -8.9921217 -72.52877 -0.18460688 -83.72728
9209562500 -0.86047107 119.50153 -8.9857416 -71.958328 -8.9960995 -72.492638 -0.18232085 -83.628044
9209625000 -0.85730928 119.48466 -8.9833164 -71.934784 -8.9880724 -72.471672 -0.17929465 -83.65377
9209687500 -0.86356616 119.48413 -8.9828701 -71.982224 -8.9811163 -72.471672 -0.17062674 -83.61602
9209750000 -0.86093658 119.43702 -8.9855366 -71.961281 -8.9863377 -72.4431 -0.17696169 -83.59063
9209812500 -0.8638202 119.46956 -8.9838114 -72.008942 -8.9802103 -72.472939 -0.17858469 -83.614883
9209875000 -0.86240631 119.45069 -8.9855337 -71.954391 -8.9819002 -72.526993 -0.16937558 -83.566597
9209937500 -0.86255026 119.42826 -8.9858503 -71.943153 -8.9820461 -72.505386 -0.17673443 -83.530235
9210000000 -0.85938007 119.43609 -8.9900589 -71.923409 -8.9847546 -72.471413 -0.17421456 -83.522736
9210062500 -0.85693443 119.41892 -8.9817448 -71.949806 -8.9862804 -72.475243 -0.17552035 -83.528618
9210125000 -0.85700125 119.41904 -8.9797983 -71.951736 -8.9837294 -72.420998 -0.17846875 -83.467491
9210187500 -0.85594356 119.41481 -8.9735355 -71.887779 -8.9770746 -72.462631 -0.1694773 -83.510071
9210250000 -0.86130476 119.37862 -8.9805689 -71.910469 -8.9803772 -72.430534 -0.17752357 -83.472916
9210312500 -0.85295224 119.39418 -8.9830198 -71.88588 -8.9805088 -72.426491 -0.17919405 -83.421486
9210375000 -0.85188448 119.354 -8.9735947 -71.904373 -8.9882164 -72.417542 -0.18060032 -83.399948
9210437500 -0.85550672 119.3248 -8.9740152 -71.916603 -8.9743423 -72.438789 -0.18490098 -83.423424
9210500000 -0.85420984 119.3315 -8.9789219 -71.956223 -8.9780207 -72.40757 -0.17759338 -83.410179
9210562500 -0.85519999 119.29453 -8.9799213 -71.924637 -8.9856863 -72.482162 -0.1859951 -83.408218
9210625000 -0.85000777 119.29043 -8.9745388 -71.882477 -8.9840908 -72.416893 -0.19068174 -83.332611
9210687500 -0.85288012 119.27859 -8.9897451 -71.890289 -8.9785843 -72.446815 -0.18613911 -83.372757
9210750000 -0.85125482 119.224 -8.9727297 -71.884468 -8.985507 -72.448227 -0.19070895 -83.324982
9210812500 -0.85410428 119.2258 -8.9784479 -71.881584 -8.9739609 -72.448463 -0.19475877 -83.283966
9210875000 -0.85588485 119.18765 -8.9738989 -71.853119 -8.9769211 -72.473999 -0.18713441 -83.278404
9210937500 -0.85338724 119.17283 -8.9787979 -71.925484 -8.9702234 -72.444962 -0.19128048 -83.279442
9211000000 -0.86043406 119.13457 -8.9788475 -71.946922 -8.9687729 -72.446037 -0.18877634 -83.258255
9211062500 -0.85899216 119.13455 -8.9728031 -71.918228 -8.9739046 -72.482697 -0.19259208 -83.281982
9211125000 -0.85961056 119.12469 -8.9752684 -71.888489 -8.9751072 -72.466278 -0.18989789 -83.272835
9211187500 -0.86463511 119.18542 -8.9740467 -71.864082 -8.9693851 -72.501488 -0.18248266 -83.299515
9211250000 -0.86072111 119.14 -8.975235 -71.930008 -8.9761276 -72.476608 -0.18808264 -83.266808
9211312500 -0.86100256 119.14919 -8.9649696 -71.935959 -8.9725962 -72.490723 -0.18549824 -83.293831
9211375000 -0.85931087 119.14827 -8.9669561 -71.86335 -8.9717627 -72.432167 -0.17830399 -83.191414
9211437500 -0.86165065 119.10459 -8.9605551 -71.929497 -8.9636803 -72.457344 -0.17649351 -83.182419
9211500000 -0.861139 119.12622 -8.9636717 -71.842224 -8.967597 -72.435776 -0.17738484 -83.141144
9211562500 -0.86378324 119.0957 -8.9741879 -71.879044 -8.9737797 -72.44294 -0.18824741 -83.141449
9211625000 -0.86369115 119.06081 -8.9732351 -71.942093 -8.974947 -72.484352 -0.18770382 -83.149628
9211687500 -0.85953331 119.04423 -8.972805 -71.890724 -8.9673796 -72.452339 -0.19000024 -83.13353
9211750000 -0.86176795 119.07008 -8.974864 -71.861374 -8.9697962 -72.477371 -0.19423433 -83.131348
9211812500 -0.85652506 118.98177 -8.9702673 -71.88501 -8.9710121 -72.409538 -0.19239728 -83.047668
9211875000 -0.86227417 119.00543 -8.9649105 -71.86515 -8.9630194 -72.442482 -0.18758339 -83.059784
9211937500 -0.86772257 118.96792 -8.9630356 -71.871872 -8.9599867 -72.39975 -0.19258513 -83.00351
9212000000 -0.86682791 118.9257 -8.9656649 -71.936256 -8.9755955 -72.365318 -0.19212359 -82.943192
9212062500 -0.87044603 118.94888 -8.9629145 -71.914917 -8.9757299 -72.416992 -0.20071977 -82.950241
9212125000 -0.86662382 118.94167 -8.9578876 -71.879349 -8.9632378 -72.346382 -0.19003116 -82.853554
9212187500 -0.86826253 118.91212 -8.964365 -71.882828 -8.9640522 -72.402588 -0.19421434 -82.887482
