!Agilent Technologies,N5242A,MY51221714,A.09.90.19
!Agilent N5242A: A.09.90.19
!Date: Saturday, March 16, 2024 10:21:57
!Correction: S11(Full 2 Port(1,2)) 
!S21(Full 2 Port(1,2)) 
!S12(Full 2 Port(1,2)) 
!S22(Full 2 Port(1,2)) 
!S2P File: Measurements: S11, S21, S12, S22:
# Hz S  dB   R 50
9200000000 -0.88540405 121.64807 -9.0205917 -72.619362 -9.0133333 -73.282593 -0.19866911 -86.908035
9200062500 -0.89121836 121.59925 -9.0281553 -72.709747 -9.0212545 -73.301285 -0.2043117 -86.952461
9200125000 -0.88717896 121.57143 -9.0259104 -72.697464 -9.019268 -73.26506 -0.20074598 -86.861832
9200187500 -0.89035535 121.5657 -9.0299215 -72.684296 -9.017622 -73.344925 -0.19741002 -86.910057
9200250000 -0.88736522 121.53581 -9.0251226 -72.671646 -9.0182371 -73.298233 -0.20544191 -86.873573
9200312500 -0.88511431 121.54691 -9.0234947 -72.679359 -9.0123653 -73.268852 -0.20046802 -86.836914
9200375000 -0.88630313 121.54958 -9.0169401 -72.663681 -9.0132856 -73.31105 -0.20167537 -86.856949
9200437500 -0.88684559 121.50984 -9.028861 -72.734612 -9.0062933 -73.298164 -0.20061599 -86.802948
9200500000 -0.88541114 121.51077 -9.0249357 -72.734077 -9.0077391 -73.309303 -0.19992511 -86.813873
9200562500 -0.88613135 121.47412 -9.0233555 -72.713547 -9.0043344 -73.248146 -0.20561802 -86.756432
9200625000 -0.88504869 121.46864 -9.0258017 -72.643311 -9.0109463 -73.262276 -0.20685169 -86.729912
9200687500 -0.89317185 121.42466 -9.0378294 -72.692726 -9.0114994 -73.256752 -0.21628003 -86.70211
9200750000 -0.8914991 121.42182 -9.0173388 -72.634933 -8.9983282 -73.295372 -0.20846877 -86.731796
9200812500 -0.88698381 121.39323 -9.0247421 -72.65567 -9.0050049 -73.264519 -0.2167639 -86.652344
9200875000 -0.8842265 121.43812 -9.0255718 -72.642944 -9.0048094 -73.241898 -0.21335381 -86.597839
9200937500 -0.88687873 121.40265 -9.0158701 -72.605492 -9.0033808 -73.294678 -0.21246813 -86.626892
9201000000 -0.88988972 121.38016 -9.0301037 -72.603973 -9.0101786 -73.260094 -0.21729085 -86.590134
9201062500 -0.88523901 121.40463 -9.0124846 -72.559189 -9.0077362 -73.245644 -0.21509628 -86.586647
9201125000 -0.89004326 121.34103 -9.0218267 -72.625671 -9.0057421 -73.193695 -0.2145334 -86.553131
9201187500 -0.88147706 121.31569 -9.0092058 -72.619194 -9.0009604 -73.173149 -0.20672412 -86.518517
9201250000 -0.8797164 121.32141 -9.0022411 -72.663475 -9.0027351 -73.246292 -0.20926178 -86.549355
9201312500 -0.8852458 121.29559 -9.0179176 -72.609077 -9.0108814 -73.2864 -0.21908572 -86.558655
9201375000 -0.88396382 121.3119 -9.012476 -72.695625 -9.0078669 -73.203468 -0.21397705 -86.566574
9201437500 -0.88699627 121.28728 -9.0100412 -72.662849 -9.0104847 -73.261269 -0.21273151 -86.534683
9201500000 -0.88912553 121.28345 -9.0106974 -72.611526 -8.9980555 -73.247452 -0.19987369 -86.531372
9201562500 -0.89148009 121.27812 -9.0197496 -72.633118 -9.0038185 -73.24015 -0.20865066 -86.522812
9201625000 -0.89112842 121.27609 -9.0208006 -72.623383 -9.0079565 -73.264099 -0.21296002 -86.541
9201687500 -0.8905642 121.28311 -9.0170622 -72.55481 -9.0083761 -73.213089 -0.21550101 -86.457336
9201750000 -0.8902114 121.22391 -9.0168219 -72.575851 -9.0014019 -73.148605 -0.21392125 -86.433441
9201812500 -0.88335472 121.22795 -9.0045204 -72.535675 -8.9951458 -73.177032 -0.21679716 -86.423012
9201875000 -0.88427609 121.21532 -9.0016861 -72.578384 -8.9909697 -73.166054 -0.21010169 -86.367088
9201937500 -0.88871884 121.16268 -9.0090303 -72.664253 -8.9944811 -73.16832 -0.21123318 -86.365479
9202000000 -0.88348407 121.13799 -9.0087643 -72.659485 -9.0002413 -73.144142 -0.21841323 -86.318687
9202062500 -0.87924749 121.1139 -8.9940147 -72.616417 -8.9996386 -73.180153 -0.2167483 -86.301987
9202125000 -0.88609564 121.1092 -8.9983349 -72.648209 -8.9945593 -73.317001 -0.2090863 -86.369316
9202187500 -0.88959587 121.14523 -9.0090942 -72.598824 -9.0026932 -73.279594 -0.21200514 -86.358437
9202250000 -0.88463652 121.07878 -8.9897318 -72.631416 -8.9983644 -73.234375 -0.21048048 -86.25135
9202312500 -0.88668716 121.08628 -8.9958534 -72.65078 -8.9995775 -73.249535 -0.21526334 -86.272575
9202375000 -0.88603693 121.10834 -8.9895115 -72.566452 -8.9975643 -73.24025 -0.21160561 -86.256897
9202437500 -0.88651544 121.05791 -9.0017138 -72.627701 -8.9965591 -73.277702 -0.21379457 -86.249985
9202500000 -0.88684809 121.03311 -8.9924145 -72.608788 -8.9945593 -73.190834 -0.21329339 -86.22686
9202562500 -0.89017248 121.01274 -9.0085878 -72.625969 -8.9967461 -73.22168 -0.21488571 -86.219482
9202625000 -0.89201736 121.04585 -9.0110865 -72.634773 -8.9939575 -73.255043 -0.21689057 -86.187767
9202687500 -0.88965279 121.02184 -9.0018291 -72.624176 -8.9950285 -73.210297 -0.22007376 -86.201248
9202750000 -0.88885164 121.00964 -9.0015354 -72.614136 -9.0001087 -73.21627 -0.22191454 -86.128319
9202812500 -0.8862868 120.97264 -9.0010347 -72.597809 -8.9947166 -73.197227 -0.21732074 -86.116928
9202875000 -0.88839012 120.98777 -9.0118809 -72.621086 -8.9892826 -73.205948 -0.21475871 -86.073494
9202937500 -0.88611561 120.98991 -9.000864 -72.605286 -8.9858742 -73.15004 -0.21914005 -86.073013
9203000000 -0.88208967 120.95151 -8.994627 -72.598503 -8.9908829 -73.202316 -0.21621579 -86.034012
9203062500 -0.88676196 120.92996 -8.9963741 -72.600189 -8.9860182 -73.196953 -0.21437353 -86.042427
9203125000 -0.88525987 120.88969 -8.9915342 -72.630196 -8.985693 -73.132706 -0.21129939 -86.004768
9203187500 -0.88174605 120.90572 -8.9939241 -72.661812 -8.9834118 -73.243088 -0.21065728 -86.05172
9203250000 -0.88798314 120.86237 -8.9962702 -72.639107 -8.987421 -73.19548 -0.21119231 -85.99958
9203312500 -0.88501751 120.87508 -8.9971867 -72.584663 -8.9888029 -73.227234 -0.21431407 -85.988838
9203375000 -0.88602221 120.8699 -8.9923239 -72.605492 -8.9928122 -73.23761 -0.21789575 -85.957649
9203437500 -0.88897544 120.84666 -8.9943323 -72.588593 -8.9887266 -73.184975 -0.21469472 -85.930885
9203500000 -0.87976462 120.83618 -8.9907579 -72.643166 -8.986064 -73.218407 -0.21466695 -85.903831
9203562500 -0.88312632 120.80082 -8.9909983 -72.665527 -8.9904442 -73.158852 -0.22033867 -85.882309
9203625000 -0.89012074 120.7914 -8.9942417 -72.60733 -8.9848394 -73.146645 -0.21727662 -85.843071
9203687500 -0.88891995 120.80176 -8.9866152 -72.620995 -8.9857492 -73.170769 -0.22238714 -85.855034
9203750000 -0.88930863 120.75574 -8.9825306 -72.615379 -8.9925566 -73.197762 -0.22341222 -85.828255
9203812500 -0.88605291 120.74979 -8.9929094 -72.634987 -8.9914789 -73.187759 -0.22851697 -85.827744
9203875000 -0.89200836 120.70873 -8.9955235 -72.617683 -8.9798288 -73.196777 -0.22474144 -85.810822
9203937500 -0.8872847 120.73641 -8.9910984 -72.543304 -8.9793625 -73.089821 -0.22427149 -85.765953
9204000000 -0.88542551 120.71053 -8.9882336 -72.660744 -8.9766026 -73.161217 -0.22869815 -85.785309
9204062500 -0.88117474 120.73302 -8.9930067 -72.528816 -8.9779129 -73.22126 -0.2288907 -85.767609
9204125000 -0.88505536 120.68171 -8.9981937 -72.654434 -8.9761667 -73.115662 -0.23064986 -85.731606
9204187500 -0.88085133 120.69088 -8.9807348 -72.578056 -8.9668331 -73.153587 -0.23008586 -85.701469
9204250000 -0.87929738 120.65688 -8.9926357 -72.57489 -8.9758186 -73.192352 -0.23440067 -85.736885
9204312500 -0.87926328 120.64367 -8.9792633 -72.579117 -8.9694414 -73.130653 -0.22279584 -85.712982
9204375000 -0.88074476 120.62099 -8.9858961 -72.594902 -8.9738541 -73.167084 -0.22217239 -85.664253
9204437500 -0.87901592 120.59979 -8.9730453 -72.529221 -8.9714317 -73.172272 -0.22555518 -85.650581
9204500000 -0.88067907 120.59449 -8.9756317 -72.578888 -8.9707775 -73.152649 -0.21657395 -85.657089
9204562500 -0.87667304 120.55189 -8.9782457 -72.576027 -8.9776812 -73.147499 -0.22538367 -85.618492
9204625000 -0.87772661 120.57462 -8.9818354 -72.544968 -8.9776707 -73.188637 -0.22100122 -85.570923
9204687500 -0.8723076 120.55315 -8.9741907 -72.450806 -8.9679604 -73.131233 -0.22150452 -85.551949
9204750000 -0.87528986 120.55654 -8.9791641 -72.534737 -8.9761944 -73.149323 -0.22320575 -85.54641
9204812500 -0.88129932 120.55855 -8.976615 -72.533218 -8.9642916 -73.117081 -0.21907309 -85.505455
9204875000 -0.87974912 120.52502 -8.9718313 -72.571823 -8.9737844 -73.143265 -0.22702779 -85.557793
9204937500 -0.88870078 120.52605 -8.9796228 -72.541237 -8.9638586 -73.082832 -0.21687943 -85.474487
9205000000 -0.88200188 120.54015 -8.9775276 -72.523331 -8.9649019 -73.161491 -0.21804936 -85.536781
9205062500 -0.88816237 120.51733 -8.9749079 -72.517174 -8.9704714 -73.137512 -0.2275551 -85.475777
9205125000 -0.88567847 120.52505 -8.9771481 -72.446991 -8.9674158 -73.153679 -0.22398494 -85.454498
9205187500 -0.88939595 120.4537 -8.9679279 -72.513298 -8.9656038 -73.174545 -0.22005235 -85.48127
9205250000 -0.89222854 120.45439 -8.9768429 -72.48362 -8.9672956 -73.160057 -0.21709739 -85.406311
9205312500 -0.88855368 120.40221 -8.9700327 -72.524452 -8.9669647 -73.171547 -0.21798316 -85.443291
9205375000 -0.88592428 120.33263 -8.9592285 -72.583595 -8.9686575 -73.193565 -0.21844858 -85.451408
9205437500 -0.89133745 120.34364 -8.9721727 -72.533478 -8.971777 -73.132698 -0.22141461 -85.420547
9205500000 -0.88847512 120.36971 -8.9730072 -72.50753 -8.9769192 -73.11763 -0.2215413 -85.341621
9205562500 -0.88408566 120.32322 -8.9715109 -72.588379 -8.9759617 -73.152596 -0.22505964 -85.386658
9205625000 -0.88765728 120.34247 -8.9746513 -72.516335 -8.9661541 -73.129791 -0.21725078 -85.370163
9205687500 -0.884561 120.33851 -8.9674683 -72.532555 -8.9662933 -73.109802 -0.21921834 -85.298828
9205750000 -0.88368982 120.33022 -8.9636774 -72.51973 -8.9675817 -73.136719 -0.22160059 -85.329742
9205812500 -0.88553911 120.3111 -8.9761248 -72.548759 -8.9731121 -73.097969 -0.22630951 -85.256302
9205875000 -0.88191497 120.27421 -8.9610405 -72.522659 -8.9640636 -73.125 -0.22449373 -85.301231
9205937500 -0.88147831 120.31174 -8.9726496 -72.458755 -8.9688787 -73.096642 -0.22577344 -85.267952
9206000000 -0.8780899 120.31011 -8.960043 -72.483376 -8.970006 -73.091232 -0.2306923 -85.200043
9206062500 -0.87807477 120.31324 -8.9626551 -72.462326 -8.9631462 -73.089211 -0.22228414 -85.192749
9206125000 -0.88057214 120.27399 -8.9557505 -72.496048 -8.9601641 -73.085869 -0.22473314 -85.190529
9206187500 -0.88120019 120.25679 -8.961729 -72.47506 -8.9632578 -73.082809 -0.22757524 -85.155022
9206250000 -0.87835658 120.23521 -8.9613752 -72.534935 -8.9586096 -73.097374 -0.22263263 -85.127541
9206312500 -0.88016456 120.25715 -8.956871 -72.442177 -8.9587555 -73.033684 -0.22303966 -85.105743
9206375000 -0.87994719 120.26031 -8.9683571 -72.448479 -8.9559078 -73.128914 -0.22091757 -85.133919
9206437500 -0.88338715 120.25694 -8.9553938 -72.489601 -8.9521627 -73.14566 -0.21800996 -85.142662
9206500000 -0.88268048 120.21227 -8.9551792 -72.461433 -8.9432487 -73.112328 -0.21866028 -85.091583
9206562500 -0.88168085 120.20074 -8.9480581 -72.481865 -8.9479923 -73.162323 -0.21923484 -85.075127
9206625000 -0.88761872 120.17088 -8.9549122 -72.450119 -8.9436731 -73.108192 -0.21086757 -85.033386
9206687500 -0.88637978 120.16656 -8.9485226 -72.463928 -8.9404526 -73.092064 -0.21391912 -85.023743
9206750000 -0.88359469 120.14612 -8.9487858 -72.481117 -8.9482851 -73.037048 -0.21656691 -84.958275
9206812500 -0.88979727 120.14744 -8.9479065 -72.423027 -8.9425478 -73.077103 -0.21273798 -84.968063
9206875000 -0.89108181 120.11009 -8.9449005 -72.448036 -8.937644 -73.078102 -0.21022993 -84.95768
9206937500 -0.88283855 120.08204 -8.9500914 -72.505531 -8.940136 -73.035988 -0.2132508 -84.886986
9207000000 -0.87865305 120.08299 -8.9443932 -72.455421 -8.9490747 -73.08313 -0.22598304 -84.90036
9207062500 -0.88252771 120.03181 -8.9495687 -72.433769 -8.9474449 -73.096825 -0.22445667 -84.894821
9207125000 -0.87761205 120.03146 -8.9433079 -72.500679 -8.9527607 -73.074921 -0.22925715 -84.898422
9207187500 -0.88194668 120.01048 -8.9523878 -72.5429 -8.9520407 -73.068176 -0.23247556 -84.902634
9207250000 -0.88044989 120.00267 -8.9605017 -72.488152 -8.9538736 -73.076225 -0.23359632 -84.866127
9207312500 -0.87544739 119.9464 -8.9443617 -72.488396 -8.9418936 -73.043495 -0.22884443 -84.859055
9207375000 -0.88247144 119.90514 -8.95014 -72.56385 -8.9533176 -73.124542 -0.23608404 -84.898788
9207437500 -0.88333887 119.93521 -8.949297 -72.488419 -8.9413137 -73.076515 -0.23244624 -84.872871
9207500000 -0.87848628 119.90598 -8.9462891 -72.476952 -8.9458122 -73.048767 -0.22761032 -84.787621
9207562500 -0.88239831 119.86961 -8.9449625 -72.543617 -8.942378 -73.076515 -0.23362829 -84.807098
9207625000 -0.88823879 119.88102 -8.9457788 -72.499634 -8.9349756 -73.067307 -0.22916535 -84.784973
9207687500 -0.88664109 119.86354 -8.9418039 -72.520203 -8.945302 -73.095383 -0.22927746 -84.795288
9207750000 -0.88648331 119.86616 -8.938056 -72.505714 -8.933403 -73.112442 -0.22276178 -84.751038
9207812500 -0.8882395 119.84604 -8.9340134 -72.489189 -8.9402246 -73.056641 -0.21944502 -84.752289
9207875000 -0.89064199 119.85254 -8.942977 -72.480492 -8.943717 -73.093063 -0.21801627 -84.680458
9207937500 -0.8915779 119.84851 -8.9416962 -72.472557 -8.9352131 -73.136436 -0.22142696 -84.711029
9208000000 -0.8876034 119.82338 -8.9317608 -72.483833 -8.9383192 -73.126427 -0.21990158 -84.703316
9208062500 -0.88915616 119.79404 -8.9401693 -72.500374 -8.9478292 -73.097778 -0.23180123 -84.660034
9208125000 -0.88581413 119.79423 -8.941184 -72.481415 -8.9356403 -73.095528 -0.22911511 -84.623703
9208187500 -0.8817696 119.80917 -8.9404879 -72.437569 -8.9308939 -73.064926 -0.22715436 -84.596725
9208250000 -0.88807797 119.80161 -8.9422731 -72.459694 -8.9421539 -73.046974 -0.23410486 -84.597511
9208312500 -0.88582712 119.79259 -8.9441156 -72.474403 -8.9409857 -73.010963 -0.24147654 -84.530197
9208375000 -0.88409221 119.75211 -8.940239 -72.427505 -8.9411621 -73.00135 -0.23515719 -84.491074
9208437500 -0.88241732 119.74519 -8.9377432 -72.447853 -8.9365711 -73.05146 -0.23083225 -84.538544
9208500000 -0.88275546 119.76757 -8.9322987 -72.443138 -8.9255495 -73.044586 -0.23198822 -84.523643
9208562500 -0.88516212 119.67255 -8.9307652 -72.471863 -8.9265909 -73.045006 -0.21995941 -84.52639
9208625000 -0.88392556 119.67653 -8.9349241 -72.491371 -8.923111 -72.984512 -0.2220939 -84.471786
9208687500 -0.88447762 119.63107 -8.9326649 -72.496941 -8.9295359 -73.073219 -0.23025846 -84.513824
9208750000 -0.88168246 119.59801 -8.9321461 -72.544273 -8.9235468 -73.017044 -0.22374479 -84.425941
9208812500 -0.88470638 119.63802 -8.9419231 -72.499313 -8.9279346 -72.965919 -0.22642116 -84.401154
9208875000 -0.88437986 119.63058 -8.9342537 -72.46582 -8.9327555 -73.044624 -0.22680245 -84.470535
9208937500 -0.88793784 119.61152 -8.9308548 -72.472229 -8.9291 -73.067612 -0.22427684 -84.459221
9209000000 -0.88596469 119.65802 -8.9281693 -72.429802 -8.9296055 -73.041367 -0.22671208 -84.443817
9209062500 -0.88424021 119.64467 -8.9224453 -72.432793 -8.9273539 -73.026527 -0.22689104 -84.39135
9209125000 -0.88742745 119.65903 -8.9320412 -72.403305 -8.9279976 -73.021431 -0.23601724 -84.403351
9209187500 -0.88575184 119.63808 -8.9230957 -72.414604 -8.9337626 -73.045456 -0.23207872 -84.421799
9209250000 -0.88247269 119.63805 -8.9382162 -72.384583 -8.9385462 -73.015755 -0.23777823 -84.338379
9209312500 -0.88378245 119.61869 -8.924552 -72.376846 -8.9359274 -72.975433 -0.23401736 -84.266533
9209375000 -0.88336092 119.5837 -8.918334 -72.465607 -8.9235754 -73.063263 -0.23428772 -84.29483
9209437500 -0.88356161 119.53785 -8.9181252 -72.433548 -8.9342709 -73.036652 -0.23545288 -84.266258
9209500000 -0.88339978 119.51438 -8.9161968 -72.497185 -8.9271917 -72.992195 -0.22575183 -84.252144
9209562500 -0.88732499 119.51048 -8.9227505 -72.423668 -8.9281015 -73.009583 -0.22718325 -84.262306
9209625000 -0.88406539 119.51796 -8.9219885 -72.429848 -8.9294519 -73.031158 -0.22995487 -84.240303
9209687500 -0.88955081 119.48568 -8.9284172 -72.474319 -8.9270649 -73.022049 -0.23195587 -84.202736
9209750000 -0.88742542 119.45744 -8.9230099 -72.472893 -8.9241819 -73.036011 -0.22811386 -84.177277
9209812500 -0.88474518 119.45837 -8.9166546 -72.472382 -8.9164658 -72.983597 -0.21975303 -84.167824
9209875000 -0.8890233 119.47115 -8.9255571 -72.408386 -8.9218349 -73.037376 -0.22733217 -84.133003
9209937500 -0.88152725 119.41182 -8.9201384 -72.47345 -8.9180365 -72.991531 -0.22841857 -84.118591
9210000000 -0.88665909 119.43687 -8.9164782 -72.429909 -8.9126711 -72.998573 -0.2254781 -84.127968
9210062500 -0.8848514 119.41859 -8.9183102 -72.368973 -8.9255867 -73.015625 -0.22452763 -84.069183
9210125000 -0.88022101 119.38515 -8.9083157 -72.46756 -8.9096956 -72.979828 -0.2248556 -84.0578
9210187500 -0.88386363 119.41713 -8.9170685 -72.391083 -8.9155703 -72.926651 -0.22652721 -84.017609
9210250000 -0.87974101 119.36717 -8.9110413 -72.382797 -8.9150286 -72.961479 -0.22758929 -83.990547
9210312500 -0.87937504 119.36629 -8.9112549 -72.405121 -8.9148006 -72.93956 -0.22947055 -83.988602
9210375000 -0.88148767 119.34944 -8.9203815 -72.375839 -8.9200878 -72.866577 -0.23198567 -83.920555
9210437500 -0.88025749 119.3311 -8.9165106 -72.480995 -8.9169941 -72.884018 -0.23654607 -83.967255
9210500000 -0.88067281 119.29314 -8.9181747 -72.47821 -8.9253492 -72.896454 -0.2400122 -83.958298
9210562500 -0.87740093 119.2906 -8.9156828 -72.413162 -8.9194822 -73.00943 -0.23749869 -83.970581
9210625000 -0.87976676 119.2676 -8.9151106 -72.371048 -8.9107141 -72.938393 -0.23246554 -83.942757
9210687500 -0.87862921 119.23703 -8.9194365 -72.431221 -8.9091053 -72.997307 -0.23535194 -83.908997
9210750000 -0.87438816 119.25069 -8.9164267 -72.383415 -8.9143639 -72.944977 -0.24304369 -83.884056
9210812500 -0.87634784 119.22448 -8.9092388 -72.361069 -8.9118986 -72.981674 -0.24134165 -83.879013
9210875000 -0.87697804 119.20466 -8.9050369 -72.369835 -8.9134245 -72.971291 -0.24307729 -83.833359
9210937500 -0.88561887 119.16887 -8.9060411 -72.361557 -8.9085951 -72.953217 -0.24218164 -83.811111
9211000000 -0.88487005 119.1391 -8.9186306 -72.388496 -8.9189529 -72.963013 -0.24333484 -83.817688
9211062500 -0.88721836 119.17879 -8.9158459 -72.31646 -8.9065275 -72.937614 -0.23669823 -83.792992
9211125000 -0.89036369 119.15392 -8.9083176 -72.386322 -8.9068136 -72.97644 -0.23159441 -83.833359
9211187500 -0.89013821 119.11266 -8.9133062 -72.394539 -8.9078684 -72.916122 -0.23483524 -83.793076
9211250000 -0.88814473 119.13708 -8.9121809 -72.421265 -8.9040842 -72.987923 -0.23293547 -83.837189
9211312500 -0.88469565 119.15051 -8.8991156 -72.459084 -8.9154959 -72.992714 -0.23795873 -83.859222
9211375000 -0.89124429 119.12073 -8.9105625 -72.456413 -8.9005461 -72.959419 -0.22409703 -83.703415
9211437500 -0.89285964 119.12633 -8.9137917 -72.438728 -8.9046049 -72.972626 -0.23517925 -83.706406
9211500000 -0.89267588 119.09686 -8.9043846 -72.413353 -8.9033232 -72.937057 -0.23663032 -83.69133
9211562500 -0.89095253 119.08476 -8.918066 -72.345367 -8.9036331 -72.974648 -0.23572953 -83.67366
9211625000 -0.88970923 119.08189 -8.9008846 -72.336174 -8.9020929 -72.913734 -0.23454145 -83.656555
9211687500 -0.89127511 119.01483 -8.9201708 -72.452324 -8.9068184 -72.960785 -0.24381526 -83.696663
9211750000 -0.88814574 119.04357 -8.9028769 -72.319046 -8.9042616 -72.882248 -0.24068208 -83.606636
9211812500 -0.88435602 118.99459 -8.9004879 -72.373116 -8.8962431 -72.93763 -0.239334 -83.59256
9211875000 -0.88433182 118.98825 -8.8962355 -72.403694 -8.9074965 -72.900902 -0.24499317 -83.593384
9211937500 -0.89417326 118.97104 -8.8994312 -72.324532 -8.9043598 -72.950584 -0.24332424 -83.590591
9212000000 -0.89100033 118.94736 -8.9015036 -72.406441 -8.9004784 -72.905952 -0.24421127 -83.514877
9212062500 -0.89480275 118.93112 -8.900794 -72.40197 -8.8911419 -72.951019 -0.23897879 -83.501198
9212125000 -0.89019495 118.91334 -8.8846445 -72.410225 -8.9007912 -72.911919 -0.24281393 -83.47966
9212187500 -0.89128458 118.86637 -8.8923178 -72.434113 -8.8939095 -72.928215 -0.24290068 -83.462944
