!Agilent Technologies,N5242A,MY51221714,A.09.90.19
!Agilent N5242A: A.09.90.19
!Date: Saturday, March 16, 2024 10:20:56
!Correction: S11(Full 2 Port(1,2)) 
!S21(Full 2 Port(1,2)) 
!S12(Full 2 Port(1,2)) 
!S22(Full 2 Port(1,2)) 
!S2P File: Measurements: S11, S21, S12, S22:
# Hz S  dB   R 50
9200000000 -0.86901158 121.29247 -9.0612717 -72.480003 -9.056819 -73.080872 -0.16793846 -86.374008
9200062500 -0.87284344 121.26561 -9.0627947 -72.490128 -9.0633745 -73.111404 -0.17756891 -86.407944
9200125000 -0.8808831 121.28123 -9.0680809 -72.473602 -9.0517368 -73.111198 -0.17307825 -86.407059
9200187500 -0.87912291 121.26834 -9.0699768 -72.459526 -9.059166 -73.069038 -0.17359257 -86.364326
9200250000 -0.87630445 121.24384 -9.0646944 -72.499878 -9.0484362 -73.059868 -0.17294683 -86.35598
9200312500 -0.8740828 121.21593 -9.064189 -72.517868 -9.0446186 -73.087486 -0.16894956 -86.395798
9200375000 -0.87041759 121.20271 -9.0507736 -72.491119 -9.0359306 -73.072105 -0.16616617 -86.330872
9200437500 -0.86961108 121.18172 -9.052804 -72.543282 -9.0437555 -73.097969 -0.17129065 -86.325584
9200500000 -0.87070453 121.18027 -9.0573044 -72.511147 -9.0423136 -73.065826 -0.1755898 -86.2817
9200562500 -0.87494475 121.17794 -9.058075 -72.469681 -9.0379 -73.101181 -0.17097141 -86.276978
9200625000 -0.8713069 121.15138 -9.0627718 -72.451324 -9.035347 -73.018623 -0.1772815 -86.212585
9200687500 -0.87385499 121.1579 -9.0652819 -72.44857 -9.0477219 -73.033226 -0.18205893 -86.203163
9200750000 -0.87468022 121.13474 -9.0658541 -72.440094 -9.0432816 -73.024391 -0.18395509 -86.149979
9200812500 -0.8738479 121.13134 -9.0627213 -72.40538 -9.0438719 -73.103027 -0.18278338 -86.1437
9200875000 -0.87201828 121.12907 -9.0568256 -72.378059 -9.0426722 -72.95903 -0.18529162 -86.110977
9200937500 -0.87315977 121.09673 -9.0520201 -72.424248 -9.0458622 -73.016884 -0.18306467 -86.083023
9201000000 -0.87163597 121.07431 -9.0489159 -72.386589 -9.0368443 -73.02433 -0.18275221 -86.082123
9201062500 -0.87097692 121.06966 -9.0468054 -72.380188 -9.0353785 -73.017685 -0.18383691 -86.078735
9201125000 -0.86908853 121.05544 -9.0476694 -72.401543 -9.0386667 -73.064568 -0.18387507 -86.035873
9201187500 -0.86841446 121.03166 -9.051857 -72.412521 -9.0385094 -73.023476 -0.17671104 -86.047882
9201250000 -0.86815286 121.03262 -9.0491495 -72.403458 -9.0385876 -73.083298 -0.17799996 -86.06179
9201312500 -0.8692137 121.01508 -9.0386019 -72.431541 -9.0369253 -73.083984 -0.17941146 -86.051125
9201375000 -0.87077886 121.00363 -9.048934 -72.401459 -9.0424824 -72.986076 -0.18171774 -86.047417
9201437500 -0.87055933 120.96537 -9.0480576 -72.428688 -9.0378075 -73.023682 -0.18065642 -86.057755
9201500000 -0.87193787 120.98296 -9.0504971 -72.400841 -9.0385132 -73.011375 -0.17598419 -86.001564
9201562500 -0.87509471 120.98409 -9.0596676 -72.44735 -9.044157 -72.985779 -0.18277389 -86.007538
9201625000 -0.88001716 120.97766 -9.05861 -72.397606 -9.0318584 -73.010529 -0.17619279 -85.990326
9201687500 -0.8762126 120.91332 -9.0585861 -72.47937 -9.0337467 -73.004501 -0.17634495 -85.957283
9201750000 -0.87246007 120.90223 -9.052433 -72.41433 -9.0440865 -73.001808 -0.18736188 -85.933197
9201812500 -0.87077689 120.90952 -9.0475988 -72.374802 -9.0325117 -72.935806 -0.18347842 -85.879448
9201875000 -0.86875904 120.89172 -9.0489416 -72.4011 -9.0367622 -72.979645 -0.18594009 -85.901634
9201937500 -0.87329996 120.83416 -9.0500746 -72.417671 -9.0278711 -73.00985 -0.18524769 -85.864807
9202000000 -0.87054181 120.86733 -9.04282 -72.364998 -9.0358744 -72.988228 -0.18336381 -85.801674
9202062500 -0.86805707 120.80411 -9.037118 -72.42366 -9.0403223 -72.96669 -0.18385012 -85.807465
9202125000 -0.87374353 120.82498 -9.0429888 -72.368675 -9.02913 -72.948563 -0.17864546 -85.761124
9202187500 -0.87078482 120.81139 -9.0392933 -72.414627 -9.0294895 -73.031639 -0.17851073 -85.796204
9202250000 -0.87101638 120.79218 -9.0367327 -72.452972 -9.0315065 -72.978813 -0.17876397 -85.789497
9202312500 -0.87000144 120.79263 -9.0343189 -72.378838 -9.0270967 -72.969238 -0.1774921 -85.741379
9202375000 -0.87058347 120.77246 -9.0257387 -72.387299 -9.029151 -73.037491 -0.17978778 -85.748146
9202437500 -0.87161207 120.7546 -9.0302124 -72.392662 -9.0252743 -73.035713 -0.17927092 -85.729362
9202500000 -0.87185526 120.74131 -9.0352793 -72.397568 -9.0321074 -72.983963 -0.18351285 -85.703346
9202562500 -0.87008858 120.74706 -9.0352049 -72.363823 -9.0387125 -72.966576 -0.19449373 -85.656075
9202625000 -0.874973 120.70244 -9.0424557 -72.44693 -9.0274124 -72.978996 -0.19414811 -85.674194
9202687500 -0.87908989 120.70265 -9.0468044 -72.411263 -9.0335674 -72.958603 -0.1894535 -85.623558
9202750000 -0.87471479 120.69031 -9.0423841 -72.390488 -9.0261335 -72.979401 -0.18934546 -85.617088
9202812500 -0.87386733 120.69997 -9.0329008 -72.358627 -9.0322027 -73.006706 -0.18906926 -85.599289
9202875000 -0.87223583 120.71545 -9.0375986 -72.376816 -9.027564 -72.970222 -0.19194849 -85.571701
9202937500 -0.86344695 120.65394 -9.0207968 -72.397469 -9.0225391 -72.951736 -0.18580492 -85.576187
9203000000 -0.87134755 120.64173 -9.0304909 -72.346275 -9.0211611 -73.033485 -0.18763795 -85.565651
9203062500 -0.87294108 120.6164 -9.0254927 -72.427956 -9.0191832 -73.009209 -0.18635191 -85.548279
9203125000 -0.86829787 120.60178 -9.0303574 -72.365463 -9.0208168 -72.940933 -0.18344145 -85.463181
9203187500 -0.87178332 120.58594 -9.0276823 -72.390144 -9.0203428 -72.987617 -0.18418741 -85.480026
9203250000 -0.86785102 120.59609 -9.0343075 -72.410339 -9.0294008 -72.998932 -0.19662678 -85.479324
9203312500 -0.8683368 120.59746 -9.029089 -72.403961 -9.0309458 -72.962547 -0.18886022 -85.475403
9203375000 -0.86927879 120.55086 -9.0299339 -72.380882 -9.0228043 -72.988136 -0.18658416 -85.417
9203437500 -0.87068909 120.55679 -9.0254908 -72.403198 -9.0245228 -72.996941 -0.18481536 -85.423828
9203500000 -0.87139356 120.52814 -9.0248919 -72.37722 -9.0094748 -72.97184 -0.18411669 -85.437325
9203562500 -0.87190038 120.50661 -9.0323544 -72.398003 -9.0227623 -72.907547 -0.18880789 -85.383186
9203625000 -0.87509745 120.51712 -9.0276623 -72.36261 -9.0263968 -73.000435 -0.194318 -85.340607
9203687500 -0.86970031 120.48541 -9.0222673 -72.375885 -9.02742 -73.008423 -0.19804974 -85.373177
9203750000 -0.8705706 120.45063 -9.0265312 -72.383728 -9.0246153 -73.031654 -0.19031735 -85.346268
9203812500 -0.86900944 120.40531 -9.0277805 -72.408951 -9.0221472 -72.901985 -0.20056379 -85.291641
9203875000 -0.8674075 120.44653 -9.0188532 -72.39003 -9.0172405 -72.980316 -0.19086656 -85.331467
9203937500 -0.86770165 120.41148 -9.0286131 -72.437958 -9.0203238 -72.927086 -0.19644308 -85.264931
9204000000 -0.86574352 120.39928 -9.0281925 -72.426254 -9.0130348 -72.980141 -0.19618747 -85.270401
9204062500 -0.86488283 120.40049 -9.0323315 -72.393951 -9.0156546 -72.99855 -0.20189978 -85.289078
9204125000 -0.86164051 120.37867 -9.0282831 -72.368454 -9.0119781 -72.920067 -0.20265046 -85.21479
9204187500 -0.86470687 120.36481 -9.0242338 -72.380272 -9.0061541 -72.944588 -0.20356837 -85.204613
9204250000 -0.86417598 120.36662 -9.0291357 -72.341934 -9.0087872 -72.929901 -0.20688617 -85.186745
9204312500 -0.86163402 120.33179 -9.0252314 -72.35775 -9.0029936 -72.974342 -0.19339448 -85.195175
9204375000 -0.86352605 120.35543 -9.0212173 -72.325424 -9.0084057 -72.944893 -0.19882761 -85.149384
9204437500 -0.8625651 120.30927 -9.013155 -72.313873 -9.0070896 -72.883286 -0.18979195 -85.124611
9204500000 -0.85971981 120.28739 -9.0132666 -72.388145 -9.0067902 -72.931969 -0.18953387 -85.093094
9204562500 -0.85684717 120.27113 -9.0150156 -72.333099 -9.0095024 -72.902077 -0.18885516 -85.065826
9204625000 -0.8566854 120.26424 -9.0136251 -72.310982 -9.01299 -72.928749 -0.19018373 -85.077103
9204687500 -0.8616901 120.2553 -9.0118647 -72.291443 -9.0010567 -72.948952 -0.18857723 -85.092834
9204750000 -0.86289394 120.25684 -9.0171995 -72.296402 -9.0051498 -72.916245 -0.18976875 -85.034317
9204812500 -0.85814053 120.24179 -9.0097961 -72.271942 -9.002573 -72.923424 -0.1901283 -85.050232
9204875000 -0.86255085 120.25065 -9.0116644 -72.306984 -9.0092001 -72.870506 -0.1992761 -84.971779
9204937500 -0.86774743 120.19624 -9.0177546 -72.297729 -9.0059347 -72.908066 -0.19560111 -85.014389
9205000000 -0.8710162 120.21837 -9.0145473 -72.354523 -8.9920063 -72.946632 -0.19196591 -85.015968
9205062500 -0.87281525 120.21194 -9.0155878 -72.256966 -9.0020742 -72.905243 -0.1913695 -84.958649
9205125000 -0.87074226 120.1624 -9.0148115 -72.366844 -9.001049 -72.912247 -0.19153997 -84.973763
9205187500 -0.8744995 120.16686 -9.0107651 -72.238594 -9.0043678 -72.934654 -0.19288345 -84.930565
9205250000 -0.87569022 120.09855 -9.0109873 -72.313553 -9.006197 -72.924049 -0.19082411 -84.942879
9205312500 -0.87701541 120.08982 -9.0047417 -72.321007 -9.0057755 -72.996414 -0.19350605 -84.935364
9205375000 -0.87402707 120.0781 -9.0003691 -72.284279 -9.0041037 -72.956551 -0.18531726 -84.916061
9205437500 -0.87492251 120.07085 -9.0077858 -72.299561 -9.0085049 -72.905785 -0.194619 -84.873085
9205500000 -0.87317157 120.04852 -9.0038071 -72.287743 -9.0117006 -72.908134 -0.19807583 -84.874435
9205562500 -0.86856705 120.04069 -8.9932451 -72.28492 -9.0074787 -72.838249 -0.18832175 -84.844124
9205625000 -0.86596513 120.03981 -9.0029554 -72.308098 -9.0037613 -72.877281 -0.19158605 -84.842407
9205687500 -0.87225538 120.02818 -9.0039301 -72.2752 -8.9971142 -72.915756 -0.18958148 -84.869476
9205750000 -0.86833692 120.03677 -9.0094776 -72.286606 -9.0038261 -72.858032 -0.19198164 -84.815384
9205812500 -0.87590379 120.01423 -9.0081949 -72.341019 -8.9974432 -72.826721 -0.19515684 -84.75766
9205875000 -0.86895972 119.95583 -9.0104885 -72.353378 -9.0012445 -72.885544 -0.19092159 -84.764801
9205937500 -0.86458504 120.01149 -9.0026016 -72.241966 -8.999877 -72.917709 -0.19732419 -84.756424
9206000000 -0.86293143 120.00625 -9.0030174 -72.26889 -9.0029459 -72.900764 -0.20156355 -84.679359
9206062500 -0.86205715 119.95947 -9.0031223 -72.303513 -9.0065279 -72.906487 -0.20008548 -84.695709
9206125000 -0.86753863 119.96051 -9.0048552 -72.288605 -9.0004539 -72.853775 -0.19626646 -84.64621
9206187500 -0.86767381 119.9631 -9.0034399 -72.261597 -8.9992847 -72.923195 -0.19840033 -84.663139
9206250000 -0.86947542 119.94055 -8.9994907 -72.272278 -8.9984837 -72.865456 -0.19952708 -84.620255
9206312500 -0.86536705 119.94893 -8.9914389 -72.246719 -8.9960709 -72.864532 -0.19716427 -84.629417
9206375000 -0.86233717 119.95529 -8.9933062 -72.280144 -8.9891071 -72.886719 -0.19258465 -84.60762
9206437500 -0.86491013 119.9059 -8.9981995 -72.297447 -8.9880962 -72.940979 -0.18633901 -84.634895
9206500000 -0.86736983 119.88056 -8.9970036 -72.292381 -8.9890575 -72.93589 -0.19368584 -84.579002
9206562500 -0.86993104 119.86333 -8.9837265 -72.282578 -8.9869576 -72.883842 -0.19261104 -84.551643
9206625000 -0.87279975 119.87334 -8.9910402 -72.226707 -8.984704 -72.833023 -0.18851095 -84.521339
9206687500 -0.87351507 119.85155 -8.9881124 -72.221481 -8.9752836 -72.837219 -0.17755276 -84.486069
9206750000 -0.87021762 119.83493 -8.9861193 -72.192993 -8.9796009 -72.825806 -0.18769275 -84.422142
9206812500 -0.87855923 119.81483 -8.9867916 -72.236366 -8.9730787 -72.889641 -0.18397048 -84.47644
9206875000 -0.87247866 119.79275 -8.9840097 -72.210121 -8.9789629 -72.890945 -0.18928228 -84.425842
9206937500 -0.8716498 119.76418 -8.9788504 -72.299797 -8.9763708 -72.931435 -0.18397115 -84.434067
9207000000 -0.86287659 119.75681 -8.9812574 -72.266815 -8.9799547 -72.832176 -0.18970509 -84.389427
9207062500 -0.86280257 119.72345 -8.984067 -72.276306 -8.9884644 -72.828484 -0.20190328 -84.370155
9207125000 -0.86284047 119.73252 -8.989109 -72.237701 -8.9810066 -72.83165 -0.19644357 -84.367058
9207187500 -0.86244273 119.70383 -8.9871826 -72.262665 -8.9875383 -72.877213 -0.1945191 -84.388016
9207250000 -0.86581188 119.68687 -8.9912977 -72.292801 -8.9873686 -72.798943 -0.19434522 -84.343346
9207312500 -0.86209011 119.63919 -8.9824924 -72.306992 -8.9794636 -72.83493 -0.19929686 -84.361115
9207375000 -0.86585742 119.63494 -8.9774609 -72.296753 -8.9844933 -72.837349 -0.20455728 -84.307259
9207437500 -0.86379904 119.61619 -8.9925251 -72.279655 -8.9725695 -72.797821 -0.19956221 -84.298149
9207500000 -0.86842299 119.6081 -8.9820375 -72.312874 -8.9783821 -72.862534 -0.2040991 -84.333366
9207562500 -0.8690964 119.57841 -8.9851656 -72.377983 -8.9875851 -72.854973 -0.20929772 -84.294357
9207625000 -0.86813813 119.53319 -8.9819889 -72.348457 -8.9739666 -72.845543 -0.20639397 -84.277985
9207687500 -0.87026322 119.50799 -8.9799805 -72.338318 -8.9784212 -72.832367 -0.19376363 -84.244438
9207750000 -0.87341523 119.52652 -8.9816971 -72.352028 -8.9719486 -72.887451 -0.19224474 -84.280624
9207812500 -0.87393731 119.53348 -8.976882 -72.305244 -8.9704494 -72.887253 -0.18597703 -84.255234
9207875000 -0.87417191 119.56631 -8.9830523 -72.228867 -8.9733362 -72.851982 -0.19106638 -84.20845
9207937500 -0.87353998 119.5398 -8.9739752 -72.219078 -8.9748631 -72.873055 -0.19136748 -84.176018
9208000000 -0.87581623 119.51292 -8.9787903 -72.248871 -8.9631615 -72.779922 -0.18418325 -84.122742
9208062500 -0.86780179 119.54259 -8.9655704 -72.215851 -8.9733238 -72.844566 -0.19333918 -84.116844
9208125000 -0.87218857 119.48357 -8.988245 -72.25708 -8.9742308 -72.869179 -0.19586918 -84.131287
9208187500 -0.86416239 119.48245 -8.9678411 -72.261131 -8.9731817 -72.814987 -0.19595177 -84.111305
9208250000 -0.87087053 119.49606 -8.9677639 -72.202446 -8.9736509 -72.82682 -0.2036048 -84.098877
9208312500 -0.8717978 119.50144 -8.9744158 -72.222206 -8.9691334 -72.784775 -0.20286584 -84.02256
9208375000 -0.86826599 119.47808 -8.9805613 -72.156731 -8.9676285 -72.842377 -0.20687322 -84.081795
9208437500 -0.86914653 119.44552 -8.9787054 -72.216148 -8.9791861 -72.82093 -0.2094592 -83.972481
9208500000 -0.86890036 119.4173 -8.9700108 -72.226257 -8.9693823 -72.782959 -0.20585997 -83.966843
9208562500 -0.86837006 119.36639 -8.9676476 -72.293274 -8.9568539 -72.796036 -0.19547659 -83.961151
9208625000 -0.87534207 119.38575 -8.9663162 -72.235802 -8.9609041 -72.826004 -0.19440813 -84.007843
9208687500 -0.87002188 119.33983 -8.9715815 -72.291832 -8.9669523 -72.822136 -0.19976689 -83.920677
9208750000 -0.86841965 119.29955 -8.9618731 -72.273293 -8.9664984 -72.844757 -0.19789346 -83.950218
9208812500 -0.8696236 119.29125 -8.9641848 -72.324074 -8.9606562 -72.80426 -0.19824083 -83.924652
9208875000 -0.86894798 119.34235 -8.9695473 -72.238861 -8.9667511 -72.809875 -0.19807877 -83.930756
9208937500 -0.87257206 119.32246 -8.9719296 -72.269356 -8.956811 -72.798004 -0.19312145 -83.918724
9209000000 -0.87246573 119.38089 -8.9600925 -72.240776 -8.9589329 -72.821518 -0.19618215 -83.939903
9209062500 -0.86937392 119.35326 -8.9621029 -72.216042 -8.9746294 -72.764465 -0.20130868 -83.854729
9209125000 -0.8731541 119.35831 -8.9723845 -72.208084 -8.9677954 -72.788818 -0.20251416 -83.869888
9209187500 -0.8722896 119.30487 -8.9673395 -72.266411 -8.9588966 -72.714447 -0.19677874 -83.819595
9209250000 -0.8670069 119.32316 -8.9616232 -72.166611 -8.9684772 -72.82486 -0.20545363 -83.843498
9209312500 -0.86441869 119.27793 -8.9587517 -72.182228 -8.9651279 -72.790131 -0.20568062 -83.811707
9209375000 -0.864057 119.28643 -8.9531927 -72.207024 -8.9646425 -72.714279 -0.20249636 -83.759308
9209437500 -0.86597145 119.23177 -8.953928 -72.178581 -8.9643126 -72.765121 -0.1992386 -83.748253
9209500000 -0.86567003 119.20236 -8.955863 -72.245094 -8.9629898 -72.767204 -0.20243022 -83.713432
9209562500 -0.86874157 119.21731 -8.9623241 -72.225479 -8.9627275 -72.75071 -0.19990884 -83.663704
9209625000 -0.86847711 119.16992 -8.9515953 -72.227173 -8.9657154 -72.74752 -0.2039865 -83.68338
9209687500 -0.86928797 119.19003 -8.9569387 -72.231422 -8.9578686 -72.810982 -0.19518572 -83.688049
9209750000 -0.87314206 119.15749 -8.9583015 -72.29364 -8.9549532 -72.777145 -0.1943071 -83.644096
9209812500 -0.87598628 119.14869 -8.9568043 -72.281853 -8.9549274 -72.745682 -0.19529223 -83.623634
9209875000 -0.87461311 119.11024 -8.9539337 -72.324883 -8.9600735 -72.777573 -0.19635537 -83.58213
9209937500 -0.87569761 119.11943 -8.9621744 -72.276573 -8.9514647 -72.780006 -0.1915666 -83.601936
9210000000 -0.86648679 119.10426 -8.9597731 -72.166245 -8.957428 -72.71331 -0.2017922 -83.54789
9210062500 -0.86655921 119.13077 -8.949544 -72.222237 -8.9536428 -72.700134 -0.18839705 -83.549988
9210125000 -0.87033039 119.08843 -8.9605427 -72.196777 -8.9537563 -72.735023 -0.19776326 -83.540283
9210187500 -0.86659622 119.06529 -8.9555044 -72.21328 -8.9442873 -72.707657 -0.19816813 -83.526894
9210250000 -0.86430377 119.07025 -8.9497929 -72.202644 -8.9502039 -72.724396 -0.19483837 -83.486137
9210312500 -0.86704201 119.04759 -8.9499254 -72.197754 -8.9482002 -72.723824 -0.19556145 -83.461365
9210375000 -0.86619854 119.0665 -8.9555826 -72.171074 -8.9467478 -72.685753 -0.20033397 -83.454102
9210437500 -0.86289704 119.04625 -8.9462013 -72.19751 -8.9573917 -72.688599 -0.20870367 -83.472511
9210500000 -0.86359942 119.00628 -8.9526091 -72.201881 -8.9603271 -72.709038 -0.20603363 -83.419907
9210562500 -0.86185116 118.97971 -8.9514751 -72.219597 -8.9485292 -72.703903 -0.2039225 -83.416481
9210625000 -0.86251575 118.96294 -8.95996 -72.207924 -8.9616566 -72.714554 -0.21737561 -83.429878
9210687500 -0.85903227 118.91425 -8.9470959 -72.218781 -8.9471226 -72.674713 -0.2070599 -83.357147
9210750000 -0.86048478 118.91035 -8.9434757 -72.173042 -8.9506025 -72.706985 -0.20814301 -83.381653
9210812500 -0.86548245 118.88766 -8.9528837 -72.202667 -8.9469938 -72.750038 -0.20952003 -83.30677
9210875000 -0.86139584 118.84882 -8.9510059 -72.202682 -8.9447241 -72.748375 -0.21003753 -83.347725
9210937500 -0.86690569 118.86141 -8.9496393 -72.128868 -8.9465389 -72.773796 -0.21133859 -83.339859
9211000000 -0.86057389 118.87484 -8.9436836 -72.133942 -8.947093 -72.715721 -0.20860992 -83.26741
9211062500 -0.86943752 118.83165 -8.9391708 -72.192513 -8.9397078 -72.772018 -0.20193456 -83.33448
9211125000 -0.86611754 118.84149 -8.9375973 -72.21241 -8.9450903 -72.775581 -0.21215722 -83.317261
9211187500 -0.86967272 118.86155 -8.9389286 -72.203072 -8.9384174 -72.723831 -0.19909725 -83.311089
9211250000 -0.87475419 118.82825 -8.9507399 -72.242615 -8.9422379 -72.748283 -0.20451383 -83.355797
9211312500 -0.87610018 118.87159 -8.9467287 -72.169586 -8.9334354 -72.727058 -0.19860406 -83.293961
9211375000 -0.87540823 118.83389 -8.9393444 -72.172256 -8.9352407 -72.739845 -0.19669095 -83.208839
9211437500 -0.87645262 118.79561 -8.9492083 -72.237228 -8.9364576 -72.773186 -0.19928281 -83.2202
9211500000 -0.87626642 118.78661 -8.9470234 -72.205856 -8.9423227 -72.702721 -0.20510809 -83.175949
9211562500 -0.87564343 118.79385 -8.9384422 -72.176292 -8.9400091 -72.737114 -0.20755467 -83.163155
9211625000 -0.87429583 118.74822 -8.9479122 -72.173058 -8.9334593 -72.723938 -0.20851776 -83.142715
9211687500 -0.87377453 118.71527 -8.9454317 -72.173286 -8.9360886 -72.726089 -0.20679696 -83.124428
9211750000 -0.87029207 118.73153 -8.9417782 -72.097061 -8.9363565 -72.626968 -0.20999762 -83.094017
9211812500 -0.87742245 118.66584 -8.9362507 -72.216995 -8.9400463 -72.692505 -0.21219094 -83.090729
9211875000 -0.87393594 118.68307 -8.9394274 -72.139282 -8.9384003 -72.677216 -0.21639617 -83.050735
9211937500 -0.87501764 118.65463 -8.9333096 -72.166092 -8.9267511 -72.666542 -0.20589048 -83.022369
9212000000 -0.87587702 118.66206 -8.9353752 -72.194626 -8.9315529 -72.668083 -0.2093484 -83.017426
9212062500 -0.87611228 118.61002 -8.9321785 -72.166962 -8.931365 -72.680832 -0.20885378 -82.958855
9212125000 -0.87505674 118.60013 -8.933012 -72.193359 -8.9278526 -72.670517 -0.21207596 -82.926819
9212187500 -0.87794578 118.56627 -8.9326105 -72.204247 -8.9303474 -72.682953 -0.20584901 -82.934563
