!Agilent Technologies,N5242A,MY51221714,A.09.90.19
!Agilent N5242A: A.09.90.19
!Date: Saturday, March 16, 2024 10:23:02
!Correction: S11(Full 2 Port(1,2)) 
!S21(Full 2 Port(1,2)) 
!S12(Full 2 Port(1,2)) 
!S22(Full 2 Port(1,2)) 
!S2P File: Measurements: S11, S21, S12, S22:
# Hz S  dB   R 50
9200000000 -0.87435585 121.73421 -9.0881023 -72.441635 -9.0745516 -73.050529 -0.16581188 -86.911896
9200062500 -0.87647772 121.72778 -9.0901871 -72.462952 -9.0719414 -73.008057 -0.17042871 -86.893974
9200125000 -0.87378591 121.75439 -9.0881968 -72.435173 -9.0758772 -73.063416 -0.17252052 -86.872932
9200187500 -0.8665759 121.74696 -9.0767326 -72.369614 -9.0733509 -73.020172 -0.16633224 -86.903481
9200250000 -0.87568146 121.75513 -9.0851936 -72.453926 -9.0620403 -73.103455 -0.16140914 -86.920479
9200312500 -0.87193763 121.72646 -9.0839853 -72.453018 -9.0727177 -73.050682 -0.17062663 -86.892448
9200375000 -0.8673299 121.68642 -9.066721 -72.428185 -9.0656672 -73.070557 -0.17272446 -86.822357
9200437500 -0.87078667 121.70203 -9.0832825 -72.406487 -9.0572338 -73.019302 -0.16121197 -86.816895
9200500000 -0.86593658 121.65828 -9.0725603 -72.426918 -9.0609522 -73.046532 -0.16878937 -86.83271
9200562500 -0.87336296 121.65773 -9.0805063 -72.429504 -9.0550718 -73.065628 -0.16096357 -86.842796
9200625000 -0.87122983 121.6452 -9.0811033 -72.414101 -9.0597591 -73.04454 -0.17486784 -86.757195
9200687500 -0.87143451 121.63269 -9.0779457 -72.399361 -9.0532827 -73.103622 -0.17261024 -86.794388
9200750000 -0.87480611 121.61181 -9.0808783 -72.354218 -9.060442 -73.000595 -0.17754471 -86.674118
9200812500 -0.87106609 121.58596 -9.0736704 -72.349182 -9.0596237 -73.038116 -0.179924 -86.661613
9200875000 -0.87941265 121.56177 -9.0837421 -72.398102 -9.0532312 -73.017685 -0.17785621 -86.665688
9200937500 -0.87068385 121.59636 -9.0801325 -72.411102 -9.0617285 -72.995415 -0.17350323 -86.605217
9201000000 -0.8700217 121.57234 -9.0687637 -72.394829 -9.0507736 -73.054939 -0.17639102 -86.626175
9201062500 -0.86654198 121.55059 -9.0682278 -72.409859 -9.0509682 -73.007774 -0.1713547 -86.620293
9201125000 -0.86932862 121.52985 -9.0655041 -72.359688 -9.0522728 -72.941444 -0.17097129 -86.517693
9201187500 -0.86693019 121.49866 -9.0701227 -72.373665 -9.0652437 -72.967545 -0.1784749 -86.542679
9201250000 -0.8637417 121.51699 -9.0574312 -72.410316 -9.0585566 -73.005348 -0.17630501 -86.576996
9201312500 -0.86810529 121.45412 -9.070528 -72.422348 -9.0642242 -72.992874 -0.17765647 -86.57193
9201375000 -0.87294382 121.49847 -9.0711584 -72.346092 -9.0565395 -72.991882 -0.17696004 -86.551613
9201437500 -0.8708809 121.48389 -9.0677624 -72.420158 -9.0638905 -72.980492 -0.17646997 -86.549248
9201500000 -0.87604845 121.46591 -9.0658302 -72.405304 -9.0575018 -72.97979 -0.17706922 -86.494728
9201562500 -0.87850219 121.44781 -9.0807104 -72.43972 -9.0563478 -72.982872 -0.1746968 -86.527527
9201625000 -0.8685177 121.44495 -9.0685139 -72.322227 -9.0584307 -72.954987 -0.17990807 -86.478844
9201687500 -0.8764174 121.41407 -9.0668707 -72.387184 -9.0544024 -72.971092 -0.17081806 -86.50666
9201750000 -0.87392157 121.40575 -9.0647936 -72.406143 -9.0457706 -72.918282 -0.17238456 -86.437599
9201812500 -0.87068492 121.3797 -9.0652142 -72.399002 -9.0531273 -72.988533 -0.1797127 -86.423531
9201875000 -0.87237608 121.37391 -9.0676651 -72.399803 -9.0524979 -72.984192 -0.1779025 -86.375107
9201937500 -0.86708117 121.35766 -9.0646505 -72.366692 -9.0454407 -72.951485 -0.17582817 -86.359039
9202000000 -0.86637837 121.32291 -9.059083 -72.369949 -9.0507545 -72.997238 -0.17621006 -86.348373
9202062500 -0.86937809 121.32908 -9.0612707 -72.349152 -9.0500555 -72.949669 -0.17253068 -86.314049
9202125000 -0.86840308 121.33767 -9.0548964 -72.375694 -9.0502558 -72.964455 -0.16965611 -86.32019
9202187500 -0.86755234 121.27088 -9.0481625 -72.4114 -9.0512609 -73.015015 -0.17502561 -86.348625
9202250000 -0.87245339 121.28964 -9.0418615 -72.38839 -9.0569811 -72.997742 -0.16887961 -86.291336
9202312500 -0.86925089 121.27293 -9.0454865 -72.323318 -9.0474291 -73.03965 -0.17299868 -86.324432
9202375000 -0.86898386 121.2599 -9.0436296 -72.38195 -9.0530729 -72.984604 -0.17461959 -86.292854
9202437500 -0.87014431 121.24593 -9.0473366 -72.353615 -9.053916 -72.943161 -0.17951779 -86.224564
9202500000 -0.87499255 121.22315 -9.0560322 -72.403664 -9.0510674 -72.954384 -0.17760296 -86.247635
9202562500 -0.87205446 121.22079 -9.0518732 -72.419395 -9.0493155 -73.003815 -0.18266428 -86.228706
9202625000 -0.88212162 121.22448 -9.0651026 -72.368118 -9.0519476 -72.969444 -0.18446238 -86.197243
9202687500 -0.87846261 121.18668 -9.0581465 -72.376259 -9.0548658 -72.944939 -0.18951841 -86.171692
9202750000 -0.87734157 121.17428 -9.0563021 -72.409393 -9.0494347 -72.970963 -0.18617988 -86.175797
9202812500 -0.87033111 121.17936 -9.0530071 -72.336182 -9.0502844 -72.959595 -0.18627496 -86.128288
9202875000 -0.87345457 121.14163 -9.056735 -72.392441 -9.0425549 -72.962746 -0.18256722 -86.089684
9202937500 -0.86744338 121.1064 -9.0467978 -72.398285 -9.0407848 -72.943047 -0.17983046 -86.083809
9203000000 -0.8692559 121.13103 -9.0497007 -72.365387 -9.0391607 -72.968376 -0.18138324 -86.105759
9203062500 -0.86938053 121.07975 -9.041419 -72.361717 -9.038559 -72.955872 -0.18166664 -86.06601
9203125000 -0.87216407 121.07829 -9.0526762 -72.347824 -9.0368071 -72.980774 -0.17568147 -86.063843
9203187500 -0.87109303 121.10401 -9.0459471 -72.346809 -9.0390205 -72.9701 -0.17641677 -86.030243
9203250000 -0.87579 121.09109 -9.0461006 -72.315933 -9.0344782 -72.977623 -0.17841645 -86.045296
9203312500 -0.86899102 121.06525 -9.0406771 -72.356995 -9.0465069 -72.9907 -0.18205178 -85.957047
9203375000 -0.8760587 121.04453 -9.0487928 -72.377907 -9.0402126 -72.93943 -0.17794429 -85.980553
9203437500 -0.87213349 121.02924 -9.0390139 -72.353523 -9.0486832 -72.920113 -0.17991124 -85.986366
9203500000 -0.8721447 120.99264 -9.0454674 -72.40773 -9.036376 -72.927238 -0.18051521 -85.910889
9203562500 -0.87520438 121.02288 -9.0540047 -72.405533 -9.0314789 -73.008087 -0.17848122 -85.930908
9203625000 -0.87173074 120.97688 -9.0517311 -72.351967 -9.0424995 -72.944382 -0.18092094 -85.912834
9203687500 -0.87242895 120.95367 -9.0500584 -72.402328 -9.0390215 -72.926079 -0.18412523 -85.832771
9203750000 -0.87378836 120.93836 -9.0418406 -72.387886 -9.0374784 -72.965103 -0.18759599 -85.88485
9203812500 -0.874524 120.90939 -9.0516529 -72.432991 -9.038106 -72.9282 -0.18957283 -85.857101
9203875000 -0.87482154 120.90255 -9.0447168 -72.352386 -9.0328379 -72.963364 -0.18949157 -85.83844
9203937500 -0.86666524 120.91227 -9.0329742 -72.290581 -9.0313425 -72.97551 -0.19239992 -85.82019
9204000000 -0.87026143 120.88168 -9.0416965 -72.34671 -9.0330553 -72.870354 -0.19205882 -85.771957
9204062500 -0.86703622 120.86039 -9.0417995 -72.344597 -9.0349121 -72.934021 -0.20129921 -85.772591
9204125000 -0.86200458 120.83894 -9.0431433 -72.363068 -9.0280828 -72.890274 -0.19080091 -85.741844
9204187500 -0.86392826 120.84561 -9.0437241 -72.329681 -9.027586 -72.912621 -0.19644254 -85.710648
9204250000 -0.86701733 120.83344 -9.0495577 -72.388542 -9.0276585 -72.955734 -0.19842774 -85.742523
9204312500 -0.86631423 120.81192 -9.0428848 -72.334526 -9.0211525 -72.90583 -0.19004291 -85.691399
9204375000 -0.86210787 120.79463 -9.0377979 -72.31131 -9.0315027 -72.827347 -0.19899282 -85.614899
9204437500 -0.86462611 120.80075 -9.0368252 -72.310425 -9.0296545 -72.944588 -0.19040681 -85.68586
9204500000 -0.86048722 120.77229 -9.0354748 -72.287056 -9.0299397 -72.88401 -0.18501769 -85.647957
9204562500 -0.86151111 120.77197 -9.0377493 -72.271133 -9.0309744 -72.90818 -0.18511198 -85.62822
9204625000 -0.85918397 120.72829 -9.028985 -72.291992 -9.0235128 -72.892273 -0.18360074 -85.562256
9204687500 -0.86515117 120.74995 -9.0352812 -72.255913 -9.0238562 -72.868431 -0.18281908 -85.561226
9204750000 -0.86379462 120.69901 -9.0311365 -72.271088 -9.0214138 -72.881012 -0.18635941 -85.570274
9204812500 -0.86132622 120.74466 -9.0309896 -72.289864 -9.0177774 -72.936211 -0.18245728 -85.598137
9204875000 -0.86729044 120.7257 -9.0288181 -72.265656 -9.0300045 -72.889099 -0.19213095 -85.512077
9204937500 -0.86976659 120.7253 -9.0281668 -72.276497 -9.017745 -72.94413 -0.18690552 -85.537247
9205000000 -0.86885834 120.70277 -9.0242567 -72.292816 -9.0225277 -72.883965 -0.18704058 -85.52433
9205062500 -0.8679738 120.68678 -9.0284843 -72.318115 -9.0226278 -72.9123 -0.18565698 -85.521118
9205125000 -0.86424679 120.68125 -9.0237942 -72.226074 -9.0176516 -72.83609 -0.18079396 -85.431252
9205187500 -0.86843425 120.64272 -9.0300989 -72.301575 -9.0262709 -72.893753 -0.18670018 -85.464699
9205250000 -0.86840606 120.61766 -9.0183334 -72.246262 -9.0235348 -72.889008 -0.19040212 -85.43605
9205312500 -0.87282592 120.57468 -9.0238781 -72.257721 -9.0269804 -72.852776 -0.18371095 -85.391083
9205375000 -0.87052423 120.54648 -9.0241585 -72.250252 -9.026022 -72.887962 -0.18677212 -85.414963
9205437500 -0.87532872 120.54087 -9.0313997 -72.271812 -9.0364218 -72.926384 -0.18939874 -85.412331
9205500000 -0.87282777 120.56319 -9.0265846 -72.235939 -9.0294914 -72.840317 -0.18968466 -85.371948
9205562500 -0.87580627 120.53735 -9.018796 -72.213402 -9.019908 -72.867874 -0.18118459 -85.333595
9205625000 -0.87129128 120.54705 -9.0213184 -72.295944 -9.0265017 -72.889458 -0.19147846 -85.383194
9205687500 -0.87182987 120.53717 -9.016016 -72.261696 -9.02279 -72.884666 -0.192206 -85.343033
9205750000 -0.86722553 120.5127 -9.0221701 -72.295631 -9.0255537 -72.907356 -0.18856677 -85.342804
9205812500 -0.86605555 120.49488 -9.0181541 -72.303314 -9.0231094 -72.841904 -0.19015549 -85.310783
9205875000 -0.86593837 120.50563 -9.0225191 -72.265984 -9.0231333 -72.862915 -0.19458221 -85.280853
9205937500 -0.86222857 120.5349 -9.0283117 -72.261253 -9.0268764 -72.910988 -0.19226648 -85.285927
9206000000 -0.86607617 120.47816 -9.0241518 -72.305435 -9.0247879 -72.871628 -0.19802591 -85.251976
9206062500 -0.86892462 120.4938 -9.0195894 -72.247879 -9.021781 -72.873428 -0.19545732 -85.197746
9206125000 -0.86556894 120.44558 -9.0248175 -72.234016 -9.0182915 -72.816956 -0.18953548 -85.169342
9206187500 -0.86316633 120.44853 -9.0147209 -72.235359 -9.0133286 -72.839088 -0.19055754 -85.151527
9206250000 -0.86500883 120.4147 -9.0169621 -72.281494 -9.016923 -72.867538 -0.19264111 -85.159531
9206312500 -0.86545962 120.43227 -9.0079689 -72.233284 -9.0145941 -72.879425 -0.1864914 -85.149971
9206375000 -0.86088389 120.39562 -9.0073566 -72.234741 -8.9996452 -72.871635 -0.17762084 -85.126259
9206437500 -0.86923647 120.40752 -9.0066767 -72.238792 -9.0064611 -72.836151 -0.18477835 -85.099426
9206500000 -0.86696148 120.40513 -9.0150061 -72.186546 -9.0024986 -72.867035 -0.18476574 -85.101357
9206562500 -0.86322385 120.36172 -9.000824 -72.284714 -8.9956551 -72.861267 -0.17890047 -85.104462
9206625000 -0.86665255 120.32648 -8.9998283 -72.170303 -8.9965439 -72.885696 -0.17196168 -85.043549
9206687500 -0.87213486 120.34608 -8.9987698 -72.219337 -9.0001421 -72.855324 -0.18248634 -84.98671
9206750000 -0.87495804 120.2905 -9.0011263 -72.233711 -8.9854326 -72.825447 -0.17685594 -84.982643
9206812500 -0.86779392 120.31879 -8.9932003 -72.186783 -8.9975805 -72.837845 -0.17788211 -84.968529
9206875000 -0.86943114 120.29427 -8.9925537 -72.216469 -8.9977684 -72.834145 -0.17837417 -84.930656
9206937500 -0.86806142 120.29033 -9.0020142 -72.186745 -8.9967518 -72.860886 -0.1831665 -84.932976
9207000000 -0.87017184 120.2394 -9.0032587 -72.238243 -8.9984083 -72.853577 -0.18737049 -84.94146
9207062500 -0.86407715 120.22352 -8.9925756 -72.21109 -8.9969139 -72.802849 -0.18455181 -84.878029
9207125000 -0.86395681 120.22015 -9.0066614 -72.207825 -8.9994335 -72.83329 -0.19026053 -84.929283
9207187500 -0.86139768 120.18778 -9.0018749 -72.243881 -8.9999609 -72.823257 -0.19307232 -84.882126
9207250000 -0.86396074 120.18708 -9.0049791 -72.217972 -9.002593 -72.784096 -0.18951724 -84.845963
9207312500 -0.86324537 120.1371 -9.0034523 -72.270691 -8.9981995 -72.759834 -0.19320446 -84.853065
9207375000 -0.86354762 120.12255 -9.0051422 -72.234039 -9.0017071 -72.803604 -0.19811919 -84.84848
9207437500 -0.86429405 120.11949 -8.9954548 -72.29068 -8.9926634 -72.866447 -0.1919015 -84.859581
9207500000 -0.86734176 120.03395 -8.9974689 -72.292091 -8.9891615 -72.794998 -0.18925206 -84.817902
9207562500 -0.86449206 120.04048 -9.0001354 -72.2621 -8.9833384 -72.835777 -0.18847919 -84.811844
9207625000 -0.866283 120.04324 -8.9966431 -72.243393 -8.9853649 -72.887039 -0.1987814 -84.821747
9207687500 -0.8704899 120.04755 -9.003747 -72.255219 -8.9899912 -72.83078 -0.1944527 -84.800865
9207750000 -0.86741269 120.04057 -9.0010262 -72.275337 -8.996191 -72.855347 -0.18051872 -84.733917
9207812500 -0.87232488 120.0113 -8.9950085 -72.260551 -8.9935875 -72.881813 -0.18309838 -84.780602
9207875000 -0.87764341 120.01492 -8.9918356 -72.242088 -8.9823647 -72.771614 -0.17897813 -84.689339
9207937500 -0.87261111 120.03939 -8.9874325 -72.133339 -8.9929571 -72.919243 -0.18203749 -84.719604
9208000000 -0.87497938 120.02428 -8.9969797 -72.193466 -9.0022726 -72.836716 -0.19072287 -84.658936
9208062500 -0.87502682 120.01944 -8.996069 -72.245674 -8.9969292 -72.885246 -0.18497746 -84.681435
9208125000 -0.87210375 119.97231 -8.9932899 -72.198402 -8.9898281 -72.827812 -0.18771754 -84.602913
9208187500 -0.86181855 119.98116 -8.9899216 -72.2108 -8.9962931 -72.807938 -0.19642645 -84.637482
9208250000 -0.8753013 119.97375 -8.9986458 -72.204552 -8.9969416 -72.833511 -0.19766213 -84.597076
9208312500 -0.87099731 119.96667 -8.9965763 -72.21566 -8.9968081 -72.788872 -0.20135908 -84.571251
9208375000 -0.87228757 119.93291 -8.9943314 -72.210175 -8.9986858 -72.815163 -0.20460139 -84.603302
9208437500 -0.86879778 119.93666 -8.9990234 -72.239449 -8.9897394 -72.785423 -0.19508019 -84.556023
9208500000 -0.86941373 119.91029 -8.9919806 -72.25032 -8.9851179 -72.806091 -0.19353865 -84.509346
9208562500 -0.87029016 119.87384 -8.9920778 -72.273643 -8.9886179 -72.734177 -0.19303544 -84.474411
9208625000 -0.8703841 119.83322 -8.9937792 -72.282913 -8.9796371 -72.835068 -0.18886805 -84.501633
9208687500 -0.87093925 119.86757 -8.9902239 -72.275238 -8.9895391 -72.784172 -0.19582668 -84.484344
9208750000 -0.8728621 119.80448 -8.9871244 -72.219604 -8.9807529 -72.793617 -0.19411008 -84.45813
9208812500 -0.87403089 119.79591 -8.9916449 -72.260384 -8.9812202 -72.796791 -0.19636244 -84.468781
9208875000 -0.86952859 119.81806 -8.9797344 -72.264915 -8.9857788 -72.81884 -0.19904666 -84.46785
9208937500 -0.87217367 119.81177 -8.9810514 -72.204338 -8.9873381 -72.761925 -0.1949725 -84.451492
9209000000 -0.87442851 119.81673 -8.9879694 -72.242355 -8.9765091 -72.823624 -0.19521038 -84.443161
9209062500 -0.86650014 119.84637 -8.9760046 -72.19796 -8.9845562 -72.779953 -0.19636334 -84.408607
9209125000 -0.86886483 119.83329 -8.9779587 -72.14566 -8.980916 -72.819206 -0.19359091 -84.399361
9209187500 -0.86961383 119.82694 -8.9792585 -72.133209 -8.9861355 -72.769966 -0.19795318 -84.392334
9209250000 -0.87163198 119.79971 -8.9745407 -72.198471 -8.9820814 -72.781082 -0.19504632 -84.346741
9209312500 -0.86749178 119.7629 -8.9695702 -72.156532 -8.986742 -72.762482 -0.19897637 -84.327965
9209375000 -0.87037778 119.76289 -8.9741564 -72.2145 -8.9863005 -72.79451 -0.20203677 -84.35424
9209437500 -0.86513418 119.74446 -8.9755468 -72.201363 -8.9887381 -72.75885 -0.19898328 -84.3088
9209500000 -0.86945391 119.69971 -8.9707642 -72.228188 -8.9784155 -72.723915 -0.19682974 -84.236343
9209562500 -0.86993456 119.67997 -8.9810658 -72.237434 -8.9817648 -72.755188 -0.19661397 -84.262505
9209625000 -0.86527538 119.68356 -8.9718418 -72.173286 -8.9749956 -72.717697 -0.19183145 -84.203369
9209687500 -0.87313539 119.66807 -8.9811468 -72.178513 -8.9760265 -72.764465 -0.1873838 -84.193275
9209750000 -0.86964059 119.65424 -8.9700775 -72.214401 -8.9759102 -72.742615 -0.19135708 -84.169701
9209812500 -0.86895955 119.65424 -8.9754295 -72.201874 -8.9760561 -72.730164 -0.19026843 -84.140411
9209875000 -0.87299204 119.64662 -8.9760313 -72.196899 -8.9703045 -72.761978 -0.19427252 -84.119629
9209937500 -0.86949939 119.60086 -8.9686909 -72.177299 -8.9702806 -72.660431 -0.18840487 -84.113144
9210000000 -0.8756659 119.60026 -8.9732847 -72.194435 -8.9768419 -72.701508 -0.19014314 -84.077751
9210062500 -0.87119555 119.59473 -8.9783678 -72.264938 -8.9676228 -72.69957 -0.18895526 -84.045532
9210125000 -0.86236805 119.59837 -8.962245 -72.188797 -8.9635029 -72.735611 -0.18197496 -84.066452
9210187500 -0.86846066 119.54245 -8.968708 -72.215904 -8.9621058 -72.682793 -0.19343355 -84.023766
9210250000 -0.87000334 119.55173 -8.9641066 -72.195343 -8.9646444 -72.653336 -0.19344038 -83.995552
9210312500 -0.86447954 119.54958 -8.9710712 -72.166389 -8.9628363 -72.6884 -0.19200009 -84.00985
9210375000 -0.86499375 119.52066 -8.9606085 -72.183052 -8.9681911 -72.681282 -0.1961742 -83.991379
9210437500 -0.8649742 119.49099 -8.9629307 -72.212143 -8.9673595 -72.742851 -0.19550307 -83.979591
9210500000 -0.86658072 119.48351 -8.9719315 -72.190269 -8.9708738 -72.710686 -0.20202509 -83.953377
9210562500 -0.86643058 119.47208 -8.970953 -72.118446 -8.9723721 -72.723381 -0.2072247 -83.958664
9210625000 -0.86560321 119.47768 -8.9789934 -72.161285 -8.969162 -72.701752 -0.20184308 -83.939636
9210687500 -0.86310685 119.43496 -8.9706068 -72.122986 -8.9728136 -72.721451 -0.21239462 -83.939919
9210750000 -0.86645061 119.41374 -8.9644527 -72.18042 -8.9642677 -72.715187 -0.20220308 -83.879501
9210812500 -0.86075568 119.37197 -8.95928 -72.176407 -8.9667892 -72.736115 -0.20318562 -83.947403
9210875000 -0.86812711 119.38615 -8.9621687 -72.079109 -8.964282 -72.719376 -0.20718466 -83.872894
9210937500 -0.87221056 119.37823 -8.9727669 -72.15361 -8.9598885 -72.722221 -0.20087969 -83.838753
9211000000 -0.87232298 119.31187 -8.9563398 -72.15892 -8.9540052 -72.735786 -0.19933867 -83.86367
9211062500 -0.8732608 119.31097 -8.9665861 -72.151527 -8.9649496 -72.702698 -0.20715366 -83.793159
9211125000 -0.87301302 119.31566 -8.967289 -72.145821 -8.9543295 -72.739304 -0.19951338 -83.814629
9211187500 -0.87319559 119.32047 -8.9558048 -72.189545 -8.9630489 -72.772392 -0.19863912 -83.863312
9211250000 -0.87059385 119.31261 -8.9624462 -72.24514 -8.9638166 -72.743187 -0.19649217 -83.824409
9211312500 -0.87670219 119.36905 -8.9642506 -72.17337 -8.9522181 -72.800392 -0.18869695 -83.866592
9211375000 -0.87361562 119.30181 -8.9558592 -72.210663 -8.9591818 -72.680206 -0.18845624 -83.694962
9211437500 -0.87607992 119.28728 -8.9523439 -72.170464 -8.9542694 -72.709129 -0.19548059 -83.731171
9211500000 -0.8743816 119.30921 -8.9581366 -72.142357 -8.959322 -72.670067 -0.192238 -83.74646
9211562500 -0.8721953 119.28129 -8.9654417 -72.079681 -8.9571161 -72.702766 -0.19880591 -83.638451
9211625000 -0.87402153 119.2443 -8.9536171 -72.126945 -8.9584236 -72.671974 -0.19787517 -83.670303
9211687500 -0.87093949 119.21684 -8.9556856 -72.156006 -8.9562731 -72.699486 -0.20634423 -83.684174
9211750000 -0.87248874 119.22327 -8.9605188 -72.18438 -8.9609804 -72.678169 -0.20575449 -83.656837
9211812500 -0.87229967 119.16809 -8.9578991 -72.183929 -8.9585752 -72.636856 -0.20871435 -83.59433
9211875000 -0.86751151 119.14765 -8.9517498 -72.105095 -8.9584179 -72.651993 -0.20751359 -83.541283
9211937500 -0.87425941 119.15064 -8.9567528 -72.175972 -8.9547195 -72.673973 -0.20119287 -83.586548
9212000000 -0.87399662 119.14037 -8.9596033 -72.138527 -8.9559155 -72.682083 -0.20367406 -83.507195
9212062500 -0.88063854 119.06766 -8.947608 -72.165741 -8.9546251 -72.669342 -0.20863517 -83.502975
9212125000 -0.87822461 119.08105 -8.9413328 -72.217972 -8.9431763 -72.692055 -0.19972306 -83.512741
9212187500 -0.87212372 119.03937 -8.9497395 -72.198471 -8.9571972 -72.683022 -0.20249987 -83.487175
