!Agilent Technologies,N5242A,MY51221714,A.09.90.19
!Agilent N5242A: A.09.90.19
!Date: Saturday, March 16, 2024 10:24:05
!Correction: S11(Full 2 Port(1,2)) 
!S21(Full 2 Port(1,2)) 
!S12(Full 2 Port(1,2)) 
!S22(Full 2 Port(1,2)) 
!S2P File: Measurements: S11, S21, S12, S22:
# Hz S  dB   R 50
9200000000 -0.89667809 121.30988 -9.0197773 -72.967392 -9.0240479 -73.588196 -0.21326365 -87.051544
9200062500 -0.90223753 121.29822 -9.0246296 -72.944756 -9.0206985 -73.541466 -0.21605359 -87.047958
9200125000 -0.90667838 121.31553 -9.0245428 -72.928535 -9.0134172 -73.54039 -0.20792258 -87.010269
9200187500 -0.90733576 121.3046 -9.0290155 -72.941879 -9.0104675 -73.568848 -0.20808357 -87.003593
9200250000 -0.90552723 121.27173 -9.0239916 -72.971123 -9.0066233 -73.564102 -0.20578787 -86.99852
9200312500 -0.89516062 121.27046 -9.0227537 -72.950279 -9.0123196 -73.552673 -0.21076559 -86.990112
9200375000 -0.89599401 121.26944 -9.0184469 -72.938309 -9.0090132 -73.582321 -0.21328035 -86.973335
9200437500 -0.89803767 121.25581 -9.0161219 -72.900749 -9.0080833 -73.535515 -0.21339063 -86.927063
9200500000 -0.89351553 121.21522 -9.015296 -73.006439 -9.0006046 -73.61937 -0.20904863 -86.91745
9200562500 -0.89326626 121.21558 -9.0135527 -72.985252 -9.0076218 -73.488647 -0.21888259 -86.901062
9200625000 -0.90495884 121.19186 -9.0296431 -72.964409 -9.008131 -73.564095 -0.22106266 -86.863998
9200687500 -0.89749223 121.18439 -9.0171213 -72.908913 -8.9957705 -73.557671 -0.21404652 -86.889252
9200750000 -0.89865941 121.12921 -9.0179272 -72.897026 -9.0012894 -73.524681 -0.22463313 -86.808174
9200812500 -0.89865154 121.14518 -9.0170221 -72.880074 -9.0002756 -73.484161 -0.22264209 -86.766953
9200875000 -0.90152752 121.14568 -9.020771 -72.926529 -8.9978342 -73.541176 -0.22037201 -86.754585
9200937500 -0.90063131 121.1414 -9.0256615 -72.879478 -9.0002251 -73.519966 -0.21830396 -86.764328
9201000000 -0.89795631 121.09992 -9.0130262 -72.87381 -9.0002823 -73.480217 -0.21718374 -86.674995
9201062500 -0.89845586 121.1104 -9.0195684 -72.912331 -9.0016031 -73.520142 -0.22593586 -86.682175
9201125000 -0.89692944 121.12159 -9.0078287 -72.827354 -8.995388 -73.556961 -0.21898092 -86.708229
9201187500 -0.89318532 121.06864 -9.0072546 -72.909378 -8.9924545 -73.479607 -0.21634127 -86.659912
9201250000 -0.89311868 121.08518 -9.0011339 -72.905495 -8.9966574 -73.502037 -0.21646585 -86.672455
9201312500 -0.89721984 121.04037 -9.004631 -72.914047 -8.999156 -73.527573 -0.21759699 -86.696449
9201375000 -0.89984471 120.99435 -9.0102921 -72.942245 -9.0019083 -73.488037 -0.21917196 -86.715508
9201437500 -0.90520322 121.02584 -9.0204144 -72.924286 -9.0033951 -73.486008 -0.21982871 -86.640488
9201500000 -0.90099692 121.01821 -9.0146694 -72.882919 -8.9960279 -73.509964 -0.21403864 -86.651367
9201562500 -0.90042734 121.00037 -9.0067835 -72.92881 -8.9997196 -73.546043 -0.21709301 -86.669113
9201625000 -0.90266192 120.99568 -9.0183029 -72.889771 -8.9969444 -73.520241 -0.21974352 -86.629555
9201687500 -0.90357846 120.9714 -9.013217 -72.920967 -8.9946518 -73.509384 -0.21269532 -86.600914
9201750000 -0.89919257 121.00596 -9.0219955 -72.925476 -8.999568 -73.479462 -0.21867065 -86.550468
9201812500 -0.89878207 120.96364 -9.0198765 -72.851372 -8.9943628 -73.430084 -0.21450967 -86.536133
9201875000 -0.90118176 120.9042 -9.0161781 -72.939728 -8.9951134 -73.418739 -0.22099517 -86.482887
9201937500 -0.89885426 120.90639 -9.0041819 -72.857536 -8.992424 -73.477791 -0.21980228 -86.479797
9202000000 -0.89796227 120.87186 -8.9997263 -72.899117 -8.9863901 -73.48156 -0.2201741 -86.470222
9202062500 -0.89699799 120.86501 -9.0024281 -72.921219 -8.994853 -73.518105 -0.21984082 -86.496231
9202125000 -0.89933991 120.84663 -9.0028934 -72.919785 -8.9916716 -73.479912 -0.22504735 -86.443069
9202187500 -0.89401406 120.8129 -8.9917946 -72.904533 -8.989027 -73.481339 -0.2183098 -86.449432
9202250000 -0.89968419 120.82336 -8.9932575 -72.919052 -8.9975834 -73.49305 -0.22227922 -86.416077
9202312500 -0.89998293 120.83334 -8.9972486 -72.856102 -8.9927969 -73.485657 -0.21507566 -86.400406
9202375000 -0.89656442 120.77641 -8.9869938 -72.873779 -8.9932785 -73.532845 -0.21941216 -86.410408
9202437500 -0.89852488 120.7649 -8.9918098 -72.891121 -8.9959831 -73.500549 -0.21791925 -86.394096
9202500000 -0.90287143 120.76576 -8.9922209 -72.899933 -9.0002289 -73.451279 -0.22660479 -86.299164
9202562500 -0.89836121 120.77477 -8.9978619 -72.880493 -8.9851141 -73.458763 -0.22135654 -86.30706
9202625000 -0.89867049 120.7664 -8.9890804 -72.881119 -8.9823112 -73.445984 -0.22369778 -86.286049
9202687500 -0.9027248 120.73915 -8.9983959 -72.80442 -8.9899073 -73.466789 -0.22693039 -86.276337
9202750000 -0.90584314 120.71589 -9.0036469 -72.893364 -8.9861403 -73.49218 -0.22677511 -86.260841
9202812500 -0.90370512 120.72453 -8.9998646 -72.887405 -8.9870663 -73.462921 -0.22543888 -86.210587
9202875000 -0.89822644 120.71827 -8.9959316 -72.902565 -8.9919691 -73.523308 -0.22585775 -86.268661
9202937500 -0.90004236 120.67837 -8.9969578 -72.882645 -8.9807606 -73.488144 -0.22451833 -86.214149
9203000000 -0.8993203 120.67339 -9.0005379 -72.927216 -8.9889097 -73.41774 -0.22707804 -86.160629
9203062500 -0.89749557 120.65212 -8.9967327 -72.926117 -8.9851322 -73.518456 -0.22599657 -86.196999
9203125000 -0.89929426 120.66002 -8.9984303 -72.888123 -8.9822083 -73.466537 -0.2287154 -86.161354
9203187500 -0.90332144 120.59198 -8.9920044 -72.926903 -8.9823132 -73.461327 -0.22032316 -86.156654
9203250000 -0.90180421 120.59769 -8.9898024 -72.913857 -8.9785175 -73.511093 -0.22033064 -86.113373
9203312500 -0.90108329 120.56527 -8.9974594 -72.867958 -8.9869089 -73.486732 -0.2250123 -86.109276
9203375000 -0.90408128 120.59781 -8.989255 -72.926743 -8.9907265 -73.473366 -0.23112935 -86.109558
9203437500 -0.90595984 120.5797 -8.9947662 -72.848839 -8.9803839 -73.438416 -0.22445634 -85.983376
9203500000 -0.89954215 120.52758 -8.9919195 -72.895317 -8.9843578 -73.490189 -0.22234948 -86.055374
9203562500 -0.89699984 120.54932 -8.9960098 -72.909866 -8.9868155 -73.458321 -0.23637994 -86.024719
9203625000 -0.89411485 120.52196 -8.9837732 -72.879684 -8.980938 -73.442162 -0.22543794 -86.00238
9203687500 -0.90709949 120.47655 -8.9928293 -72.896019 -8.9722042 -73.416969 -0.22552738 -85.964249
9203750000 -0.90558487 120.47964 -8.9935379 -72.917587 -8.9776154 -73.476204 -0.23505802 -85.950905
9203812500 -0.90120083 120.45103 -8.9884872 -72.856544 -8.9750233 -73.415352 -0.22653235 -85.966522
9203875000 -0.899872 120.457 -8.9762049 -72.844643 -8.976964 -73.434494 -0.23242694 -85.90728
9203937500 -0.89852196 120.46548 -8.9850988 -72.882645 -8.9853115 -73.4534 -0.24476525 -85.927574
9204000000 -0.89634615 120.41766 -8.9884348 -72.879013 -8.972086 -73.4198 -0.23625711 -85.899712
9204062500 -0.89942908 120.44836 -8.9907293 -72.822601 -8.9789143 -73.448067 -0.23950824 -85.8694
9204125000 -0.89797652 120.37943 -8.9867477 -72.88308 -8.973177 -73.459602 -0.24021234 -85.902611
9204187500 -0.8892926 120.38811 -8.9808712 -72.843681 -8.9730988 -73.439079 -0.24002567 -85.862183
9204250000 -0.89271975 120.36861 -8.9857836 -72.844101 -8.9748955 -73.433891 -0.24122538 -85.819054
9204312500 -0.89416164 120.38498 -8.9693117 -72.839607 -8.9705305 -73.371407 -0.23362727 -85.784813
9204375000 -0.89190567 120.35568 -8.9746838 -72.902168 -8.9701004 -73.416168 -0.23339631 -85.810226
9204437500 -0.88828975 120.33013 -8.976037 -72.835686 -8.9720736 -73.415924 -0.23233265 -85.764587
9204500000 -0.88967609 120.33064 -8.9695797 -72.830528 -8.9745417 -73.442184 -0.2347852 -85.771622
9204562500 -0.88552749 120.32558 -8.9654341 -72.780609 -8.9615536 -73.454094 -0.22108723 -85.719971
9204625000 -0.8925615 120.28148 -8.9782009 -72.789833 -8.9612961 -73.423874 -0.22812341 -85.679291
9204687500 -0.89398676 120.27911 -8.9787359 -72.867867 -8.9696827 -73.449326 -0.23457351 -85.712982
9204750000 -0.89161217 120.2831 -8.9745779 -72.816032 -8.9653931 -73.386841 -0.22592372 -85.661201
9204812500 -0.89270204 120.29839 -8.9808674 -72.760208 -8.9668961 -73.453835 -0.23384207 -85.667953
9204875000 -0.89210415 120.28727 -8.9776354 -72.780556 -8.9629459 -73.415688 -0.22923535 -85.666595
9204937500 -0.89914417 120.24984 -8.9809322 -72.827721 -8.9705086 -73.459473 -0.23431265 -85.634377
9205000000 -0.89682525 120.27595 -8.968504 -72.8125 -8.9550648 -73.449562 -0.22961284 -85.640182
9205062500 -0.89468277 120.23129 -8.9676361 -72.828033 -8.9639711 -73.437309 -0.23311557 -85.61161
9205125000 -0.89598465 120.17427 -8.9723368 -72.829926 -8.9633913 -73.43116 -0.226337 -85.591187
9205187500 -0.90303886 120.20012 -8.9739113 -72.798462 -8.9684219 -73.432526 -0.23189199 -85.587418
9205250000 -0.89823365 120.17258 -8.9666538 -72.713364 -8.9598532 -73.409798 -0.22765115 -85.568321
9205312500 -0.90394586 120.11572 -8.9798279 -72.779739 -8.9686489 -73.386238 -0.23190272 -85.503563
9205375000 -0.89753717 120.08512 -8.9573984 -72.803909 -8.9702616 -73.373711 -0.2281923 -85.514656
9205437500 -0.89674234 120.0771 -8.9648151 -72.792755 -8.9760628 -73.419922 -0.23589744 -85.511482
9205500000 -0.89877325 120.08604 -8.9593639 -72.77372 -8.9667721 -73.393631 -0.23244439 -85.460922
9205562500 -0.89644486 120.09948 -8.9616718 -72.748779 -8.9650164 -73.39209 -0.22485505 -85.473892
9205625000 -0.89914662 120.07098 -8.956502 -72.844322 -8.9630604 -73.398277 -0.23168264 -85.464424
9205687500 -0.89529312 120.09161 -8.9606657 -72.778229 -8.963727 -73.407555 -0.23572624 -85.453308
9205750000 -0.89527273 120.05002 -8.9659348 -72.839783 -8.9641781 -73.388802 -0.23441885 -85.434616
9205812500 -0.89609849 120.04198 -8.9649706 -72.797119 -8.964344 -73.361305 -0.23147133 -85.396835
9205875000 -0.89160341 120.03519 -8.9560347 -72.811089 -8.9688358 -73.400627 -0.23596391 -85.399063
9205937500 -0.88975984 120.06474 -8.9601183 -72.756142 -8.9661493 -73.36808 -0.23559938 -85.384567
9206000000 -0.8969484 120.02209 -8.9640293 -72.77285 -8.9627066 -73.297768 -0.23431882 -85.306793
9206062500 -0.89381051 119.96486 -8.9647532 -72.837769 -8.9710503 -73.372864 -0.23804931 -85.337822
9206125000 -0.89795208 120.02419 -8.9600449 -72.736748 -8.9518175 -73.356468 -0.23386276 -85.284523
9206187500 -0.89192736 119.99168 -8.960041 -72.826355 -8.9620943 -73.353836 -0.23786768 -85.296448
9206250000 -0.89062804 119.96408 -8.9607639 -72.705544 -8.9570951 -73.367393 -0.22988115 -85.263809
9206312500 -0.89454144 119.98106 -8.9614038 -72.759682 -8.9530602 -73.39875 -0.23369689 -85.284828
9206375000 -0.88948584 119.94527 -8.9531317 -72.739311 -8.9525251 -73.349495 -0.23166057 -85.225746
9206437500 -0.89147538 119.96835 -8.9457874 -72.704529 -8.9514055 -73.36692 -0.22690125 -85.236191
9206500000 -0.89561957 119.94008 -8.9506245 -72.771523 -8.9452057 -73.362251 -0.23086599 -85.228813
9206562500 -0.89419675 119.93871 -8.9430094 -72.770386 -8.9546747 -73.413544 -0.23172869 -85.207649
9206625000 -0.88982832 119.92382 -8.9452019 -72.713974 -8.9448738 -73.356377 -0.22671795 -85.159241
9206687500 -0.89823341 119.8876 -8.9457951 -72.741951 -8.9435644 -73.386414 -0.22637175 -85.147827
9206750000 -0.90053892 119.87183 -8.9384995 -72.705551 -8.9360018 -73.430244 -0.22076376 -85.121025
9206812500 -0.9043541 119.82821 -8.9453077 -72.722 -8.9344254 -73.346504 -0.21602805 -85.089478
9206875000 -0.89743805 119.8144 -8.9416504 -72.668388 -8.927146 -73.34964 -0.21834078 -85.066696
9206937500 -0.89522439 119.80659 -8.9393063 -72.742119 -8.9456024 -73.374031 -0.22917716 -85.060463
9207000000 -0.89769268 119.76468 -8.9469671 -72.779091 -8.9371395 -73.340363 -0.22893336 -85.029213
9207062500 -0.89308518 119.79411 -8.9488316 -72.824791 -8.9452724 -73.35569 -0.2387455 -85.062332
9207125000 -0.88978601 119.73672 -8.9458656 -72.770386 -8.9471626 -73.399513 -0.24099173 -85.052994
9207187500 -0.89001274 119.71571 -8.9476109 -72.789177 -8.9420414 -73.381798 -0.24171014 -85.021149
9207250000 -0.88880998 119.71457 -8.9357414 -72.742126 -8.939024 -73.406372 -0.23947796 -85.03083
9207312500 -0.8956396 119.67776 -8.95049 -72.768196 -8.9417038 -73.273254 -0.23841348 -84.98233
9207375000 -0.89219594 119.65556 -8.9461584 -72.801979 -8.9364767 -73.321159 -0.23937136 -84.999741
9207437500 -0.89200068 119.62118 -8.9466381 -72.797577 -8.9452267 -73.2957 -0.24430279 -84.966782
9207500000 -0.89676416 119.60235 -8.9542418 -72.812485 -8.9393578 -73.391037 -0.24320753 -84.990936
9207562500 -0.89676487 119.58839 -8.9461994 -72.803421 -8.937027 -73.382179 -0.24695416 -84.961868
9207625000 -0.89645123 119.60915 -8.942894 -72.779556 -8.9378252 -73.366379 -0.24388 -84.903641
9207687500 -0.89756727 119.5691 -8.9442663 -72.785355 -8.9319963 -73.353256 -0.23010981 -84.911728
9207750000 -0.90221572 119.58102 -8.9427814 -72.762833 -8.9328194 -73.36161 -0.23647702 -84.894676
9207812500 -0.8930189 119.55544 -8.9384041 -72.79409 -8.9388361 -73.350113 -0.23280825 -84.855392
9207875000 -0.90304506 119.55322 -8.9394979 -72.722984 -8.943512 -73.350662 -0.22944245 -84.840988
9207937500 -0.90638101 119.56925 -8.9448795 -72.770294 -8.9367781 -73.33567 -0.22452959 -84.791565
9208000000 -0.9012593 119.57208 -8.9332876 -72.740486 -8.9433117 -73.375465 -0.23308103 -84.803665
9208062500 -0.90537506 119.53268 -8.948782 -72.728714 -8.9348993 -73.360275 -0.2361007 -84.751114
9208125000 -0.90036213 119.55341 -8.9395084 -72.691872 -8.9402609 -73.30175 -0.23415273 -84.693977
9208187500 -0.89730942 119.51492 -8.9295368 -72.791748 -8.937439 -73.354965 -0.23930913 -84.722092
9208250000 -0.89691961 119.52629 -8.9323673 -72.707344 -8.9346428 -73.338455 -0.23913689 -84.70166
9208312500 -0.89203817 119.49938 -8.9335203 -72.716644 -8.9352198 -73.30706 -0.24923207 -84.700668
9208375000 -0.8949641 119.48863 -8.9330721 -72.689491 -8.9321356 -73.28199 -0.24253415 -84.635078
9208437500 -0.89674062 119.46699 -8.9390593 -72.700287 -8.9303141 -73.32193 -0.23907682 -84.64418
9208500000 -0.89730603 119.45326 -8.9361115 -72.786484 -8.9313345 -73.282135 -0.24282476 -84.620399
9208562500 -0.89952862 119.40862 -8.9330435 -72.737343 -8.9292526 -73.289299 -0.23878522 -84.626541
9208625000 -0.89612252 119.38623 -8.93085 -72.761871 -8.9287271 -73.274864 -0.24161366 -84.641975
9208687500 -0.89446545 119.39262 -8.9209623 -72.776443 -8.925766 -73.353249 -0.23878612 -84.617249
9208750000 -0.89467096 119.3292 -8.9235449 -72.810265 -8.9264421 -73.315956 -0.23940156 -84.623703
9208812500 -0.89325505 119.36423 -8.9303932 -72.781075 -8.9278011 -73.327911 -0.23976767 -84.582413
9208875000 -0.89954102 119.36148 -8.9305372 -72.797272 -8.9280596 -73.314781 -0.23897532 -84.612457
9208937500 -0.89561951 119.3667 -8.9230614 -72.775841 -8.9230843 -73.292488 -0.23443642 -84.512131
9209000000 -0.89477861 119.3925 -8.9185705 -72.702896 -8.9379644 -73.379944 -0.24365132 -84.578842
9209062500 -0.89687186 119.37667 -8.926013 -72.729462 -8.9275751 -73.267365 -0.24148555 -84.517166
9209125000 -0.89736474 119.37308 -8.9301262 -72.745766 -8.9324398 -73.298416 -0.24213536 -84.515366
9209187500 -0.89573115 119.35217 -8.9218731 -72.696327 -8.9317083 -73.253128 -0.24597967 -84.464134
9209250000 -0.89574802 119.35986 -8.9265337 -72.734993 -8.9220095 -73.299622 -0.23453401 -84.467033
9209312500 -0.89295083 119.30137 -8.9165506 -72.734703 -8.9251823 -73.296814 -0.24208449 -84.450241
9209375000 -0.89767414 119.27261 -8.9220057 -72.730629 -8.9242134 -73.262054 -0.24078909 -84.437622
9209437500 -0.89499241 119.27551 -8.917038 -72.735672 -8.9252701 -73.259964 -0.2493135 -84.361771
9209500000 -0.89574212 119.25118 -8.9102478 -72.713387 -8.9222651 -73.306 -0.24220325 -84.344315
9209562500 -0.89690173 119.26524 -8.9207525 -72.68853 -8.9190531 -73.254326 -0.23927315 -84.349655
9209625000 -0.89935243 119.19585 -8.924387 -72.753204 -8.9246922 -73.295082 -0.23941718 -84.358231
9209687500 -0.89787936 119.21465 -8.91537 -72.749245 -8.918355 -73.28643 -0.23871641 -84.323334
9209750000 -0.90465289 119.20274 -8.9176359 -72.74102 -8.9115763 -73.307137 -0.23180017 -84.314713
9209812500 -0.89846182 119.1993 -8.9132671 -72.723175 -8.9142685 -73.318947 -0.23530459 -84.289719
9209875000 -0.90184116 119.1735 -8.9166069 -72.766975 -8.9129877 -73.274742 -0.2351536 -84.245125
9209937500 -0.90091282 119.17758 -8.9192638 -72.76339 -8.9122696 -73.351776 -0.23056108 -84.269119
9210000000 -0.89485079 119.16015 -8.9070807 -72.755951 -8.9184065 -73.21067 -0.23527285 -84.180817
9210062500 -0.89619535 119.12956 -8.9093761 -72.739471 -8.9105167 -73.261345 -0.23513962 -84.190338
9210125000 -0.90031004 119.11622 -8.9204493 -72.715309 -8.9108772 -73.268623 -0.22997364 -84.198631
9210187500 -0.89042234 119.11848 -8.9029512 -72.691437 -8.9141169 -73.212502 -0.23410411 -84.165649
9210250000 -0.89763129 119.10374 -8.9173203 -72.736839 -8.9041624 -73.23951 -0.23539598 -84.190048
9210312500 -0.89334595 119.08459 -8.906395 -72.71814 -8.9146795 -73.207489 -0.23510085 -84.116982
9210375000 -0.89845318 119.02625 -8.9102068 -72.696266 -8.9101439 -73.177483 -0.24081749 -84.085587
9210437500 -0.89052433 119.02315 -8.9127083 -72.638596 -8.9103832 -73.218307 -0.24018437 -84.07785
9210500000 -0.89595985 119.04089 -8.91467 -72.697258 -8.913826 -73.184357 -0.24278505 -84.121803
9210562500 -0.89473945 119.04314 -8.9090624 -72.609848 -8.9113111 -73.173897 -0.24961734 -84.039452
9210625000 -0.89594471 118.97527 -8.9149847 -72.690125 -8.9161501 -73.261284 -0.25474566 -84.050171
9210687500 -0.89117026 118.99422 -8.9190998 -72.676216 -8.9145956 -73.190987 -0.25658491 -84.001366
9210750000 -0.88896692 118.96135 -8.9116154 -72.653732 -8.9058352 -73.266731 -0.24999866 -84.061523
9210812500 -0.89093202 118.92556 -8.8991013 -72.68692 -8.9020596 -73.225739 -0.24419507 -84.004822
9210875000 -0.89334857 118.89364 -8.9126511 -72.702805 -8.9121151 -73.195213 -0.24962632 -83.970787
9210937500 -0.89393061 118.85775 -8.9063263 -72.659332 -8.8970509 -73.228081 -0.24573502 -83.951172
9211000000 -0.89821857 118.87797 -8.9022484 -72.656929 -8.9008036 -73.228348 -0.24257334 -83.949219
9211062500 -0.89974219 118.86582 -8.908885 -72.704277 -8.9041605 -73.309914 -0.25851867 -83.940643
9211125000 -0.89822465 118.88068 -8.9066801 -72.659561 -8.901679 -73.246658 -0.24796982 -83.948814
9211187500 -0.9019134 118.89279 -8.9053459 -72.686676 -8.9052668 -73.265526 -0.24635252 -83.974525
9211250000 -0.89803445 118.89283 -8.8973827 -72.716766 -8.9037628 -73.266426 -0.24569069 -83.966103
9211312500 -0.90317237 118.84807 -8.9037828 -72.678207 -8.9032841 -73.256912 -0.25140733 -83.995567
9211375000 -0.90061325 118.84596 -8.9038029 -72.685791 -8.9110136 -73.284355 -0.24095532 -83.883636
9211437500 -0.89865035 118.86249 -8.8972063 -72.696159 -8.9063787 -73.271233 -0.24352378 -83.853195
9211500000 -0.89876777 118.86198 -8.8968363 -72.649452 -8.896781 -73.251556 -0.238159 -83.864479
9211562500 -0.89851487 118.8588 -8.8905821 -72.646835 -8.8959179 -73.243546 -0.24482909 -83.82888
9211625000 -0.8958593 118.74836 -8.8946695 -72.736671 -8.9040012 -73.223953 -0.24113202 -83.803589
9211687500 -0.9049648 118.78144 -8.8988152 -72.604935 -8.9016314 -73.189377 -0.24884249 -83.787178
9211750000 -0.89487165 118.76649 -8.8975134 -72.597298 -8.8995552 -73.142639 -0.25573397 -83.745438
9211812500 -0.89675105 118.72227 -8.8946438 -72.644531 -8.8991737 -73.244125 -0.24539752 -83.782333
9211875000 -0.90008837 118.70824 -8.900692 -72.66951 -8.8950825 -73.207932 -0.25049749 -83.703392
9211937500 -0.90357786 118.64787 -8.8962669 -72.707047 -8.8906393 -73.133934 -0.25031084 -83.664185
9212000000 -0.89955294 118.68082 -8.8878193 -72.667709 -8.8965054 -73.159416 -0.24555169 -83.636475
9212062500 -0.89754975 118.61675 -8.8806038 -72.698006 -8.8956871 -73.204414 -0.25270364 -83.635551
9212125000 -0.89927268 118.60159 -8.8860846 -72.713203 -8.8990393 -73.201744 -0.25212768 -83.59288
9212187500 -0.90379965 118.62476 -8.8824463 -72.758347 -8.8894606 -73.208809 -0.24942827 -83.541122
