!Agilent Technologies,N5242A,MY51221714,A.09.90.19
!Agilent N5242A: A.09.90.19
!Date: Saturday, March 16, 2024 10:26:07
!Correction: S11(Full 2 Port(1,2)) 
!S21(Full 2 Port(1,2)) 
!S12(Full 2 Port(1,2)) 
!S22(Full 2 Port(1,2)) 
!S2P File: Measurements: S11, S21, S12, S22:
# Hz S  dB   R 50
9200000000 -0.96970844 120.79031 -9.0317259 -73.929008 -9.0139093 -74.624397 -0.26309046 -87.608452
9200062500 -0.96851176 120.7635 -9.0233135 -74.008835 -9.0120993 -74.544807 -0.27223593 -87.626328
9200125000 -0.97186744 120.79256 -9.0238857 -73.95359 -9.0211821 -74.577141 -0.26826453 -87.589661
9200187500 -0.96759397 120.76901 -9.0255928 -73.920074 -9.0171242 -74.616325 -0.27251405 -87.608543
9200250000 -0.9675172 120.76828 -9.0238428 -73.970963 -9.0211563 -74.612373 -0.2772648 -87.539063
9200312500 -0.96269858 120.71992 -9.0179796 -73.945068 -9.007699 -74.558495 -0.26834539 -87.587509
9200375000 -0.96447891 120.72563 -9.0101233 -73.989174 -9.0101814 -74.567635 -0.27279055 -87.520729
9200437500 -0.96659911 120.71995 -9.0130978 -73.952515 -9.0060244 -74.583023 -0.27090859 -87.512131
9200500000 -0.96466392 120.69534 -9.0175266 -73.952789 -9.0033426 -74.570267 -0.27190769 -87.545937
9200562500 -0.96082991 120.6553 -9.0206213 -73.961418 -8.9976606 -74.609856 -0.27084684 -87.495178
9200625000 -0.96257466 120.68684 -9.0205412 -73.865494 -8.9982357 -74.563553 -0.27761039 -87.461678
9200687500 -0.97048038 120.6291 -9.0204849 -73.939423 -9.0011749 -74.589294 -0.2752527 -87.440674
9200750000 -0.9674474 120.63458 -9.0200891 -73.896103 -9.0045843 -74.540611 -0.27806655 -87.40168
9200812500 -0.96851456 120.62598 -9.0259933 -73.909584 -8.9984064 -74.54734 -0.28171808 -87.336769
9200875000 -0.96802527 120.60822 -9.0269623 -73.839767 -8.9981813 -74.504524 -0.28139621 -87.321091
9200937500 -0.96652663 120.59699 -9.0202646 -73.863861 -8.9946947 -74.526085 -0.28006235 -87.277237
9201000000 -0.96615887 120.56694 -9.0125637 -73.931114 -9.0030584 -74.531815 -0.28101653 -87.268745
9201062500 -0.9675281 120.56548 -9.0091553 -73.972748 -8.9938774 -74.551079 -0.28005475 -87.309715
9201125000 -0.96185219 120.52574 -9.0087337 -73.928337 -9.0084658 -74.482414 -0.28468344 -87.243698
9201187500 -0.95962858 120.54586 -9.0003557 -73.889389 -8.9911251 -74.539711 -0.27630091 -87.266098
9201250000 -0.95757139 120.50093 -8.9984713 -73.915367 -8.9913836 -74.510422 -0.27141497 -87.254585
9201312500 -0.96527988 120.48256 -9.0040407 -73.96228 -8.9988327 -74.512787 -0.27594307 -87.238823
9201375000 -0.9643507 120.44503 -9.0087414 -73.964508 -9.0030203 -74.522873 -0.27858987 -87.211876
9201437500 -0.96672106 120.46406 -9.0059147 -73.857971 -9.0015421 -74.503639 -0.2757903 -87.21627
9201500000 -0.96964526 120.47369 -9.0164652 -73.895065 -8.9999714 -74.466507 -0.28131217 -87.187218
9201562500 -0.97116423 120.45565 -9.0121393 -73.882858 -9.0003424 -74.535995 -0.2783035 -87.207672
9201625000 -0.96454865 120.4455 -9.0063362 -73.87709 -8.9989195 -74.451111 -0.27542263 -87.178909
9201687500 -0.96530044 120.42356 -9.009593 -73.897865 -8.9974794 -74.465195 -0.27544299 -87.12513
9201750000 -0.96428895 120.41107 -9.0122585 -73.906693 -8.9989347 -74.53067 -0.28031939 -87.13987
9201812500 -0.96743327 120.39322 -9.0117111 -73.916656 -8.9907713 -74.477173 -0.27602726 -87.147713
9201875000 -0.96664923 120.36993 -9.0014086 -73.908264 -8.9924746 -74.433998 -0.27751538 -87.072998
9201937500 -0.96353972 120.34089 -9.0066195 -73.898544 -8.9896812 -74.458237 -0.28223667 -87.071381
9202000000 -0.96079957 120.32391 -9.0036097 -73.85289 -8.9910517 -74.463409 -0.27718091 -87.019356
9202062500 -0.96654123 120.34017 -9.0027866 -73.877098 -8.9920607 -74.476822 -0.28237143 -87.00264
9202125000 -0.96473175 120.3156 -8.9998426 -73.894447 -8.983614 -74.50975 -0.27830705 -87.005951
9202187500 -0.9632203 120.29935 -8.9953432 -73.951408 -8.9999514 -74.557671 -0.28023908 -87.051048
9202250000 -0.96735775 120.29415 -8.9955044 -73.811028 -8.9989071 -74.492821 -0.28139079 -86.988358
9202312500 -0.96511418 120.26923 -8.9868078 -73.909935 -8.9907284 -74.53302 -0.27545583 -86.957329
9202375000 -0.96821338 120.25641 -8.9950151 -73.94593 -9.0000792 -74.542549 -0.27919632 -86.94236
9202437500 -0.96941203 120.25639 -8.9943275 -73.932465 -8.9929008 -74.511627 -0.27702737 -86.918938
9202500000 -0.97209764 120.24654 -9.0012636 -73.922035 -8.9969368 -74.502045 -0.28392217 -86.905106
9202562500 -0.96970493 120.26099 -8.9983511 -73.891754 -8.9911509 -74.530594 -0.28685874 -86.878662
9202625000 -0.96636033 120.22952 -8.9924345 -73.900719 -8.9860277 -74.497169 -0.28615263 -86.826103
9202687500 -0.97018164 120.21719 -9.0025759 -73.882919 -8.9913502 -74.485764 -0.28937471 -86.86348
9202750000 -0.9729619 120.22678 -8.9977961 -73.868271 -8.9841213 -74.490753 -0.28829941 -86.828949
9202812500 -0.96945512 120.16273 -8.9930954 -73.858589 -8.9832106 -74.471504 -0.28795016 -86.803612
9202875000 -0.96731007 120.1718 -8.9950647 -73.889351 -8.9907808 -74.511848 -0.29151922 -86.809715
9202937500 -0.96572214 120.15028 -8.9840202 -73.87088 -8.9915972 -74.505394 -0.29093888 -86.774612
9203000000 -0.96717149 120.13303 -8.9892139 -73.930069 -8.9821053 -74.452087 -0.28680235 -86.765945
9203062500 -0.9601317 120.10508 -8.9841919 -73.937508 -8.9783525 -74.471214 -0.28466055 -86.7388
9203125000 -0.96489155 120.10889 -8.9903688 -73.912994 -8.9811125 -74.513252 -0.28822461 -86.738373
9203187500 -0.96955383 120.07278 -8.9819088 -73.934448 -8.9783821 -74.508797 -0.28243908 -86.73922
9203250000 -0.96752346 120.04642 -8.9904757 -73.876068 -8.9804554 -74.455833 -0.28446245 -86.673592
9203312500 -0.97031021 120.05634 -8.9925156 -73.887413 -8.9800959 -74.484253 -0.28323552 -86.654922
9203375000 -0.97348011 120.04897 -8.9856625 -73.868561 -8.9721565 -74.50518 -0.27771941 -86.635742
9203437500 -0.96547621 120.03998 -8.9885397 -73.896057 -8.9790516 -74.480621 -0.28358442 -86.64521
9203500000 -0.97107244 119.99503 -8.9835386 -74.000671 -8.980463 -74.482452 -0.28161013 -86.593292
9203562500 -0.96891987 119.98605 -8.9823141 -73.887489 -8.9761715 -74.475883 -0.2822876 -86.586563
9203625000 -0.9635368 120.02552 -8.9900427 -73.889801 -8.9894533 -74.442635 -0.29337034 -86.537865
9203687500 -0.96520156 119.93915 -8.9819994 -73.903336 -8.9786034 -74.46022 -0.28738666 -86.542816
9203750000 -0.96592069 119.95109 -8.9787436 -73.910049 -8.9780207 -74.513947 -0.29138783 -86.552528
9203812500 -0.96506238 119.91136 -8.9734917 -73.883804 -8.9857206 -74.494972 -0.29999542 -86.542221
9203875000 -0.96296036 119.93196 -8.9797068 -73.908653 -8.9770699 -74.492653 -0.29408011 -86.529335
9203937500 -0.96817863 119.94933 -8.9889345 -73.849197 -8.9781275 -74.4757 -0.29609427 -86.480797
9204000000 -0.96562469 119.91786 -8.9902935 -73.891716 -8.9694481 -74.455193 -0.29817986 -86.50399
9204062500 -0.96628517 119.9006 -8.9805145 -73.79496 -8.9704304 -74.462898 -0.30114889 -86.478691
9204125000 -0.96039134 119.85613 -8.9824085 -73.827293 -8.9671392 -74.418457 -0.30039904 -86.44487
9204187500 -0.95587337 119.87158 -8.9777784 -73.850807 -8.9708309 -74.425461 -0.30698898 -86.409431
9204250000 -0.96321851 119.87431 -8.9804878 -73.813072 -8.9674892 -74.43544 -0.2968736 -86.443008
9204312500 -0.96038502 119.82587 -8.9794235 -73.87632 -8.9738512 -74.449196 -0.29748434 -86.393379
9204375000 -0.95608974 119.82589 -8.9747162 -73.854568 -8.9712582 -74.444588 -0.2998673 -86.394814
9204437500 -0.95702904 119.82634 -8.9736996 -73.814827 -8.9658937 -74.448288 -0.29276925 -86.384811
9204500000 -0.95827645 119.76228 -8.9794416 -73.884369 -8.9637461 -74.426743 -0.28532204 -86.318642
9204562500 -0.95598769 119.76228 -8.9747114 -73.87574 -8.9619675 -74.425926 -0.28716066 -86.269279
9204625000 -0.96021628 119.75511 -8.9747505 -73.852913 -8.9645557 -74.423157 -0.28457117 -86.264748
9204687500 -0.95865721 119.77603 -8.9765244 -73.839142 -8.9671898 -74.479546 -0.29155314 -86.293999
9204750000 -0.95520538 119.75804 -8.9683332 -73.787437 -8.9621744 -74.47168 -0.28839412 -86.270149
9204812500 -0.95572078 119.7436 -8.9768972 -73.833504 -8.9674358 -74.466347 -0.28804967 -86.278557
9204875000 -0.96452665 119.70213 -8.9749975 -73.783989 -8.9671745 -74.417328 -0.2981213 -86.201469
9204937500 -0.96549886 119.72733 -8.9656153 -73.82399 -8.9673748 -74.401314 -0.29464668 -86.198639
9205000000 -0.95655715 119.71873 -8.961195 -73.760193 -8.9618435 -74.440918 -0.28907052 -86.210709
9205062500 -0.961312 119.6706 -8.9648695 -73.847687 -8.9593363 -74.453194 -0.2885049 -86.238884
9205125000 -0.96774375 119.66103 -8.9746971 -73.833626 -8.96066 -74.441406 -0.29130292 -86.175133
9205187500 -0.9646709 119.65747 -8.9604511 -73.740608 -8.9635687 -74.448196 -0.28944212 -86.139709
9205250000 -0.96570063 119.60948 -8.9591742 -73.80069 -8.9573746 -74.449898 -0.28404206 -86.171455
9205312500 -0.96479613 119.60049 -8.9620905 -73.790405 -8.9579592 -74.464844 -0.28715688 -86.111908
9205375000 -0.96826786 119.56282 -8.9672594 -73.822472 -8.9584055 -74.431969 -0.28519112 -86.13343
9205437500 -0.96836323 119.55695 -8.9595156 -73.78289 -8.9642763 -74.420265 -0.29098842 -86.091133
9205500000 -0.96854424 119.57986 -8.9632292 -73.814026 -8.9613171 -74.439049 -0.28988817 -86.083397
9205562500 -0.9630779 119.55768 -8.9574404 -73.805252 -8.9626322 -74.37175 -0.29534841 -86.027084
9205625000 -0.96397245 119.5346 -8.9561357 -73.803299 -8.9539175 -74.426331 -0.2862089 -86.052521
9205687500 -0.96563929 119.54046 -8.9641447 -73.861931 -8.9646368 -74.331863 -0.28993946 -85.979149
9205750000 -0.96497619 119.51454 -8.9612408 -73.863571 -8.9534693 -74.413559 -0.28750196 -86.027054
9205812500 -0.96359658 119.46073 -8.9547396 -73.868874 -8.9544334 -74.409218 -0.2909193 -85.976219
9205875000 -0.95934343 119.51319 -8.9489641 -73.791183 -8.9626665 -74.390205 -0.2928907 -85.989983
9205937500 -0.96438885 119.49667 -8.9605932 -73.785446 -8.9633493 -74.375656 -0.29852408 -85.937065
9206000000 -0.96034575 119.47514 -8.9666481 -73.769272 -8.9625816 -74.399727 -0.29478559 -85.904884
9206062500 -0.96008205 119.44971 -8.9565401 -73.804146 -8.9542046 -74.352531 -0.29502538 -85.892357
9206125000 -0.96299702 119.42959 -8.9514465 -73.858147 -8.9538116 -74.375076 -0.29315796 -85.88443
9206187500 -0.96081328 119.44423 -8.9497194 -73.754219 -8.9494314 -74.402107 -0.29254463 -85.840736
9206250000 -0.96070743 119.4572 -8.9511309 -73.784401 -8.9479074 -74.443497 -0.28788424 -85.85556
9206312500 -0.96377349 119.43102 -8.9562244 -73.724045 -8.9500608 -74.391907 -0.29131892 -85.823433
9206375000 -0.96239096 119.42408 -8.9495668 -73.754936 -8.943903 -74.429337 -0.29099938 -85.819633
9206437500 -0.9579615 119.42943 -8.945056 -73.745422 -8.9419336 -74.36734 -0.28732079 -85.768639
9206500000 -0.95896447 119.41071 -8.9379072 -73.783089 -8.9470739 -74.432465 -0.29601213 -85.779007
9206562500 -0.96426415 119.39708 -8.9401875 -73.799576 -8.9423008 -74.411446 -0.28610694 -85.774811
9206625000 -0.9619785 119.37339 -8.9386425 -73.761536 -8.9316244 -74.36512 -0.27764896 -85.697723
9206687500 -0.9671123 119.37963 -8.9409504 -73.693001 -8.9245558 -74.361908 -0.27863985 -85.697929
9206750000 -0.96618891 119.35433 -8.9446058 -73.719536 -8.9365072 -74.397766 -0.28317055 -85.668724
9206812500 -0.96768177 119.32388 -8.9312191 -73.736198 -8.935565 -74.416443 -0.28376672 -85.675095
9206875000 -0.96646518 119.30849 -8.930954 -73.721405 -8.926568 -74.438072 -0.28488106 -85.688362
9206937500 -0.96049333 119.26461 -8.9323568 -73.741478 -8.9275618 -74.468903 -0.28463298 -85.663071
9207000000 -0.96502608 119.23524 -8.9455061 -73.75444 -8.932395 -74.367172 -0.29034308 -85.585075
9207062500 -0.96508676 119.21071 -8.9408159 -73.768936 -8.938838 -74.298119 -0.29252949 -85.556023
9207125000 -0.96262103 119.20231 -8.9408884 -73.809822 -8.9430923 -74.353279 -0.30400538 -85.623665
9207187500 -0.96382117 119.18881 -8.9479265 -73.832153 -8.9410429 -74.357239 -0.29835972 -85.598282
9207250000 -0.95500821 119.15021 -8.9369898 -73.821342 -8.9443331 -74.385948 -0.30079684 -85.57386
9207312500 -0.96259266 119.16077 -8.9511118 -73.794952 -8.9381733 -74.347534 -0.30244797 -85.551567
9207375000 -0.96728438 119.102 -8.9500008 -73.82888 -8.9399662 -74.3657 -0.30367362 -85.524757
9207437500 -0.96555483 119.09824 -8.9424486 -73.822731 -8.9309807 -74.4189 -0.29803014 -85.564323
9207500000 -0.96539533 119.07111 -8.9393177 -73.826202 -8.9304724 -74.391991 -0.30188376 -85.531403
9207562500 -0.96758604 119.06932 -8.9455633 -73.770287 -8.925456 -74.379509 -0.30016604 -85.465317
9207625000 -0.96933776 119.0351 -8.9351778 -73.863251 -8.9283781 -74.421288 -0.29801247 -85.523575
9207687500 -0.96589416 119.04792 -8.9356327 -73.796242 -8.9307365 -74.411041 -0.29689068 -85.520065
9207750000 -0.96309924 119.03748 -8.9255066 -73.817436 -8.9272299 -74.415192 -0.2940003 -85.504456
9207812500 -0.97448921 119.04792 -8.940814 -73.777412 -8.9341326 -74.385056 -0.29301646 -85.416954
9207875000 -0.97384918 119.01839 -8.9328833 -73.799332 -8.9294577 -74.412033 -0.28731969 -85.426239
9207937500 -0.97716963 119.01094 -8.935853 -73.766579 -8.9189491 -74.409004 -0.28506121 -85.37162
9208000000 -0.96810007 118.97314 -8.9334755 -73.773209 -8.9276428 -74.406425 -0.29419792 -85.370201
9208062500 -0.97095215 119.01169 -8.9399281 -73.760429 -8.9272499 -74.357956 -0.29087472 -85.353249
9208125000 -0.9707728 118.99914 -8.9338341 -73.758095 -8.9273758 -74.40213 -0.29680955 -85.311203
9208187500 -0.96455818 119.02551 -8.927042 -73.72451 -8.9299192 -74.39817 -0.29961494 -85.32373
9208250000 -0.96929532 118.98969 -8.9304647 -73.732162 -8.9317894 -74.385429 -0.30132121 -85.300201
9208312500 -0.96294379 118.96301 -8.927022 -73.766335 -8.9280577 -74.350288 -0.30645517 -85.228653
9208375000 -0.9639259 118.92252 -8.9311295 -73.747498 -8.9278822 -74.32032 -0.30673018 -85.245232
9208437500 -0.96622747 118.92529 -8.9227648 -73.753204 -8.9252892 -74.33992 -0.30214909 -85.253319
9208500000 -0.96431804 118.90424 -8.9215593 -73.782791 -8.9268141 -74.321342 -0.29855379 -85.195183
9208562500 -0.9660176 118.89603 -8.9228277 -73.840652 -8.9267216 -74.315926 -0.30061898 -85.203178
9208625000 -0.96913785 118.8757 -8.9324379 -73.782333 -8.9216566 -74.369591 -0.2980099 -85.21817
9208687500 -0.96734637 118.833 -8.9169788 -73.746742 -8.9181747 -74.360664 -0.29502741 -85.20285
9208750000 -0.96987218 118.82225 -8.9246235 -73.844772 -8.9176865 -74.317451 -0.30413619 -85.142082
9208812500 -0.96737975 118.80342 -8.9298992 -73.816978 -8.921608 -74.322441 -0.30148131 -85.147064
9208875000 -0.96956038 118.8033 -8.9255667 -73.805847 -8.9211569 -74.357285 -0.30356073 -85.167007
9208937500 -0.9678635 118.82169 -8.9155922 -73.763153 -8.9161491 -74.368553 -0.30022797 -85.171867
9209000000 -0.97158498 118.86089 -8.9259892 -73.727859 -8.9202385 -74.380806 -0.30373675 -85.123177
9209062500 -0.97060668 118.80964 -8.9278946 -73.772263 -8.9259319 -74.349342 -0.30409217 -85.122955
9209125000 -0.9679839 118.85122 -8.9257174 -73.727943 -8.9187088 -74.330338 -0.30469087 -85.105118
9209187500 -0.96867859 118.80788 -8.9170256 -73.707108 -8.9146996 -74.374336 -0.29825553 -85.092613
9209250000 -0.96741706 118.79298 -8.9197159 -73.728203 -8.9240904 -74.361107 -0.30546454 -85.044006
9209312500 -0.96385777 118.78503 -8.9082375 -73.784332 -8.9148331 -74.311272 -0.30198377 -85.008606
9209375000 -0.96094441 118.75465 -8.9027252 -73.739914 -8.9278965 -74.291794 -0.30603048 -84.992165
9209437500 -0.96210819 118.72604 -8.9036627 -73.760681 -8.9196739 -74.352676 -0.30135843 -84.980759
9209500000 -0.96862328 118.66698 -8.9105968 -73.822975 -8.9265003 -74.335289 -0.30680218 -84.967758
9209562500 -0.96249801 118.69631 -8.9044371 -73.792908 -8.9158373 -74.32756 -0.30649668 -84.943405
9209625000 -0.97065538 118.65148 -8.9137487 -73.789116 -8.9146147 -74.294617 -0.30109891 -84.882019
9209687500 -0.97248566 118.65919 -8.9199495 -73.744644 -8.908638 -74.295471 -0.29672027 -84.911858
9209750000 -0.97205371 118.64652 -8.9042826 -73.765503 -8.9104557 -74.29525 -0.29687071 -84.85479
9209812500 -0.97490877 118.63077 -8.9120712 -73.822662 -8.9081259 -74.323952 -0.29553449 -84.84198
9209875000 -0.97087663 118.61301 -8.9073248 -73.780006 -8.9101992 -74.288261 -0.29813531 -84.836876
9209937500 -0.97459656 118.63216 -8.9061508 -73.805122 -8.9061136 -74.269554 -0.29284456 -84.760803
9210000000 -0.96843964 118.59092 -8.9094286 -73.806236 -8.9068432 -74.334862 -0.29873517 -84.836876
9210062500 -0.96518451 118.60462 -8.9078999 -73.748512 -8.9087305 -74.273567 -0.2963492 -84.765305
9210125000 -0.964149 118.57076 -8.9096928 -73.741714 -8.9024162 -74.321373 -0.29691699 -84.783333
9210187500 -0.96732813 118.5548 -8.9025431 -73.743095 -8.8995619 -74.277824 -0.29620266 -84.721596
9210250000 -0.96570784 118.55057 -8.9098482 -73.742851 -8.9062185 -74.258156 -0.29700428 -84.726288
9210312500 -0.96216726 118.54941 -8.8963451 -73.69474 -8.8933649 -74.302612 -0.29698199 -84.696976
9210375000 -0.96555644 118.48933 -8.9019041 -73.75605 -8.9043417 -74.200287 -0.30300951 -84.654068
9210437500 -0.96102667 118.48925 -8.9035749 -73.682365 -8.9159126 -74.259979 -0.30740765 -84.645309
9210500000 -0.96083665 118.5271 -8.9038963 -73.705254 -8.9052029 -74.280289 -0.30423203 -84.655525
9210562500 -0.96011919 118.43212 -8.910882 -73.695534 -8.9042416 -74.244011 -0.31241611 -84.635162
9210625000 -0.95920092 118.44775 -8.9142494 -73.685677 -8.8993692 -74.216873 -0.31356478 -84.569511
9210687500 -0.95858145 118.41484 -8.9003677 -73.715309 -8.9104538 -74.265137 -0.30779523 -84.616699
9210750000 -0.96140432 118.37121 -8.9066582 -73.765793 -8.8971434 -74.27607 -0.31298456 -84.605423
9210812500 -0.95215762 118.41424 -8.8911219 -73.683289 -8.9058733 -74.249023 -0.313517 -84.533058
9210875000 -0.96414721 118.39659 -8.9018002 -73.702888 -8.8977003 -74.288368 -0.30886987 -84.543655
9210937500 -0.96723676 118.33092 -8.9027557 -73.725922 -8.8960247 -74.257317 -0.31146041 -84.509529
9211000000 -0.96664959 118.33782 -8.9042158 -73.68087 -8.8976927 -74.292778 -0.31673273 -84.523727
9211062500 -0.97041869 118.34293 -8.8966122 -73.643318 -8.8929386 -74.327599 -0.30590636 -84.532578
9211125000 -0.97230119 118.35092 -8.9052792 -73.661125 -8.9036188 -74.26754 -0.31607455 -84.478447
9211187500 -0.96761537 118.32198 -8.8963585 -73.738251 -8.8968744 -74.338379 -0.30814418 -84.559402
9211250000 -0.97375023 118.35474 -8.9039116 -73.720451 -8.9037495 -74.298393 -0.30742732 -84.557968
9211312500 -0.97287446 118.28542 -8.8977652 -73.781609 -8.8966532 -74.282661 -0.29870835 -84.504105
9211375000 -0.97530442 118.32545 -8.8991652 -73.738838 -8.8888464 -74.271393 -0.30136767 -84.449783
9211437500 -0.97190046 118.3025 -8.8943071 -73.744965 -8.8967419 -74.262733 -0.30271089 -84.430191
9211500000 -0.97582358 118.2525 -8.8991899 -73.740875 -8.8928938 -74.250656 -0.30300075 -84.384186
9211562500 -0.96454775 118.28632 -8.8913727 -73.69297 -8.893755 -74.246704 -0.30909583 -84.407875
9211625000 -0.97440541 118.25175 -8.8942671 -73.679634 -8.8888645 -74.241051 -0.30078322 -84.377213
9211687500 -0.97289413 118.17745 -8.8955069 -73.777527 -8.8903561 -74.248466 -0.31230113 -84.363197
9211750000 -0.96743274 118.2 -8.886776 -73.698174 -8.8897476 -74.201729 -0.31609166 -84.331963
9211812500 -0.97114342 118.1815 -8.8957777 -73.719795 -8.8863506 -74.252449 -0.31274581 -84.30941
9211875000 -0.97072494 118.13786 -8.8862982 -73.741714 -8.8937969 -74.270248 -0.31220776 -84.30439
9211937500 -0.96970445 118.1396 -8.8814449 -73.737877 -8.8844671 -74.215401 -0.3089447 -84.256233
9212000000 -0.97253114 118.10625 -8.8839159 -73.802246 -8.8919001 -74.253326 -0.31142613 -84.241905
9212062500 -0.97220474 118.09292 -8.8820877 -73.754532 -8.8922081 -74.25209 -0.31237876 -84.21109
9212125000 -0.97698307 118.11697 -8.8875189 -73.699692 -8.8839808 -74.227325 -0.3139576 -84.149269
9212187500 -0.9723174 118.05602 -8.8822002 -73.717018 -8.8923492 -74.264397 -0.31702113 -84.147446
