!Agilent Technologies,N5242A,MY51221714,A.09.90.19
!Agilent N5242A: A.09.90.19
!Date: Saturday, March 16, 2024 10:25:00
!Correction: S11(Full 2 Port(1,2)) 
!S21(Full 2 Port(1,2)) 
!S12(Full 2 Port(1,2)) 
!S22(Full 2 Port(1,2)) 
!S2P File: Measurements: S11, S21, S12, S22:
# Hz S  dB   R 50
9200000000 -0.90583092 121.25957 -8.9789429 -72.758133 -8.9647484 -73.309586 -0.19559255 -86.802422
9200062500 -0.90164077 121.26621 -8.9808121 -72.785088 -8.9628582 -73.382813 -0.1924296 -86.773125
9200125000 -0.89879221 121.27321 -8.9776154 -72.736984 -8.9685268 -73.360558 -0.19621894 -86.777725
9200187500 -0.89721584 121.23856 -8.9707117 -72.775276 -8.9641047 -73.362534 -0.19608036 -86.806358
9200250000 -0.89826792 121.22709 -8.9745226 -72.78154 -8.9631615 -73.384224 -0.19896002 -86.771034
9200312500 -0.89945072 121.20359 -8.9831791 -72.795753 -8.9605713 -73.360466 -0.20016363 -86.7416
9200375000 -0.89751858 121.20284 -8.9719648 -72.74556 -8.9591703 -73.387672 -0.20003907 -86.733139
9200437500 -0.89579928 121.17484 -8.966527 -72.773621 -8.9517822 -73.344368 -0.19051927 -86.718536
9200500000 -0.89018363 121.17326 -8.9695082 -72.764549 -8.9584074 -73.369438 -0.19939347 -86.716522
9200562500 -0.89445418 121.14822 -8.9639235 -72.793434 -8.947814 -73.398682 -0.20086268 -86.705658
9200625000 -0.89305985 121.14194 -8.9688997 -72.709023 -8.9557734 -73.390709 -0.21305244 -86.653137
9200687500 -0.89544779 121.09264 -8.9692831 -72.747139 -8.9549999 -73.340775 -0.20627274 -86.626099
9200750000 -0.89867598 121.10533 -8.9686337 -72.71907 -8.9572659 -73.336052 -0.20809415 -86.588638
9200812500 -0.90314084 121.12164 -8.9771461 -72.666382 -8.9468584 -73.307724 -0.20603439 -86.515495
9200875000 -0.89398825 121.10056 -8.969595 -72.62616 -8.9484692 -73.338913 -0.20660347 -86.501678
9200937500 -0.89626181 121.08613 -8.9659519 -72.633766 -8.9503965 -73.307503 -0.2098157 -86.475937
9201000000 -0.89571875 121.07967 -8.964716 -72.62793 -8.9525995 -73.332108 -0.21208394 -86.479401
9201062500 -0.89124209 121.07594 -8.9583845 -72.64875 -8.9463329 -73.304634 -0.20836882 -86.477173
9201125000 -0.89972562 120.99945 -8.9579067 -72.729301 -8.9561729 -73.318665 -0.20781793 -86.455849
9201187500 -0.89336216 121.03595 -8.9561195 -72.68737 -8.949358 -73.349174 -0.20603208 -86.437912
9201250000 -0.89816064 121.00731 -8.9557457 -72.749092 -8.9475613 -73.315094 -0.2059599 -86.44722
9201312500 -0.89157808 120.95917 -8.954504 -72.759285 -8.9503403 -73.302452 -0.21064202 -86.424164
9201375000 -0.8973403 120.94522 -8.960289 -72.730774 -8.9471054 -73.359299 -0.2031509 -86.455727
9201437500 -0.89255506 120.94795 -8.9539614 -72.707222 -8.955328 -73.306572 -0.20364587 -86.431335
9201500000 -0.90047556 120.9724 -8.9605942 -72.722176 -8.9465618 -73.280823 -0.20495954 -86.405518
9201562500 -0.9026224 120.92272 -8.9668274 -72.749611 -8.94561 -73.34832 -0.20128016 -86.433723
9201625000 -0.90176266 120.90648 -8.9552279 -72.734917 -8.9598722 -73.281387 -0.20387098 -86.379807
9201687500 -0.90222234 120.91847 -8.9647236 -72.790344 -8.9529829 -73.331245 -0.20792681 -86.39875
9201750000 -0.90466303 120.91853 -8.9642487 -72.710159 -8.9381313 -73.305092 -0.20338446 -86.354134
9201812500 -0.89536309 120.87364 -8.953723 -72.655914 -8.9377623 -73.244514 -0.20730406 -86.253822
9201875000 -0.89190888 120.84009 -8.9527264 -72.703545 -8.9381323 -73.25843 -0.20917425 -86.266113
9201937500 -0.89790213 120.84009 -8.958066 -72.713814 -8.942606 -73.292633 -0.21373957 -86.243118
9202000000 -0.89575416 120.83031 -8.9493284 -72.640831 -8.9408512 -73.269485 -0.21579547 -86.227005
9202062500 -0.89089513 120.82072 -8.9452229 -72.672737 -8.9467001 -73.282608 -0.20697711 -86.213875
9202125000 -0.89658535 120.77744 -8.9385157 -72.703377 -8.9398346 -73.269295 -0.20313606 -86.213165
9202187500 -0.89779645 120.76859 -8.946064 -72.66214 -8.9401484 -73.27047 -0.20833626 -86.20491
9202250000 -0.89604682 120.77253 -8.9386473 -72.722321 -8.9378834 -73.274422 -0.20939581 -86.169006
9202312500 -0.89979368 120.78095 -8.9384556 -72.660934 -8.9395323 -73.316498 -0.20598105 -86.14753
9202375000 -0.89827734 120.78612 -8.9397278 -72.602287 -8.9435139 -73.316338 -0.20937672 -86.140846
9202437500 -0.90546018 120.76906 -8.9429998 -72.667458 -8.9409132 -73.281639 -0.20505799 -86.117035
9202500000 -0.89906526 120.72562 -8.9457865 -72.73336 -8.9395094 -73.33358 -0.21117415 -86.099007
9202562500 -0.90497196 120.70604 -8.9488831 -72.715599 -8.9460325 -73.323204 -0.21609889 -86.089699
9202625000 -0.90091068 120.69558 -8.9432707 -72.700378 -8.9401207 -73.316109 -0.21257168 -86.096298
9202687500 -0.90599531 120.71782 -8.9563494 -72.662262 -8.9329338 -73.27697 -0.21550901 -86.057648
9202750000 -0.90196919 120.68034 -8.9504757 -72.683014 -8.9404192 -73.327301 -0.21873869 -86.026688
9202812500 -0.89878178 120.6525 -8.9395733 -72.704712 -8.9283743 -73.277519 -0.20996523 -86.007622
9202875000 -0.89745826 120.65965 -8.9412537 -72.663239 -8.9320383 -73.291573 -0.21308665 -86.018135
9202937500 -0.90093911 120.6286 -8.9433889 -72.677589 -8.9383173 -73.327568 -0.21799639 -85.992027
9203000000 -0.89712965 120.58557 -8.9481134 -72.68248 -8.9279699 -73.25489 -0.21210541 -85.942207
9203062500 -0.89870852 120.60377 -8.9435215 -72.665565 -8.9378195 -73.241508 -0.21586967 -85.938698
9203125000 -0.89990824 120.57303 -8.9399786 -72.671715 -8.9289265 -73.267189 -0.21617125 -85.896637
9203187500 -0.89901221 120.57702 -8.9423819 -72.686005 -8.939147 -73.265228 -0.21751802 -85.870964
9203250000 -0.89658129 120.53291 -8.9389601 -72.710831 -8.9413815 -73.27861 -0.21466778 -85.872322
9203312500 -0.89563006 120.54201 -8.938241 -72.653984 -8.9349127 -73.291336 -0.21022178 -85.883888
9203375000 -0.8943572 120.50925 -8.9371243 -72.705315 -8.9349737 -73.25177 -0.21058947 -85.792442
9203437500 -0.8996554 120.52627 -8.9373608 -72.658806 -8.9226437 -73.26976 -0.20718446 -85.815277
9203500000 -0.89898866 120.52317 -8.9481859 -72.7071 -8.9296598 -73.234764 -0.21118046 -85.784164
9203562500 -0.89679587 120.46772 -8.9289188 -72.676086 -8.9204493 -73.246284 -0.20913917 -85.749184
9203625000 -0.89300025 120.4725 -8.9195414 -72.668556 -8.9320707 -73.254425 -0.21252924 -85.789337
9203687500 -0.89566624 120.43781 -8.929738 -72.69371 -8.9301767 -73.280434 -0.22081745 -85.768326
9203750000 -0.89547342 120.41045 -8.9255342 -72.72757 -8.9331512 -73.200249 -0.21603589 -85.709381
9203812500 -0.90097082 120.40813 -8.9339886 -72.672005 -8.9274149 -73.229279 -0.22055997 -85.674019
9203875000 -0.89723104 120.37917 -8.9291935 -72.676308 -8.9364042 -73.239784 -0.23030047 -85.694527
9203937500 -0.89241046 120.37988 -8.9278498 -72.67466 -8.9259853 -73.200531 -0.2272699 -85.653702
9204000000 -0.89497882 120.39527 -8.9331532 -72.674248 -8.929471 -73.258774 -0.22709353 -85.677315
9204062500 -0.89137816 120.39252 -8.9323149 -72.643768 -8.9167871 -73.210388 -0.23012331 -85.668152
9204125000 -0.89471805 120.34631 -8.9370241 -72.638474 -8.9179554 -73.248917 -0.23006614 -85.644943
9204187500 -0.88981485 120.33222 -8.9394131 -72.683624 -8.9214563 -73.266655 -0.22858225 -85.617264
9204250000 -0.89021158 120.34031 -8.9347839 -72.661537 -8.9176655 -73.227859 -0.22829616 -85.56678
9204312500 -0.88685405 120.3154 -8.9222002 -72.633377 -8.9197378 -73.214966 -0.228756 -85.55191
9204375000 -0.88747954 120.28783 -8.9217148 -72.608841 -8.920702 -73.265503 -0.22310862 -85.567879
9204437500 -0.8882302 120.28701 -8.9265442 -72.674164 -8.9190292 -73.258537 -0.21941984 -85.554665
9204500000 -0.89082342 120.27692 -8.9312439 -72.610619 -8.9121914 -73.231178 -0.21390297 -85.502434
9204562500 -0.88798946 120.26852 -8.9268351 -72.618431 -8.9150858 -73.217476 -0.21684331 -85.477776
9204625000 -0.89147812 120.23006 -8.9239941 -72.576439 -8.9209461 -73.234085 -0.21962088 -85.489418
9204687500 -0.88623482 120.25252 -8.9231844 -72.601585 -8.924675 -73.202393 -0.21859717 -85.432411
9204750000 -0.89311385 120.24798 -8.9202652 -72.568779 -8.9138222 -73.2117 -0.2182738 -85.435127
9204812500 -0.88772148 120.1981 -8.923625 -72.668854 -8.9143534 -73.207893 -0.21304402 -85.426445
9204875000 -0.89625919 120.19513 -8.9255247 -72.639572 -8.9115334 -73.2481 -0.22369869 -85.427208
9204937500 -0.89739263 120.17132 -8.9258432 -72.574165 -8.9094133 -73.161362 -0.21659362 -85.360809
9205000000 -0.89152908 120.20025 -8.9132519 -72.63578 -8.9057188 -73.227135 -0.21495178 -85.401314
9205062500 -0.90082103 120.16426 -8.9225397 -72.57637 -8.9150667 -73.231583 -0.22397391 -85.396996
9205125000 -0.90120572 120.1346 -8.9236689 -72.611122 -8.9221163 -73.227951 -0.22634012 -85.372559
9205187500 -0.90035653 120.09891 -8.917593 -72.617485 -8.9108219 -73.184975 -0.21916451 -85.357124
9205250000 -0.89726144 120.09164 -8.9125624 -72.57235 -8.9230709 -73.199593 -0.22293752 -85.34404
9205312500 -0.89715451 120.06145 -8.9250937 -72.570114 -8.918848 -73.216118 -0.22009464 -85.328094
9205375000 -0.89644623 120.05705 -8.9182472 -72.576073 -8.9110384 -73.222389 -0.21561086 -85.327103
9205437500 -0.89855868 120.03704 -8.9118252 -72.617821 -8.9114342 -73.217514 -0.21449879 -85.260521
9205500000 -0.89689225 120.0386 -8.9151697 -72.559822 -8.9129553 -73.250977 -0.21497898 -85.28685
9205562500 -0.89371377 119.97691 -8.9100533 -72.62915 -8.9146681 -73.185349 -0.21905865 -85.2621
9205625000 -0.90072221 120.02325 -8.9163084 -72.567024 -8.9158916 -73.182533 -0.21915074 -85.249725
9205687500 -0.89966869 120.04346 -8.9181099 -72.580978 -8.9174356 -73.203262 -0.2213283 -85.223679
9205750000 -0.8931607 120.00734 -8.9099512 -72.614731 -8.9141064 -73.160423 -0.22071451 -85.200066
9205812500 -0.89454836 119.98692 -8.9142914 -72.633934 -8.903533 -73.180389 -0.22192392 -85.172897
9205875000 -0.89588618 119.99377 -8.90693 -72.556633 -8.9136982 -73.184105 -0.22300483 -85.176514
9205937500 -0.89082235 119.97311 -8.9066076 -72.622658 -8.912075 -73.143448 -0.22288878 -85.124878
9206000000 -0.89770222 119.97647 -8.9199915 -72.556282 -8.9244957 -73.156357 -0.23440804 -85.105949
9206062500 -0.8979494 119.9724 -8.9174309 -72.518684 -8.908679 -73.154831 -0.22248243 -85.079971
9206125000 -0.89200437 119.95068 -8.9110746 -72.545135 -8.9047365 -73.13385 -0.22239503 -85.041725
9206187500 -0.89718759 119.90462 -8.9081097 -72.605804 -8.9054832 -73.166946 -0.22864141 -85.06311
9206250000 -0.88944501 119.93163 -8.9053192 -72.56369 -8.9004622 -73.178978 -0.21864513 -85.043625
9206312500 -0.89044768 119.89413 -8.9038086 -72.556694 -8.9075756 -73.229156 -0.22424328 -85.070526
9206375000 -0.89273298 119.87915 -8.9057493 -72.565636 -8.8976803 -73.197502 -0.21541603 -84.988716
9206437500 -0.89300841 119.89404 -8.8993435 -72.518997 -8.9022131 -73.196136 -0.21514574 -84.996925
9206500000 -0.89311177 119.90277 -8.9044495 -72.542938 -8.902072 -73.180786 -0.22357674 -84.988625
9206562500 -0.89368093 119.84051 -8.8976049 -72.5504 -8.8963175 -73.177132 -0.21550986 -84.969757
9206625000 -0.89552552 119.82945 -8.8891277 -72.587234 -8.895339 -73.209915 -0.21506147 -84.948578
9206687500 -0.89480507 119.8262 -8.8903046 -72.574539 -8.8951244 -73.154373 -0.2184651 -84.892937
9206750000 -0.89786142 119.78229 -8.8947039 -72.534088 -8.8901196 -73.163429 -0.21822837 -84.878555
9206812500 -0.90369177 119.78614 -8.9019394 -72.558228 -8.8829336 -73.192673 -0.20561552 -84.882622
9206875000 -0.90159023 119.78947 -8.893055 -72.518562 -8.8788042 -73.132607 -0.20762584 -84.800797
9206937500 -0.89621884 119.77201 -8.8883095 -72.546463 -8.8827829 -73.147377 -0.21454786 -84.794403
9207000000 -0.89326519 119.75381 -8.8908253 -72.539558 -8.8938723 -73.161705 -0.21483053 -84.781937
9207062500 -0.8862763 119.73166 -8.8871069 -72.548508 -8.892499 -73.168221 -0.223865 -84.817383
9207125000 -0.89042091 119.69663 -8.8867579 -72.546089 -8.8918476 -73.183731 -0.22190842 -84.811317
9207187500 -0.89388859 119.67262 -8.907445 -72.562973 -8.8965425 -73.114906 -0.22858071 -84.776489
9207250000 -0.88939297 119.6541 -8.8883076 -72.552521 -8.8925581 -73.139137 -0.22743557 -84.765038
9207312500 -0.88815343 119.61361 -8.8851748 -72.583282 -8.8916807 -73.126221 -0.22732675 -84.78054
9207375000 -0.88807648 119.62463 -8.8912878 -72.572891 -8.8881435 -73.126602 -0.23459807 -84.760475
9207437500 -0.89514619 119.60258 -8.890727 -72.587494 -8.885067 -73.117043 -0.22432013 -84.702881
9207500000 -0.89329475 119.5601 -8.8874645 -72.589096 -8.8851881 -73.172661 -0.22656117 -84.718391
9207562500 -0.89770752 119.55202 -8.8954315 -72.625069 -8.8840923 -73.1101 -0.23006639 -84.673737
9207625000 -0.89305168 119.52339 -8.8809471 -72.553818 -8.8821659 -73.14283 -0.22414728 -84.680611
9207687500 -0.89653003 119.53767 -8.886857 -72.516045 -8.8790455 -73.109917 -0.21732245 -84.621399
9207750000 -0.89925361 119.53134 -8.8916073 -72.584793 -8.8845587 -73.171852 -0.22537595 -84.678711
9207812500 -0.90242875 119.49606 -8.8841915 -72.62809 -8.8855553 -73.162514 -0.21677282 -84.627464
9207875000 -0.90271139 119.52935 -8.8858118 -72.571365 -8.8822746 -73.136314 -0.21844375 -84.577492
9207937500 -0.90080184 119.53977 -8.8833771 -72.535477 -8.8805141 -73.20134 -0.21346541 -84.584869
9208000000 -0.90001434 119.48681 -8.8792276 -72.572998 -8.8853588 -73.094162 -0.21802486 -84.546951
9208062500 -0.89504761 119.46249 -8.8815794 -72.553131 -8.8864326 -73.172493 -0.22534819 -84.522423
9208125000 -0.89987564 119.51942 -8.8870649 -72.482697 -8.8821869 -73.139168 -0.2220017 -84.50843
9208187500 -0.89563227 119.51615 -8.890048 -72.478287 -8.8808804 -73.116577 -0.22234072 -84.481819
9208250000 -0.90211004 119.45116 -8.8948116 -72.507896 -8.8899822 -73.14695 -0.23172887 -84.500671
9208312500 -0.89598334 119.44598 -8.8879204 -72.501404 -8.8883638 -73.05999 -0.23579916 -84.422501
9208375000 -0.90084785 119.42265 -8.8858986 -72.526726 -8.8783035 -73.086227 -0.22865713 -84.426262
9208437500 -0.89501125 119.40878 -8.8723879 -72.50988 -8.8768139 -73.104927 -0.22537927 -84.41124
9208500000 -0.89423317 119.39366 -8.8788757 -72.522774 -8.8809805 -73.084778 -0.23011462 -84.439339
9208562500 -0.89650548 119.35084 -8.8820238 -72.534767 -8.87078 -73.074799 -0.22902259 -84.385841
9208625000 -0.8927232 119.32226 -8.8738155 -72.556213 -8.8735924 -73.07357 -0.22407898 -84.35881
9208687500 -0.89574361 119.33028 -8.874053 -72.462929 -8.8741312 -73.114143 -0.22310773 -84.338829
9208750000 -0.89841181 119.29015 -8.8781557 -72.562523 -8.865797 -73.096703 -0.22413003 -84.301903
9208812500 -0.89743108 119.31752 -8.8745832 -72.55954 -8.8725653 -73.140625 -0.22126999 -84.339363
9208875000 -0.90310091 119.29704 -8.878499 -72.595314 -8.8646784 -73.06041 -0.22252679 -84.324135
9208937500 -0.90201873 119.30311 -8.8752241 -72.533707 -8.8677158 -73.120148 -0.22089666 -84.351357
9209000000 -0.89955097 119.3158 -8.8728914 -72.55616 -8.8802528 -73.097939 -0.23037681 -84.34417
9209062500 -0.90032572 119.33162 -8.8709974 -72.549622 -8.8820801 -73.168007 -0.22887486 -84.352692
9209125000 -0.89647102 119.33618 -8.8790293 -72.466911 -8.8757591 -73.092934 -0.22866903 -84.285805
9209187500 -0.89288217 119.32706 -8.8709364 -72.474068 -8.8782215 -73.116173 -0.22955917 -84.272514
9209250000 -0.89100015 119.29628 -8.8539858 -72.482224 -8.8757048 -73.105209 -0.22645606 -84.244926
9209312500 -0.89057714 119.27574 -8.8651686 -72.501549 -8.8770609 -73.073349 -0.23379888 -84.193436
9209375000 -0.89541972 119.22893 -8.8604193 -72.558533 -8.8730335 -73.124817 -0.22696956 -84.210991
9209437500 -0.89078039 119.20646 -8.8586426 -72.529564 -8.8728123 -73.037247 -0.22708787 -84.150879
9209500000 -0.89403063 119.14216 -8.8664398 -72.520813 -8.8776979 -73.010315 -0.23288962 -84.112823
9209562500 -0.88966978 119.18896 -8.862155 -72.528862 -8.8732567 -73.038673 -0.22893238 -84.0784
9209625000 -0.8930034 119.17007 -8.863925 -72.521133 -8.864749 -73.128494 -0.22960149 -84.12645
9209687500 -0.9001959 119.17011 -8.8677835 -72.529961 -8.8702059 -73.027992 -0.22709665 -84.05986
9209750000 -0.89987189 119.15211 -8.8677645 -72.499603 -8.864666 -73.030731 -0.22226577 -84.02977
9209812500 -0.89661205 119.13927 -8.866991 -72.54158 -8.8710518 -73.103043 -0.22527312 -84.015846
9209875000 -0.89653313 119.10275 -8.866396 -72.551277 -8.863061 -73.089294 -0.22088501 -84.009041
9209937500 -0.89953208 119.12142 -8.8652306 -72.501808 -8.8637047 -73.025612 -0.22235687 -83.986496
9210000000 -0.89514893 119.09626 -8.8602343 -72.509903 -8.8576202 -73.111183 -0.21897815 -83.992897
9210062500 -0.89319319 119.09189 -8.8572845 -72.510254 -8.8549509 -73.044342 -0.21416891 -83.956528
9210125000 -0.89301437 119.07069 -8.864769 -72.562851 -8.856226 -73.020195 -0.21954469 -83.961227
9210187500 -0.89615208 119.09557 -8.8712692 -72.465469 -8.8624601 -73.024788 -0.22632879 -83.941467
9210250000 -0.89598328 119.03547 -8.8648348 -72.489441 -8.8543482 -73.014801 -0.22702043 -83.928703
9210312500 -0.89028555 119.03045 -8.86203 -72.439484 -8.857091 -73.015022 -0.22983699 -83.910507
9210375000 -0.89480859 119.01369 -8.8579416 -72.482132 -8.8596706 -73.008995 -0.23079813 -83.871704
9210437500 -0.89143145 119.02289 -8.8608675 -72.459328 -8.8576479 -73.056259 -0.22956376 -83.852272
9210500000 -0.8921569 118.98438 -8.8558798 -72.471657 -8.8635654 -72.992767 -0.2369052 -83.83239
9210562500 -0.89093846 118.96034 -8.8568926 -72.486702 -8.864295 -73.039604 -0.23991331 -83.809341
9210625000 -0.891994 118.92159 -8.8572817 -72.527512 -8.8586111 -72.967979 -0.23595566 -83.831718
9210687500 -0.88705355 118.92957 -8.8497286 -72.494148 -8.8578615 -72.985596 -0.23654048 -83.78418
9210750000 -0.89284247 118.91391 -8.8615456 -72.458488 -8.8537683 -73.0317 -0.23507309 -83.805634
9210812500 -0.88929242 118.89226 -8.857605 -72.452339 -8.8473768 -73.015427 -0.23408535 -83.750435
9210875000 -0.89110434 118.86269 -8.8538303 -72.448586 -8.8530464 -73.063179 -0.23712617 -83.761681
9210937500 -0.89797062 118.84143 -8.8685055 -72.466301 -8.8457832 -73.039421 -0.23370832 -83.71814
9211000000 -0.89306301 118.84209 -8.853034 -72.416725 -8.8525505 -73.015465 -0.23544574 -83.734253
9211062500 -0.89898616 118.84506 -8.8495369 -72.41671 -8.8576365 -73.014801 -0.23361732 -83.725449
9211125000 -0.90302765 118.80221 -8.8571873 -72.445953 -8.8440313 -73.07412 -0.23009418 -83.743088
9211187500 -0.89806551 118.82957 -8.8468504 -72.477936 -8.8502512 -73.034691 -0.23385175 -83.737083
9211250000 -0.90055364 118.82262 -8.8548679 -72.526451 -8.8494616 -73.051842 -0.23566923 -83.729996
9211312500 -0.89999312 118.83231 -8.8533192 -72.50071 -8.8505182 -73.079605 -0.23111519 -83.682175
9211375000 -0.90401334 118.79442 -8.8567553 -72.477646 -8.8458738 -73.076965 -0.22097906 -83.626877
9211437500 -0.90355611 118.77055 -8.8420658 -72.516159 -8.841898 -73.053123 -0.21892586 -83.607697
9211500000 -0.89617699 118.75654 -8.8427734 -72.522484 -8.8558226 -73.037651 -0.2358934 -83.58728
9211562500 -0.90183038 118.75795 -8.8476591 -72.458199 -8.851799 -73.009842 -0.23078279 -83.596001
9211625000 -0.89716733 118.73438 -8.8427658 -72.509796 -8.8476858 -73.006393 -0.23745446 -83.551491
9211687500 -0.89986348 118.70194 -8.8436661 -72.507462 -8.8396931 -73.019241 -0.23086567 -83.562309
9211750000 -0.90034819 118.67258 -8.8476152 -72.47612 -8.8431635 -72.99881 -0.24207073 -83.571434
9211812500 -0.90581751 118.62086 -8.8477736 -72.494713 -8.8506947 -72.95462 -0.23875713 -83.508583
9211875000 -0.90292335 118.64805 -8.8350306 -72.429253 -8.8386908 -72.973312 -0.23903829 -83.441277
9211937500 -0.90229571 118.65558 -8.8494549 -72.49649 -8.8504887 -72.963394 -0.24196433 -83.421547
9212000000 -0.89904886 118.6112 -8.8330374 -72.471542 -8.8477993 -72.964737 -0.24355485 -83.435043
9212062500 -0.90351552 118.57073 -8.8385344 -72.493614 -8.841918 -72.992043 -0.24314354 -83.380119
9212125000 -0.90208554 118.58034 -8.8285732 -72.507088 -8.8458757 -72.947433 -0.24077164 -83.315414
9212187500 -0.89892 118.53751 -8.8389912 -72.507126 -8.8408766 -72.967728 -0.23781218 -83.323341
