!Agilent Technologies,N5242A,MY51221714,A.09.90.19
!Agilent N5242A: A.09.90.19
!Date: Saturday, March 16, 2024 10:28:12
!Correction: S11(Full 2 Port(1,2)) 
!S21(Full 2 Port(1,2)) 
!S12(Full 2 Port(1,2)) 
!S22(Full 2 Port(1,2)) 
!S2P File: Measurements: S11, S21, S12, S22:
# Hz S  dB   R 50
9200000000 -1.0877531 120.02049 -8.9399281 -75.646576 -8.9262333 -76.230721 -0.35474041 -88.082848
9200062500 -1.0852643 120.03924 -8.9393377 -75.56633 -8.9264307 -76.229858 -0.34959289 -88.041916
9200125000 -1.0809879 120.04617 -8.9278116 -75.59095 -8.9180012 -76.202057 -0.34479558 -88.038704
9200187500 -1.0784843 119.99547 -8.9248171 -75.648842 -8.9211235 -76.186714 -0.35009006 -88.037437
9200250000 -1.0834764 120.00495 -8.9340754 -75.598686 -8.9238024 -76.233765 -0.35812297 -87.998672
9200312500 -1.0882441 119.98003 -8.9287109 -75.652138 -8.9093647 -76.18222 -0.34924787 -87.944977
9200375000 -1.0794981 119.95722 -8.9259176 -75.65818 -8.9191713 -76.229012 -0.35443428 -87.994057
9200437500 -1.0780808 119.91538 -8.9307814 -75.652313 -8.9177246 -76.239349 -0.35580549 -87.97081
9200500000 -1.0839765 119.92738 -8.925477 -75.632401 -8.9192686 -76.20697 -0.35613912 -87.959297
9200562500 -1.077485 119.93301 -8.9265766 -75.620163 -8.9108162 -76.164444 -0.35993391 -87.899925
9200625000 -1.0837115 119.91318 -8.9296312 -75.588615 -8.9043102 -76.196495 -0.35604042 -87.863541
9200687500 -1.0826964 119.88019 -8.9345503 -75.613434 -8.9053125 -76.207466 -0.36232397 -87.854797
9200750000 -1.0844177 119.86581 -8.9263802 -75.590881 -8.9139624 -76.194595 -0.36448172 -87.84684
9200812500 -1.0834553 119.87386 -8.9237156 -75.531647 -8.903801 -76.232338 -0.37101835 -87.830666
9200875000 -1.085205 119.83202 -8.9236307 -75.561829 -8.9097776 -76.214424 -0.36717045 -87.775177
9200937500 -1.087117 119.85855 -8.9288406 -75.53299 -8.9029036 -76.14994 -0.36178559 -87.746819
9201000000 -1.0846946 119.85161 -8.9300938 -75.546806 -8.9071693 -76.179253 -0.3681699 -87.736244
9201062500 -1.076579 119.81754 -8.9158907 -75.553864 -8.9068193 -76.246307 -0.36839268 -87.762932
9201125000 -1.0796763 119.78264 -8.919879 -75.592514 -8.9083023 -76.145325 -0.36162516 -87.698883
9201187500 -1.0804081 119.78849 -8.9167767 -75.609344 -8.9023075 -76.219238 -0.3681429 -87.731476
9201250000 -1.0798377 119.73218 -8.9139633 -75.597412 -8.913641 -76.217056 -0.36641482 -87.703369
9201312500 -1.0812839 119.7423 -8.9101009 -75.599663 -8.9075327 -76.199776 -0.36297703 -87.68029
9201375000 -1.0812749 119.70966 -8.912447 -75.568687 -8.910965 -76.160713 -0.36659741 -87.65332
9201437500 -1.0860839 119.70782 -8.9158106 -75.593239 -8.9006386 -76.15477 -0.35836691 -87.671379
9201500000 -1.0882499 119.70413 -8.9180174 -75.61528 -8.9111185 -76.21019 -0.36011481 -87.69664
9201562500 -1.0857849 119.71278 -8.9183283 -75.60244 -8.9103107 -76.141457 -0.36578113 -87.632164
9201625000 -1.0864444 119.72392 -8.9160414 -75.568947 -8.9042597 -76.096657 -0.35938641 -87.595268
9201687500 -1.0895249 119.67036 -8.9184847 -75.621292 -8.9043188 -76.192879 -0.36596647 -87.662178
9201750000 -1.082389 119.69414 -8.9149494 -75.579285 -8.89433 -76.195526 -0.36384168 -87.604912
9201812500 -1.0797559 119.64945 -8.9127626 -75.60041 -8.8986301 -76.182343 -0.36301914 -87.547707
9201875000 -1.0771196 119.62025 -8.9121408 -75.614433 -8.9033937 -76.139999 -0.36881137 -87.516068
9201937500 -1.0797217 119.61166 -8.9073305 -75.583992 -8.8977652 -76.16378 -0.37232828 -87.550629
9202000000 -1.0818517 119.616 -8.9149237 -75.588478 -8.8939419 -76.155525 -0.3673014 -87.507622
9202062500 -1.0761647 119.55524 -8.8995762 -75.566078 -8.8998365 -76.125381 -0.36816016 -87.443275
9202125000 -1.077687 119.55299 -8.8985472 -75.547958 -8.8946314 -76.119843 -0.35699064 -87.412201
9202187500 -1.082726 119.5491 -8.913847 -75.57682 -8.8996696 -76.183929 -0.36827862 -87.476402
9202250000 -1.0789393 119.5236 -8.8973236 -75.562317 -8.8972721 -76.154442 -0.35778162 -87.411865
9202312500 -1.0849354 119.53593 -8.9046926 -75.576073 -8.8966198 -76.218147 -0.37189591 -87.414032
9202375000 -1.0834771 119.51853 -8.9039907 -75.606133 -8.8965845 -76.203148 -0.3689172 -87.428703
9202437500 -1.0888382 119.50607 -8.9000425 -75.548615 -8.8928041 -76.200623 -0.36279732 -87.382149
9202500000 -1.0871798 119.48713 -8.9034014 -75.620338 -8.8968306 -76.112862 -0.36585495 -87.332893
9202562500 -1.0837625 119.48309 -8.8977051 -75.545067 -8.8946419 -76.148743 -0.36826295 -87.28891
9202625000 -1.0864491 119.46692 -8.8980322 -75.596542 -8.8955688 -76.184921 -0.37017202 -87.313812
9202687500 -1.086805 119.4534 -8.9057283 -75.57193 -8.8914919 -76.098297 -0.37103844 -87.245468
9202750000 -1.0864068 119.42142 -8.9064999 -75.621849 -8.894516 -76.102577 -0.37375912 -87.221741
9202812500 -1.085302 119.45934 -8.9051256 -75.56601 -8.8955069 -76.154259 -0.3757588 -87.222176
9202875000 -1.0814073 119.42732 -8.8877392 -75.571381 -8.8886671 -76.195297 -0.37138635 -87.266258
9202937500 -1.0814368 119.37868 -8.8924828 -75.584663 -8.8883915 -76.145523 -0.36894971 -87.223625
9203000000 -1.079869 119.35236 -8.8953552 -75.606918 -8.8933163 -76.111343 -0.37719476 -87.164993
9203062500 -1.0848459 119.35905 -8.9008579 -75.560181 -8.8920164 -76.155212 -0.37182787 -87.143539
9203125000 -1.0826689 119.30894 -8.8902416 -75.556091 -8.8791828 -76.174797 -0.36833423 -87.235046
9203187500 -1.0826349 119.34918 -8.8948011 -75.566833 -8.8942003 -76.198227 -0.37108028 -87.173096
9203250000 -1.0874141 119.33637 -8.903121 -75.542885 -8.8864021 -76.146355 -0.36494496 -87.121124
9203312500 -1.0778172 119.30753 -8.8900118 -75.52771 -8.891078 -76.167725 -0.37299454 -87.095314
9203375000 -1.0796049 119.29122 -8.8750696 -75.619804 -8.8898792 -76.150101 -0.37332058 -87.079636
9203437500 -1.0835303 119.27822 -8.8960238 -75.618988 -8.8823938 -76.182297 -0.36768454 -87.033005
9203500000 -1.0826617 119.26834 -8.8932705 -75.545837 -8.877305 -76.182983 -0.36504132 -87.040649
9203562500 -1.0799794 119.26057 -8.8863411 -75.583931 -8.8797417 -76.108643 -0.37266201 -86.989502
9203625000 -1.0826693 119.26371 -8.8955755 -75.544403 -8.8886204 -76.148918 -0.37836623 -87.030281
9203687500 -1.0866009 119.2012 -8.8942614 -75.613556 -8.8845177 -76.18457 -0.37489331 -87.012032
9203750000 -1.083424 119.17955 -8.8833017 -75.590149 -8.8850107 -76.14151 -0.37836492 -86.981689
9203812500 -1.0877453 119.19331 -8.8859873 -75.515221 -8.8884172 -76.14344 -0.38465631 -86.956963
9203875000 -1.0860692 119.15437 -8.89042 -75.582527 -8.8822336 -76.160652 -0.3841539 -86.956886
9203937500 -1.083603 119.16216 -8.884429 -75.607269 -8.8857841 -76.145988 -0.38119182 -86.917549
9204000000 -1.0786165 119.17252 -8.8914375 -75.534706 -8.8801918 -76.146675 -0.38524958 -86.894699
9204062500 -1.0805491 119.11797 -8.8926258 -75.590584 -8.874052 -76.052071 -0.39033514 -86.883202
9204125000 -1.0792855 119.11696 -8.8893633 -75.585594 -8.8680992 -76.113594 -0.38783658 -86.895119
9204187500 -1.0775622 119.11563 -8.8821898 -75.55748 -8.8753567 -76.119873 -0.38349867 -86.89695
9204250000 -1.0775959 119.0629 -8.8894444 -75.618637 -8.8735409 -76.102211 -0.38695502 -86.841202
9204312500 -1.0744981 119.07649 -8.888978 -75.512726 -8.8718796 -76.111855 -0.38292819 -86.876862
9204375000 -1.0764064 119.05109 -8.8835001 -75.56002 -8.8664026 -76.131142 -0.38312593 -86.846535
9204437500 -1.0707939 119.06032 -8.8775949 -75.504059 -8.8716402 -76.073311 -0.37478822 -86.776863
9204500000 -1.0788074 119.01644 -8.8789606 -75.564034 -8.8729763 -76.127716 -0.37671545 -86.777634
9204562500 -1.0795964 119.00394 -8.8806372 -75.549606 -8.8748732 -76.092361 -0.37997612 -86.735397
9204625000 -1.0741333 118.99487 -8.8767242 -75.509209 -8.8695526 -76.161934 -0.37036738 -86.770424
9204687500 -1.0754489 118.99718 -8.8804255 -75.56897 -8.8787203 -76.105263 -0.37681037 -86.697754
9204750000 -1.0781547 118.99154 -8.8786755 -75.479996 -8.8642855 -76.106125 -0.37420103 -86.673218
9204812500 -1.0733305 118.99844 -8.8725128 -75.453331 -8.8672132 -76.06636 -0.38002637 -86.644852
9204875000 -1.0817068 118.98982 -8.8851137 -75.525314 -8.8662081 -76.146324 -0.38315597 -86.670517
9204937500 -1.0803103 118.97221 -8.8725634 -75.538269 -8.859498 -76.117226 -0.37602401 -86.672333
9205000000 -1.0834121 119.00348 -8.8739243 -75.462822 -8.8661795 -76.106186 -0.37615544 -86.648865
9205062500 -1.0803363 118.94308 -8.8643847 -75.460869 -8.8611984 -76.092712 -0.3764877 -86.637268
9205125000 -1.0850741 118.93206 -8.8787041 -75.497955 -8.8644495 -76.085564 -0.376771 -86.627983
9205187500 -1.0827518 118.85528 -8.86973 -75.488449 -8.866044 -76.063751 -0.38026023 -86.555908
9205250000 -1.0850009 118.87541 -8.8747053 -75.465454 -8.8639765 -76.125748 -0.37345722 -86.557289
9205312500 -1.0863608 118.82678 -8.8633051 -75.418365 -8.8672352 -76.135658 -0.37713596 -86.586037
9205375000 -1.0891443 118.84584 -8.8706741 -75.420349 -8.8621254 -76.15255 -0.37224105 -86.542229
9205437500 -1.082531 118.78729 -8.8657875 -75.464973 -8.8585634 -76.109344 -0.38115197 -86.524132
9205500000 -1.0806115 118.80027 -8.8588448 -75.48745 -8.8691463 -76.10482 -0.38238469 -86.535896
9205562500 -1.084522 118.79117 -8.8606968 -75.543755 -8.8641443 -76.12014 -0.37636313 -86.497528
9205625000 -1.0842209 118.80466 -8.8644695 -75.460808 -8.8700161 -76.058617 -0.37290755 -86.459061
9205687500 -1.0880681 118.75762 -8.8708038 -75.561958 -8.8721428 -76.107536 -0.37904295 -86.505699
9205750000 -1.083773 118.73927 -8.874917 -75.540894 -8.8599777 -76.0951 -0.37893432 -86.450729
9205812500 -1.0781577 118.73512 -8.863698 -75.533905 -8.8654404 -76.086159 -0.38173586 -86.456879
9205875000 -1.0816947 118.70152 -8.8643312 -75.48246 -8.8658676 -76.031044 -0.37716949 -86.36937
9205937500 -1.0848117 118.73657 -8.8696203 -75.541702 -8.8607121 -76.078224 -0.38635305 -86.397026
9206000000 -1.0799308 118.73758 -8.8707542 -75.509514 -8.8622894 -76.055107 -0.38332891 -86.369858
9206062500 -1.0782852 118.6885 -8.8702803 -75.523613 -8.8659258 -76.064262 -0.38090917 -86.325516
9206125000 -1.0790404 118.65527 -8.8601475 -75.558411 -8.8616028 -76.011673 -0.38044208 -86.294037
9206187500 -1.0758246 118.68739 -8.8510361 -75.5187 -8.8625345 -76.094254 -0.38944259 -86.329102
9206250000 -1.0804935 118.70345 -8.8645878 -75.488037 -8.8643885 -76.068306 -0.38633573 -86.28508
9206312500 -1.0798193 118.69712 -8.8613911 -75.433388 -8.8592672 -76.043343 -0.38298154 -86.244095
9206375000 -1.0812933 118.6673 -8.8591785 -75.49855 -8.8529091 -76.084587 -0.37973928 -86.247597
9206437500 -1.0796324 118.65738 -8.8577147 -75.5009 -8.8455496 -76.12381 -0.3783364 -86.278503
9206500000 -1.078478 118.64578 -8.8439722 -75.492348 -8.841464 -76.050575 -0.37479123 -86.210701
9206562500 -1.0782939 118.6379 -8.8534174 -75.469765 -8.8443327 -76.093216 -0.37679681 -86.226692
9206625000 -1.0835615 118.6208 -8.8412991 -75.440475 -8.8362989 -76.114883 -0.37354031 -86.155258
9206687500 -1.0863918 118.57848 -8.8412933 -75.447937 -8.8390102 -76.097183 -0.37078509 -86.185715
9206750000 -1.0834826 118.55677 -8.8439569 -75.433647 -8.8385744 -76.073479 -0.37001288 -86.157372
9206812500 -1.0846965 118.53762 -8.8309813 -75.433617 -8.8393507 -76.062164 -0.37070069 -86.109184
9206875000 -1.0885181 118.53854 -8.8455067 -75.433365 -8.8350449 -76.062263 -0.37133077 -86.09034
9206937500 -1.0822392 118.51791 -8.8404169 -75.486481 -8.837738 -76.078133 -0.37813669 -86.089592
9207000000 -1.0778229 118.49687 -8.8369808 -75.514122 -8.8441525 -76.041885 -0.37832755 -86.078835
9207062500 -1.0808297 118.48742 -8.8469133 -75.483238 -8.8438969 -76.082939 -0.38174906 -86.03463
9207125000 -1.076737 118.45898 -8.8398247 -75.469978 -8.8377876 -76.086647 -0.37956545 -86.024002
9207187500 -1.0749903 118.44119 -8.8441038 -75.472992 -8.854104 -76.051964 -0.39091587 -86.025871
9207250000 -1.0801805 118.40506 -8.8499727 -75.495979 -8.8453007 -76.07692 -0.39502549 -86.031418
9207312500 -1.0785514 118.38831 -8.8500757 -75.52449 -8.8404531 -76.094231 -0.38646802 -86.039413
9207375000 -1.0834351 118.34622 -8.8492355 -75.490112 -8.8391399 -76.025429 -0.38456613 -85.968437
9207437500 -1.0825464 118.31916 -8.8421011 -75.525307 -8.8463554 -76.07695 -0.39246458 -86.00441
9207500000 -1.0820527 118.32436 -8.8339367 -75.520119 -8.8361139 -76.068977 -0.38530111 -85.966393
9207562500 -1.0802685 118.27201 -8.8413963 -75.555595 -8.8377676 -76.03231 -0.38806683 -85.935936
9207625000 -1.0830206 118.30775 -8.8450708 -75.483711 -8.8343916 -76.052994 -0.38715944 -85.951492
9207687500 -1.0811516 118.28708 -8.8292551 -75.534294 -8.8400326 -76.099274 -0.38475773 -85.974487
9207750000 -1.0899429 118.27619 -8.8497133 -75.506821 -8.8307066 -76.085312 -0.37989482 -85.908142
9207812500 -1.0876199 118.26393 -8.8392725 -75.519951 -8.8349953 -76.06794 -0.37476343 -85.853737
9207875000 -1.0877701 118.27213 -8.83216 -75.466446 -8.8320732 -76.102272 -0.37338826 -85.888168
9207937500 -1.0901101 118.27896 -8.8321056 -75.424736 -8.8330736 -76.054932 -0.37809131 -85.788498
9208000000 -1.089605 118.24209 -8.8392086 -75.458992 -8.8346529 -76.097664 -0.38044026 -85.810638
9208062500 -1.0891848 118.25629 -8.8360806 -75.457031 -8.826416 -76.15918 -0.37694526 -85.806854
9208125000 -1.0853615 118.22807 -8.8337421 -75.479935 -8.8347206 -76.079926 -0.39000416 -85.778999
9208187500 -1.0887939 118.19219 -8.8331795 -75.483711 -8.8285942 -76.040054 -0.38124394 -85.730698
9208250000 -1.0859011 118.20815 -8.8380613 -75.446274 -8.8308535 -76.025452 -0.392234 -85.705666
9208312500 -1.087239 118.20824 -8.8419571 -75.415894 -8.8394976 -76.055061 -0.38952163 -85.693504
9208375000 -1.0851569 118.20702 -8.8321571 -75.440254 -8.8293076 -76.065895 -0.39490187 -85.75029
9208437500 -1.0862101 118.18948 -8.8284693 -75.424507 -8.8313255 -76.002579 -0.39092633 -85.662964
9208500000 -1.0869477 118.16461 -8.8358564 -75.427956 -8.8315954 -76.01339 -0.39371595 -85.68293
9208562500 -1.0811369 118.1192 -8.8277283 -75.461258 -8.8225279 -76.020706 -0.38873795 -85.658195
9208625000 -1.0880672 118.0863 -8.8325872 -75.466652 -8.8267279 -76.050858 -0.39081544 -85.624718
9208687500 -1.0855036 118.06281 -8.8256025 -75.574921 -8.8202953 -76.018288 -0.38779068 -85.607796
9208750000 -1.0826571 118.04736 -8.8277607 -75.503258 -8.8222475 -76.003113 -0.3813642 -85.5933
9208812500 -1.088366 118.03605 -8.8299761 -75.523712 -8.8178415 -75.966537 -0.38207215 -85.578918
9208875000 -1.0832782 118.10822 -8.8163843 -75.444359 -8.8224077 -76.044556 -0.38561666 -85.589439
9208937500 -1.0862461 118.07332 -8.8237305 -75.478188 -8.8196278 -76.052422 -0.38597545 -85.582947
9209000000 -1.0832722 118.08709 -8.8203869 -75.456764 -8.8265419 -76.036453 -0.39694738 -85.567871
9209062500 -1.0824887 118.09924 -8.8205233 -75.450417 -8.8197393 -76.060112 -0.38456833 -85.570572
9209125000 -1.0841665 118.06973 -8.8182554 -75.494713 -8.8285265 -76.005028 -0.39221695 -85.512688
9209187500 -1.0826896 118.02243 -8.8146391 -75.479225 -8.8344688 -76.021103 -0.39734808 -85.511475
9209250000 -1.0824697 118.03078 -8.8134365 -75.439301 -8.8245001 -76.082108 -0.3971293 -85.494362
9209312500 -1.076636 118.04939 -8.8113203 -75.428543 -8.8248806 -76.025009 -0.3911396 -85.472313
9209375000 -1.0800152 118.0078 -8.8187056 -75.488724 -8.827508 -76.010864 -0.3952612 -85.432777
9209437500 -1.0843574 117.96281 -8.8128557 -75.440598 -8.8277149 -76.038116 -0.39024997 -85.429138
9209500000 -1.0839376 117.97427 -8.8137388 -75.41996 -8.8233194 -76.006287 -0.39197129 -85.397255
9209562500 -1.089156 117.95154 -8.817709 -75.438828 -8.8213615 -76.019188 -0.3886019 -85.380859
9209625000 -1.0834724 117.90882 -8.8133488 -75.485985 -8.8206654 -75.98658 -0.39080194 -85.355453
9209687500 -1.0860401 117.93227 -8.8132153 -75.449265 -8.8223858 -75.98941 -0.39024606 -85.340172
9209750000 -1.0916727 117.91885 -8.8224239 -75.460182 -8.8168344 -75.930817 -0.38585517 -85.229721
9209812500 -1.0907025 117.89866 -8.8135309 -75.437027 -8.814209 -75.975578 -0.38672262 -85.266495
9209875000 -1.0906403 117.86362 -8.8119516 -75.526245 -8.8128929 -75.988472 -0.38545272 -85.270416
9209937500 -1.0877333 117.82755 -8.8113308 -75.517738 -8.8090172 -75.988426 -0.38909516 -85.283562
9210000000 -1.0928531 117.87129 -8.8145399 -75.486298 -8.8048353 -76.010063 -0.38357085 -85.265511
9210062500 -1.0806845 117.8243 -8.8098412 -75.50634 -8.8095551 -75.954399 -0.38838345 -85.216621
9210125000 -1.0844684 117.82549 -8.8060322 -75.444618 -8.8074417 -75.970848 -0.38486868 -85.249016
9210187500 -1.0792962 117.8102 -8.7950134 -75.437782 -8.8025236 -75.928566 -0.37962767 -85.168922
9210250000 -1.0831361 117.80348 -8.8055449 -75.455574 -8.8067398 -75.940674 -0.38428694 -85.171967
9210312500 -1.0809768 117.79055 -8.8121252 -75.397842 -8.8142624 -75.940056 -0.39489827 -85.136497
9210375000 -1.0779823 117.72976 -8.8069458 -75.504669 -8.8030386 -75.934509 -0.39829683 -85.14743
9210437500 -1.0825107 117.75938 -8.8088417 -75.422813 -8.8002682 -75.978653 -0.39470053 -85.1138
9210500000 -1.0812064 117.71718 -8.7984476 -75.409157 -8.8086996 -75.956818 -0.39242259 -85.16124
9210562500 -1.0851527 117.70565 -8.8072681 -75.406258 -8.8150406 -75.973457 -0.40635824 -85.091812
9210625000 -1.0831723 117.68604 -8.811511 -75.405991 -8.8080797 -75.968025 -0.40169039 -85.074883
9210687500 -1.0783843 117.68661 -8.8021135 -75.420334 -8.8137121 -76.013184 -0.40001008 -85.07048
9210750000 -1.0813663 117.64893 -8.8045921 -75.386848 -8.7998447 -75.987915 -0.39752355 -85.067802
9210812500 -1.0791147 117.62528 -8.8157368 -75.418999 -8.8014774 -75.966461 -0.39683303 -84.992561
9210875000 -1.0830722 117.59673 -8.8078384 -75.401237 -8.8052521 -75.946991 -0.39705089 -85.010345
9210937500 -1.0859647 117.58225 -8.8099699 -75.39711 -8.8003817 -75.941696 -0.400015 -84.987617
9211000000 -1.088969 117.61101 -8.799304 -75.367798 -8.7921734 -76.010223 -0.39646554 -84.990288
9211062500 -1.0837059 117.56533 -8.8075428 -75.411964 -8.7974386 -76.035164 -0.39379784 -84.950348
9211125000 -1.0873216 117.55624 -8.7944145 -75.436859 -8.8018799 -75.989479 -0.39410034 -84.974083
9211187500 -1.0915267 117.599 -8.7969017 -75.387878 -8.8059368 -76.034019 -0.39740419 -85.004036
9211250000 -1.0890076 117.57172 -8.8059988 -75.456497 -8.7974653 -76.025177 -0.39356536 -85.016197
9211312500 -1.090552 117.54327 -8.7954283 -75.498901 -8.7931376 -76.004211 -0.38821021 -84.981537
9211375000 -1.093326 117.57168 -8.8012371 -75.496025 -8.7962952 -75.996628 -0.38723931 -84.854568
9211437500 -1.0907669 117.54659 -8.7956896 -75.481003 -8.7983732 -75.932114 -0.39508492 -84.854996
9211500000 -1.0935189 117.53445 -8.7954969 -75.475777 -8.7994776 -75.928726 -0.39598736 -84.853149
9211562500 -1.09266 117.49559 -8.8032827 -75.463722 -8.791563 -75.994011 -0.39787701 -84.871101
9211625000 -1.0881659 117.48595 -8.7962389 -75.446884 -8.7873354 -75.906693 -0.39335975 -84.804092
9211687500 -1.0937816 117.4669 -8.7902079 -75.42894 -8.7969131 -75.98526 -0.40214214 -84.799583
9211750000 -1.0900054 117.43867 -8.7950096 -75.3927 -8.8034267 -75.940781 -0.40629083 -84.818825
9211812500 -1.0888802 117.43317 -8.7995787 -75.43235 -8.7962999 -75.949326 -0.40398118 -84.777061
9211875000 -1.0903456 117.40412 -8.790514 -75.413025 -8.790494 -75.995148 -0.39966437 -84.772064
9211937500 -1.0912459 117.35817 -8.7869234 -75.428551 -8.7870636 -75.93325 -0.39913306 -84.654022
9212000000 -1.0954647 117.34803 -8.7994938 -75.405167 -8.7870541 -75.912331 -0.40247616 -84.642448
9212062500 -1.0958954 117.31284 -8.7914152 -75.472717 -8.7918959 -75.996864 -0.40568742 -84.647659
9212125000 -1.0988154 117.31252 -8.7925148 -75.470787 -8.7901773 -75.991539 -0.40076146 -84.611954
9212187500 -1.0955101 117.29472 -8.7922411 -75.467468 -8.7873487 -75.915092 -0.40203264 -84.591614
9212250000 -1.0953772 117.2952 -8.78578 -75.418304 -8.7902241 -75.955109 -0.40717676 -84.610741
9212312500 -1.100322 117.2851 -8.7875528 -75.472412 -8.7845373 -75.983841 -0.40878791 -84.554398
