!Agilent Technologies,N5242A,MY51221714,A.09.90.19
!Agilent N5242A: A.09.90.19
!Date: Saturday, March 16, 2024 10:27:16
!Correction: S11(Full 2 Port(1,2)) 
!S21(Full 2 Port(1,2)) 
!S12(Full 2 Port(1,2)) 
!S22(Full 2 Port(1,2)) 
!S2P File: Measurements: S11, S21, S12, S22:
# Hz S  dB   R 50
9200000000 -0.90094537 121.20528 -9.029294 -73.03714 -9.0130367 -73.607033 -0.19227901 -87.071693
9200062500 -0.90380228 121.22477 -9.0240536 -73.021149 -9.0132885 -73.603188 -0.19398285 -87.079254
9200125000 -0.90128267 121.16496 -9.0226011 -72.916008 -9.0058851 -73.582153 -0.19022885 -87.051895
9200187500 -0.90268052 121.15347 -9.0238504 -73.034187 -9.0172291 -73.546753 -0.18977995 -86.986374
9200250000 -0.89790362 121.17931 -9.023695 -72.950089 -9.0118666 -73.618782 -0.18869488 -87.010445
9200312500 -0.89629787 121.16156 -9.0185947 -73.002525 -9.0126953 -73.588547 -0.18638317 -86.973488
9200375000 -0.8986643 121.13638 -9.0211124 -73.04734 -9.0079403 -73.590302 -0.19615449 -87.008415
9200437500 -0.89410675 121.11472 -9.0155134 -72.966133 -9.0004358 -73.588997 -0.1867137 -86.950569
9200500000 -0.89514101 121.10104 -9.0183592 -72.983063 -9.0085878 -73.611092 -0.18922606 -86.990601
9200562500 -0.89960933 121.05499 -9.0176926 -72.98703 -9.0051479 -73.554176 -0.19376168 -86.908112
9200625000 -0.90083301 121.06232 -9.0227194 -72.941399 -9.0043821 -73.585709 -0.20436685 -86.863777
9200687500 -0.89533275 121.03493 -9.0171909 -72.940414 -9.006094 -73.586052 -0.20245336 -86.850136
9200750000 -0.89997923 121.04514 -9.0186462 -72.997063 -8.9969215 -73.572594 -0.19758342 -86.839821
9200812500 -0.89475518 121.02975 -9.0093222 -72.917526 -8.9920502 -73.562637 -0.20132838 -86.820328
9200875000 -0.90000498 120.99829 -9.0093384 -72.961464 -8.9929066 -73.569321 -0.20144841 -86.803055
9200937500 -0.89623755 121.01015 -9.0094709 -72.853409 -8.9946547 -73.578003 -0.20176744 -86.749664
9201000000 -0.89613843 121.00197 -9.005456 -72.894165 -8.992425 -73.524055 -0.20413442 -86.738358
9201062500 -0.88997662 120.97707 -9.0063763 -72.944466 -8.9952745 -73.538315 -0.20570271 -86.740616
9201125000 -0.89025754 120.98096 -9.0042295 -72.881775 -9.0044031 -73.51754 -0.20356578 -86.721245
9201187500 -0.88962084 120.93691 -9.0010376 -72.941231 -8.9990816 -73.554726 -0.20500088 -86.71228
9201250000 -0.89642346 120.92917 -9.0120325 -72.929024 -8.9978294 -73.555046 -0.19937828 -86.675072
9201312500 -0.89518327 120.91356 -9.0064535 -72.934692 -8.9998007 -73.566055 -0.2062244 -86.680367
9201375000 -0.89732438 120.92693 -9.0015841 -72.966835 -8.9932461 -73.543457 -0.19806576 -86.688797
9201437500 -0.89664811 120.8907 -9.0080423 -72.891838 -8.9968023 -73.541992 -0.20114407 -86.708588
9201500000 -0.89692855 120.90434 -9.0157871 -72.918739 -9.003974 -73.561943 -0.2017889 -86.67907
9201562500 -0.90607554 120.89072 -9.0198441 -72.949242 -9.0055218 -73.520943 -0.20313632 -86.655579
9201625000 -0.90145409 120.88409 -9.015481 -72.92794 -8.9910202 -73.506744 -0.19571225 -86.604095
9201687500 -0.90036911 120.8528 -9.0133181 -72.96331 -9.0041609 -73.493324 -0.2071314 -86.591255
9201750000 -0.89170307 120.85098 -9.0002623 -72.946739 -8.9860048 -73.482841 -0.19870479 -86.593521
9201812500 -0.89715934 120.7965 -9.0065269 -72.928162 -8.9966745 -73.514748 -0.20738377 -86.554573
9201875000 -0.89781106 120.77879 -9.0133257 -72.90107 -8.9976025 -73.451683 -0.20486645 -86.498497
9201937500 -0.89161581 120.79503 -9.0039272 -72.881729 -8.9881687 -73.490547 -0.19888097 -86.508835
9202000000 -0.89643222 120.75966 -8.9997501 -72.931358 -8.9909973 -73.480431 -0.20788987 -86.479027
9202062500 -0.89550412 120.76306 -8.995635 -72.931694 -8.984189 -73.510628 -0.20116496 -86.487907
9202125000 -0.89545709 120.74081 -8.9993334 -72.954964 -8.9880533 -73.509132 -0.1985323 -86.49041
9202187500 -0.89329779 120.66573 -8.9891996 -72.909203 -8.9845562 -73.496552 -0.20034966 -86.411659
9202250000 -0.89723742 120.71169 -8.9937201 -72.905403 -8.9860172 -73.584503 -0.19592933 -86.457542
9202312500 -0.90035278 120.68633 -8.9891462 -72.983742 -8.9753923 -73.53981 -0.19741826 -86.449417
9202375000 -0.89608818 120.67533 -8.9854603 -72.933441 -8.9967852 -73.51001 -0.2002811 -86.388611
9202437500 -0.89788043 120.68269 -8.9882469 -72.907219 -8.9844847 -73.516556 -0.20332995 -86.381981
9202500000 -0.89846373 120.68535 -8.9869547 -72.909302 -8.9853964 -73.550591 -0.20518962 -86.351158
9202562500 -0.89846665 120.66936 -8.9986324 -72.915176 -8.9859533 -73.488503 -0.20751956 -86.299149
9202625000 -0.89869606 120.62475 -8.9881344 -72.905312 -8.9892311 -73.521477 -0.20881577 -86.28051
9202687500 -0.9065187 120.62689 -9.0007334 -72.901855 -8.9858809 -73.468613 -0.21104968 -86.275604
9202750000 -0.90599877 120.64133 -9.0030918 -72.858246 -8.9820938 -73.471588 -0.21442947 -86.262741
9202812500 -0.9008773 120.59538 -8.9956398 -72.941498 -8.9809532 -73.520439 -0.20579962 -86.301193
9202875000 -0.89575911 120.59943 -8.9922915 -72.900726 -8.9834127 -73.536842 -0.20478846 -86.259659
9202937500 -0.89014566 120.56713 -8.9908381 -72.861649 -8.9840794 -73.497765 -0.21261409 -86.229599
9203000000 -0.89525056 120.53682 -8.9983616 -72.909843 -8.9941044 -73.502274 -0.20925859 -86.186478
9203062500 -0.89567733 120.52362 -8.9867277 -72.867859 -8.9770966 -73.468803 -0.20064224 -86.182655
9203125000 -0.89427239 120.54823 -8.9816551 -72.858856 -8.9784603 -73.459488 -0.19937517 -86.161903
9203187500 -0.89689809 120.49556 -8.980689 -72.919418 -8.9773846 -73.49231 -0.20423727 -86.183907
9203250000 -0.89507002 120.49196 -8.9848261 -72.946091 -8.9780922 -73.490234 -0.20625639 -86.12796
9203312500 -0.8990714 120.46395 -8.9943628 -72.936203 -8.9778328 -73.497299 -0.20219912 -86.100868
9203375000 -0.90312862 120.50745 -8.9895058 -72.921814 -8.9817581 -73.477028 -0.20679142 -86.106468
9203437500 -0.89854258 120.4205 -8.9766779 -72.969948 -8.9784737 -73.50119 -0.20474513 -86.09803
9203500000 -0.89938182 120.42764 -8.9910965 -72.970764 -8.9704857 -73.517418 -0.20105909 -86.06768
9203562500 -0.89504904 120.40746 -8.9756832 -72.929916 -8.9775515 -73.447655 -0.21045461 -86.016098
9203625000 -0.90134043 120.41197 -8.9801922 -72.947701 -8.9747086 -73.493561 -0.2068954 -86.028732
9203687500 -0.89373642 120.38088 -8.9845314 -72.894585 -8.9785719 -73.485695 -0.21668184 -86.020874
9203750000 -0.89924568 120.37943 -8.97647 -72.958542 -8.9774561 -73.463333 -0.21012576 -85.986717
9203812500 -0.8944453 120.363 -8.9722862 -72.92466 -8.9719448 -73.515961 -0.21553633 -85.985458
9203875000 -0.89997536 120.32078 -8.9767418 -72.944939 -8.9751768 -73.415733 -0.21077333 -85.935295
9203937500 -0.89331472 120.33572 -8.9809875 -72.901703 -8.9691439 -73.476112 -0.21528606 -85.941872
9204000000 -0.89387399 120.34684 -8.9739838 -72.920494 -8.9657478 -73.494781 -0.21804604 -85.924576
9204062500 -0.8927291 120.31905 -8.9759598 -72.845901 -8.9561987 -73.398369 -0.21362306 -85.894859
9204125000 -0.89065444 120.31274 -8.9803019 -72.821152 -8.9637775 -73.424843 -0.22312246 -85.84877
9204187500 -0.88880366 120.28542 -8.9738054 -72.882744 -8.9560518 -73.441811 -0.21131429 -85.904327
9204250000 -0.88872445 120.2976 -8.9777641 -72.860306 -8.9672174 -73.437096 -0.22653422 -85.820091
9204312500 -0.89207339 120.25044 -8.980588 -72.87925 -8.9655476 -73.461533 -0.22147894 -85.82045
9204375000 -0.89244086 120.23615 -8.9765797 -72.88166 -8.9638309 -73.413902 -0.20993781 -85.797157
9204437500 -0.8927269 120.24055 -8.9761391 -72.883766 -8.9611111 -73.482124 -0.20720805 -85.774559
9204500000 -0.89067107 120.17802 -8.9754858 -72.868446 -8.955183 -73.464554 -0.20866157 -85.80265
9204562500 -0.88653696 120.18174 -8.970624 -72.892159 -8.9667034 -73.487404 -0.21407753 -85.755013
9204625000 -0.88473463 120.16345 -8.9664192 -72.864265 -8.9646301 -73.475082 -0.21256644 -85.72467
9204687500 -0.88551909 120.13706 -8.9616337 -72.866814 -8.9602776 -73.464447 -0.20859429 -85.728905
9204750000 -0.88873619 120.14619 -8.9706831 -72.860397 -8.9494877 -73.4655 -0.20403224 -85.741829
9204812500 -0.88844484 120.14699 -8.969367 -72.83242 -8.959096 -73.429871 -0.21008493 -85.674927
9204875000 -0.89387882 120.14355 -8.9742317 -72.853233 -8.9625988 -73.426598 -0.22012937 -85.683716
9204937500 -0.8930853 120.15182 -8.9651604 -72.824066 -8.9541092 -73.417191 -0.21428069 -85.667015
9205000000 -0.89301968 120.14301 -8.964139 -72.884285 -8.9657288 -73.421997 -0.21596967 -85.642868
9205062500 -0.89672428 120.11702 -8.9637613 -72.777557 -8.9489765 -73.447289 -0.21329294 -85.638374
9205125000 -0.90158838 120.10955 -8.9670811 -72.810417 -8.9539089 -73.398979 -0.2031825 -85.629883
9205187500 -0.89951622 120.05798 -8.9661875 -72.831223 -8.9620829 -73.469307 -0.21272609 -85.634087
9205250000 -0.89787668 120.0435 -8.9647303 -72.845001 -8.9572468 -73.450943 -0.21236539 -85.579399
9205312500 -0.8954131 120.03201 -8.9596729 -72.808601 -8.9596329 -73.44355 -0.20955944 -85.585762
9205375000 -0.90136129 120.01618 -8.9699421 -72.807846 -8.9673243 -73.436417 -0.21433793 -85.534477
9205437500 -0.89656895 119.98619 -8.9592638 -72.859077 -8.9574986 -73.454308 -0.21306834 -85.541061
9205500000 -0.89786214 119.943 -8.9551067 -72.802597 -8.9626589 -73.425201 -0.21038388 -85.537735
9205562500 -0.90079981 119.97979 -8.9601431 -72.801247 -8.9583311 -73.453888 -0.20903212 -85.496429
9205625000 -0.89718616 119.94868 -8.9639034 -72.826607 -8.9630775 -73.367531 -0.21176594 -85.461548
9205687500 -0.89234465 119.92841 -8.9498825 -72.863457 -8.9470119 -73.400543 -0.20962758 -85.463501
9205750000 -0.89491987 119.95975 -8.9546967 -72.78949 -8.9476767 -73.395424 -0.21275494 -85.446587
9205812500 -0.89227772 119.94791 -8.9607229 -72.843849 -8.9638424 -73.346382 -0.21611711 -85.438782
9205875000 -0.89244252 119.90291 -8.9560776 -72.782318 -8.9541178 -73.345467 -0.2166416 -85.402603
9205937500 -0.89549339 119.91599 -8.9508629 -72.803429 -8.9557467 -73.40049 -0.21432284 -85.393135
9206000000 -0.8901825 119.90222 -8.9558983 -72.837624 -8.9594069 -73.396278 -0.21385059 -85.381248
9206062500 -0.89453328 119.90968 -8.9683104 -72.792099 -8.9577856 -73.398315 -0.22187495 -85.338051
9206125000 -0.89260572 119.8861 -8.9581528 -72.832596 -8.9591208 -73.355377 -0.21762162 -85.279404
9206187500 -0.89343947 119.865 -8.9614048 -72.84742 -8.949893 -73.384232 -0.21954761 -85.300743
9206250000 -0.88583481 119.87128 -8.9467793 -72.803108 -8.9527407 -73.424629 -0.21454658 -85.31424
9206312500 -0.88938344 119.84895 -8.9538698 -72.786606 -8.9475203 -73.42778 -0.21225977 -85.267334
9206375000 -0.89461964 119.84161 -8.9518375 -72.783371 -8.9443588 -73.39772 -0.20593701 -85.280121
9206437500 -0.89327216 119.84412 -8.9464464 -72.75248 -8.9447775 -73.41143 -0.21315804 -85.255692
9206500000 -0.8876183 119.80361 -8.9479656 -72.789536 -8.9493046 -73.434837 -0.21766397 -85.214928
9206562500 -0.89279974 119.81426 -8.9407358 -72.782684 -8.9415665 -73.422676 -0.20906231 -85.207481
9206625000 -0.89679545 119.81252 -8.9457397 -72.752571 -8.9410601 -73.434464 -0.20772183 -85.182091
9206687500 -0.89364082 119.77834 -8.9264936 -72.72451 -8.94098 -73.418602 -0.2039375 -85.168449
9206750000 -0.89594847 119.75588 -8.9290361 -72.732529 -8.9345493 -73.411308 -0.20551196 -85.134888
9206812500 -0.8991304 119.71721 -8.9418621 -72.779182 -8.926157 -73.400566 -0.20816313 -85.109222
9206875000 -0.89764851 119.71341 -8.9336004 -72.749084 -8.9313269 -73.394112 -0.20643456 -85.078018
9206937500 -0.89874476 119.68768 -8.9371119 -72.791367 -8.9340353 -73.326538 -0.20763172 -85.01606
9207000000 -0.89460289 119.66843 -8.9360781 -72.773544 -8.9276428 -73.34761 -0.20837766 -85.059105
9207062500 -0.88982594 119.66414 -8.9316597 -72.766739 -8.9356976 -73.372757 -0.20995104 -85.058197
9207125000 -0.8911885 119.64349 -8.9408979 -72.755699 -8.9375763 -73.334755 -0.21670562 -85.052353
9207187500 -0.88807118 119.60045 -8.9379826 -72.794777 -8.9388647 -73.376747 -0.22187468 -85.02153
9207250000 -0.89015305 119.60124 -8.9469299 -72.827187 -8.9345989 -73.372498 -0.21439213 -85.028107
9207312500 -0.89198494 119.53934 -8.9363022 -72.84745 -8.9340954 -73.300644 -0.2232004 -84.974579
9207375000 -0.89227182 119.54588 -8.9364958 -72.798332 -8.9380713 -73.394997 -0.22545291 -85.054008
9207437500 -0.8950485 119.52103 -8.9423742 -72.797791 -8.9352551 -73.374596 -0.22420742 -84.987488
9207500000 -0.89070195 119.49906 -8.9408274 -72.807968 -8.9377213 -73.381233 -0.22311516 -84.99221
9207562500 -0.88905555 119.48644 -8.9323359 -72.808578 -8.9238396 -73.398499 -0.21886291 -84.942169
9207625000 -0.89632362 119.47376 -8.9417086 -72.821747 -8.9284 -73.326065 -0.22434738 -84.920769
9207687500 -0.89236194 119.45627 -8.9328308 -72.827065 -8.9294701 -73.347916 -0.21679099 -84.907074
9207750000 -0.896703 119.44974 -8.9406958 -72.848488 -8.9280005 -73.37722 -0.21576266 -84.91478
9207812500 -0.89885896 119.48139 -8.9335051 -72.802811 -8.9261932 -73.417511 -0.21197887 -84.902008
9207875000 -0.90081853 119.42046 -8.9321661 -72.869263 -8.9286833 -73.409599 -0.20707346 -84.884109
9207937500 -0.90247208 119.4478 -8.9320097 -72.790443 -8.9315195 -73.368416 -0.20632866 -84.843437
9208000000 -0.9070012 119.39918 -8.9378452 -72.798271 -8.9283266 -73.342987 -0.21039574 -84.76046
9208062500 -0.90010923 119.42523 -8.9325905 -72.745651 -8.9334736 -73.377472 -0.21690193 -84.756996
9208125000 -0.90048194 119.43666 -8.9316425 -72.686226 -8.9292107 -73.327248 -0.21744601 -84.732742
9208187500 -0.89219427 119.39675 -8.9276266 -72.77153 -8.9295111 -73.34343 -0.21906672 -84.763618
9208250000 -0.89533448 119.399 -8.9286318 -72.782555 -8.9255285 -73.346039 -0.22514674 -84.718826
9208312500 -0.89553851 119.44201 -8.9280796 -72.712151 -8.921402 -73.333397 -0.21782178 -84.722679
9208375000 -0.89466631 119.40347 -8.9248943 -72.724052 -8.930088 -73.363731 -0.2243256 -84.71563
9208437500 -0.89796668 119.36176 -8.920126 -72.717865 -8.9089069 -73.324799 -0.21358027 -84.684166
9208500000 -0.89293087 119.31338 -8.9243536 -72.807846 -8.9219112 -73.341888 -0.22984567 -84.632736
9208562500 -0.89763439 119.31234 -8.9330368 -72.827545 -8.9199219 -73.33773 -0.22130267 -84.665848
9208625000 -0.89953232 119.26831 -8.921073 -72.797348 -8.9126053 -73.35685 -0.21988586 -84.691925
9208687500 -0.89526314 119.27987 -8.9238749 -72.776184 -8.9109573 -73.336983 -0.21764074 -84.638763
9208750000 -0.89557236 119.20158 -8.9260254 -72.812592 -8.9142752 -73.329384 -0.21664521 -84.629059
9208812500 -0.89345223 119.24306 -8.9257278 -72.821808 -8.9173775 -73.320511 -0.21577914 -84.610222
9208875000 -0.8968671 119.21963 -8.9181995 -72.808037 -8.9204531 -73.388908 -0.21971411 -84.635994
9208937500 -0.89904231 119.25217 -8.9148626 -72.775505 -8.9065752 -73.356194 -0.20981628 -84.598419
9209000000 -0.90230501 119.26677 -8.926343 -72.775581 -8.9214773 -73.301178 -0.2239452 -84.570221
9209062500 -0.89963204 119.24268 -8.9181137 -72.770866 -8.9165649 -73.330238 -0.21856326 -84.576714
9209125000 -0.89730352 119.28928 -8.9119253 -72.726845 -8.9292316 -73.303986 -0.22216076 -84.529305
9209187500 -0.8945657 119.2477 -8.9180498 -72.713074 -8.9199944 -73.257629 -0.21960782 -84.488152
9209250000 -0.89502555 119.21199 -8.9143963 -72.730377 -8.927103 -73.27005 -0.22575398 -84.492004
9209312500 -0.89737856 119.19602 -8.9070082 -72.749428 -8.9249382 -73.274986 -0.22593643 -84.454689
9209375000 -0.89680773 119.1842 -8.9144869 -72.755493 -8.9216137 -73.328621 -0.22887747 -84.437881
9209437500 -0.89771813 119.15874 -8.9113312 -72.773399 -8.9152107 -73.284019 -0.22121499 -84.395645
9209500000 -0.891123 119.14703 -8.9033489 -72.709854 -8.9222183 -73.33252 -0.23027928 -84.417969
9209562500 -0.8945303 119.10929 -8.9095535 -72.709091 -8.9177704 -73.277687 -0.22026716 -84.371719
9209625000 -0.89784735 119.07378 -8.9121304 -72.794899 -8.9218998 -73.293243 -0.22242349 -84.349747
9209687500 -0.89624536 119.07827 -8.9122286 -72.817444 -8.9196806 -73.302719 -0.2204404 -84.355522
9209750000 -0.90260822 119.06612 -8.906064 -72.806763 -8.914115 -73.32589 -0.21514148 -84.309464
9209812500 -0.90216094 119.04703 -8.9132967 -72.798752 -8.9115887 -73.298668 -0.21817075 -84.293098
9209875000 -0.89812338 119.04861 -8.9021254 -72.83358 -8.9043026 -73.318207 -0.21292196 -84.306427
9209937500 -0.90165925 119.02406 -8.9083338 -72.769386 -8.905405 -73.302773 -0.21190019 -84.25898
9210000000 -0.90091276 119.01273 -8.904645 -72.740837 -8.9050598 -73.283684 -0.21529368 -84.23362
9210062500 -0.89606243 118.99265 -8.9106922 -72.756157 -8.9090948 -73.228676 -0.21619275 -84.207832
9210125000 -0.89460325 119.0022 -8.914361 -72.750481 -8.9050055 -73.295341 -0.21920747 -84.223221
9210187500 -0.89734244 119.01038 -8.9144688 -72.733849 -8.8994799 -73.267517 -0.21332829 -84.195419
9210250000 -0.88653386 119.00057 -8.8968372 -72.688087 -8.9055767 -73.189072 -0.21565211 -84.119843
9210312500 -0.89031452 118.94704 -8.9013844 -72.722504 -8.8994865 -73.206223 -0.21868914 -84.158821
9210375000 -0.89120609 118.97847 -8.9074059 -72.66198 -8.9105043 -73.216484 -0.22780202 -84.10041
9210437500 -0.89535713 118.95369 -8.9170952 -72.691399 -8.9073944 -73.236984 -0.22764336 -84.104988
9210500000 -0.8956061 118.9023 -8.9046965 -72.745712 -8.9076614 -73.270821 -0.22636913 -84.12468
9210562500 -0.89407349 118.86905 -8.9106035 -72.745247 -8.9019632 -73.25103 -0.22646831 -84.117752
9210625000 -0.88680077 118.86554 -8.9047642 -72.710899 -8.9091187 -73.19294 -0.23500846 -84.031143
9210687500 -0.8876586 118.83685 -8.9046555 -72.749329 -8.8996439 -73.214066 -0.22616094 -84.059006
9210750000 -0.88864124 118.83596 -8.9048624 -72.665512 -8.8945112 -73.231247 -0.23146068 -84.005531
9210812500 -0.88851106 118.85125 -8.9026031 -72.680313 -8.893137 -73.314278 -0.22861606 -84.032196
9210875000 -0.8870061 118.79013 -8.9033909 -72.657921 -8.8984222 -73.229073 -0.23189253 -83.980652
9210937500 -0.89373726 118.7852 -8.8977442 -72.678513 -8.8978586 -73.24025 -0.22947875 -83.980019
9211000000 -0.89608735 118.76899 -8.907527 -72.654793 -8.8977938 -73.251038 -0.23394777 -83.95813
9211062500 -0.8961677 118.75166 -8.8979006 -72.701912 -8.8874788 -73.290962 -0.22383781 -84.000076
9211125000 -0.89494663 118.74174 -8.8924465 -72.731041 -8.8995266 -73.244659 -0.22673795 -83.95768
9211187500 -0.90364408 118.76709 -8.8978605 -72.67672 -8.8991957 -73.284241 -0.22954455 -83.966728
9211250000 -0.89903694 118.74715 -8.8881483 -72.761925 -8.8976192 -73.3153 -0.22448434 -83.997513
9211312500 -0.90349162 118.73997 -8.8947678 -72.750801 -8.89884 -73.240845 -0.22176221 -83.939346
9211375000 -0.89871693 118.7559 -8.894908 -72.749161 -8.89639 -73.244797 -0.22168998 -83.860474
9211437500 -0.90056634 118.72211 -8.8948412 -72.710831 -8.8908358 -73.277573 -0.22627346 -83.888741
9211500000 -0.90105253 118.73151 -8.8984156 -72.709892 -8.90308 -73.205002 -0.22898945 -83.844246
9211562500 -0.8980785 118.66474 -8.8982668 -72.674355 -8.8911352 -73.161819 -0.22489148 -83.779778
9211625000 -0.89982975 118.64452 -8.890624 -72.738777 -8.8932753 -73.276421 -0.22995381 -83.892471
9211687500 -0.89737213 118.635 -8.8851318 -72.688362 -8.8906527 -73.180977 -0.22886486 -83.781433
9211750000 -0.89559257 118.61459 -8.8915157 -72.621605 -8.8935366 -73.162453 -0.23892114 -83.719124
9211812500 -0.89919132 118.64619 -8.8869677 -72.642433 -8.8952007 -73.17878 -0.23535644 -83.799995
9211875000 -0.90167975 118.60412 -8.8871536 -72.656715 -8.8986454 -73.203262 -0.23495893 -83.718979
9211937500 -0.8991757 118.5845 -8.8860378 -72.710831 -8.8825493 -73.218315 -0.22819276 -83.703873
9212000000 -0.90238738 118.52228 -8.8854008 -72.753632 -8.8923826 -73.225418 -0.23809455 -83.680962
9212062500 -0.89993602 118.51263 -8.8786755 -72.745499 -8.8942909 -73.265038 -0.23336382 -83.641632
9212125000 -0.90064454 118.52799 -8.8786764 -72.690071 -8.9010754 -73.195808 -0.24205156 -83.61853
9212187500 -0.89992779 118.5097 -8.8872375 -72.689919 -8.883234 -73.162575 -0.23244171 -83.565674
