!Agilent Technologies,N5242A,MY51221714,A.09.90.19
!Agilent N5242A: A.09.90.19
!Date: Saturday, March 16, 2024 10:29:05
!Correction: S11(Full 2 Port(1,2)) 
!S21(Full 2 Port(1,2)) 
!S12(Full 2 Port(1,2)) 
!S22(Full 2 Port(1,2)) 
!S2P File: Measurements: S11, S21, S12, S22:
# Hz S  dB   R 50
9200000000 -0.90718573 121.92484 -8.9347658 -72.819412 -8.9312925 -73.395615 -0.19645803 -87.494965
9200062500 -0.90610212 121.89947 -8.9393587 -72.781052 -8.9324894 -73.377129 -0.19304167 -87.460022
9200125000 -0.91177934 121.9055 -8.9409218 -72.764305 -8.9245911 -73.409737 -0.19311181 -87.47348
9200187500 -0.90527648 121.90706 -8.9372034 -72.766197 -8.9314756 -73.398048 -0.19382341 -87.41877
9200250000 -0.90467876 121.86356 -8.935339 -72.822006 -8.927639 -73.384514 -0.19706263 -87.43943
9200312500 -0.90486604 121.83697 -8.9257116 -72.807739 -8.9221916 -73.408112 -0.19715686 -87.431061
9200375000 -0.90104049 121.83651 -8.9366102 -72.838455 -8.9309759 -73.374886 -0.19959357 -87.39373
9200437500 -0.9052729 121.8343 -8.9368 -72.773438 -8.9208984 -73.428101 -0.19533908 -87.391838
9200500000 -0.90117073 121.79921 -8.927001 -72.813438 -8.9193363 -73.444168 -0.20175566 -87.394157
9200562500 -0.90283132 121.80207 -8.9331274 -72.753876 -8.9135189 -73.394707 -0.20290831 -87.345474
9200625000 -0.90466559 121.77852 -8.9357224 -72.768143 -8.922616 -73.340218 -0.20380944 -87.284019
9200687500 -0.90341884 121.79063 -8.9332409 -72.70388 -8.9155169 -73.375366 -0.20130709 -87.310791
9200750000 -0.90791631 121.74296 -8.9342937 -72.746445 -8.9098053 -73.372849 -0.19796653 -87.286415
9200812500 -0.90508038 121.74351 -8.9335642 -72.746277 -8.9216852 -73.391983 -0.21107839 -87.262947
9200875000 -0.91085738 121.75296 -8.9418459 -72.738464 -8.9117107 -73.341599 -0.20663452 -87.183678
9200937500 -0.90043378 121.73852 -8.9355841 -72.717934 -8.9107332 -73.302063 -0.21014872 -87.12999
9201000000 -0.9032532 121.72305 -8.9247656 -72.673096 -8.9144363 -73.402046 -0.20327696 -87.180023
9201062500 -0.90165079 121.69977 -8.9224644 -72.750763 -8.9142609 -73.367493 -0.20598006 -87.162407
9201125000 -0.90444529 121.69343 -8.9186573 -72.737366 -8.9102535 -73.412796 -0.20631616 -87.183479
9201187500 -0.90373981 121.63786 -8.9211121 -72.797485 -8.915803 -73.32341 -0.2037769 -87.119911
9201250000 -0.89612567 121.66672 -8.9190006 -72.75161 -8.9091854 -73.320557 -0.20904174 -87.103798
9201312500 -0.9025743 121.63673 -8.915741 -72.751266 -8.9199018 -73.34549 -0.20591597 -87.102524
9201375000 -0.9025532 121.58076 -8.9221582 -72.801086 -8.9139214 -73.30954 -0.20170176 -87.054581
9201437500 -0.90231472 121.64019 -8.9300547 -72.783073 -8.9196453 -73.302475 -0.20811957 -87.093796
9201500000 -0.90497881 121.61964 -8.9227486 -72.75354 -8.9086571 -73.334869 -0.20156576 -87.09269
9201562500 -0.90577823 121.61786 -8.9275208 -72.697266 -8.9077492 -73.290955 -0.20178616 -87.080063
9201625000 -0.90590948 121.63129 -8.9341068 -72.685097 -8.9056692 -73.292038 -0.20246655 -87.064209
9201687500 -0.90092206 121.58339 -8.9341984 -72.696617 -8.9114876 -73.254997 -0.20229593 -87.013626
9201750000 -0.9056738 121.54512 -8.9304304 -72.751244 -8.9123058 -73.313881 -0.20842345 -87.010361
9201812500 -0.90291083 121.53774 -8.9242868 -72.677917 -8.903039 -73.308632 -0.20882852 -86.948013
9201875000 -0.90124696 121.48284 -8.9134121 -72.746582 -8.9094152 -73.306023 -0.21175402 -86.953529
9201937500 -0.90098906 121.50697 -8.9208755 -72.749962 -8.9004211 -73.312202 -0.20966126 -86.931175
9202000000 -0.9058665 121.46883 -8.9213171 -72.72332 -8.9022436 -73.235588 -0.2014091 -86.894287
9202062500 -0.90739363 121.48885 -8.9156065 -72.761803 -8.9086208 -73.379143 -0.20565663 -86.919594
9202125000 -0.90044147 121.43479 -8.9188995 -72.748596 -8.9129305 -73.314545 -0.20893878 -86.900208
9202187500 -0.90852588 121.41937 -8.9118376 -72.775375 -8.9041519 -73.366714 -0.20731381 -86.91584
9202250000 -0.90195048 121.44575 -8.9058123 -72.751312 -8.9072762 -73.293678 -0.20730762 -86.84256
9202312500 -0.9049294 121.43873 -8.9053354 -72.683578 -8.9013205 -73.364677 -0.20112818 -86.843582
9202375000 -0.9044022 121.43056 -8.9058485 -72.730324 -8.912612 -73.377861 -0.21344535 -86.827347
9202437500 -0.90624499 121.40199 -8.8962784 -72.727699 -8.9096022 -73.384033 -0.21240659 -86.853065
9202500000 -0.90568316 121.36359 -8.9024754 -72.775421 -8.9005117 -73.340836 -0.21326755 -86.798035
9202562500 -0.9060151 121.38459 -8.9104548 -72.652962 -8.8997936 -73.332779 -0.20886597 -86.714897
9202625000 -0.91018695 121.3324 -8.9169245 -72.765343 -8.907382 -73.279526 -0.2103689 -86.752419
9202687500 -0.9042533 121.33376 -8.9158897 -72.736717 -8.9073915 -73.293915 -0.22164467 -86.70768
9202750000 -0.90478766 121.33237 -8.9144592 -72.697716 -8.9033298 -73.32093 -0.21422118 -86.684273
9202812500 -0.90355009 121.30891 -8.9153023 -72.712013 -8.9012127 -73.374283 -0.21354584 -86.701653
9202875000 -0.90435374 121.31999 -8.9074011 -72.758598 -8.9018507 -73.282021 -0.21410145 -86.675255
9202937500 -0.90198797 121.26837 -8.9054165 -72.700043 -8.8984947 -73.341972 -0.21153311 -86.662445
9203000000 -0.90584451 121.26965 -8.909606 -72.719681 -8.9023046 -73.349648 -0.21154568 -86.63501
9203062500 -0.90086639 121.21781 -8.902276 -72.699379 -8.8948383 -73.263176 -0.20716803 -86.567337
9203125000 -0.9001112 121.22005 -8.9042025 -72.692299 -8.8977423 -73.353882 -0.21405293 -86.618324
9203187500 -0.90460742 121.22932 -8.8981104 -72.723152 -8.8994284 -73.309364 -0.20785612 -86.59304
9203250000 -0.90691769 121.19711 -8.9057751 -72.695099 -8.8973427 -73.339256 -0.20866972 -86.537376
9203312500 -0.9040432 121.19833 -8.9055443 -72.731956 -8.8945608 -73.317078 -0.20965186 -86.556335
9203375000 -0.90121758 121.20978 -8.901989 -72.69899 -8.8965654 -73.269165 -0.21277298 -86.526817
9203437500 -0.90659016 121.18082 -8.9030962 -72.717522 -8.8943481 -73.342285 -0.21365054 -86.4953
9203500000 -0.90269327 121.14565 -8.8988609 -72.731834 -8.8923054 -73.350403 -0.20958565 -86.502449
9203562500 -0.90903676 121.16888 -8.9071655 -72.696777 -8.8897686 -73.319817 -0.21243131 -86.445236
9203625000 -0.90586382 121.10842 -8.9023294 -72.740631 -8.8966608 -73.295181 -0.2181883 -86.46431
9203687500 -0.90858924 121.13467 -8.9053869 -72.715874 -8.895546 -73.310318 -0.21826003 -86.431236
9203750000 -0.90338093 121.11578 -8.8949537 -72.668251 -8.8980541 -73.325829 -0.21472128 -86.415909
9203812500 -0.90707672 121.07404 -8.8970823 -72.693932 -8.8909817 -73.303299 -0.21872734 -86.420364
9203875000 -0.90506667 121.01799 -8.8984632 -72.811089 -8.8965082 -73.193153 -0.22161543 -86.358574
9203937500 -0.90197951 121.05075 -8.8931999 -72.686249 -8.8846512 -73.283096 -0.21608859 -86.360352
9204000000 -0.90283412 121.02341 -8.898797 -72.702988 -8.8868599 -73.26722 -0.22708845 -86.342384
9204062500 -0.89601749 121.04533 -8.8916597 -72.689011 -8.8789091 -73.284859 -0.22228748 -86.362206
9204125000 -0.89577085 121.02012 -8.8923845 -72.676735 -8.8859577 -73.256042 -0.23053339 -86.26696
9204187500 -0.90044475 120.99499 -8.9029865 -72.743576 -8.8820581 -73.284538 -0.22741415 -86.304642
9204250000 -0.89663959 120.98548 -8.8881359 -72.694534 -8.8757219 -73.282135 -0.22363752 -86.305351
9204312500 -0.88960987 120.97413 -8.8890047 -72.630638 -8.8766031 -73.199135 -0.21654165 -86.246201
9204375000 -0.89159507 120.97787 -8.8861036 -72.624428 -8.8780222 -73.284286 -0.22220123 -86.234879
9204437500 -0.89487857 120.9385 -8.8876457 -72.652992 -8.8849831 -73.242516 -0.21941645 -86.168648
9204500000 -0.89161849 120.8982 -8.8890142 -72.711403 -8.8777771 -73.211662 -0.20695701 -86.188965
9204562500 -0.89659733 120.87544 -8.8781338 -72.694466 -8.8786907 -73.193451 -0.20839477 -86.136925
9204625000 -0.89563012 120.88699 -8.8854742 -72.656784 -8.8767004 -73.267509 -0.21451387 -86.169159
9204687500 -0.89407629 120.88371 -8.8836298 -72.634933 -8.8776999 -73.24501 -0.21223161 -86.146301
9204750000 -0.89485401 120.88335 -8.8745899 -72.689102 -8.8745546 -73.238922 -0.21177816 -86.142044
9204812500 -0.89905828 120.86369 -8.878952 -72.66832 -8.8749399 -73.227211 -0.21705836 -86.088173
9204875000 -0.90327108 120.85651 -8.892436 -72.596077 -8.8717957 -73.246582 -0.21607637 -86.10939
9204937500 -0.89411038 120.84216 -8.8889494 -72.637642 -8.875021 -73.252014 -0.21876165 -86.059685
9205000000 -0.89729869 120.85624 -8.8779993 -72.594788 -8.8809099 -73.212814 -0.22335377 -86.082634
9205062500 -0.90670007 120.84789 -8.8880186 -72.634087 -8.8717918 -73.236542 -0.22320896 -86.045059
9205125000 -0.90079892 120.81973 -8.8794785 -72.614807 -8.8825598 -73.296211 -0.21974555 -86.071617
9205187500 -0.90436095 120.75458 -8.8776188 -72.573387 -8.8780251 -73.273865 -0.21665981 -86.007103
9205250000 -0.90334296 120.75239 -8.8700838 -72.62542 -8.8745565 -73.231216 -0.21383922 -86.07325
9205312500 -0.90561908 120.7191 -8.8723736 -72.539742 -8.8706045 -73.191856 -0.21488994 -85.960533
9205375000 -0.90695494 120.69693 -8.8767586 -72.68821 -8.879056 -73.223457 -0.2217162 -85.937531
9205437500 -0.90654063 120.68375 -8.8782768 -72.676399 -8.8745956 -73.264587 -0.21559843 -85.943901
9205500000 -0.9007979 120.66998 -8.8759832 -72.622276 -8.8676348 -73.276924 -0.20871222 -85.955269
9205562500 -0.90500206 120.67896 -8.8743172 -72.649384 -8.871068 -73.214676 -0.20982893 -85.929382
9205625000 -0.90233606 120.66747 -8.8744869 -72.651581 -8.8795662 -73.26516 -0.2160625 -85.901566
9205687500 -0.9027313 120.66019 -8.878459 -72.624367 -8.8788919 -73.181793 -0.21645345 -85.860893
9205750000 -0.90113437 120.66278 -8.8709326 -72.666168 -8.8764009 -73.212143 -0.21611713 -85.931244
9205812500 -0.89543921 120.65704 -8.8694401 -72.594032 -8.8800898 -73.225113 -0.21928662 -85.845825
9205875000 -0.90734947 120.61505 -8.8847055 -72.638458 -8.872468 -73.20668 -0.21708475 -85.841118
9205937500 -0.89757228 120.63525 -8.869586 -72.604294 -8.8680754 -73.216179 -0.21838246 -85.830841
9206000000 -0.90022635 120.60217 -8.873703 -72.585983 -8.8749304 -73.205048 -0.21906771 -85.791779
9206062500 -0.90056741 120.60736 -8.8724995 -72.667244 -8.8763838 -73.216217 -0.22533323 -85.760544
9206125000 -0.89943576 120.62449 -8.8639574 -72.569733 -8.8753481 -73.207703 -0.21892744 -85.738068
9206187500 -0.89518476 120.5911 -8.8664274 -72.652496 -8.8756571 -73.211563 -0.22594081 -85.731735
9206250000 -0.90076494 120.54328 -8.8691616 -72.653305 -8.8667469 -73.206139 -0.21507576 -85.707329
9206312500 -0.9013961 120.57158 -8.8788576 -72.544746 -8.8647556 -73.193451 -0.21799231 -85.691422
9206375000 -0.89862555 120.5629 -8.8689718 -72.604759 -8.858613 -73.217148 -0.21660909 -85.677994
9206437500 -0.89384395 120.53784 -8.8593197 -72.577057 -8.8627234 -73.216347 -0.21673605 -85.691376
9206500000 -0.89125264 120.52339 -8.8595657 -72.575104 -8.862956 -73.298485 -0.22520065 -85.685738
9206562500 -0.89584929 120.53578 -8.8562498 -72.536514 -8.8548965 -73.211395 -0.212944 -85.619377
9206625000 -0.90367305 120.52113 -8.8509779 -72.557671 -8.8484488 -73.239563 -0.21029435 -85.625191
9206687500 -0.90512323 120.4835 -8.855937 -72.599541 -8.843421 -73.223961 -0.20853262 -85.621841
9206750000 -0.90656191 120.43143 -8.856019 -72.581543 -8.8473797 -73.19265 -0.20538114 -85.526161
9206812500 -0.90474463 120.46791 -8.858901 -72.533447 -8.83846 -73.163231 -0.20354995 -85.520378
9206875000 -0.90525472 120.40342 -8.8528385 -72.586006 -8.8454313 -73.175072 -0.20978422 -85.506004
9206937500 -0.90480942 120.40991 -8.8646202 -72.578423 -8.8487072 -73.200005 -0.21441308 -85.483826
9207000000 -0.89953494 120.38349 -8.8528872 -72.605011 -8.8499212 -73.194298 -0.21916083 -85.501328
9207062500 -0.89630616 120.37371 -8.8598661 -72.584496 -8.8518028 -73.192032 -0.22041246 -85.442223
9207125000 -0.89745623 120.32951 -8.8632727 -72.65184 -8.8503551 -73.19416 -0.22162953 -85.453636
9207187500 -0.89833087 120.34207 -8.8610382 -72.594627 -8.8563652 -73.183517 -0.22681077 -85.491837
9207250000 -0.89774328 120.31789 -8.8571205 -72.614586 -8.8517876 -73.145081 -0.2224796 -85.447876
9207312500 -0.89596748 120.27526 -8.8450308 -72.665375 -8.8545828 -73.154129 -0.22666243 -85.417465
9207375000 -0.89715087 120.25914 -8.8561983 -72.678047 -8.849493 -73.145241 -0.22577323 -85.416588
9207437500 -0.90277046 120.22607 -8.8623123 -72.593842 -8.8485088 -73.157722 -0.22740629 -85.424202
9207500000 -0.89053857 120.22867 -8.8528128 -72.650688 -8.8470526 -73.139488 -0.22738349 -85.40596
9207562500 -0.89924079 120.17899 -8.8499947 -72.60688 -8.8443718 -73.162178 -0.2246528 -85.362785
9207625000 -0.89987439 120.19264 -8.8517981 -72.68853 -8.8408241 -73.235519 -0.22204913 -85.41423
9207687500 -0.90545374 120.18587 -8.8567743 -72.600021 -8.8456621 -73.165489 -0.21856557 -85.332344
9207750000 -0.90865415 120.17683 -8.8514414 -72.662811 -8.84902 -73.200676 -0.22025272 -85.336258
9207812500 -0.90819365 120.16923 -8.8490982 -72.649124 -8.8437548 -73.1828 -0.2163685 -85.306076
9207875000 -0.90898973 120.17666 -8.8530092 -72.606857 -8.8482628 -73.187912 -0.21081972 -85.279671
9207937500 -0.90472347 120.14407 -8.8448601 -72.575867 -8.8518829 -73.143257 -0.21335284 -85.241829
9208000000 -0.90850955 120.19591 -8.8449326 -72.554893 -8.8476 -73.256577 -0.21606678 -85.281898
9208062500 -0.90914494 120.13316 -8.8517761 -72.601028 -8.8480701 -73.225365 -0.22242798 -85.211922
9208125000 -0.9059577 120.0959 -8.8508787 -72.576927 -8.8449116 -73.157883 -0.2277502 -85.187386
9208187500 -0.90441746 120.18419 -8.8505096 -72.520493 -8.8374348 -73.163795 -0.21882717 -85.193169
9208250000 -0.90348142 120.11878 -8.8489819 -72.541199 -8.8479843 -73.186638 -0.22564568 -85.126511
9208312500 -0.9027127 120.06847 -8.841876 -72.564705 -8.8430119 -73.142693 -0.23068915 -85.152786
9208375000 -0.90095472 120.11855 -8.8492508 -72.48568 -8.849823 -73.155037 -0.23574451 -85.124588
9208437500 -0.90547746 120.08954 -8.8537798 -72.610451 -8.8444452 -73.15731 -0.22999218 -85.135254
9208500000 -0.89854598 120.01891 -8.8406439 -72.644196 -8.8440027 -73.14045 -0.23399773 -85.102432
9208562500 -0.89882874 120.06313 -8.8334236 -72.5653 -8.8349571 -73.126724 -0.22622207 -85.060364
9208625000 -0.90749979 119.98069 -8.8427038 -72.627502 -8.8319082 -73.09362 -0.2169746 -85.049057
9208687500 -0.90449613 119.97346 -8.8362141 -72.602074 -8.836359 -73.151649 -0.22046961 -85.057274
9208750000 -0.89905953 119.96571 -8.8319855 -72.580963 -8.8371916 -73.170769 -0.22366136 -85.032364
9208812500 -0.90690953 119.95106 -8.8451176 -72.632027 -8.8408918 -73.167061 -0.23090704 -85.042816
9208875000 -0.9015488 119.99017 -8.8467436 -72.604912 -8.8310461 -73.187057 -0.22768962 -85.059479
9208937500 -0.90496093 119.96524 -8.8358383 -72.56778 -8.837328 -73.141586 -0.22231165 -85.017159
9209000000 -0.90475047 119.98076 -8.8386841 -72.555962 -8.8374548 -73.12146 -0.22885947 -84.986595
9209062500 -0.90115291 119.96317 -8.8320656 -72.557381 -8.8506813 -73.0914 -0.23273596 -84.972786
9209125000 -0.90815747 119.98557 -8.8337927 -72.505394 -8.8337984 -73.100784 -0.22263525 -84.964478
9209187500 -0.90193367 119.96519 -8.8257494 -72.566185 -8.83533 -73.158272 -0.2252219 -84.980316
9209250000 -0.90184617 119.94165 -8.8312912 -72.527885 -8.834218 -73.090836 -0.21871889 -84.930618
9209312500 -0.90387642 119.90867 -8.8270235 -72.546715 -8.834095 -73.154861 -0.22392625 -84.913185
9209375000 -0.89890397 119.896 -8.8250828 -72.55455 -8.8400536 -73.084045 -0.22853699 -84.810295
9209437500 -0.90219134 119.88015 -8.8271475 -72.552071 -8.8360233 -73.13385 -0.23007984 -84.863625
9209500000 -0.89892769 119.83459 -8.8249826 -72.554924 -8.8339825 -73.118736 -0.23040384 -84.81974
9209562500 -0.89988464 119.80365 -8.8220882 -72.520309 -8.8365431 -73.100121 -0.22572505 -84.800484
9209625000 -0.90922672 119.80322 -8.8265505 -72.599243 -8.8321543 -73.124382 -0.22944053 -84.813393
9209687500 -0.90466386 119.82533 -8.8293304 -72.577293 -8.8364143 -73.141975 -0.22394069 -84.771873
9209750000 -0.90770835 119.81797 -8.8255234 -72.537529 -8.8278866 -73.131866 -0.21792342 -84.724602
9209812500 -0.90346682 119.80392 -8.8353357 -72.570625 -8.8328037 -73.077492 -0.22720028 -84.677139
9209875000 -0.91043407 119.76501 -8.828557 -72.543297 -8.815897 -73.125534 -0.21782979 -84.713966
9209937500 -0.91051233 119.73811 -8.8321896 -72.575394 -8.8235703 -73.039452 -0.22105214 -84.677025
9210000000 -0.908108 119.7403 -8.8306713 -72.601097 -8.8157034 -73.14167 -0.21831313 -84.692062
9210062500 -0.90280175 119.72512 -8.8253431 -72.569687 -8.8247118 -73.039993 -0.22105409 -84.621712
9210125000 -0.90710038 119.72341 -8.8271599 -72.539162 -8.8247662 -73.067451 -0.22416221 -84.626793
9210187500 -0.90048313 119.7114 -8.8216076 -72.561607 -8.8170738 -73.021523 -0.21892153 -84.630669
9210250000 -0.89997876 119.6701 -8.8282623 -72.511131 -8.8249054 -73.002617 -0.22625531 -84.577019
9210312500 -0.90137643 119.70105 -8.8155203 -72.501511 -8.8202 -73.118042 -0.2214617 -84.577385
9210375000 -0.89972419 119.66792 -8.8186636 -72.491699 -8.818162 -73.047035 -0.22213432 -84.519478
9210437500 -0.89683461 119.67266 -8.8149214 -72.490906 -8.8197365 -73.038971 -0.22646953 -84.543861
9210500000 -0.89793199 119.6768 -8.8213501 -72.527466 -8.811779 -73.069664 -0.22952791 -84.514412
9210562500 -0.90173399 119.62078 -8.824872 -72.480736 -8.8168039 -73.053123 -0.23007488 -84.538719
9210625000 -0.89290321 119.59441 -8.817996 -72.514709 -8.818265 -73.03936 -0.23763114 -84.487991
9210687500 -0.89449543 119.57077 -8.8190899 -72.463715 -8.8167219 -73.05706 -0.23361403 -84.489647
9210750000 -0.89587653 119.54585 -8.8256664 -72.538597 -8.8153152 -73.079674 -0.23554468 -84.454132
9210812500 -0.89824539 119.51472 -8.8176193 -72.461617 -8.8168993 -73.049355 -0.24069856 -84.412094
9210875000 -0.89404035 119.51746 -8.8282614 -72.518608 -8.816926 -73.097572 -0.23985064 -84.434837
9210937500 -0.89816046 119.51366 -8.8131819 -72.478233 -8.8061447 -73.095917 -0.22903818 -84.429207
9211000000 -0.90263242 119.47165 -8.8298912 -72.499619 -8.81217 -73.05587 -0.23683538 -84.369614
9211062500 -0.90379065 119.50853 -8.8190365 -72.489929 -8.8134832 -73.1007 -0.23102871 -84.405861
9211125000 -0.90309489 119.45753 -8.814414 -72.56015 -8.8150444 -73.136223 -0.23112939 -84.440376
9211187500 -0.90702289 119.46588 -8.8190851 -72.540894 -8.8093119 -73.085739 -0.22368115 -84.398552
9211250000 -0.90571541 119.47186 -8.8104916 -72.557381 -8.8106356 -73.119629 -0.23208603 -84.401085
9211312500 -0.90929419 119.43194 -8.8203564 -72.57119 -8.8126001 -73.107513 -0.22674514 -84.419388
9211375000 -0.90529859 119.45551 -8.811902 -72.511429 -8.8170252 -73.113701 -0.23128995 -84.32386
9211437500 -0.9074806 119.42735 -8.8119602 -72.52108 -8.8090038 -73.088669 -0.22636482 -84.320793
9211500000 -0.90683824 119.3906 -8.8118401 -72.557732 -8.8066425 -73.086205 -0.22319606 -84.291382
9211562500 -0.90797627 119.40132 -8.813508 -72.499825 -8.8105812 -73.088676 -0.22658591 -84.264992
9211625000 -0.9081347 119.38884 -8.8124981 -72.528717 -8.8078089 -73.055557 -0.23296377 -84.268593
9211687500 -0.90764832 119.36605 -8.8126869 -72.45948 -8.7971087 -73.014145 -0.22853118 -84.223289
9211750000 -0.90343988 119.32822 -8.8025713 -72.512558 -8.8103504 -73.002548 -0.24100472 -84.205513
9211812500 -0.90738219 119.31683 -8.8126078 -72.473282 -8.8049803 -73.031532 -0.24064021 -84.183563
9211875000 -0.90900004 119.32521 -8.8089075 -72.506355 -8.8044739 -73.032707 -0.24022961 -84.158348
9211937500 -0.90596104 119.3095 -8.8042679 -72.497864 -8.8113022 -72.983185 -0.23467961 -84.118294
9212000000 -0.9127093 119.27348 -8.8056002 -72.543205 -8.8008442 -73.004959 -0.23680755 -84.085274
9212062500 -0.90997678 119.19942 -8.808362 -72.523254 -8.8103724 -72.982109 -0.23686387 -84.075783
9212125000 -0.91322803 119.20784 -8.8017759 -72.568626 -8.807128 -73.001678 -0.24083909 -83.995407
9212187500 -0.91623795 119.20146 -8.8050175 -72.540504 -8.8014765 -73.020798 -0.23693527 -84.035812
