!Agilent Technologies,N5242A,MY51221714,A.09.90.19
!Agilent N5242A: A.09.90.19
!Date: Saturday, March 16, 2024 10:30:06
!Correction: S11(Full 2 Port(1,2)) 
!S21(Full 2 Port(1,2)) 
!S12(Full 2 Port(1,2)) 
!S22(Full 2 Port(1,2)) 
!S2P File: Measurements: S11, S21, S12, S22:
# Hz S  dB   R 50
9200000000 -1.0220809 121.10442 -8.9513559 -74.759933 -8.9482498 -75.305252 -0.32720864 -88.351242
9200062500 -1.0260504 121.10432 -8.9576168 -74.741524 -8.9498301 -75.332314 -0.32633722 -88.343697
9200125000 -1.0235661 121.10137 -8.9477062 -74.662666 -8.9357262 -75.354797 -0.31674507 -88.35466
9200187500 -1.0205594 121.08015 -8.944335 -74.745415 -8.9383192 -75.310783 -0.31988439 -88.334435
9200250000 -1.0252081 121.08162 -8.9529867 -74.746941 -8.9389334 -75.333488 -0.32074544 -88.294823
9200312500 -1.0180426 121.0992 -8.9469881 -74.719147 -8.9353933 -75.350983 -0.32186615 -88.313408
9200375000 -1.0192538 121.07405 -8.9490871 -74.705147 -8.9240246 -75.40052 -0.32040566 -88.320351
9200437500 -1.015468 121.01643 -8.9447937 -74.773651 -8.939023 -75.350342 -0.32623199 -88.250549
9200500000 -1.0207626 121.007 -8.9543629 -74.749138 -8.9294157 -75.319695 -0.32579911 -88.226555
9200562500 -1.0142733 120.98351 -8.9434891 -74.748833 -8.9275398 -75.330109 -0.32798746 -88.216026
9200625000 -1.0239289 120.97608 -8.9537182 -74.730949 -8.9327793 -75.351158 -0.32883874 -88.188049
9200687500 -1.0167462 120.99269 -8.945879 -74.716988 -8.9349737 -75.369659 -0.3363975 -88.16391
9200750000 -1.0219647 120.99063 -8.9466782 -74.661896 -8.9245701 -75.287926 -0.33463752 -88.127174
9200812500 -1.0206642 120.95065 -8.9436979 -74.666077 -8.9271946 -75.376068 -0.33738694 -88.136467
9200875000 -1.014145 120.95032 -8.9468145 -74.65863 -8.9198217 -75.306496 -0.32973972 -88.101036
9200937500 -1.01591 120.92731 -8.9440346 -74.646477 -8.925477 -75.310204 -0.33416697 -88.080711
9201000000 -1.01673 120.87786 -8.9321585 -74.680214 -8.9268618 -75.325912 -0.33329529 -88.066635
9201062500 -1.015319 120.91991 -8.9431257 -74.645241 -8.9316473 -75.28186 -0.33158809 -88.020302
9201125000 -1.0133595 120.91956 -8.9375477 -74.660744 -8.928793 -75.332977 -0.33192125 -88.029884
9201187500 -1.0161995 120.85184 -8.9338341 -74.733871 -8.9264402 -75.297409 -0.33611846 -88.008583
9201250000 -1.0103146 120.84677 -8.9271736 -74.736534 -8.9359922 -75.268074 -0.32998079 -87.954964
9201312500 -1.0161687 120.86211 -8.9443245 -74.657829 -8.935297 -75.268265 -0.33467278 -87.969238
9201375000 -1.0213168 120.81387 -8.9334621 -74.64637 -8.925849 -75.346985 -0.33113265 -87.993752
9201437500 -1.020203 120.80851 -8.9391756 -74.726349 -8.9281635 -75.348747 -0.33077684 -88.051407
9201500000 -1.0212197 120.81921 -8.9319296 -74.740982 -8.9361992 -75.286324 -0.33387896 -88.010986
9201562500 -1.0272371 120.80075 -8.936944 -74.731064 -8.9304476 -75.278801 -0.33161488 -87.984749
9201625000 -1.0259167 120.77874 -8.9457607 -74.692062 -8.9233313 -75.307426 -0.33176664 -87.948448
9201687500 -1.0185176 120.7858 -8.9453516 -74.634575 -8.9275475 -75.297768 -0.33498397 -87.925346
9201750000 -1.0184577 120.76642 -8.9341526 -74.672447 -8.9317331 -75.249733 -0.33431813 -87.884399
9201812500 -1.0194916 120.74503 -8.9324923 -74.695793 -8.9261198 -75.274864 -0.33667153 -87.85817
9201875000 -1.0207235 120.73315 -8.9325495 -74.643242 -8.9155817 -75.287178 -0.33247668 -87.841148
9201937500 -1.0140322 120.68898 -8.9342012 -74.716026 -8.9248362 -75.313042 -0.3397744 -87.830261
9202000000 -1.0182419 120.6564 -8.9351015 -74.665871 -8.9224033 -75.249001 -0.33892706 -87.807785
9202062500 -1.0124235 120.67642 -8.9167109 -74.720016 -8.918849 -75.254349 -0.33293682 -87.80674
9202125000 -1.016549 120.67466 -8.9241056 -74.647194 -8.9249077 -75.2145 -0.33662602 -87.743317
9202187500 -1.0188245 120.61079 -8.9255838 -74.775597 -8.9168558 -75.281784 -0.33560595 -87.755066
9202250000 -1.0160291 120.62602 -8.9179039 -74.662125 -8.9145613 -75.277405 -0.32912061 -87.729561
9202312500 -1.0128981 120.64151 -8.9073591 -74.675056 -8.9219618 -75.298859 -0.33597463 -87.731224
9202375000 -1.0174068 120.62404 -8.9219236 -74.636436 -8.9203424 -75.349106 -0.33391827 -87.724274
9202437500 -1.024258 120.598 -8.9231806 -74.646545 -8.9234724 -75.302795 -0.34019294 -87.703911
9202500000 -1.020225 120.56565 -8.9174891 -74.705299 -8.9218578 -75.316162 -0.34147894 -87.692627
9202562500 -1.0261712 120.59394 -8.9256573 -74.670143 -8.9247408 -75.303543 -0.34332013 -87.677422
9202625000 -1.0193522 120.55421 -8.9219208 -74.676369 -8.913518 -75.309097 -0.34039909 -87.643585
9202687500 -1.0200846 120.56642 -8.9268808 -74.677109 -8.9278488 -75.262962 -0.34896669 -87.602898
9202750000 -1.0269396 120.51622 -8.9152079 -74.682121 -8.9091311 -75.268784 -0.3419598 -87.560219
9202812500 -1.0237548 120.51327 -8.9299002 -74.677742 -8.9105597 -75.275734 -0.33849427 -87.572609
9202875000 -1.0234917 120.47712 -8.9177427 -74.675941 -8.9158802 -75.24118 -0.3395865 -87.533112
9202937500 -1.023306 120.47577 -8.9128046 -74.696236 -8.9105959 -75.25486 -0.34024596 -87.540779
9203000000 -1.0207508 120.47618 -8.9159765 -74.698486 -8.913517 -75.285446 -0.341793 -87.500664
9203062500 -1.0244422 120.44501 -8.9206715 -74.733803 -8.9083128 -75.280907 -0.33620629 -87.521332
9203125000 -1.0164239 120.43442 -8.9119463 -74.713654 -8.9095011 -75.309029 -0.34038654 -87.499069
9203187500 -1.0199676 120.40765 -8.904314 -74.693527 -8.9089012 -75.332298 -0.34020391 -87.468338
9203250000 -1.0210781 120.36646 -8.9128819 -74.665787 -8.9147491 -75.201454 -0.33814973 -87.394569
9203312500 -1.0253459 120.39092 -8.9066229 -74.693581 -8.9057341 -75.222061 -0.33475196 -87.381714
9203375000 -1.0149251 120.38576 -8.9042416 -74.700371 -8.9059668 -75.305038 -0.33584413 -87.424767
9203437500 -1.0182685 120.37948 -8.9076796 -74.671211 -8.9050751 -75.246239 -0.33796594 -87.360268
9203500000 -1.0190699 120.35912 -8.9154043 -74.708481 -8.9019842 -75.291351 -0.33328441 -87.373505
9203562500 -1.0171083 120.3466 -8.9053993 -74.716255 -8.905757 -75.248604 -0.33902493 -87.325272
9203625000 -1.023035 120.34304 -8.9075966 -74.71151 -8.9044838 -75.286896 -0.33835465 -87.344917
9203687500 -1.0195991 120.32591 -8.9119053 -74.65731 -8.9087057 -75.298386 -0.34988752 -87.367355
9203750000 -1.0197295 120.30093 -8.9057894 -74.674339 -8.9090605 -75.245491 -0.34466481 -87.27742
9203812500 -1.020677 120.26006 -8.9103642 -74.666801 -8.9086342 -75.245064 -0.34761596 -87.281639
9203875000 -1.0246024 120.26199 -8.9003162 -74.682053 -8.9029226 -75.286118 -0.34826788 -87.292572
9203937500 -1.0226412 120.1995 -8.9046154 -74.762886 -8.906805 -75.272247 -0.35544822 -87.269966
9204000000 -1.0164782 120.24998 -8.9168186 -74.605988 -8.896822 -75.176445 -0.34789759 -87.223511
9204062500 -1.0164032 120.19296 -8.9051151 -74.681999 -8.8989105 -75.24157 -0.35230058 -87.237427
9204125000 -1.0118216 120.19062 -8.9067125 -74.667427 -8.8992405 -75.25943 -0.35464203 -87.200127
9204187500 -1.0185941 120.21587 -8.912425 -74.667763 -8.8944883 -75.248161 -0.35835871 -87.192413
9204250000 -1.0167806 120.18908 -8.9087782 -74.625954 -8.8916645 -75.251404 -0.34901652 -87.219246
9204312500 -1.0115514 120.15972 -8.9016762 -74.652222 -8.8904066 -75.251839 -0.34761614 -87.148239
9204375000 -1.0122762 120.1521 -8.8976889 -74.652161 -8.8911686 -75.236488 -0.34678626 -87.153648
9204437500 -1.0131122 120.13393 -8.9023495 -74.650139 -8.8891916 -75.207504 -0.34431899 -87.111801
9204500000 -1.0088542 120.12063 -8.9019585 -74.634583 -8.8915825 -75.233002 -0.34575844 -87.104462
9204562500 -1.0088542 120.06354 -8.8931398 -74.657227 -8.9006281 -75.206558 -0.34111771 -87.093773
9204625000 -1.0096662 120.11552 -8.8959885 -74.596695 -8.8937368 -75.21006 -0.34201932 -87.002525
9204687500 -1.0117766 120.03355 -8.8913765 -74.727707 -8.884078 -75.184334 -0.34574991 -87.000938
9204750000 -1.0135823 120.0582 -8.8937302 -74.609718 -8.8903923 -75.226593 -0.34034097 -87.033546
9204812500 -1.01665 120.12161 -8.8992767 -74.576096 -8.8872719 -75.235817 -0.34734112 -87.043854
9204875000 -1.0171704 120.05873 -8.9092426 -74.63781 -8.8900442 -75.28421 -0.35351598 -86.994484
9204937500 -1.0171992 120.05296 -8.8967361 -74.633698 -8.8863058 -75.245384 -0.34458193 -87.001274
9205000000 -1.0140934 120.03641 -8.8902769 -74.651711 -8.8850412 -75.221146 -0.34657896 -86.95433
9205062500 -1.0167406 120.01093 -8.8902073 -74.596306 -8.8849468 -75.236862 -0.34370023 -86.980576
9205125000 -1.0197196 119.99842 -8.8988857 -74.583076 -8.8797836 -75.209503 -0.34072205 -86.953552
9205187500 -1.0192474 119.98196 -8.8883867 -74.614403 -8.8835897 -75.22477 -0.34464651 -86.928635
9205250000 -1.0233896 119.95285 -8.8986044 -74.576775 -8.8919725 -75.234726 -0.34523782 -86.896111
9205312500 -1.0240237 119.91142 -8.8900909 -74.563438 -8.8871136 -75.194153 -0.34429944 -86.857994
9205375000 -1.0200813 119.87339 -8.885788 -74.604546 -8.8873072 -75.275002 -0.34589651 -86.884315
9205437500 -1.0233372 119.87381 -8.886322 -74.574776 -8.8914518 -75.260643 -0.34719169 -86.864517
9205500000 -1.0237628 119.89584 -8.8909025 -74.585823 -8.8865519 -75.225113 -0.34073946 -86.832283
9205562500 -1.0207539 119.86649 -8.8836422 -74.66288 -8.8895521 -75.209007 -0.34548867 -86.81852
9205625000 -1.0224936 119.8444 -8.889842 -74.619919 -8.8887863 -75.27179 -0.34487033 -86.872238
9205687500 -1.0214738 119.88444 -8.8769684 -74.564735 -8.8899155 -75.180244 -0.3466045 -86.788811
9205750000 -1.0146397 119.83455 -8.8779011 -74.651192 -8.890027 -75.206306 -0.34213006 -86.797218
9205812500 -1.0235113 119.84415 -8.8943558 -74.629814 -8.8886681 -75.195259 -0.35016176 -86.740585
9205875000 -1.0222315 119.82783 -8.889163 -74.620888 -8.8816509 -75.19841 -0.34682423 -86.761215
9205937500 -1.0182489 119.79891 -8.8781338 -74.615936 -8.888485 -75.164665 -0.35254818 -86.696449
9206000000 -1.0139824 119.79492 -8.8864012 -74.614487 -8.8889065 -75.207481 -0.34904447 -86.715881
9206062500 -1.0162176 119.77934 -8.8743048 -74.636345 -8.8918791 -75.145638 -0.34995347 -86.69384
9206125000 -1.0139508 119.81034 -8.8774204 -74.521614 -8.8845997 -75.128082 -0.35011387 -86.606163
9206187500 -1.0144191 119.78032 -8.8822641 -74.563797 -8.8838053 -75.142899 -0.35099968 -86.56292
9206250000 -1.0156822 119.75796 -8.8858318 -74.587982 -8.8805761 -75.174187 -0.34715632 -86.616318
9206312500 -1.016802 119.75687 -8.8779974 -74.582077 -8.8690109 -75.215088 -0.34406227 -86.602188
9206375000 -1.0165404 119.73359 -8.8792248 -74.535286 -8.8771753 -75.235352 -0.3496843 -86.612625
9206437500 -1.0135958 119.75367 -8.8716888 -74.581421 -8.8746567 -75.18544 -0.34699818 -86.566109
9206500000 -1.0158645 119.75144 -8.8724527 -74.584747 -8.869978 -75.236336 -0.34823361 -86.583092
9206562500 -1.0209289 119.71624 -8.8707132 -74.597519 -8.8658409 -75.238464 -0.34237742 -86.556587
9206625000 -1.0261282 119.68173 -8.8782206 -74.617104 -8.8642168 -75.246742 -0.34288904 -86.534798
9206687500 -1.0174243 119.67871 -8.8640738 -74.503288 -8.8658972 -75.190613 -0.34402972 -86.476555
9206750000 -1.0295308 119.65228 -8.8742228 -74.507553 -8.8586798 -75.182266 -0.33895266 -86.462387
9206812500 -1.0219643 119.64774 -8.8605003 -74.541786 -8.850605 -75.212425 -0.33607188 -86.454857
9206875000 -1.0242267 119.58977 -8.8569202 -74.524162 -8.856307 -75.16362 -0.34122559 -86.41394
9206937500 -1.0236446 119.59081 -8.8675671 -74.578758 -8.8683586 -75.149864 -0.34965146 -86.355072
9207000000 -1.0218743 119.59448 -8.8751431 -74.526314 -8.8684273 -75.160675 -0.35507199 -86.368324
9207062500 -1.0157825 119.56281 -8.8640471 -74.554993 -8.8684216 -75.161102 -0.35012236 -86.31292
9207125000 -1.0145485 119.54037 -8.8621597 -74.577728 -8.8539944 -75.175446 -0.34775624 -86.364777
9207187500 -1.0135311 119.52441 -8.8679361 -74.604553 -8.8630276 -75.147606 -0.35146365 -86.32943
9207250000 -1.0100509 119.52267 -8.8686123 -74.599068 -8.8658991 -75.167648 -0.35870996 -86.32679
9207312500 -1.012445 119.48067 -8.8612041 -74.622696 -8.8609962 -75.149368 -0.35751569 -86.331009
9207375000 -1.0179477 119.475 -8.8723116 -74.617226 -8.8634577 -75.163185 -0.36327899 -86.328209
9207437500 -1.0197891 119.38932 -8.8707256 -74.631287 -8.857852 -75.096924 -0.35865653 -86.272095
9207500000 -1.0158598 119.40292 -8.8572178 -74.613861 -8.8622589 -75.161232 -0.36004615 -86.297356
9207562500 -1.0203446 119.37574 -8.867877 -74.62664 -8.8550768 -75.138847 -0.35652936 -86.277534
9207625000 -1.0138924 119.34858 -8.861536 -74.667885 -8.8605728 -75.221382 -0.36533305 -86.282707
9207687500 -1.0229747 119.37505 -8.8641005 -74.610397 -8.8494968 -75.192833 -0.34855062 -86.241562
9207750000 -1.0256701 119.37083 -8.8503227 -74.600403 -8.8584795 -75.218102 -0.3478356 -86.23951
9207812500 -1.0216981 119.3484 -8.8531122 -74.579407 -8.8533468 -75.157867 -0.3406558 -86.184692
9207875000 -1.0233284 119.37437 -8.853549 -74.56958 -8.8507977 -75.18428 -0.34197193 -86.234329
9207937500 -1.0269917 119.35376 -8.8600473 -74.62278 -8.8511553 -75.217926 -0.34504944 -86.177963
9208000000 -1.0255969 119.3501 -8.8654871 -74.538635 -8.8566427 -75.192177 -0.34792116 -86.104607
9208062500 -1.0239489 119.35984 -8.8649092 -74.635391 -8.8574924 -75.193085 -0.34907284 -86.148979
9208125000 -1.0211651 119.31975 -8.8584204 -74.573143 -8.8579397 -75.172363 -0.34884396 -86.069145
9208187500 -1.0202843 119.3179 -8.8617563 -74.552956 -8.8592672 -75.186142 -0.36142454 -86.02626
9208250000 -1.016741 119.3035 -8.8537483 -74.557892 -8.8607817 -75.163261 -0.36286736 -86.029686
9208312500 -1.0186609 119.30946 -8.8581362 -74.485054 -8.8556824 -75.107765 -0.35654315 -86.028198
9208375000 -1.0259827 119.2747 -8.8584518 -74.564735 -8.8467121 -75.103699 -0.35897964 -85.964859
9208437500 -1.0176767 119.23316 -8.8457909 -74.509315 -8.8501549 -75.104568 -0.35348743 -85.99826
9208500000 -1.020418 119.22027 -8.8430796 -74.556435 -8.8481073 -75.130127 -0.35137981 -85.963524
9208562500 -1.0157838 119.20639 -8.8602314 -74.570068 -8.8503542 -75.077721 -0.35533172 -85.915237
9208625000 -1.0209076 119.1871 -8.8476629 -74.590538 -8.8514977 -75.142189 -0.35814008 -85.975739
9208687500 -1.0254664 119.17995 -8.8434849 -74.595192 -8.8398075 -75.186897 -0.35450739 -85.974724
9208750000 -1.0228626 119.14974 -8.8519936 -74.59906 -8.842802 -75.145416 -0.35768783 -85.962921
9208812500 -1.0225869 119.12659 -8.8473406 -74.642548 -8.8499651 -75.168892 -0.36103973 -85.92189
9208875000 -1.0290878 119.16806 -8.8501263 -74.607468 -8.8507767 -75.197563 -0.3603273 -85.93087
9208937500 -1.0197743 119.15254 -8.8390503 -74.572884 -8.8426676 -75.172905 -0.35354802 -85.871574
9209000000 -1.0244282 119.13965 -8.8516521 -74.611336 -8.8512287 -75.093536 -0.35700727 -85.901848
9209062500 -1.0238692 119.15451 -8.8510218 -74.566368 -8.8440619 -75.123657 -0.35759634 -85.856247
9209125000 -1.0218147 119.16097 -8.842309 -74.510086 -8.8461494 -75.116211 -0.36187124 -85.869942
9209187500 -1.0208901 119.12913 -8.8361111 -74.559868 -8.8462114 -75.12883 -0.35329884 -85.83963
9209250000 -1.0191742 119.16849 -8.852438 -74.535233 -8.8463326 -75.086029 -0.35763001 -85.795288
9209312500 -1.0216103 119.07771 -8.8339338 -74.564857 -8.8550797 -75.119629 -0.3664102 -85.769638
9209375000 -1.0210932 119.07723 -8.8386707 -74.538063 -8.8471537 -75.099777 -0.36219507 -85.749214
9209437500 -1.0180444 119.04464 -8.8331556 -74.565323 -8.8447313 -75.127831 -0.35977009 -85.785484
9209500000 -1.0171323 119.01307 -8.8332453 -74.564079 -8.8465242 -75.103447 -0.35935521 -85.701286
9209562500 -1.0240159 119.00386 -8.8403387 -74.541199 -8.843874 -75.079536 -0.36529177 -85.648834
9209625000 -1.0280225 118.98885 -8.8410912 -74.642029 -8.8412323 -75.086708 -0.36337274 -85.701233
9209687500 -1.0304006 118.98018 -8.8407516 -74.566833 -8.8387852 -75.096786 -0.35620219 -85.655487
9209750000 -1.025938 119.00683 -8.8383369 -74.556129 -8.8351116 -75.148903 -0.35012102 -85.673752
9209812500 -1.021907 118.9809 -8.8389845 -74.569824 -8.8329067 -75.101677 -0.35214984 -85.603218
9209875000 -1.0290313 118.9661 -8.8417139 -74.585045 -8.8348169 -75.132973 -0.34775648 -85.621719
9209937500 -1.0271249 118.94725 -8.8444862 -74.57148 -8.8307371 -75.084595 -0.3540161 -85.597656
9210000000 -1.0236813 118.92013 -8.8283644 -74.560188 -8.823329 -75.111595 -0.33789274 -85.591064
9210062500 -1.0228814 118.90325 -8.8293915 -74.544495 -8.8328943 -75.047043 -0.34935656 -85.542358
9210125000 -1.0198637 118.91241 -8.826787 -74.547264 -8.8341103 -75.085152 -0.35226312 -85.542381
9210187500 -1.0194361 118.89021 -8.8238573 -74.532112 -8.8287992 -75.027084 -0.34431967 -85.533913
9210250000 -1.0180709 118.87631 -8.8248777 -74.560539 -8.8306465 -75.024185 -0.35487416 -85.48922
9210312500 -1.0176415 118.86021 -8.8255138 -74.541565 -8.8235102 -75.018982 -0.35171643 -85.461983
9210375000 -1.0200949 118.85863 -8.8289671 -74.52417 -8.8314209 -75.014099 -0.35639155 -85.446106
9210437500 -1.0233134 118.83186 -8.8281813 -74.53299 -8.8236189 -75.061134 -0.36026207 -85.457428
9210500000 -1.016155 118.79595 -8.8253174 -74.562271 -8.8342333 -75.061623 -0.3650344 -85.443214
9210562500 -1.0218915 118.8149 -8.8277893 -74.522141 -8.8263388 -75.043068 -0.36359298 -85.419144
9210625000 -1.020534 118.77206 -8.8423204 -74.517128 -8.8296099 -75.039421 -0.37388673 -85.378059
9210687500 -1.0177084 118.73901 -8.8274031 -74.498726 -8.8299112 -75.017242 -0.36966217 -85.344589
9210750000 -1.0127716 118.72894 -8.8334265 -74.533722 -8.826148 -75.02269 -0.36319548 -85.30378
9210812500 -1.0168588 118.72989 -8.8280373 -74.457787 -8.8221846 -75.073807 -0.36625859 -85.347321
9210875000 -1.0179198 118.67671 -8.8227882 -74.540199 -8.8227072 -75.153854 -0.36517859 -85.349457
9210937500 -1.0196989 118.66798 -8.8267975 -74.480164 -8.8171768 -75.087807 -0.37067753 -85.302368
9211000000 -1.0184778 118.65626 -8.8221884 -74.472519 -8.8229055 -75.064201 -0.36388206 -85.24501
9211062500 -1.0212194 118.65256 -8.8079891 -74.511566 -8.8245897 -75.094681 -0.36741778 -85.312286
9211125000 -1.0279787 118.66721 -8.8192606 -74.566917 -8.814518 -75.055481 -0.36073926 -85.326118
9211187500 -1.0291823 118.66579 -8.828331 -74.542114 -8.8210382 -75.164261 -0.36376467 -85.314438
9211250000 -1.0276654 118.65977 -8.8206377 -74.61055 -8.8169098 -75.119324 -0.35736597 -85.344147
9211312500 -1.0320045 118.6837 -8.8235741 -74.545387 -8.821413 -75.121048 -0.36479855 -85.340385
9211375000 -1.0253452 118.62508 -8.8124943 -74.517784 -8.8185101 -75.088585 -0.35363111 -85.193893
9211437500 -1.0266696 118.62112 -8.8204813 -74.54306 -8.8251362 -75.103966 -0.3590591 -85.212952
9211500000 -1.0277179 118.60561 -8.8159485 -74.546959 -8.8180513 -75.061272 -0.36475945 -85.163116
9211562500 -1.0266027 118.62353 -8.8126268 -74.505913 -8.8195944 -75.02771 -0.3652204 -85.153778
9211625000 -1.0293318 118.56569 -8.8208084 -74.507225 -8.8179808 -75.047615 -0.37021276 -85.183319
9211687500 -1.0291505 118.57851 -8.8174362 -74.486702 -8.8179369 -75.116806 -0.36097801 -85.152687
9211750000 -1.0198867 118.54986 -8.8094273 -74.464455 -8.8143377 -75.032951 -0.36901376 -85.114952
9211812500 -1.0218418 118.48801 -8.8102026 -74.546761 -8.8135471 -74.999229 -0.36619526 -85.069046
9211875000 -1.0220183 118.48544 -8.8067894 -74.515053 -8.8169231 -75.051796 -0.36926687 -85.071075
9211937500 -1.0288562 118.47925 -8.8145666 -74.531036 -8.8170004 -75.051018 -0.37198374 -85.044098
9212000000 -1.0266743 118.44361 -8.8061113 -74.585922 -8.8160744 -75.093689 -0.37181926 -85.019714
9212062500 -1.0223669 118.43992 -8.8071623 -74.54528 -8.814889 -75.050529 -0.36769226 -84.969681
9212125000 -1.0284867 118.40077 -8.8053741 -74.537605 -8.8119812 -75.030876 -0.36901966 -84.887489
9212187500 -1.0258964 118.40069 -8.8039618 -74.52417 -8.8124208 -74.988174 -0.3684617 -84.922279
9212250000 -1.0317 118.36487 -8.8090086 -74.588638 -8.7990599 -75.04126 -0.36457437 -84.908257
9212312500 -1.0283608 118.36826 -8.8118525 -74.540894 -8.8014107 -75.102005 -0.36801293 -84.924911
