!Agilent Technologies,N5242A,MY51221714,A.09.90.19
!Agilent N5242A: A.09.90.19
!Date: Saturday, March 16, 2024 10:31:09
!Correction: S11(Full 2 Port(1,2)) 
!S21(Full 2 Port(1,2)) 
!S12(Full 2 Port(1,2)) 
!S22(Full 2 Port(1,2)) 
!S2P File: Measurements: S11, S21, S12, S22:
# Hz S  dB   R 50
9200000000 -0.81305015 124.86189 -9.1637383 -69.470261 -9.1557636 -70.029442 -0.099109434 -84.988907
9200062500 -0.81909496 124.86169 -9.1572533 -69.410339 -9.1447887 -70.017601 -0.10064887 -84.959023
9200125000 -0.82070673 124.89832 -9.1665678 -69.378899 -9.1494608 -69.985214 -0.099572152 -84.939209
9200187500 -0.8182165 124.84671 -9.1593132 -69.392281 -9.1488361 -70.042885 -0.095745891 -84.910225
9200250000 -0.81064236 124.81293 -9.1526699 -69.407303 -9.1403675 -70.037262 -0.094113149 -84.906448
9200312500 -0.81420308 124.83123 -9.1595354 -69.412666 -9.150897 -70.07399 -0.099789374 -84.932175
9200375000 -0.8127436 124.83355 -9.1573315 -69.43232 -9.1441364 -70.036385 -0.097526647 -84.892044
9200437500 -0.8110252 124.7937 -9.1576672 -69.400787 -9.1442871 -70.049576 -0.10013137 -84.858688
9200500000 -0.80749404 124.79807 -9.1503801 -69.405785 -9.1389885 -70.011871 -0.10131917 -84.854164
9200562500 -0.81286281 124.76566 -9.1595716 -69.371979 -9.1334276 -70.004875 -0.1019052 -84.824173
9200625000 -0.81348729 124.77897 -9.1530304 -69.368523 -9.1417198 -70.022362 -0.10596659 -84.771332
9200687500 -0.81281698 124.75947 -9.1545305 -69.348503 -9.1367979 -70.033005 -0.10313674 -84.766396
9200750000 -0.81574816 124.74265 -9.1555767 -69.347527 -9.1354218 -70.007744 -0.10822307 -84.738914
9200812500 -0.81138754 124.73273 -9.1546669 -69.349899 -9.1401291 -70.011383 -0.11128756 -84.695045
9200875000 -0.81221318 124.71024 -9.1528311 -69.288979 -9.1295662 -70.00032 -0.11016461 -84.665596
9200937500 -0.81006938 124.70872 -9.1496906 -69.323128 -9.1451921 -69.931015 -0.10853755 -84.605972
9201000000 -0.80912143 124.67651 -9.1477575 -69.342018 -9.1354561 -69.910065 -0.10309877 -84.609314
9201062500 -0.81249034 124.68025 -9.1541996 -69.341354 -9.1397362 -70.026955 -0.10903676 -84.641808
9201125000 -0.82036179 124.61444 -9.1474247 -69.40242 -9.1408539 -69.976967 -0.10918378 -84.583763
9201187500 -0.80652052 124.64427 -9.1361752 -69.331711 -9.1433306 -69.983261 -0.10694309 -84.563347
9201250000 -0.80831939 124.62922 -9.1393461 -69.323708 -9.1413383 -69.940468 -0.10733061 -84.555878
9201312500 -0.81825024 124.5903 -9.1530628 -69.373245 -9.1406193 -69.992691 -0.10890364 -84.574951
9201375000 -0.81005281 124.59004 -9.1478586 -69.383133 -9.1402359 -69.941475 -0.10279156 -84.540421
9201437500 -0.81308365 124.57694 -9.140337 -69.385651 -9.1357203 -69.982506 -0.10507543 -84.569901
9201500000 -0.8175416 124.58145 -9.1504679 -69.390984 -9.1356373 -69.915382 -0.10005528 -84.540375
9201562500 -0.81696153 124.55502 -9.1551561 -69.341789 -9.1404238 -69.942162 -0.10944053 -84.527
9201625000 -0.81426573 124.56541 -9.1403618 -69.3293 -9.1379633 -69.948395 -0.10919233 -84.50206
9201687500 -0.82033056 124.564 -9.1608143 -69.340576 -9.131753 -69.93351 -0.10224911 -84.494209
9201750000 -0.81637138 124.49457 -9.1569633 -69.382179 -9.1328573 -69.878922 -0.10666834 -84.426445
9201812500 -0.81461 124.50278 -9.1527042 -69.334236 -9.1300659 -69.883492 -0.10810271 -84.415337
9201875000 -0.80915946 124.48869 -9.1417809 -69.304352 -9.1361122 -69.853439 -0.10794486 -84.366669
9201937500 -0.81345338 124.44395 -9.14468 -69.344421 -9.1385937 -69.891266 -0.1115284 -84.347946
9202000000 -0.80603373 124.42986 -9.1373844 -69.325066 -9.1314392 -69.866631 -0.11066249 -84.339691
9202062500 -0.81372315 124.42914 -9.1430635 -69.343727 -9.1249943 -69.88636 -0.10818002 -84.336052
9202125000 -0.80920917 124.39646 -9.1373243 -69.345787 -9.1370564 -69.98233 -0.10577735 -84.349098
9202187500 -0.811948 124.38931 -9.1275301 -69.365303 -9.1367464 -69.931984 -0.10485804 -84.331207
9202250000 -0.81573439 124.41877 -9.1388216 -69.300705 -9.1375647 -69.932442 -0.1093758 -84.302147
9202312500 -0.81255865 124.38186 -9.127512 -69.344894 -9.1317368 -69.946785 -0.10860277 -84.318993
9202375000 -0.817285 124.3811 -9.1339483 -69.332756 -9.1317377 -69.981522 -0.10574897 -84.283379
9202437500 -0.81103033 124.36375 -9.1292849 -69.344261 -9.1260138 -69.982491 -0.10396905 -84.244415
9202500000 -0.81966132 124.32081 -9.1358538 -69.318596 -9.1353741 -69.965134 -0.11612932 -84.25193
9202562500 -0.81732237 124.34769 -9.1440144 -69.33754 -9.1333189 -69.967621 -0.11746726 -84.216057
9202625000 -0.81533492 124.31866 -9.1332903 -69.289085 -9.1267414 -69.895119 -0.11188612 -84.175018
9202687500 -0.81559074 124.3437 -9.1379108 -69.311295 -9.1286373 -69.932793 -0.11410201 -84.151138
9202750000 -0.81679446 124.31908 -9.1367455 -69.27713 -9.1307058 -69.864159 -0.11912833 -84.140686
9202812500 -0.81819153 124.29502 -9.1422539 -69.33445 -9.1305447 -69.895325 -0.11584026 -84.106743
9202875000 -0.81204587 124.28258 -9.1422644 -69.335442 -9.1299772 -69.997704 -0.11788981 -84.110596
9202937500 -0.81552702 124.25578 -9.1364555 -69.332947 -9.1244745 -69.946793 -0.11097372 -84.075302
9203000000 -0.81746125 124.22631 -9.135376 -69.342888 -9.1249628 -69.879944 -0.11425603 -84.05809
9203062500 -0.81236881 124.20646 -9.1268864 -69.331184 -9.129674 -69.91909 -0.11028825 -84.040344
9203125000 -0.8140974 124.20019 -9.1256552 -69.301971 -9.1158028 -69.911003 -0.10848197 -84.048721
9203187500 -0.81000888 124.17102 -9.124115 -69.327209 -9.1277323 -69.896431 -0.11228612 -83.995071
9203250000 -0.81367791 124.19773 -9.130971 -69.317482 -9.1288795 -69.921661 -0.10972738 -84.022118
9203312500 -0.81558561 124.2021 -9.1352644 -69.31916 -9.1297302 -69.983147 -0.11143839 -84.032639
9203375000 -0.81311965 124.13418 -9.1259212 -69.371948 -9.1228399 -69.895035 -0.10636375 -83.961945
9203437500 -0.81989336 124.14523 -9.1367836 -69.305069 -9.1280689 -69.924286 -0.11186092 -83.98172
9203500000 -0.81005031 124.12783 -9.1200266 -69.384842 -9.1259336 -69.960304 -0.10944096 -83.938278
9203562500 -0.81348771 124.16138 -9.1327848 -69.271332 -9.1270065 -69.896843 -0.110224 -83.914978
9203625000 -0.81374699 124.07439 -9.13554 -69.330864 -9.127429 -69.841949 -0.11982047 -83.90731
9203687500 -0.81385434 124.07381 -9.123395 -69.339157 -9.126483 -69.92849 -0.11487728 -83.911819
9203750000 -0.81723261 124.05334 -9.1353025 -69.365036 -9.1316175 -69.92701 -0.12304753 -83.872093
9203812500 -0.8129012 124.04554 -9.1227884 -69.343147 -9.1234169 -69.881126 -0.11871432 -83.878654
9203875000 -0.81323993 124.01701 -9.120369 -69.301773 -9.1147661 -69.843033 -0.1155095 -83.814125
9203937500 -0.80515909 124.0564 -9.1237478 -69.290848 -9.1249113 -69.866524 -0.12916386 -83.804642
9204000000 -0.81516963 124.00774 -9.127346 -69.304085 -9.1152515 -69.868332 -0.12312745 -83.804337
9204062500 -0.81454504 123.99804 -9.1387281 -69.297234 -9.1108274 -69.886696 -0.13021451 -83.793457
9204125000 -0.80311769 123.99363 -9.1215506 -69.314285 -9.1206884 -69.810913 -0.12506509 -83.72802
9204187500 -0.80360806 123.95741 -9.1177044 -69.297852 -9.114912 -69.896507 -0.12729613 -83.757362
9204250000 -0.80061883 123.98964 -9.1159658 -69.21611 -9.1139269 -69.862244 -0.12040701 -83.702362
9204312500 -0.80792469 123.96346 -9.1303988 -69.239067 -9.102006 -69.822952 -0.1191238 -83.686295
9204375000 -0.80288869 123.90332 -9.11693 -69.269882 -9.1129818 -69.858772 -0.1178034 -83.692795
9204437500 -0.80528539 123.91355 -9.1246443 -69.264145 -9.1126823 -69.865547 -0.11794592 -83.630264
9204500000 -0.79960597 123.89992 -9.1153364 -69.256195 -9.1164198 -69.795837 -0.11142467 -83.617653
9204562500 -0.7996943 123.90242 -9.110815 -69.226959 -9.113162 -69.875214 -0.11599761 -83.639107
9204625000 -0.80040985 123.84168 -9.1180315 -69.214317 -9.1171112 -69.813164 -0.11423721 -83.598099
9204687500 -0.80531192 123.8372 -9.1193361 -69.264633 -9.1132441 -69.85611 -0.11720549 -83.544594
9204750000 -0.8054285 123.85726 -9.1172113 -69.285736 -9.1019306 -69.841591 -0.11055403 -83.548935
9204812500 -0.81075501 123.87914 -9.1216545 -69.191841 -9.1018925 -69.849251 -0.11579239 -83.561577
9204875000 -0.80634868 123.83949 -9.1179781 -69.259048 -9.1054525 -69.85041 -0.11708301 -83.553749
9204937500 -0.81207979 123.86055 -9.1208 -69.215286 -9.1105328 -69.8479 -0.1180983 -83.551453
9205000000 -0.80847424 123.83244 -9.1190796 -69.240402 -9.1174126 -69.860962 -0.12265678 -83.544136
9205062500 -0.81076008 123.80243 -9.1151047 -69.222801 -9.1091566 -69.86187 -0.11635265 -83.523628
9205125000 -0.81429458 123.76153 -9.1155872 -69.276901 -9.111166 -69.85479 -0.11678042 -83.537086
9205187500 -0.81716317 123.75439 -9.1182222 -69.241982 -9.1131792 -69.894287 -0.11787695 -83.500572
9205250000 -0.81418318 123.75011 -9.1165905 -69.177238 -9.1102695 -69.852745 -0.11938489 -83.432251
9205312500 -0.81543863 123.70003 -9.106596 -69.246605 -9.1077986 -69.893997 -0.11478398 -83.446205
9205375000 -0.81739706 123.67084 -9.1129827 -69.184525 -9.1148434 -69.8358 -0.11617986 -83.432335
9205437500 -0.81837326 123.6805 -9.1085291 -69.238831 -9.1147127 -69.882652 -0.11906943 -83.419632
9205500000 -0.81282908 123.63499 -9.1133242 -69.281349 -9.1120806 -69.835678 -0.11701408 -83.405022
9205562500 -0.8135401 123.67809 -9.1133375 -69.250999 -9.1101446 -69.845718 -0.12112359 -83.374535
9205625000 -0.81652319 123.66137 -9.1098413 -69.200592 -9.1161737 -69.771667 -0.11819078 -83.351471
9205687500 -0.8094461 123.65413 -9.1036968 -69.232002 -9.1051054 -69.796501 -0.11296592 -83.335571
9205750000 -0.80969268 123.6534 -9.1104984 -69.221832 -9.1123686 -69.851265 -0.11881686 -83.356316
9205812500 -0.80254549 123.63795 -9.1037025 -69.236343 -9.1101007 -69.802994 -0.11823494 -83.311394
9205875000 -0.80899829 123.61756 -9.1105251 -69.232338 -9.1146183 -69.825539 -0.1179117 -83.286629
9205937500 -0.81127453 123.60372 -9.1107635 -69.209785 -9.1105385 -69.811531 -0.11946582 -83.244492
9206000000 -0.80398631 123.62175 -9.1110525 -69.176025 -9.1148891 -69.755577 -0.12731254 -83.215553
9206062500 -0.80098552 123.61526 -9.0991831 -69.160583 -9.1111431 -69.777184 -0.12367747 -83.200287
9206125000 -0.81104869 123.60066 -9.1104002 -69.145142 -9.1080847 -69.787659 -0.12068652 -83.194489
9206187500 -0.80931354 123.56461 -9.1062183 -69.16153 -9.1011343 -69.764 -0.11915021 -83.144707
9206250000 -0.80435026 123.59148 -9.1070118 -69.139015 -9.1134415 -69.798553 -0.12483945 -83.169289
9206312500 -0.80477411 123.55789 -9.099864 -69.149178 -9.1004324 -69.766464 -0.11688818 -83.147133
9206375000 -0.80853236 123.52988 -9.1002874 -69.147156 -9.1013517 -69.837448 -0.1201108 -83.128571
9206437500 -0.81070697 123.50582 -9.0977688 -69.237 -9.0926485 -69.825455 -0.11414446 -83.125702
9206500000 -0.80669719 123.52083 -9.0959711 -69.126122 -9.1006012 -69.770905 -0.11953146 -83.089638
9206562500 -0.80488443 123.51594 -9.0915585 -69.117584 -9.0892286 -69.852615 -0.1088026 -83.087883
9206625000 -0.81223941 123.51467 -9.0949917 -69.111374 -9.0881329 -69.796448 -0.11030472 -83.054634
9206687500 -0.8134042 123.49656 -9.0906658 -69.112869 -9.0867052 -69.801941 -0.1054493 -83.004875
9206750000 -0.81239951 123.41982 -9.0856199 -69.154633 -9.0833063 -69.710884 -0.10675491 -82.935486
9206812500 -0.81533515 123.432 -9.0926847 -69.135048 -9.0881968 -69.772484 -0.10881663 -82.952072
9206875000 -0.81290025 123.41911 -9.0838518 -69.13266 -9.080554 -69.826607 -0.11274187 -82.958374
9206937500 -0.81209052 123.41052 -9.0892143 -69.142395 -9.0858641 -69.742584 -0.10910967 -82.907005
9207000000 -0.80391484 123.3752 -9.0889587 -69.166534 -9.0937033 -69.794113 -0.12054825 -82.924675
9207062500 -0.80353695 123.37274 -9.0860386 -69.16127 -9.0944195 -69.694206 -0.11618949 -82.877007
9207125000 -0.80328941 123.37376 -9.0940504 -69.192841 -9.0968361 -69.749863 -0.11961793 -82.891724
9207187500 -0.80571771 123.29657 -9.0900126 -69.205772 -9.0948515 -69.783363 -0.12371444 -82.958847
9207250000 -0.80548453 123.31535 -9.1039066 -69.187469 -9.1017895 -69.756142 -0.12817812 -82.884132
9207312500 -0.80358392 123.26946 -9.0862408 -69.222885 -9.0973425 -69.75235 -0.13201761 -82.865257
9207375000 -0.80526549 123.25146 -9.0912981 -69.193642 -9.0814981 -69.722534 -0.12199326 -82.863564
9207437500 -0.80352122 123.23232 -9.0895576 -69.212456 -9.085844 -69.743988 -0.12680802 -82.816452
9207500000 -0.80708683 123.21065 -9.0955811 -69.189346 -9.0823212 -69.777237 -0.12625362 -82.815681
9207562500 -0.80663329 123.17403 -9.0871201 -69.242882 -9.09021 -69.747093 -0.12494232 -82.778328
9207625000 -0.80847722 123.1944 -9.0891209 -69.16806 -9.0861797 -69.772247 -0.12373757 -82.78569
9207687500 -0.81067109 123.16891 -9.0853138 -69.175224 -9.0856762 -69.765785 -0.12079713 -82.810501
9207750000 -0.81207609 123.16592 -9.0863161 -69.232559 -9.0770655 -69.77655 -0.11200822 -82.749191
9207812500 -0.81351417 123.14674 -9.0905333 -69.177406 -9.0867481 -69.731247 -0.11144318 -82.718185
9207875000 -0.81310058 123.20238 -9.0866728 -69.090034 -9.0794821 -69.787743 -0.11161534 -82.732323
9207937500 -0.81508833 123.15979 -9.0872459 -69.201958 -9.0806341 -69.816376 -0.11276133 -82.723724
9208000000 -0.81363094 123.17471 -9.0861902 -69.104515 -9.085228 -69.819489 -0.11074173 -82.696541
9208062500 -0.81537139 123.12302 -9.0970249 -69.152145 -9.0858259 -69.691727 -0.11752747 -82.600159
9208125000 -0.80649793 123.14061 -9.0801287 -69.099754 -9.0841827 -69.723114 -0.12107986 -82.609489
9208187500 -0.80579859 123.09838 -9.0879269 -69.138847 -9.0811396 -69.73159 -0.1205241 -82.58358
9208250000 -0.81115913 123.10185 -9.0802059 -69.141136 -9.0826874 -69.716667 -0.12301183 -82.530258
9208312500 -0.81396586 123.09422 -9.0824299 -69.118111 -9.0810232 -69.749565 -0.1288538 -82.586349
9208375000 -0.80353796 123.08722 -9.083539 -69.058273 -9.0878716 -69.726173 -0.12758316 -82.526939
9208437500 -0.81243998 123.07123 -9.0830555 -69.148018 -9.0743179 -69.742691 -0.12302364 -82.523308
9208500000 -0.8101384 123.06676 -9.0814505 -69.139 -9.0795841 -69.684952 -0.12194458 -82.496429
9208562500 -0.80508709 123.01446 -9.078105 -69.141724 -9.0776834 -69.717163 -0.12286838 -82.447479
9208625000 -0.80814904 122.9423 -9.0791025 -69.183098 -9.0770111 -69.695282 -0.12181132 -82.48867
9208687500 -0.80861634 122.93816 -9.0756474 -69.182983 -9.0664177 -69.713844 -0.11671621 -82.517281
9208750000 -0.80861533 122.96746 -9.0752735 -69.109917 -9.0801573 -69.68589 -0.11763173 -82.429344
9208812500 -0.81255078 122.94727 -9.0886774 -69.200821 -9.0792532 -69.747803 -0.11956694 -82.479263
9208875000 -0.81367946 122.957 -9.0778456 -69.185219 -9.0765772 -69.727654 -0.11936942 -82.447792
9208937500 -0.8103056 123.00117 -9.0774651 -69.103317 -9.0705767 -69.708389 -0.12182587 -82.469879
9209000000 -0.80862767 122.9884 -9.0727024 -69.133392 -9.0763426 -69.741234 -0.12136212 -82.427353
9209062500 -0.8122974 122.97835 -9.0733252 -69.160553 -9.0802774 -69.695885 -0.12369192 -82.382652
9209125000 -0.8099196 122.9902 -9.0666037 -69.132439 -9.0814714 -69.694283 -0.12923017 -82.369316
9209187500 -0.80769789 122.98581 -9.0689011 -69.020149 -9.0824423 -69.697693 -0.12802817 -82.334518
9209250000 -0.80677432 122.9579 -9.0695009 -69.07785 -9.0796566 -69.687889 -0.12766464 -82.308968
9209312500 -0.80870152 122.90929 -9.075285 -69.110893 -9.0742931 -69.699707 -0.12595105 -82.308311
9209375000 -0.80351704 122.9083 -9.073822 -69.152626 -9.0814896 -69.731178 -0.12725727 -82.35321
9209437500 -0.80080235 122.86241 -9.0600786 -69.109764 -9.0668392 -69.702332 -0.11964816 -82.285957
9209500000 -0.80507755 122.87459 -9.0639324 -69.132744 -9.0759411 -69.675514 -0.12637463 -82.25779
9209562500 -0.81248057 122.81828 -9.0657263 -69.169365 -9.0749063 -69.657394 -0.121889 -82.228806
9209625000 -0.8129009 122.86381 -9.0749397 -69.098152 -9.0694475 -69.649132 -0.12192552 -82.229233
9209687500 -0.81306875 122.81815 -9.074769 -69.143364 -9.0758696 -69.682693 -0.11919294 -82.194931
9209750000 -0.81182122 122.79657 -9.067028 -69.092751 -9.0730686 -69.633522 -0.12174423 -82.098137
9209812500 -0.8099454 122.78902 -9.0696449 -69.133438 -9.0703325 -69.741623 -0.11823631 -82.190758
9209875000 -0.81247222 122.76052 -9.0643797 -69.135696 -9.0660038 -69.654877 -0.12032318 -82.119827
9209937500 -0.80976313 122.76679 -9.0707169 -69.134216 -9.0691509 -69.660721 -0.11935114 -82.077858
9210000000 -0.80854732 122.74808 -9.0657063 -69.142708 -9.0621061 -69.599625 -0.1133021 -82.089928
9210062500 -0.81255573 122.71704 -9.0695887 -69.156937 -9.0608912 -69.686806 -0.11539685 -82.097755
9210125000 -0.80815202 122.69214 -9.0634184 -69.155113 -9.0619822 -69.636597 -0.11665499 -82.035789
9210187500 -0.79718214 122.68315 -9.0585117 -69.09053 -9.0689125 -69.588509 -0.11310714 -82.028366
9210250000 -0.8055436 122.71245 -9.0682106 -69.079521 -9.0602703 -69.597626 -0.11697212 -82.011391
9210312500 -0.8052423 122.69872 -9.0711012 -69.102654 -9.0612335 -69.585609 -0.12054262 -81.963196
9210375000 -0.80160189 122.68645 -9.0583868 -69.050552 -9.0718298 -69.613853 -0.12862834 -81.996811
9210437500 -0.80190569 122.63859 -9.0599861 -69.043343 -9.060998 -69.590752 -0.12944479 -81.956421
9210500000 -0.79913884 122.64935 -9.0600891 -69.089272 -9.0673847 -69.621323 -0.12783295 -81.928375
9210562500 -0.80282444 122.60593 -9.0592861 -69.12352 -9.0703239 -69.621254 -0.13252302 -81.96537
9210625000 -0.80443317 122.57729 -9.0667639 -69.08725 -9.0651131 -69.623367 -0.1255019 -81.922318
9210687500 -0.80501682 122.57373 -9.0705318 -69.064972 -9.0626059 -69.593079 -0.13190724 -81.901672
9210750000 -0.8061595 122.55118 -9.0731812 -69.037186 -9.0697699 -69.624298 -0.13591531 -81.860588
9210812500 -0.80286455 122.53719 -9.0617466 -69.061951 -9.0606117 -69.615372 -0.13176493 -81.845451
9210875000 -0.79781133 122.55661 -9.0631094 -69.01004 -9.0694332 -69.639221 -0.13942847 -81.838943
9210937500 -0.80064064 122.49963 -9.0568972 -69.072701 -9.0612373 -69.661903 -0.13394141 -81.841141
9211000000 -0.80957514 122.48872 -9.0727291 -69.057899 -9.0618095 -69.676651 -0.13563874 -81.837334
9211062500 -0.80299598 122.48431 -9.057435 -69.039726 -9.0647736 -69.629074 -0.13001403 -81.800613
9211125000 -0.81117177 122.48663 -9.0636339 -69.037415 -9.0554771 -69.713455 -0.12825535 -81.856003
9211187500 -0.81405616 122.4869 -9.0587492 -69.09774 -9.0613813 -69.673927 -0.12342321 -81.853523
9211250000 -0.81411749 122.46338 -9.0595484 -69.123619 -9.0570393 -69.641876 -0.12283877 -81.849396
9211312500 -0.80934912 122.47449 -9.056921 -69.09034 -9.0592794 -69.73526 -0.12382013 -81.87114
9211375000 -0.81500137 122.49268 -9.0619116 -69.035927 -9.0535669 -69.655693 -0.11646006 -81.713501
9211437500 -0.81291389 122.45304 -9.0599918 -69.077232 -9.058074 -69.657974 -0.12272877 -81.7173
9211500000 -0.80943525 122.40773 -9.0580444 -69.068939 -9.0561361 -69.581894 -0.12228029 -81.716736
9211562500 -0.81248587 122.41209 -9.0571556 -69.089516 -9.0533581 -69.610275 -0.11677487 -81.703751
9211625000 -0.81507039 122.42477 -9.0556374 -69.012741 -9.0576162 -69.612221 -0.12909919 -81.645981
9211687500 -0.81015521 122.38082 -9.0629587 -69.04937 -9.0534678 -69.577065 -0.12875696 -81.632103
9211750000 -0.81292993 122.36766 -9.055356 -68.983803 -9.0601864 -69.522575 -0.13294767 -81.624748
9211812500 -0.8160885 122.31879 -9.0621252 -69.025208 -9.0498533 -69.514336 -0.12908088 -81.536858
9211875000 -0.80955523 122.3037 -9.0507803 -69.036438 -9.0526953 -69.546898 -0.13162647 -81.569054
9211937500 -0.81322616 122.2952 -9.0492535 -69.015526 -9.0519819 -69.597183 -0.13256899 -81.569443
9212000000 -0.81469256 122.27294 -9.0505095 -69.076904 -9.0522947 -69.551666 -0.12892705 -81.478615
9212062500 -0.81582391 122.24578 -9.0529604 -69.082939 -9.0520325 -69.490448 -0.13357103 -81.461014
9212125000 -0.81307048 122.23923 -9.0466833 -69.037598 -9.0518637 -69.55098 -0.13601944 -81.446297
9212187500 -0.81594557 122.20073 -9.047451 -69.071556 -9.052062 -69.527512 -0.12531319 -81.3778
9212250000 -0.81330693 122.19561 -9.04776 -69.024727 -9.0477781 -69.548859 -0.12741673 -81.401688
9212312500 -0.81472772 122.19199 -9.0462914 -69.040947 -9.0378571 -69.568817 -0.13131389 -81.389893
