!Agilent Technologies,N5242A,MY51221714,A.09.90.19
!Agilent N5242A: A.09.90.19
!Date: Tuesday, March 26, 2024 16:28:17
!Correction: S11(Full 2 Port(1,2)) 
!S21(Full 2 Port(1,2)) 
!S12(Full 2 Port(1,2)) 
!S22(Full 2 Port(1,2)) 
!S2P File: Measurements: S11, S21, S12, S22:
# Hz S  dB   R 50
9200000000 -1.2252043 135.25095 -9.1006365 -76.240639 -9.0812321 -76.965446 -0.19531608 -104.56161
9200062500 -1.2174931 135.22063 -9.0830755 -76.246788 -9.0830374 -76.911652 -0.18117718 -104.49133
9200125000 -1.2181016 135.20572 -9.0897388 -76.208176 -9.0766878 -76.97834 -0.19455068 -104.48644
9200187500 -1.2226058 135.26407 -9.0829 -76.207581 -9.0749521 -76.994728 -0.17717949 -104.44493
9200250000 -1.216499 135.19806 -9.0855055 -76.201317 -9.0837526 -76.952843 -0.18338525 -104.47105
9200312500 -1.2250345 135.20709 -9.0939293 -76.259132 -9.0818596 -76.972076 -0.19148585 -104.47977
9200375000 -1.223953 135.14973 -9.0949745 -76.260315 -9.0784588 -77.067924 -0.18133241 -104.43024
9200437500 -1.2145209 135.21173 -9.0794182 -76.221245 -9.069994 -77.003799 -0.18024313 -104.42446
9200500000 -1.2134613 135.15848 -9.0831223 -76.212692 -9.0802622 -76.947937 -0.18587083 -104.40948
9200562500 -1.2099848 135.1554 -9.0727272 -76.254921 -9.0875387 -76.97229 -0.18749504 -104.41199
9200625000 -1.2188443 135.11656 -9.0855999 -76.216408 -9.0742807 -76.911499 -0.18932229 -104.37265
9200687500 -1.2135919 135.13062 -9.0754051 -76.194885 -9.0875454 -76.92057 -0.19080326 -104.30387
9200750000 -1.2193478 135.05168 -9.085413 -76.243446 -9.0755644 -76.884773 -0.1865841 -104.30837
9200812500 -1.2291139 135.08394 -9.0841427 -76.128334 -9.0910053 -76.93071 -0.20250164 -104.29817
9200875000 -1.2136852 135.11157 -9.0752192 -76.190605 -9.077611 -76.870438 -0.18903156 -104.30853
9200937500 -1.2221324 135.0675 -9.0938139 -76.196571 -9.0753803 -76.905365 -0.18157624 -104.20961
9201000000 -1.2183915 135.02919 -9.0871735 -76.253281 -9.0674963 -76.957062 -0.18511148 -104.29918
9201062500 -1.2144039 135.01799 -9.0675516 -76.197189 -9.0680637 -76.921425 -0.18969338 -104.24379
9201125000 -1.2194357 135.03934 -9.074687 -76.217964 -9.0767775 -76.903786 -0.19104838 -104.21626
9201187500 -1.2203226 134.972 -9.0713205 -76.217743 -9.06565 -77.016083 -0.19462287 -104.17681
9201250000 -1.2205678 134.98541 -9.0699234 -76.184929 -9.0745173 -76.898987 -0.18923563 -104.14053
9201312500 -1.233893 134.98085 -9.0845823 -76.19783 -9.0736046 -76.972427 -0.18889634 -104.2142
9201375000 -1.2298095 134.97554 -9.0867882 -76.173035 -9.0797663 -76.868324 -0.20159212 -104.1539
9201437500 -1.219571 134.95016 -9.0784922 -76.168716 -9.081831 -76.936111 -0.2015547 -104.21877
9201500000 -1.2192415 134.97588 -9.078371 -76.190887 -9.0746546 -76.927467 -0.18908341 -104.11926
9201562500 -1.2248229 134.86571 -9.0759201 -76.170219 -9.0798073 -76.892349 -0.20922993 -104.12758
9201625000 -1.2170436 134.92009 -9.07586 -76.203682 -9.06639 -76.824844 -0.20309262 -103.98725
9201687500 -1.228364 134.90968 -9.0755348 -76.093346 -9.0709486 -76.890747 -0.19948117 -104.02697
9201750000 -1.2239517 134.89819 -9.0807209 -76.165733 -9.0542421 -76.927383 -0.17919755 -104.03687
9201812500 -1.2162731 134.8822 -9.0679245 -76.161842 -9.0600176 -76.918106 -0.20007043 -104.08351
9201875000 -1.2287455 134.8528 -9.0688543 -76.176071 -9.0629721 -76.955421 -0.18609433 -103.99366
9201937500 -1.228985 134.80766 -9.0739031 -76.167625 -9.0632162 -76.966721 -0.1883954 -103.99402
9202000000 -1.2272755 134.83167 -9.0684547 -76.191994 -9.0677071 -76.971977 -0.19221121 -103.99271
9202062500 -1.226868 134.85698 -9.0617876 -76.174194 -9.0662041 -76.960548 -0.1896946 -103.97594
9202125000 -1.226017 134.82704 -9.0904913 -76.185471 -9.0613632 -76.895172 -0.19855011 -103.96614
9202187500 -1.2191404 134.80382 -9.0641003 -76.209717 -9.0658197 -76.909874 -0.18857549 -103.89028
9202250000 -1.2235882 134.7587 -9.069664 -76.214645 -9.0610247 -76.845078 -0.20191725 -103.8756
9202312500 -1.2176888 134.80367 -9.0660162 -76.141319 -9.0521889 -76.932701 -0.19167462 -103.88201
9202375000 -1.2250912 134.70285 -9.076417 -76.18261 -9.0509052 -76.871811 -0.19891325 -103.80175
9202437500 -1.2250929 134.75133 -9.064374 -76.177895 -9.0506716 -76.87851 -0.18501735 -103.92863
9202500000 -1.239688 134.71346 -9.073348 -76.199059 -9.0656118 -76.895035 -0.19656216 -103.90001
9202562500 -1.2190579 134.67941 -9.0695086 -76.168678 -9.0617704 -76.865211 -0.19878924 -103.85032
9202625000 -1.226179 134.73311 -9.0700598 -76.184464 -9.05235 -76.889465 -0.19778082 -103.82819
9202687500 -1.2296913 134.71867 -9.07057 -76.119247 -9.054738 -76.869469 -0.18962429 -103.72928
9202750000 -1.21762 134.62466 -9.0614433 -76.171783 -9.0555735 -76.904266 -0.19444092 -103.78087
9202812500 -1.2295653 134.63147 -9.0591221 -76.178673 -9.0432806 -76.928436 -0.18764414 -103.72382
9202875000 -1.2165557 134.64743 -9.0441198 -76.121384 -9.0527363 -76.875565 -0.19610426 -103.68882
9202937500 -1.2221576 134.62749 -9.0590248 -76.214561 -9.0366592 -76.832687 -0.19543424 -103.72298
9203000000 -1.2209636 134.64879 -9.0533953 -76.175369 -9.0580273 -76.869858 -0.19820371 -103.67094
9203062500 -1.2258036 134.5519 -9.0559759 -76.20269 -9.0540237 -76.862015 -0.19920056 -103.74158
9203125000 -1.22189 134.53477 -9.0567837 -76.230873 -9.0407133 -76.956757 -0.19790073 -103.72516
9203187500 -1.2209332 134.56712 -9.0711422 -76.189911 -9.0397587 -76.913429 -0.19844654 -103.67872
9203250000 -1.223646 134.56078 -9.053771 -76.213165 -9.0483875 -76.878357 -0.20224561 -103.66906
9203312500 -1.2277151 134.54929 -9.0522614 -76.116425 -9.0474596 -76.889923 -0.18860219 -103.61025
9203375000 -1.2195352 134.52464 -9.0553284 -76.149872 -9.0430822 -76.890923 -0.19006602 -103.60335
9203437500 -1.231738 134.55038 -9.0591736 -76.216385 -9.0478783 -76.867302 -0.19751485 -103.6317
9203500000 -1.2218999 134.47749 -9.0482073 -76.155861 -9.0445824 -76.814003 -0.19237979 -103.56342
9203562500 -1.2283208 134.5284 -9.0621109 -76.142853 -9.0575037 -76.896858 -0.21290451 -103.5843
9203625000 -1.2338884 134.48381 -9.057951 -76.219673 -9.0488358 -76.920937 -0.20298515 -103.61328
9203687500 -1.2292275 134.43542 -9.0606337 -76.188942 -9.0495186 -76.80677 -0.20204535 -103.50233
9203750000 -1.2240125 134.43666 -9.0435963 -76.149628 -9.0413294 -76.866844 -0.19234382 -103.5008
9203812500 -1.2218138 134.4257 -9.0442705 -76.174789 -9.0389328 -76.907097 -0.19779477 -103.51202
9203875000 -1.2178535 134.42348 -9.0533056 -76.174858 -9.0476704 -76.876556 -0.21192726 -103.4965
9203937500 -1.2273006 134.40886 -9.0396757 -76.141357 -9.0384588 -76.819862 -0.1992548 -103.48169
9204000000 -1.2319473 134.41866 -9.0430489 -76.080711 -9.053339 -76.807861 -0.2029952 -103.43955
9204062500 -1.2202404 134.38495 -9.0347605 -76.122681 -9.031024 -76.919319 -0.20912218 -103.40529
9204125000 -1.2298912 134.38817 -9.0485077 -76.165955 -9.0360537 -76.854294 -0.1957961 -103.40166
9204187500 -1.2315013 134.31538 -9.0509357 -76.16893 -9.0382967 -76.853287 -0.20893982 -103.3596
9204250000 -1.2290474 134.36723 -9.04743 -76.13855 -9.039876 -76.897354 -0.20091802 -103.42219
9204312500 -1.2257489 134.37401 -9.0424271 -76.055405 -9.0415134 -76.881248 -0.20796409 -103.29936
9204375000 -1.2186893 134.30923 -9.0451717 -76.212173 -9.0347776 -76.886452 -0.20011659 -103.39033
9204437500 -1.2355777 134.37306 -9.0431862 -76.135338 -9.0328007 -76.857796 -0.1979686 -103.32597
9204500000 -1.2316496 134.30368 -9.0360613 -76.188354 -9.0439529 -76.865349 -0.20304567 -103.34972
9204562500 -1.2240266 134.27234 -9.0422039 -76.268127 -9.0387135 -76.912788 -0.19377051 -103.33057
9204625000 -1.222271 134.26508 -9.0487394 -76.139702 -9.0351667 -76.913185 -0.20683561 -103.25693
9204687500 -1.2243687 134.25629 -9.0378532 -76.129845 -9.0343895 -76.856346 -0.20408772 -103.21407
9204750000 -1.2335517 134.24504 -9.0347319 -76.037895 -9.0499582 -76.84967 -0.21909337 -103.25097
9204812500 -1.2181933 134.19145 -9.041007 -76.101067 -9.0425367 -76.839638 -0.20090447 -103.21159
9204875000 -1.2290456 134.24181 -9.0433693 -76.14399 -9.0515966 -76.818428 -0.21061766 -103.25117
9204937500 -1.2241755 134.20523 -9.0319872 -76.121948 -9.0342274 -76.846489 -0.20105565 -103.17527
9205000000 -1.2242717 134.14204 -9.0411987 -76.107498 -9.0268574 -76.757133 -0.21534139 -103.15012
9205062500 -1.2250317 134.14989 -9.0403194 -76.157768 -9.0261965 -76.867584 -0.20602474 -103.1087
9205125000 -1.2308296 134.1561 -9.0423717 -76.170807 -9.0289879 -76.849998 -0.20719944 -103.09175
9205187500 -1.2305202 134.16519 -9.0432348 -76.086792 -9.0239973 -76.859428 -0.20943224 -103.07818
9205250000 -1.2233261 134.14053 -9.0355339 -76.185448 -9.0357189 -76.802284 -0.21662153 -103.15663
9205312500 -1.2305275 134.15665 -9.0333414 -76.065765 -9.0241632 -76.845238 -0.20952149 -103.14549
9205375000 -1.2289975 134.10831 -9.028739 -76.123718 -9.0297861 -76.914856 -0.20677792 -103.10328
9205437500 -1.2239828 134.12253 -9.0321827 -76.048897 -9.0220642 -76.900093 -0.20379393 -103.061
9205500000 -1.2341462 134.02402 -9.0256243 -76.069046 -9.0215511 -76.90123 -0.20489793 -103.01757
9205562500 -1.2333273 134.06195 -9.0288429 -76.153389 -9.0290155 -76.799942 -0.20408703 -102.97892
9205625000 -1.2387093 134.08189 -9.0343838 -76.065895 -9.0200911 -76.839203 -0.20529057 -102.96305
9205687500 -1.2247092 134.07774 -9.0206766 -76.041824 -9.0174046 -76.900223 -0.20611079 -102.98124
9205750000 -1.234555 134.01259 -9.0353203 -76.169754 -9.0268879 -76.823746 -0.20931245 -102.95104
9205812500 -1.2308445 133.97827 -9.0287619 -76.112869 -9.0245781 -76.872299 -0.20650874 -102.93703
9205875000 -1.2251359 134.01692 -9.036335 -76.104889 -9.0316248 -76.830391 -0.21207233 -102.96835
9205937500 -1.2282896 133.97609 -9.0219793 -76.101456 -9.0155926 -76.726807 -0.20799784 -102.87874
9206000000 -1.2265342 133.97263 -9.00916 -76.05143 -9.023818 -76.832436 -0.1987022 -102.86571
9206062500 -1.2280384 133.98195 -9.0195799 -76.105125 -9.0188351 -76.833588 -0.20922129 -102.88428
9206125000 -1.2289382 133.94556 -9.0286856 -76.123268 -9.0180798 -76.792824 -0.20877181 -102.81135
9206187500 -1.2248659 133.95267 -9.0148993 -76.141167 -9.0054579 -76.834961 -0.19499709 -102.83858
9206250000 -1.2303711 133.88213 -9.0273647 -76.155876 -9.0261583 -76.788918 -0.21188286 -102.84943
9206312500 -1.2294239 133.83035 -9.0257568 -76.105942 -9.0172129 -76.869125 -0.20654778 -102.83621
9206375000 -1.2317092 133.89009 -9.0317507 -76.047241 -9.0087948 -76.75528 -0.21133199 -102.80682
9206437500 -1.2237803 133.87532 -9.0165472 -76.093254 -9.0224533 -76.890656 -0.21414281 -102.86029
9206500000 -1.2384109 133.86185 -9.0315542 -76.086952 -9.0121422 -76.777 -0.21622115 -102.76791
9206562500 -1.2299162 133.85321 -9.027235 -76.153488 -9.0090094 -76.771065 -0.20942886 -102.78051
9206625000 -1.2321832 133.78165 -9.0062485 -76.123283 -9.0133533 -76.877853 -0.20834814 -102.72834
9206687500 -1.2324342 133.81061 -9.0192404 -76.143112 -9.0152531 -76.831429 -0.20561115 -102.7521
9206750000 -1.2322855 133.8242 -9.0141325 -76.142998 -9.0088282 -76.810081 -0.20916639 -102.71616
9206812500 -1.2212273 133.79214 -9.0109186 -76.149696 -9.0123701 -76.830917 -0.20717144 -102.7359
9206875000 -1.2337964 133.8138 -9.0295382 -76.092819 -9.001399 -76.752708 -0.20649581 -102.60558
9206937500 -1.2296256 133.78781 -9.0192928 -76.062386 -9.0230598 -76.781548 -0.21849073 -102.63087
9207000000 -1.2360681 133.7692 -9.025135 -76.018059 -9.0187349 -76.865677 -0.21633595 -102.67054
9207062500 -1.232319 133.70497 -9.0092325 -76.106445 -9.0012722 -76.77076 -0.21286601 -102.4856
9207125000 -1.2431189 133.68997 -9.0070953 -76.152809 -9.0112848 -76.818672 -0.21313815 -102.5497
9207187500 -1.2308307 133.65305 -9.0079918 -76.198486 -9.0103521 -76.805069 -0.21351781 -102.58311
9207250000 -1.2289345 133.66847 -9.0083637 -76.10173 -9.0066071 -76.749557 -0.20298445 -102.60456
9207312500 -1.2241738 133.67677 -9.002615 -76.110588 -9.0045671 -76.721962 -0.20505011 -102.51845
9207375000 -1.2381862 133.61458 -9.0182657 -76.148651 -9.0047264 -76.827477 -0.21878956 -102.49203
9207437500 -1.2234454 133.68466 -9.0025797 -76.081802 -9.0180731 -76.750496 -0.21319588 -102.50764
9207500000 -1.237119 133.69263 -9.0185432 -76.011055 -8.9966602 -76.774086 -0.21729776 -102.50709
9207562500 -1.227481 133.66905 -9.006155 -76.10144 -9.0075731 -76.807541 -0.22438198 -102.53754
9207625000 -1.2296262 133.56915 -9.0046148 -76.00618 -9.0022554 -76.799454 -0.21336274 -102.41389
9207687500 -1.2338533 133.58273 -8.9999475 -76.178551 -9.0018578 -76.828621 -0.21300466 -102.47408
9207750000 -1.2385706 133.59004 -9.0071516 -76.05397 -8.9916506 -76.793396 -0.20544684 -102.44102
9207812500 -1.2300395 133.55118 -9.0076532 -76.125648 -8.9993153 -76.789574 -0.22200292 -102.43255
9207875000 -1.2316794 133.5625 -9.0064592 -76.018211 -8.9944525 -76.727135 -0.21700585 -102.32208
9207937500 -1.2335987 133.51242 -9.0115614 -76.066162 -9.0059128 -76.860359 -0.22495131 -102.41895
9208000000 -1.2405225 133.52383 -9.0060701 -76.133408 -8.9988108 -76.801903 -0.21346618 -102.4111
9208062500 -1.2381907 133.50836 -9.0092554 -76.080917 -8.9974413 -76.767799 -0.21875896 -102.31639
9208125000 -1.24077 133.48372 -9.0135927 -76.132881 -9.0028181 -76.814926 -0.21700361 -102.30796
9208187500 -1.230773 133.52158 -9.0020256 -76.049721 -9.0038795 -76.76696 -0.21913071 -102.3484
9208250000 -1.236895 133.47115 -9.0009756 -76.053566 -8.9939079 -76.772705 -0.21179399 -102.261
9208312500 -1.2330009 133.46242 -9.0107594 -76.085716 -8.9847994 -76.769264 -0.21625246 -102.26858
9208375000 -1.2295773 133.48833 -8.9951191 -76.07914 -8.9998951 -76.779289 -0.21731272 -102.23222
9208437500 -1.2391188 133.37576 -9.0047083 -76.053268 -8.9991522 -76.73597 -0.22757135 -102.22458
9208500000 -1.234926 133.38033 -9.0035744 -76.023659 -9.0010262 -76.808907 -0.21740949 -102.21724
9208562500 -1.2355652 133.41345 -9.0003157 -76.104691 -8.9941645 -76.767731 -0.21661937 -102.21311
9208625000 -1.229053 133.36507 -8.9903288 -76.095543 -8.9896889 -76.762161 -0.21701683 -102.18987
9208687500 -1.2233264 133.3513 -8.9807367 -76.083328 -8.9867859 -76.861275 -0.20751889 -102.21129
9208750000 -1.2310452 133.41531 -8.9948015 -76.007629 -8.9801788 -76.739075 -0.21282469 -102.12441
9208812500 -1.2391622 133.41736 -9.0029573 -76.051559 -8.9945498 -76.721046 -0.22521438 -102.11622
9208875000 -1.2365758 133.29887 -8.996521 -76.062347 -8.9902534 -76.74102 -0.2147464 -102.07398
9208937500 -1.2349967 133.30161 -8.9920387 -76.111916 -8.983201 -76.781868 -0.22028549 -102.0803
9209000000 -1.2313249 133.33051 -9.0008812 -76.063606 -8.9973249 -76.778717 -0.23354687 -102.12782
9209062500 -1.2353684 133.31381 -8.997366 -75.998909 -8.9952097 -76.755119 -0.22356609 -102.03993
9209125000 -1.2385572 133.25941 -8.9909582 -76.124519 -8.9751463 -76.816544 -0.21556577 -102.09238
9209187500 -1.2339023 133.28738 -8.9889832 -76.035393 -8.98909 -76.652138 -0.21511829 -102.03035
9209250000 -1.2253716 133.24132 -8.9821424 -76.055344 -8.9791794 -76.844215 -0.21780941 -102.00524
9209312500 -1.2346528 133.15929 -8.9927425 -76.084274 -8.9864683 -76.836662 -0.2270945 -102.03001
9209375000 -1.2283549 133.2381 -8.9868402 -76.064583 -8.9834967 -76.722847 -0.22837853 -101.9982
9209437500 -1.2432081 133.16519 -9.0062103 -76.052437 -8.9758739 -76.784424 -0.22406128 -101.93864
9209500000 -1.2279317 133.21864 -8.9819717 -76.127579 -8.9917288 -76.758942 -0.22498605 -101.91462
9209562500 -1.2369417 133.2207 -8.9870472 -75.950722 -8.9865837 -76.774513 -0.23346068 -101.87305
9209625000 -1.2400913 133.13748 -8.9904652 -76.097244 -8.9892502 -76.755989 -0.2214198 -101.89314
9209687500 -1.2412951 133.11391 -8.9818611 -76.023521 -8.9779291 -76.753151 -0.21983317 -101.8903
9209750000 -1.2371414 133.10802 -8.9831409 -76.108673 -8.9854927 -76.784554 -0.21334587 -101.91179
9209812500 -1.2321717 133.08481 -8.9844275 -76.054947 -8.9913654 -76.759537 -0.23089896 -101.82987
9209875000 -1.2392023 133.14259 -8.9880705 -75.995193 -8.9791384 -76.735786 -0.22415875 -101.8225
9209937500 -1.2337521 133.19852 -8.9922647 -75.990593 -8.9857588 -76.751808 -0.23350742 -101.85678
9210000000 -1.2301766 133.11029 -8.9759369 -76.042068 -8.9730701 -76.778488 -0.23865491 -101.80709
9210062500 -1.2432681 133.11276 -8.9875774 -76.026642 -8.9770651 -76.742401 -0.22502455 -101.76492
9210125000 -1.2357452 133.0432 -8.9787998 -76.067078 -8.9782772 -76.664948 -0.22870781 -101.76274
9210187500 -1.2336386 133.06583 -8.9744749 -76.041336 -8.973258 -76.69709 -0.22581542 -101.69587
9210250000 -1.237939 133.07082 -8.9757519 -75.999535 -8.9654322 -76.734055 -0.22276515 -101.7014
9210312500 -1.2429953 133.07976 -8.9727564 -75.941231 -8.9742765 -76.797523 -0.22185369 -101.75271
9210375000 -1.2306902 133.05936 -8.9757032 -75.966278 -8.9827366 -76.701881 -0.2299584 -101.61565
9210437500 -1.2321148 132.97781 -8.9747086 -76.023354 -8.9719143 -76.78643 -0.21934156 -101.74628
9210500000 -1.2326099 132.97377 -8.9712019 -76.057289 -8.9675922 -76.807686 -0.22212781 -101.71865
9210562500 -1.2399222 132.97826 -8.9808474 -75.984779 -8.9687386 -76.812492 -0.22366072 -101.66759
9210625000 -1.2353504 132.9666 -8.9864731 -76.036354 -8.9737654 -76.673149 -0.23271294 -101.67999
9210687500 -1.2294326 132.995 -8.9819336 -75.994942 -8.9753065 -76.767998 -0.23630904 -101.63639
9210750000 -1.2358903 132.96136 -8.9821548 -76.038475 -8.9641724 -76.741791 -0.22902147 -101.60862
9210812500 -1.2415655 132.92146 -8.9865589 -76.005898 -8.9690056 -76.659035 -0.23508491 -101.57902
9210875000 -1.2379999 132.93135 -8.9838676 -75.981674 -8.9743233 -76.650879 -0.23570436 -101.5565
9210937500 -1.2338171 132.93135 -8.9749088 -75.959351 -8.9725294 -76.634842 -0.23855217 -101.5479
9211000000 -1.2377623 132.8981 -8.9798088 -75.958191 -8.9751682 -76.708138 -0.22545478 -101.58858
9211062500 -1.2376332 132.89897 -8.969595 -75.93145 -8.9743471 -76.688828 -0.24065429 -101.49358
9211125000 -1.2389431 132.84834 -8.9742851 -76.046135 -8.9618587 -76.670822 -0.21854763 -101.50376
9211187500 -1.2434314 132.8318 -8.9701471 -76.054001 -8.9664669 -76.678078 -0.23417088 -101.48383
9211250000 -1.2387673 132.83745 -8.9663677 -76.073715 -8.9720974 -76.707466 -0.21630773 -101.43818
9211312500 -1.2359393 132.8288 -8.9729567 -76.043381 -8.9695559 -76.751465 -0.23708315 -101.4987
9211375000 -1.2366174 132.75235 -8.9687567 -76.04808 -8.9701071 -76.710564 -0.23905423 -101.41167
9211437500 -1.2266191 132.79167 -8.9557581 -75.968781 -8.9731112 -76.735558 -0.23210232 -101.38437
9211500000 -1.2414349 132.75331 -8.9771185 -76.046608 -8.9675074 -76.769867 -0.23691073 -101.44936
9211562500 -1.2426925 132.79059 -8.9746971 -76.011703 -8.9612017 -76.710876 -0.2414373 -101.38383
9211625000 -1.2383511 132.71118 -8.9764709 -76.096344 -8.9568949 -76.740875 -0.22974968 -101.40034
9211687500 -1.246123 132.76498 -8.9719057 -75.94416 -8.9590788 -76.702988 -0.23789158 -101.33654
9211750000 -1.2420698 132.70508 -8.9591856 -76.0037 -8.9566183 -76.67746 -0.22364795 -101.27439
9211812500 -1.2430755 132.72141 -8.9715528 -75.978195 -8.9663105 -76.708855 -0.25359035 -101.30029
9211875000 -1.2448554 132.68733 -8.9683819 -76.005974 -8.9490643 -76.619728 -0.22621381 -101.19117
9211937500 -1.2364018 132.69643 -8.958601 -76.002914 -8.9567966 -76.663765 -0.23891893 -101.26763
9212000000 -1.2411238 132.57162 -8.9692945 -76.039856 -8.9513531 -76.679436 -0.23840061 -101.2432
9212062500 -1.2403399 132.62926 -8.9704247 -75.992279 -8.9571447 -76.67485 -0.23914057 -101.26241
9212125000 -1.2380066 132.58546 -8.9586258 -76.054108 -8.9608316 -76.760956 -0.23270807 -101.26125
9212187500 -1.2263794 132.60164 -8.9504862 -75.936249 -8.9447641 -76.646782 -0.24208795 -101.187
9212250000 -1.2393583 132.58664 -8.9640369 -75.958267 -8.9498119 -76.715836 -0.22754793 -101.21191
9212312500 -1.2422768 132.6131 -8.958231 -76.077919 -8.9495087 -76.629143 -0.23653008 -101.18603
