!Agilent Technologies,N5242A,MY51221714,A.09.90.19
!Agilent N5242A: A.09.90.19
!Date: Tuesday, March 26, 2024 16:26:58
!Correction: S11(Full 2 Port(1,2)) 
!S21(Full 2 Port(1,2)) 
!S12(Full 2 Port(1,2)) 
!S22(Full 2 Port(1,2)) 
!S2P File: Measurements: S11, S21, S12, S22:
# Hz S  dB   R 50
9200000000 -1.0389549 136.76707 -9.2339211 -73.641983 -9.2142582 -74.433723 -0.030378493 -103.8362
9200062500 -1.0414808 136.73486 -9.2333536 -73.71843 -9.2228079 -74.471367 -0.021232985 -103.81783
9200125000 -1.0350661 136.73154 -9.2213764 -73.691475 -9.2187557 -74.42131 -0.025541261 -103.78461
9200187500 -1.0440958 136.73207 -9.237381 -73.621269 -9.2215633 -74.416245 -0.011762562 -103.74737
9200250000 -1.030053 136.72798 -9.2213268 -73.646629 -9.2131987 -74.353859 -0.019674169 -103.74444
9200312500 -1.0397588 136.7195 -9.2274981 -73.657181 -9.2229786 -74.394249 -0.021747533 -103.73898
9200375000 -1.0382434 136.65933 -9.2206745 -73.678642 -9.2247219 -74.463806 -0.020485733 -103.69563
9200437500 -1.0368356 136.63875 -9.2288361 -73.704636 -9.2172184 -74.371506 -0.0190516 -103.64704
9200500000 -1.038114 136.63591 -9.2393265 -73.688293 -9.2220459 -74.328247 -0.030985175 -103.66017
9200562500 -1.0369629 136.61937 -9.2280874 -73.673706 -9.2229309 -74.340355 -0.022645943 -103.68165
9200625000 -1.0408092 136.61958 -9.2317514 -73.65892 -9.216917 -74.378731 -0.02267094 -103.61913
9200687500 -1.0308833 136.61942 -9.2268333 -73.61956 -9.2184772 -74.355453 -0.021715127 -103.58952
9200750000 -1.039928 136.54956 -9.2322989 -73.723244 -9.2230844 -74.338593 -0.027105743 -103.61498
9200812500 -1.0511941 136.59117 -9.227602 -73.658737 -9.2166214 -74.333633 -0.033128534 -103.58736
9200875000 -1.0401777 136.64774 -9.2283068 -73.640427 -9.2169571 -74.333069 -0.022454346 -103.5989
9200937500 -1.033 136.55566 -9.2177334 -73.665482 -9.2131395 -74.358109 -0.016533118 -103.55799
9201000000 -1.035449 136.5583 -9.2190561 -73.680748 -9.2043228 -74.395386 -0.020217743 -103.54771
9201062500 -1.0373312 136.50053 -9.2105026 -73.605652 -9.2149181 -74.317268 -0.02429753 -103.49632
9201125000 -1.0353367 136.55101 -9.222908 -73.570595 -9.2133207 -74.355659 -0.024224754 -103.47231
9201187500 -1.0446088 136.46269 -9.2288456 -73.615234 -9.2123699 -74.304596 -0.030090801 -103.40575
9201250000 -1.0476272 136.51912 -9.2162209 -73.576096 -9.2188778 -74.344681 -0.033015482 -103.46913
9201312500 -1.0479048 136.46236 -9.2159281 -73.648354 -9.2097378 -74.328896 -0.021220267 -103.47791
9201375000 -1.045805 136.46758 -9.222724 -73.520668 -9.2197905 -74.27684 -0.036791891 -103.39302
9201437500 -1.0361788 136.46605 -9.2213507 -73.54467 -9.2160072 -74.321342 -0.027326927 -103.44507
9201500000 -1.0411392 136.44818 -9.2167969 -73.600754 -9.2132111 -74.314514 -0.030073816 -103.43787
9201562500 -1.0372576 136.42894 -9.2310658 -73.59481 -9.2222519 -74.299904 -0.043473467 -103.38844
9201625000 -1.0403616 136.41237 -9.2159491 -73.594284 -9.1962061 -74.260239 -0.037389703 -103.26247
9201687500 -1.0442885 136.40964 -9.2089548 -73.557869 -9.2163305 -74.332031 -0.035583746 -103.21393
9201750000 -1.0439625 136.37447 -9.2314596 -73.614441 -9.2036858 -74.31575 -0.02490229 -103.32127
9201812500 -1.0414386 136.3963 -9.2188787 -73.641472 -9.2039852 -74.293221 -0.038684759 -103.3308
9201875000 -1.0388653 136.31828 -9.2106771 -73.637871 -9.197401 -74.33728 -0.023558006 -103.28384
9201937500 -1.0448593 136.33348 -9.2144346 -73.570122 -9.1979733 -74.358017 -0.027169675 -103.30328
9202000000 -1.045665 136.31464 -9.1995211 -73.580589 -9.2030077 -74.334328 -0.02836379 -103.26633
9202062500 -1.0402251 136.34688 -9.1977396 -73.556099 -9.2003384 -74.32766 -0.026722917 -103.21778
9202125000 -1.0450823 136.36725 -9.2192411 -73.542694 -9.202673 -74.229546 -0.033084191 -103.1907
9202187500 -1.0378562 136.30618 -9.2062044 -73.609772 -9.2046185 -74.281731 -0.028073087 -103.15716
9202250000 -1.0462252 136.29851 -9.2190361 -73.594063 -9.2057743 -74.221802 -0.0350933 -103.14074
9202312500 -1.0412384 136.2531 -9.214325 -73.61599 -9.2001381 -74.358673 -0.036590252 -103.16895
9202375000 -1.0416676 136.23872 -9.2088919 -73.54306 -9.1989613 -74.329102 -0.029146155 -103.091
9202437500 -1.0422424 136.2872 -9.2124872 -73.594849 -9.2066059 -74.331627 -0.031761799 -103.18102
9202500000 -1.0473455 136.22499 -9.2089109 -73.606567 -9.2063427 -74.351166 -0.030957481 -103.17216
9202562500 -1.0362334 136.19264 -9.2031345 -73.58886 -9.2018137 -74.282181 -0.036007106 -103.16074
9202625000 -1.0414621 136.24124 -9.2083435 -73.564659 -9.1959772 -74.281754 -0.027861107 -103.08157
9202687500 -1.0408353 136.21832 -9.1951675 -73.561409 -9.186986 -74.299683 -0.021503754 -103.01129
9202750000 -1.0351156 136.1245 -9.2025108 -73.618774 -9.1942558 -74.322067 -0.028958054 -103.07998
9202812500 -1.0429422 136.12212 -9.2071829 -73.643227 -9.1815052 -74.337509 -0.024339117 -103.0071
9202875000 -1.0415655 136.1449 -9.2031021 -73.5522 -9.2037897 -74.346703 -0.031001179 -102.99365
9202937500 -1.0353903 136.12952 -9.1983032 -73.568459 -9.1839314 -74.211121 -0.024110062 -102.93758
9203000000 -1.0461055 136.16463 -9.2042122 -73.579506 -9.1912746 -74.283821 -0.033533145 -102.89746
9203062500 -1.0391873 136.1037 -9.1934109 -73.621521 -9.1970434 -74.304825 -0.035971683 -103.00354
9203125000 -1.0362988 136.03558 -9.1945095 -73.577995 -9.188858 -74.299004 -0.032627098 -102.9352
9203187500 -1.0409131 136.01991 -9.2009869 -73.670425 -9.1801748 -74.30407 -0.026733838 -102.95473
9203250000 -1.0411891 136.04352 -9.1947536 -73.595367 -9.189908 -74.294716 -0.025342539 -102.88901
9203312500 -1.05506 136.07533 -9.2065029 -73.527176 -9.1844254 -74.317558 -0.025134258 -102.85468
9203375000 -1.0423636 136.03419 -9.2013092 -73.530334 -9.183629 -74.218964 -0.023907736 -102.83723
9203437500 -1.0491967 136.06902 -9.2036552 -73.557899 -9.1915092 -74.257439 -0.030276982 -102.88272
9203500000 -1.0383888 135.99364 -9.1962061 -73.554352 -9.1922035 -74.249901 -0.023616083 -102.83868
9203562500 -1.0507467 136.03212 -9.2067146 -73.514427 -9.1940088 -74.317398 -0.043293349 -102.88073
9203625000 -1.0471184 136.04073 -9.2110023 -73.55677 -9.2012777 -74.25634 -0.041608833 -102.85602
9203687500 -1.0480268 135.9612 -9.2143269 -73.572014 -9.1980419 -74.289833 -0.045069501 -102.78927
9203750000 -1.0425309 135.93744 -9.192523 -73.580177 -9.1824074 -74.278358 -0.02068601 -102.77807
9203812500 -1.0470409 135.93378 -9.1818218 -73.617668 -9.1936998 -74.305588 -0.037994228 -102.7648
9203875000 -1.0456792 135.95102 -9.2019854 -73.479622 -9.194231 -74.257568 -0.055179898 -102.76936
9203937500 -1.0474913 135.92381 -9.1934462 -73.482201 -9.1815071 -74.174934 -0.030101219 -102.70126
9204000000 -1.0434954 135.90297 -9.1818285 -73.561028 -9.1859846 -74.20533 -0.029978426 -102.64982
9204062500 -1.037863 135.92596 -9.1884127 -73.503746 -9.1766405 -74.265213 -0.037256934 -102.68758
9204125000 -1.0483015 135.88176 -9.1904793 -73.520645 -9.1795578 -74.234764 -0.032421779 -102.64838
9204187500 -1.0475576 135.82687 -9.1989975 -73.560654 -9.1982107 -74.308441 -0.04461344 -102.68457
9204250000 -1.0473583 135.86732 -9.1897678 -73.566818 -9.1926012 -74.284195 -0.040482253 -102.66945
9204312500 -1.0432181 135.86353 -9.1899986 -73.497253 -9.1752729 -74.289757 -0.039306484 -102.58611
9204375000 -1.0351666 135.85236 -9.1981239 -73.495247 -9.1774464 -74.259544 -0.033350129 -102.65781
9204437500 -1.0478655 135.86536 -9.1909475 -73.527718 -9.1792746 -74.239021 -0.035921108 -102.59048
9204500000 -1.0508746 135.82687 -9.1923418 -73.577477 -9.1866903 -74.229233 -0.035142493 -102.62267
9204562500 -1.0407554 135.77525 -9.1837215 -73.653152 -9.170332 -74.237587 -0.018724479 -102.63804
9204625000 -1.0333432 135.79764 -9.176693 -73.440666 -9.1750059 -74.279434 -0.036475308 -102.52371
9204687500 -1.044476 135.79529 -9.1896372 -73.52919 -9.1811094 -74.257996 -0.037793018 -102.45791
9204750000 -1.0532132 135.76918 -9.1879177 -73.465172 -9.1854219 -74.196716 -0.050439298 -102.53661
9204812500 -1.0427597 135.73058 -9.1897182 -73.515434 -9.1735983 -74.248924 -0.029640546 -102.49844
9204875000 -1.0435671 135.76622 -9.1828089 -73.480576 -9.1917372 -74.213516 -0.042756114 -102.51353
9204937500 -1.044517 135.71309 -9.1799879 -73.537712 -9.1744318 -74.229942 -0.028386394 -102.44766
9205000000 -1.0317434 135.67046 -9.1781702 -73.438103 -9.1773748 -74.137543 -0.04717629 -102.39108
9205062500 -1.045592 135.6924 -9.1921091 -73.631256 -9.1701174 -74.264397 -0.037065811 -102.42077
9205125000 -1.0419719 135.69714 -9.1824684 -73.429298 -9.1768074 -74.176636 -0.039908808 -102.33202
9205187500 -1.0452484 135.71155 -9.1826992 -73.451263 -9.1774349 -74.18512 -0.042401183 -102.35348
9205250000 -1.0381593 135.62592 -9.1833744 -73.540047 -9.1844053 -74.203812 -0.04217064 -102.42065
9205312500 -1.0445334 135.69455 -9.1708603 -73.469658 -9.1677856 -74.2229 -0.035994384 -102.39379
9205375000 -1.0446662 135.62289 -9.1708012 -73.520248 -9.1714401 -74.232742 -0.039242856 -102.32257
9205437500 -1.037096 135.6422 -9.171277 -73.462357 -9.1694021 -74.180603 -0.03423072 -102.30885
9205500000 -1.0478687 135.52821 -9.1670132 -73.504616 -9.1701632 -74.193398 -0.03694566 -102.23716
9205562500 -1.0540725 135.5856 -9.1780567 -73.464874 -9.1802435 -74.223618 -0.041335087 -102.23447
9205625000 -1.0521706 135.58099 -9.1683245 -73.462067 -9.1669378 -74.224121 -0.038022768 -102.21172
9205687500 -1.0376153 135.58614 -9.1672688 -73.45829 -9.1681194 -74.274651 -0.036151282 -102.22868
9205750000 -1.0470589 135.5174 -9.1787395 -73.58049 -9.1739607 -74.193497 -0.04076378 -102.21231
9205812500 -1.0482608 135.48822 -9.174839 -73.532524 -9.1639242 -74.256927 -0.038300179 -102.22501
9205875000 -1.0395023 135.54471 -9.1795759 -73.442627 -9.171505 -74.205307 -0.036735993 -102.24551
9205937500 -1.0462503 135.47031 -9.1677113 -73.505005 -9.165987 -74.123184 -0.037073292 -102.15118
9206000000 -1.0470132 135.48689 -9.1686392 -73.439392 -9.1718645 -74.129379 -0.037908416 -102.10582
9206062500 -1.0483121 135.50768 -9.1695986 -73.50882 -9.1675863 -74.177544 -0.043586187 -102.1434
9206125000 -1.0418817 135.42815 -9.16506 -73.472565 -9.1638308 -74.113647 -0.045480054 -102.06297
9206187500 -1.0466802 135.45514 -9.1554556 -73.528458 -9.1464281 -74.247833 -0.02133096 -102.12154
9206250000 -1.0432014 135.41127 -9.1673813 -73.506432 -9.1593657 -74.125053 -0.032765284 -102.07703
9206312500 -1.0432773 135.38353 -9.1708975 -73.500977 -9.1648693 -74.32151 -0.039448038 -102.14229
9206375000 -1.0498739 135.40117 -9.1723289 -73.48822 -9.1572771 -74.171791 -0.036203235 -102.09905
9206437500 -1.043046 135.35355 -9.1691217 -73.533775 -9.1629286 -74.192963 -0.036941107 -102.13933
9206500000 -1.0482048 135.36938 -9.1714182 -73.515068 -9.1569443 -74.118759 -0.053305101 -102.03589
9206562500 -1.0446198 135.35704 -9.1742048 -73.559731 -9.1605968 -74.109283 -0.039631769 -102.00659
9206625000 -1.0480092 135.25224 -9.1669226 -73.453186 -9.1696157 -74.218689 -0.047417179 -102.00203
9206687500 -1.0475392 135.31384 -9.1680298 -73.561028 -9.1497698 -74.205917 -0.033600524 -102.04867
9206750000 -1.0469482 135.35635 -9.162466 -73.480843 -9.1624193 -74.169762 -0.050453268 -102.01228
9206812500 -1.0417181 135.36021 -9.1632519 -73.422867 -9.1555367 -74.18206 -0.03543254 -102.00574
9206875000 -1.0488545 135.29741 -9.1771612 -73.467461 -9.1552963 -74.114449 -0.037440501 -101.83298
9206937500 -1.0476009 135.30576 -9.1607199 -73.457527 -9.1603632 -74.192955 -0.045723218 -101.88132
9207000000 -1.0417905 135.2767 -9.1587086 -73.484665 -9.1589317 -74.186333 -0.044051223 -101.90475
9207062500 -1.0468863 135.27563 -9.1660891 -73.441566 -9.151516 -74.108292 -0.047672819 -101.75726
9207125000 -1.0564785 135.24887 -9.1618414 -73.457466 -9.1514463 -74.225235 -0.041761167 -101.83705
9207187500 -1.0449389 135.18579 -9.1467743 -73.552467 -9.1582994 -74.179306 -0.045453425 -101.89867
9207250000 -1.0485089 135.20824 -9.1649923 -73.452896 -9.1578112 -74.158028 -0.03856793 -101.8753
9207312500 -1.0400028 135.20993 -9.160614 -73.530334 -9.148304 -74.116852 -0.038866743 -101.82813
9207375000 -1.050335 135.1337 -9.1680908 -73.539803 -9.1484318 -74.091759 -0.04302543 -101.72723
9207437500 -1.0429052 135.23624 -9.163002 -73.406044 -9.1698465 -74.115715 -0.046653252 -101.71346
9207500000 -1.0477242 135.19887 -9.1645899 -73.420937 -9.1421223 -74.106499 -0.049510173 -101.72705
9207562500 -1.0354116 135.18208 -9.1483974 -73.502457 -9.1508474 -74.141418 -0.050235894 -101.76469
9207625000 -1.0543821 135.08209 -9.1547356 -73.441101 -9.1486816 -74.158569 -0.044087339 -101.7039
9207687500 -1.0437804 135.10976 -9.1486902 -73.480415 -9.1552477 -74.162178 -0.04395619 -101.7392
9207750000 -1.0486857 135.09647 -9.1540556 -73.438622 -9.152483 -74.214622 -0.042985998 -101.73138
9207812500 -1.0456076 135.09039 -9.1572247 -73.452927 -9.1489782 -74.092804 -0.052540299 -101.66839
9207875000 -1.0474977 135.08501 -9.1598654 -73.438087 -9.1451597 -74.167213 -0.046899535 -101.67926
9207937500 -1.0518273 135.01405 -9.1579685 -73.483292 -9.1422586 -74.174301 -0.046752777 -101.67122
9208000000 -1.0544004 135.0542 -9.1511345 -73.463242 -9.1552401 -74.048988 -0.046698548 -101.56221
9208062500 -1.0516951 135.05708 -9.1533031 -73.380295 -9.1539698 -74.138069 -0.055905215 -101.60371
9208125000 -1.049015 135.03821 -9.1570387 -73.483856 -9.1454411 -74.15976 -0.049609095 -101.59585
9208187500 -1.0434113 135.03084 -9.1471319 -73.416771 -9.138689 -74.110893 -0.043355718 -101.54161
9208250000 -1.0594041 135.0186 -9.1629591 -73.35466 -9.1457567 -74.149605 -0.048633505 -101.54554
9208312500 -1.0489818 134.99814 -9.162652 -73.486923 -9.1387606 -74.150505 -0.047611382 -101.57522
9208375000 -1.0509458 135.00195 -9.1443148 -73.457458 -9.1393414 -74.099258 -0.049465191 -101.50338
9208437500 -1.052157 134.88197 -9.1521254 -73.525314 -9.1444826 -74.073563 -0.059185471 -101.45441
9208500000 -1.0468462 134.92357 -9.1450377 -73.434555 -9.1458921 -74.151741 -0.049504679 -101.47207
9208562500 -1.0488235 134.94911 -9.1392975 -73.450798 -9.1394072 -74.170387 -0.042605795 -101.47689
9208625000 -1.0443584 134.88742 -9.1392508 -73.473961 -9.1354437 -74.138 -0.056910243 -101.50111
9208687500 -1.0405378 134.87788 -9.1364059 -73.394325 -9.1377201 -74.161461 -0.049909979 -101.46008
9208750000 -1.0485141 134.94348 -9.14886 -73.389771 -9.1399155 -74.052048 -0.054762803 -101.40272
9208812500 -1.0491066 134.96063 -9.1477203 -73.407349 -9.1371956 -74.139084 -0.049418189 -101.41168
9208875000 -1.0460539 134.84277 -9.1430645 -73.470055 -9.1490135 -74.136192 -0.048966549 -101.39631
9208937500 -1.0534544 134.88132 -9.1392326 -73.405334 -9.1308203 -74.079788 -0.045652132 -101.33408
9209000000 -1.047909 134.85188 -9.1596508 -73.360649 -9.1295738 -74.099747 -0.056233317 -101.36814
9209062500 -1.0512141 134.83279 -9.1494827 -73.397713 -9.1314096 -74.063461 -0.044241384 -101.302
9209125000 -1.0484151 134.83711 -9.1414623 -73.402817 -9.1389246 -74.13131 -0.044351764 -101.30026
9209187500 -1.0478252 134.81718 -9.1340342 -73.406151 -9.1423874 -74.079979 -0.049501743 -101.26295
9209250000 -1.0437865 134.7948 -9.1469383 -73.427193 -9.1300249 -74.166924 -0.051815324 -101.20647
9209312500 -1.0477519 134.72025 -9.1355028 -73.456535 -9.1357384 -74.129875 -0.059540916 -101.28328
9209375000 -1.0392141 134.80774 -9.1393547 -73.370041 -9.144208 -73.975174 -0.0647429 -101.23411
9209437500 -1.0551031 134.71635 -9.1419706 -73.369835 -9.1360779 -74.136192 -0.049228311 -101.1681
9209500000 -1.0441221 134.71519 -9.1374273 -73.415924 -9.1288929 -74.119171 -0.047978755 -101.17712
9209562500 -1.048697 134.73119 -9.1365337 -73.361023 -9.1321173 -74.097359 -0.056413032 -101.14497
9209625000 -1.0479838 134.66327 -9.1295967 -73.43679 -9.1344805 -74.114738 -0.049701683 -101.16237
9209687500 -1.0480497 134.62947 -9.1377439 -73.386749 -9.138092 -74.098145 -0.0497531 -101.13686
9209750000 -1.0496247 134.69312 -9.1320572 -73.40918 -9.1327477 -74.108124 -0.048112568 -101.16263
9209812500 -1.0446618 134.61708 -9.1355839 -73.34761 -9.1325836 -74.103867 -0.055774316 -101.091
9209875000 -1.0496829 134.64569 -9.1350336 -73.387985 -9.1245337 -74.081879 -0.057413016 -101.09499
9209937500 -1.0503767 134.71478 -9.1435184 -73.362068 -9.12885 -74.082336 -0.056505196 -101.13951
9210000000 -1.0428209 134.65472 -9.1338329 -73.306755 -9.1193266 -74.012115 -0.0614563 -101.03156
9210062500 -1.0505542 134.63962 -9.1399994 -73.426514 -9.1228619 -74.033051 -0.061358184 -101.01941
9210125000 -1.0418085 134.59766 -9.1365147 -73.405823 -9.1237888 -74.003784 -0.055777282 -101.04423
9210187500 -1.0502305 134.58209 -9.1252956 -73.374161 -9.1198463 -74.047897 -0.062962271 -100.96818
9210250000 -1.0460806 134.58617 -9.1292429 -73.410835 -9.1160717 -73.994476 -0.052115645 -101.00619
9210312500 -1.0547031 134.60597 -9.1353836 -73.34568 -9.1349831 -74.145271 -0.064442851 -101.01951
9210375000 -1.0504999 134.57579 -9.130619 -73.356636 -9.1230602 -74.066277 -0.057707608 -100.89242
9210437500 -1.0455079 134.53374 -9.1399593 -73.375557 -9.1248474 -74.160927 -0.052290432 -101.00723
9210500000 -1.0470314 134.52814 -9.1185017 -73.418999 -9.1168776 -74.118523 -0.044842672 -100.976
9210562500 -1.0478306 134.50082 -9.1292238 -73.364143 -9.1247263 -74.067581 -0.05852709 -100.90134
9210625000 -1.0423363 134.515 -9.1282053 -73.363243 -9.1181602 -74.01368 -0.058695454 -100.9575
9210687500 -1.0481001 134.49721 -9.1308193 -73.377586 -9.1199522 -74.097366 -0.064159803 -100.90058
9210750000 -1.0501015 134.46909 -9.1200247 -73.395653 -9.1148767 -74.031448 -0.051159989 -100.83602
9210812500 -1.0552543 134.44592 -9.1386719 -73.377411 -9.1205797 -73.998909 -0.064338826 -100.85661
9210875000 -1.0493506 134.43503 -9.1338987 -73.340111 -9.111783 -73.959419 -0.068296641 -100.85186
9210937500 -1.0492361 134.45721 -9.1238956 -73.325813 -9.1272326 -73.995239 -0.068080671 -100.83553
9211000000 -1.0484207 134.4417 -9.1204901 -73.383118 -9.1238499 -74.041534 -0.055605959 -100.83286
9211062500 -1.0449355 134.43384 -9.1151676 -73.334785 -9.1202297 -74.068367 -0.058263805 -100.8164
9211125000 -1.0481677 134.37231 -9.12041 -73.356514 -9.1088076 -73.981827 -0.050512571 -100.72589
9211187500 -1.0572909 134.39705 -9.1222982 -73.320267 -9.108922 -73.991791 -0.063478015 -100.73548
9211250000 -1.0540844 134.36739 -9.1219969 -73.342697 -9.1123734 -73.963692 -0.047190897 -100.71648
9211312500 -1.0476975 134.40572 -9.123642 -73.307808 -9.1148252 -73.963882 -0.063557506 -100.68972
9211375000 -1.0488701 134.24155 -9.1218891 -73.386841 -9.1045532 -74.134613 -0.050899189 -100.69215
9211437500 -1.0450829 134.29227 -9.1029434 -73.343979 -9.1137962 -74.045441 -0.059575144 -100.67314
9211500000 -1.0512092 134.3064 -9.1125698 -73.311218 -9.1127014 -74.024055 -0.056781556 -100.68304
9211562500 -1.0544703 134.31487 -9.1180973 -73.40654 -9.1087236 -74.007706 -0.064030193 -100.67767
9211625000 -1.0547851 134.27194 -9.1088161 -73.388939 -9.1040087 -74.069298 -0.05372161 -100.67639
9211687500 -1.0528033 134.30463 -9.1200686 -73.341164 -9.11728 -74.028809 -0.07193929 -100.57775
9211750000 -1.0497385 134.2486 -9.1110601 -73.317337 -9.1070509 -74.034744 -0.054641526 -100.56455
9211812500 -1.0631056 134.27603 -9.1348162 -73.305183 -9.1023827 -74.03437 -0.068487853 -100.59792
9211875000 -1.0547297 134.21573 -9.1180096 -73.360977 -9.1072712 -73.92231 -0.057102527 -100.46916
9211937500 -1.0458591 134.19852 -9.1084318 -73.332672 -9.1158991 -73.980835 -0.077415951 -100.4757
9212000000 -1.0475436 134.13298 -9.1146116 -73.351227 -9.1085072 -74.014893 -0.070054471 -100.50556
9212062500 -1.0497996 134.14348 -9.1179457 -73.314545 -9.1155577 -74.020264 -0.071403213 -100.53931
9212125000 -1.0473187 134.10889 -9.107852 -73.373421 -9.1147213 -73.985985 -0.063333355 -100.46417
9212187500 -1.041577 134.13855 -9.0994015 -73.261414 -9.0942745 -74.070763 -0.064656295 -100.48631
