!Agilent Technologies,N5242A,MY51221714,A.09.90.19
!Agilent N5242A: A.09.90.19
!Date: Tuesday, March 26, 2024 16:29:18
!Correction: S11(Full 2 Port(1,2)) 
!S21(Full 2 Port(1,2)) 
!S12(Full 2 Port(1,2)) 
!S22(Full 2 Port(1,2)) 
!S2P File: Measurements: S11, S21, S12, S22:
# Hz S  dB   R 50
9200000000 -1.1122603 135.65562 -9.0334263 -75.12645 -9.0205698 -75.930313 -0.088806972 -104.58679
9200062500 -1.1218632 135.61923 -9.0379982 -75.20195 -9.0348902 -75.934341 -0.079265855 -104.52553
9200125000 -1.1160682 135.58884 -9.0313663 -75.143196 -9.0268126 -75.922226 -0.090795666 -104.50594
9200187500 -1.1237425 135.65349 -9.0421295 -75.121597 -9.0224762 -75.996132 -0.072410643 -104.47581
9200250000 -1.1092213 135.57442 -9.0261917 -75.179008 -9.0208349 -75.858917 -0.079364412 -104.47092
9200312500 -1.1205935 135.59378 -9.0366869 -75.146545 -9.0336103 -75.928131 -0.087391399 -104.46512
9200375000 -1.1241485 135.55164 -9.0332222 -75.178177 -9.0246334 -75.989487 -0.084920377 -104.43034
9200437500 -1.1190093 135.56277 -9.0317011 -75.19622 -9.0193214 -75.930748 -0.077074893 -104.40917
9200500000 -1.1164209 135.53603 -9.0362272 -75.173347 -9.0225229 -75.870094 -0.08612477 -104.39286
9200562500 -1.1093985 135.52255 -9.0209322 -75.149521 -9.0350389 -75.961479 -0.087659888 -104.44431
9200625000 -1.1241578 135.50482 -9.0308533 -75.170853 -9.0099306 -75.884323 -0.089328155 -104.31367
9200687500 -1.1099279 135.48621 -9.0240107 -75.14447 -9.0327654 -75.901772 -0.083938256 -104.37454
9200750000 -1.1222064 135.41568 -9.0322218 -75.194603 -9.0186024 -75.816521 -0.083593801 -104.30591
9200812500 -1.1320406 135.47531 -9.0363712 -75.110924 -9.0252056 -75.888367 -0.10012162 -104.32967
9200875000 -1.1154666 135.55515 -9.0373907 -75.106476 -9.0237112 -75.838737 -0.087624468 -104.3297
9200937500 -1.1243614 135.44455 -9.0361233 -75.174637 -9.0197983 -75.837578 -0.078602739 -104.24306
9201000000 -1.118026 135.43765 -9.0356817 -75.198387 -9.0177202 -75.875214 -0.084639281 -104.2467
9201062500 -1.1168475 135.41791 -9.026185 -75.096153 -9.010643 -75.900032 -0.084828578 -104.22127
9201125000 -1.1198467 135.39645 -9.0338869 -75.126549 -9.0285826 -75.858543 -0.091779314 -104.19244
9201187500 -1.1188595 135.36128 -9.0218611 -75.143082 -9.0147734 -75.881371 -0.09654931 -104.15363
9201250000 -1.1266664 135.38321 -9.0231743 -75.116249 -9.0208225 -75.867897 -0.091833256 -104.1847
9201312500 -1.1296911 135.33218 -9.0277605 -75.138397 -9.0159302 -75.949577 -0.080066659 -104.23665
9201375000 -1.1266705 135.38664 -9.0266647 -75.030022 -9.0217419 -75.81591 -0.097955242 -104.13813
9201437500 -1.116509 135.32388 -9.0237436 -75.146568 -9.0156965 -75.847008 -0.090243749 -104.23359
9201500000 -1.1169559 135.31775 -9.0185747 -75.160896 -9.0258465 -75.841202 -0.091872729 -104.16212
9201562500 -1.1237694 135.26212 -9.0311995 -75.081078 -9.0246239 -75.843163 -0.10612787 -104.15834
9201625000 -1.1190946 135.27943 -9.0188656 -75.09626 -9.0056553 -75.840042 -0.0946417 -104.07594
9201687500 -1.1239924 135.27135 -9.0165062 -75.059753 -9.011322 -75.826561 -0.094339088 -104.02477
9201750000 -1.1215993 135.29013 -9.0214577 -75.119385 -8.9941711 -75.892609 -0.073573455 -104.06188
9201812500 -1.1221057 135.24745 -9.0361948 -75.134735 -9.0143213 -75.881432 -0.09970735 -104.1228
9201875000 -1.125082 135.21359 -9.0200462 -75.128578 -9.0052099 -75.859428 -0.080521673 -104.0005
9201937500 -1.1304106 135.15131 -9.0316267 -75.140343 -9.0076923 -75.952118 -0.086074218 -104.08881
9202000000 -1.1204337 135.23256 -9.0100689 -75.076591 -9.0069227 -75.877266 -0.088084213 -103.98711
9202062500 -1.1288102 135.22047 -9.0144091 -75.054245 -9.00665 -75.834618 -0.085380405 -103.92469
9202125000 -1.1272932 135.23032 -9.0367174 -75.09893 -9.0097647 -75.829651 -0.10297317 -104.02633
9202187500 -1.1179246 135.18021 -9.0158262 -75.132454 -9.011158 -75.789635 -0.091493092 -103.89468
9202250000 -1.123589 135.18442 -9.027359 -75.088387 -9.0042801 -75.826103 -0.10130182 -103.88394
9202312500 -1.1198621 135.15079 -9.0175266 -75.115799 -9.0001087 -75.834717 -0.089064501 -103.90878
9202375000 -1.1236871 135.08606 -9.0067654 -75.0709 -9.0056267 -75.862297 -0.099193797 -103.87866
9202437500 -1.1203038 135.16243 -9.0095224 -75.094872 -9.0075006 -75.881203 -0.088981248 -103.93738
9202500000 -1.1325195 135.12099 -9.0151796 -75.180336 -9.0134544 -75.884132 -0.096422724 -103.93038
9202562500 -1.1186975 135.07884 -9.0089178 -75.053345 -9.005538 -75.808159 -0.10273387 -103.83667
9202625000 -1.1233155 135.13828 -9.0103149 -75.04908 -8.9981604 -75.76989 -0.097404331 -103.8073
9202687500 -1.1236062 135.11197 -9.0117111 -75.117897 -9.0062103 -75.838913 -0.090347044 -103.78271
9202750000 -1.1184026 134.99657 -9.0051975 -75.149338 -9.0066767 -75.885612 -0.094995871 -103.83295
9202812500 -1.1239722 135.02856 -9.0187101 -75.06086 -8.9880381 -75.846237 -0.082830131 -103.71861
9202875000 -1.1195544 135.02504 -8.9989414 -75.066635 -9.0069666 -75.879852 -0.097221516 -103.75369
9202937500 -1.1215596 134.97852 -9.008152 -75.152916 -8.9982128 -75.789063 -0.095806055 -103.71102
9203000000 -1.1252087 135.07309 -9.0089512 -75.100266 -9.0035172 -75.847153 -0.10054784 -103.66358
9203062500 -1.1198405 134.98056 -9.003377 -75.077644 -8.9990683 -75.872765 -0.098106444 -103.7616
9203125000 -1.1186517 134.92976 -9.000494 -75.110115 -8.9895563 -75.845589 -0.090656534 -103.71492
9203187500 -1.1207618 134.94362 -9.010108 -75.102394 -8.991622 -75.880386 -0.09919557 -103.69736
9203250000 -1.1302192 134.93211 -9.00881 -75.050926 -8.998024 -75.793633 -0.095793121 -103.61665
9203312500 -1.1265392 134.9377 -9.0025711 -75.070976 -9.0004101 -75.858681 -0.085395828 -103.63416
9203375000 -1.125821 134.92738 -9.0060492 -75.114235 -8.9895544 -75.81543 -0.090805985 -103.56115
9203437500 -1.1332071 134.87094 -9.0049219 -75.176918 -8.9973221 -75.813652 -0.095002636 -103.58834
9203500000 -1.1227053 134.85147 -8.9969788 -75.113777 -8.9977627 -75.804253 -0.095410734 -103.61252
9203562500 -1.1309617 134.87299 -9.0106869 -75.083527 -9.0051298 -75.787491 -0.10763351 -103.60962
9203625000 -1.1201941 134.88078 -8.9993114 -75.129578 -8.9965544 -75.797318 -0.096516676 -103.62305
9203687500 -1.1304704 134.81628 -9.0121202 -75.058083 -9.0010262 -75.732582 -0.097629935 -103.49802
9203750000 -1.1314421 134.87816 -9.001092 -75.01313 -8.9852047 -75.839012 -0.089415379 -103.53561
9203812500 -1.1284417 134.81804 -8.9936657 -75.135941 -8.9935322 -75.833389 -0.09509334 -103.51082
9203875000 -1.1296774 134.82327 -8.9987907 -75.026474 -8.9976025 -75.883621 -0.11182979 -103.55354
9203937500 -1.1286937 134.8092 -8.9911432 -75.093269 -8.9866819 -75.766441 -0.099541515 -103.47887
9204000000 -1.1289554 134.76527 -8.9950848 -75.129738 -8.9956455 -75.851402 -0.1028854 -103.44375
9204062500 -1.1166189 134.79604 -8.9905634 -75.061485 -8.9775944 -75.845818 -0.097601034 -103.4304
9204125000 -1.1254312 134.75848 -8.9857864 -75.120644 -8.9880552 -75.773834 -0.09737999 -103.39604
9204187500 -1.1286834 134.68585 -8.9914045 -75.118568 -8.9960661 -75.827919 -0.10783891 -103.39823
9204250000 -1.126918 134.74365 -8.9941797 -75.029465 -8.9941034 -75.780281 -0.10448979 -103.38377
9204312500 -1.1307416 134.74777 -8.9991856 -74.979141 -8.9817848 -75.799286 -0.099067524 -103.31797
9204375000 -1.118834 134.6886 -8.9969101 -75.048141 -8.9822655 -75.799362 -0.096083067 -103.39254
9204437500 -1.1339824 134.71745 -8.9952583 -75.122139 -8.9852085 -75.761856 -0.088165388 -103.34317
9204500000 -1.1297541 134.68533 -8.9835224 -75.077812 -8.9860458 -75.801483 -0.096639067 -103.3534
9204562500 -1.1232867 134.63127 -8.982357 -75.162399 -8.9812279 -75.827843 -0.092348941 -103.37741
9204625000 -1.1195661 134.66011 -8.9822006 -74.982727 -8.9733162 -75.852661 -0.097244248 -103.24289
9204687500 -1.1230513 134.6207 -8.9778128 -75.036453 -8.9833603 -75.822281 -0.10264422 -103.2694
9204750000 -1.1322849 134.64484 -8.9860687 -74.956802 -8.980752 -75.745918 -0.10821141 -103.22857
9204812500 -1.119607 134.62161 -8.9856539 -74.967697 -8.9780197 -75.820755 -0.10132159 -103.23553
9204875000 -1.1242036 134.64897 -8.9852114 -75.028053 -9.0047836 -75.815887 -0.11592256 -103.25774
9204937500 -1.1242906 134.57208 -8.983367 -75.070251 -8.9689388 -75.804756 -0.090147592 -103.2184
9205000000 -1.1177586 134.54025 -8.9856567 -75.039795 -8.9775162 -75.777695 -0.11657929 -103.22385
9205062500 -1.1279833 134.55389 -8.9949999 -75.054756 -8.9628067 -75.829277 -0.099123865 -103.18526
9205125000 -1.123805 134.52557 -8.9864445 -75.005264 -8.9691648 -75.806587 -0.095616177 -103.12892
9205187500 -1.1264861 134.57887 -8.9851341 -74.986237 -8.9773369 -75.791252 -0.10484599 -103.1583
9205250000 -1.1250908 134.47478 -8.9860878 -75.056671 -8.9801579 -75.750786 -0.11092984 -103.15873
9205312500 -1.127776 134.59409 -8.9793911 -74.967842 -8.9733486 -75.704041 -0.10668086 -103.10349
9205375000 -1.1317502 134.49028 -8.9798832 -75.0597 -8.9683876 -75.737274 -0.098099403 -103.07598
9205437500 -1.1213393 134.49333 -8.9724712 -75.036118 -8.9654913 -75.75103 -0.10064314 -103.07362
9205500000 -1.1288669 134.39851 -8.9764585 -75.021858 -8.9721222 -75.757774 -0.098768219 -102.9603
9205562500 -1.1294644 134.46297 -8.9767513 -75.063034 -8.9781437 -75.769112 -0.10141335 -102.995
9205625000 -1.1379271 134.43837 -8.9858217 -75.078087 -8.9663906 -75.751823 -0.10165574 -102.96078
9205687500 -1.124907 134.45734 -8.9776049 -74.932938 -8.9710894 -75.821564 -0.10661785 -102.98104
9205750000 -1.1229987 134.37889 -8.9738331 -75.05954 -8.9740648 -75.739143 -0.10130246 -102.92551
9205812500 -1.1342304 134.38083 -8.968154 -75.018036 -8.9785385 -75.752754 -0.10743718 -102.90636
9205875000 -1.1265037 134.40112 -8.9784708 -75.006676 -8.9864702 -75.762947 -0.11229106 -103.00446
9205937500 -1.1257074 134.3316 -8.9703941 -75.00927 -8.9673138 -75.719894 -0.10717558 -102.88584
9206000000 -1.1312495 134.37311 -8.9657993 -74.943123 -8.9723063 -75.698311 -0.10511375 -102.83773
9206062500 -1.1228472 134.35829 -8.9752121 -75.064781 -8.9738989 -75.79686 -0.11056123 -102.93665
9206125000 -1.1267606 134.28311 -8.9672241 -75.05442 -8.9656734 -75.684654 -0.10636165 -102.83526
9206187500 -1.1275083 134.31474 -8.9690857 -75.030235 -8.9613733 -75.774307 -0.099411778 -102.87189
9206250000 -1.1308805 134.28285 -8.9710312 -75.068008 -8.9639988 -75.677391 -0.1020067 -102.82385
9206312500 -1.1258388 134.1964 -8.9704027 -75.049667 -8.9708481 -75.870804 -0.10719872 -102.87943
9206375000 -1.1317976 134.29121 -8.9704018 -75.035477 -8.9659348 -75.730171 -0.10726886 -102.81039
9206437500 -1.1210624 134.23364 -8.9719982 -75.056168 -8.9650841 -75.760437 -0.10616568 -102.84022
9206500000 -1.133227 134.21548 -8.9746561 -75.068726 -8.9618979 -75.766777 -0.11753706 -102.82605
9206562500 -1.1300648 134.2153 -8.9704142 -75.129707 -8.9684315 -75.695076 -0.10801066 -102.80919
9206625000 -1.1289401 134.13733 -8.9547911 -75.094093 -8.9572659 -75.773262 -0.10334707 -102.7714
9206687500 -1.1318848 134.20454 -8.9746828 -75.043068 -8.9570532 -75.808929 -0.099552467 -102.80477
9206750000 -1.1239302 134.17975 -8.9569149 -75.021103 -8.9574661 -75.720451 -0.11075516 -102.74432
9206812500 -1.1226338 134.19502 -8.9675417 -75.064903 -8.9647837 -75.804039 -0.10522839 -102.81108
9206875000 -1.1314974 134.13722 -8.9732714 -75.072258 -8.9602585 -75.690277 -0.10507665 -102.60225
9206937500 -1.128929 134.17664 -8.9624739 -75.002312 -8.965167 -75.728897 -0.11296659 -102.61331
9207000000 -1.1287779 134.18387 -8.9739571 -74.94397 -8.9655209 -75.788589 -0.11592496 -102.67473
9207062500 -1.1256497 134.14005 -8.9522333 -74.948189 -8.9548502 -75.669685 -0.10495507 -102.50212
9207125000 -1.1376984 134.10846 -8.9544115 -75.011292 -8.9472466 -75.786667 -0.10783358 -102.55312
9207187500 -1.1245313 134.07141 -8.9565954 -75.084785 -8.9624434 -75.695183 -0.10870616 -102.63304
9207250000 -1.1311585 134.07864 -8.9580517 -75.003532 -8.9658279 -75.806374 -0.11143406 -102.66241
9207312500 -1.1238704 134.06331 -8.9600973 -75.09301 -8.9547539 -75.736572 -0.10362293 -102.57391
9207375000 -1.1342145 134.05606 -8.9637547 -75.016518 -8.9518986 -75.761009 -0.11220689 -102.5283
9207437500 -1.1241589 134.06506 -8.9570313 -74.986542 -8.963089 -75.725105 -0.11073518 -102.5303
9207500000 -1.1327182 134.05125 -8.9674234 -74.995621 -8.9459782 -75.704788 -0.11759962 -102.50075
9207562500 -1.1216847 134.02753 -8.9584351 -75.03804 -8.9465837 -75.662552 -0.11095485 -102.48988
9207625000 -1.1317132 133.95158 -8.9578552 -74.956779 -8.9456043 -75.72168 -0.10549696 -102.4035
9207687500 -1.1319224 133.96832 -8.9542265 -75.056976 -8.9552288 -75.689217 -0.10728077 -102.45759
9207750000 -1.1297028 133.96815 -8.9505234 -74.969772 -8.9377565 -75.737732 -0.10330333 -102.4614
9207812500 -1.1289865 133.97264 -8.9517679 -74.981819 -8.949645 -75.695396 -0.11183547 -102.44011
9207875000 -1.135671 133.97176 -8.9682674 -74.916428 -8.9455662 -75.730896 -0.10510738 -102.4248
9207937500 -1.1290789 133.88689 -8.962451 -74.943497 -8.9488602 -75.706253 -0.1146384 -102.38521
9208000000 -1.1338402 133.91434 -8.9432316 -75.035957 -8.9384451 -75.616714 -0.10316377 -102.36441
9208062500 -1.1302798 133.90428 -8.9497671 -74.987679 -8.9525309 -75.744682 -0.11788296 -102.40756
9208125000 -1.1368102 133.90703 -8.9598703 -75.028481 -8.9415636 -75.778915 -0.11049277 -102.39272
9208187500 -1.1185149 133.90254 -8.9429073 -74.995125 -8.9473829 -75.700111 -0.11181398 -102.36147
9208250000 -1.1350329 133.84187 -8.9498959 -74.951248 -8.9406891 -75.783745 -0.1095831 -102.33276
9208312500 -1.1302187 133.8609 -8.9472408 -74.930733 -8.9254398 -75.710442 -0.10156105 -102.29633
9208375000 -1.1287812 133.87701 -8.9486427 -74.933784 -8.9457273 -75.649963 -0.11545568 -102.24313
9208437500 -1.1374763 133.7411 -8.9546375 -74.980316 -8.9473829 -75.636482 -0.12689316 -102.21841
9208500000 -1.1386657 133.77597 -8.948782 -74.969406 -8.9453506 -75.675446 -0.11606929 -102.17928
9208562500 -1.1421962 133.80232 -8.9401026 -74.974632 -8.9372139 -75.700493 -0.10934708 -102.21847
9208625000 -1.1225231 133.75555 -8.9331436 -74.939934 -8.9361181 -75.64016 -0.11796132 -102.19867
9208687500 -1.123511 133.72452 -8.9360361 -75.072762 -8.9384165 -75.723213 -0.1168335 -102.20862
9208750000 -1.1319284 133.76302 -8.9498978 -74.982651 -8.9354887 -75.602394 -0.11304301 -102.15763
9208812500 -1.1348606 133.79051 -8.9477625 -75.00486 -8.9398718 -75.704735 -0.11217768 -102.13275
9208875000 -1.1346236 133.67921 -8.9300814 -74.985229 -8.9362411 -75.666573 -0.11286775 -102.10332
9208937500 -1.1352071 133.7218 -8.9280214 -74.963615 -8.9304562 -75.676193 -0.10999035 -102.09902
9209000000 -1.1285456 133.71085 -8.9537144 -75.009354 -8.9327478 -75.64827 -0.12313849 -102.13029
9209062500 -1.1305009 133.69972 -8.9408474 -74.920753 -8.9411764 -75.630264 -0.11536202 -102.08654
9209125000 -1.135622 133.65511 -8.938345 -74.947617 -8.9201517 -75.717972 -0.10683411 -102.0461
9209187500 -1.1284111 133.68008 -8.9420185 -74.94545 -8.9431896 -75.613136 -0.12114812 -102.0416
9209250000 -1.1336769 133.61533 -8.9392471 -74.978134 -8.9321575 -75.728195 -0.12014505 -101.99641
9209312500 -1.129469 133.5593 -8.9454889 -75.0084 -8.9348812 -75.715759 -0.12286378 -102.04494
9209375000 -1.1246595 133.6158 -8.9327517 -74.925575 -8.9478827 -75.632462 -0.12921387 -102.0284
9209437500 -1.1384716 133.55997 -8.9344845 -74.952263 -8.9300804 -75.693588 -0.11260832 -101.93111
9209500000 -1.1353697 133.56432 -8.9338646 -74.960297 -8.9297581 -75.614525 -0.11659653 -101.89818
9209562500 -1.1377658 133.57939 -8.9408293 -74.916916 -8.9266577 -75.705864 -0.12200591 -101.93453
9209625000 -1.133163 133.52785 -8.9371815 -74.962975 -8.9274015 -75.691849 -0.11960253 -101.90617
9209687500 -1.1380637 133.46707 -8.9344645 -75.021568 -8.9330883 -75.612503 -0.12107356 -101.86008
9209750000 -1.1353561 133.50642 -8.9239349 -75.035263 -8.9316235 -75.64476 -0.11084745 -101.90119
9209812500 -1.1332126 133.51111 -8.9323702 -74.881386 -8.9358082 -75.66555 -0.12885417 -101.88224
9209875000 -1.1319563 133.50485 -8.9195852 -74.980598 -8.9217873 -75.678696 -0.11754715 -101.89576
9209937500 -1.1316316 133.5571 -8.9391108 -74.977173 -8.9350443 -75.620651 -0.12577394 -101.88504
9210000000 -1.1272888 133.51109 -8.9341354 -74.884628 -8.9234362 -75.66011 -0.13071375 -101.80088
9210062500 -1.134207 133.51219 -8.9282608 -74.907654 -8.9217739 -75.655098 -0.11805601 -101.81458
9210125000 -1.1280712 133.45116 -8.9316168 -74.903366 -8.9202538 -75.628372 -0.12516636 -101.76679
9210187500 -1.1365074 133.51866 -8.9253483 -74.889526 -8.9143095 -75.653641 -0.1156337 -101.75354
9210250000 -1.1326679 133.44424 -8.9213791 -74.965111 -8.913722 -75.576118 -0.12369119 -101.76362
9210312500 -1.1326692 133.38335 -8.9275751 -74.912567 -8.9276361 -75.65519 -0.12177909 -101.72895
9210375000 -1.1287295 133.43744 -8.9205065 -74.904472 -8.9231119 -75.624908 -0.12052867 -101.6396
9210437500 -1.1258262 133.38969 -8.9192257 -74.913277 -8.9141521 -75.711281 -0.11583221 -101.76795
9210500000 -1.1292506 133.31615 -8.9142084 -74.995514 -8.9052639 -75.628563 -0.10663958 -101.66286
9210562500 -1.1329129 133.35646 -8.9132891 -74.91156 -8.9151411 -75.631981 -0.11742919 -101.67132
9210625000 -1.1317436 133.35872 -8.931097 -74.911484 -8.9191904 -75.597511 -0.11893965 -101.69525
9210687500 -1.1304525 133.36954 -8.9229403 -74.921173 -8.919076 -75.683052 -0.12199336 -101.61066
9210750000 -1.1399699 133.351 -8.9277391 -74.915047 -8.9134741 -75.64418 -0.12477698 -101.60541
9210812500 -1.1332686 133.27863 -8.9216127 -74.969368 -8.9105673 -75.572762 -0.12796417 -101.59933
9210875000 -1.1385875 133.2872 -8.9340019 -74.938202 -8.9101524 -75.616631 -0.12835735 -101.62811
9210937500 -1.1310426 133.30864 -8.9172115 -74.903206 -8.9244108 -75.538864 -0.1320066 -101.53926
9211000000 -1.1339812 133.29701 -8.92939 -74.877213 -8.9205799 -75.596504 -0.13071246 -101.56489
9211062500 -1.1362118 133.27835 -8.92204 -74.898582 -8.913641 -75.592972 -0.1276173 -101.5873
9211125000 -1.1270158 133.22354 -8.9224405 -74.881065 -8.9116602 -75.602821 -0.12016616 -101.48054
9211187500 -1.137349 133.22353 -8.9188986 -74.892685 -8.9063215 -75.560898 -0.12469512 -101.46279
9211250000 -1.1394041 133.22894 -8.9160175 -74.929649 -8.9174595 -75.572075 -0.11953929 -101.50703
9211312500 -1.1317675 133.23233 -8.9250956 -74.912254 -8.9087811 -75.682205 -0.13245805 -101.50525
9211375000 -1.1356723 133.12317 -8.9185524 -74.928032 -8.9087477 -75.607826 -0.13259292 -101.43196
9211437500 -1.1270744 133.1732 -8.9079628 -74.862854 -8.9092073 -75.605942 -0.13185364 -101.42085
9211500000 -1.1402777 133.12691 -8.9189625 -74.975655 -8.9149456 -75.662186 -0.1281527 -101.50697
9211562500 -1.1351389 133.22838 -8.9241171 -74.904663 -8.9035082 -75.656891 -0.13222384 -101.41885
9211625000 -1.1319729 133.10013 -8.9065285 -74.974785 -8.8983459 -75.664398 -0.11994375 -101.44908
9211687500 -1.1392888 133.16119 -8.9179115 -74.820984 -8.9049273 -75.515709 -0.13217854 -101.32055
9211750000 -1.1344292 133.07652 -8.8978577 -74.863098 -8.9106102 -75.546646 -0.12568797 -101.26602
9211812500 -1.1367379 133.0582 -8.9269629 -74.929802 -8.9127483 -75.575676 -0.13905384 -101.34766
9211875000 -1.1385384 133.0517 -8.9089165 -74.908478 -8.8997583 -75.539093 -0.12464526 -101.24207
9211937500 -1.1352084 133.09479 -8.9077692 -74.896889 -8.9041853 -75.591362 -0.13233335 -101.31753
9212000000 -1.1400275 132.9664 -8.9121189 -74.901405 -8.8972836 -75.594765 -0.12790368 -101.26702
9212062500 -1.1345668 132.99712 -8.9116163 -74.859764 -8.8985424 -75.580818 -0.12976508 -101.28252
9212125000 -1.1388978 132.96344 -8.904089 -74.93499 -8.9176493 -75.603661 -0.1362651 -101.24709
9212187500 -1.1307464 133.00371 -8.891861 -74.822182 -8.8950577 -75.562119 -0.13523448 -101.21299
9212250000 -1.1300294 132.9453 -8.9007206 -74.883316 -8.8946495 -75.606262 -0.12274089 -101.24105
