!Agilent Technologies,N5242A,MY51221714,A.09.90.19
!Agilent N5242A: A.09.90.19
!Date: Tuesday, March 26, 2024 16:30:25
!Correction: S11(Full 2 Port(1,2)) 
!S21(Full 2 Port(1,2)) 
!S12(Full 2 Port(1,2)) 
!S22(Full 2 Port(1,2)) 
!S2P File: Measurements: S11, S21, S12, S22:
# Hz S  dB   R 50
9200000000 -1.3351151 134.25485 -8.8511124 -78.793724 -8.8264074 -79.556091 -0.29251271 -106.11577
9200062500 -1.3300649 134.31621 -8.8423748 -78.750061 -8.839303 -79.471008 -0.29462922 -106.00324
9200125000 -1.3339537 134.25735 -8.8446531 -78.739876 -8.8374901 -79.501167 -0.30645874 -106.01696
9200187500 -1.3401482 134.29729 -8.8396616 -78.677322 -8.8365393 -79.567101 -0.28350949 -106.02036
9200250000 -1.32989 134.24602 -8.8359394 -78.780037 -8.8320932 -79.420502 -0.29038945 -105.95239
9200312500 -1.3375803 134.22208 -8.8499527 -78.752419 -8.8386192 -79.484955 -0.2970517 -105.97157
9200375000 -1.3392161 134.19612 -8.8450098 -78.832771 -8.8246431 -79.642326 -0.28883269 -106.01929
9200437500 -1.3300512 134.24702 -8.8354301 -78.710693 -8.8300591 -79.463692 -0.28413224 -105.91654
9200500000 -1.3293575 134.17947 -8.838604 -78.768593 -8.8319244 -79.421822 -0.29837236 -105.9119
9200562500 -1.3313308 134.16664 -8.8330956 -78.717094 -8.8448248 -79.502899 -0.29858848 -105.92109
9200625000 -1.3373013 134.15265 -8.8406982 -78.753197 -8.8284559 -79.526932 -0.2982313 -105.917
9200687500 -1.329723 134.1692 -8.8352299 -78.751488 -8.8368235 -79.475182 -0.29389969 -105.8786
9200750000 -1.3364897 134.10423 -8.8347263 -78.78849 -8.8354435 -79.48735 -0.29703984 -105.89042
9200812500 -1.3454413 134.13876 -8.8450174 -78.735634 -8.8412743 -79.423294 -0.31261367 -105.82314
9200875000 -1.3311088 134.23822 -8.840169 -78.707138 -8.8364067 -79.452469 -0.30433509 -105.89481
9200937500 -1.3337659 134.11578 -8.8396664 -78.775513 -8.8314953 -79.494308 -0.29589322 -105.77814
9201000000 -1.3366979 134.06975 -8.8430672 -78.80294 -8.831419 -79.543129 -0.29278138 -105.82793
9201062500 -1.3321298 134.05614 -8.8188715 -78.713318 -8.8279209 -79.53006 -0.30595288 -105.80756
9201125000 -1.3375071 134.09392 -8.840786 -78.728874 -8.82761 -79.400635 -0.29631871 -105.76176
9201187500 -1.3397107 134.00932 -8.8353252 -78.686668 -8.8338051 -79.501923 -0.31053257 -105.67593
9201250000 -1.3356707 134.07695 -8.8216686 -78.696487 -8.828784 -79.425858 -0.29914087 -105.66995
9201312500 -1.3421688 133.98695 -8.8306866 -78.770287 -8.8308611 -79.480965 -0.2941643 -105.75224
9201375000 -1.349285 133.98109 -8.8330002 -78.746971 -8.8332787 -79.390564 -0.30857956 -105.65656
9201437500 -1.3328357 133.98524 -8.8307209 -78.762794 -8.8289671 -79.461998 -0.30454826 -105.75147
9201500000 -1.3338077 133.98938 -8.8280277 -78.731972 -8.8233194 -79.482208 -0.29739434 -105.6802
9201562500 -1.3396713 133.93773 -8.8320684 -78.6819 -8.8370037 -79.422913 -0.31070465 -105.64215
9201625000 -1.3380935 133.98123 -8.8301544 -78.716461 -8.820178 -79.432426 -0.30706865 -105.56604
9201687500 -1.346796 133.90623 -8.8235922 -78.668159 -8.8207712 -79.449623 -0.30693573 -105.51849
9201750000 -1.3436373 133.88965 -8.8326702 -78.779243 -8.8097267 -79.453262 -0.29162887 -105.557
9201812500 -1.3381158 133.90063 -8.8218765 -78.703583 -8.8283882 -79.510345 -0.31341487 -105.666
9201875000 -1.3392264 133.86734 -8.8153753 -78.730911 -8.8165426 -79.426971 -0.29415727 -105.48086
9201937500 -1.35207 133.85539 -8.8339281 -78.680244 -8.8174734 -79.507584 -0.29565668 -105.58112
9202000000 -1.3384657 133.84929 -8.8161144 -78.696747 -8.8208895 -79.42337 -0.30226439 -105.45223
9202062500 -1.3438268 133.87637 -8.8144865 -78.724449 -8.8118753 -79.507607 -0.2986975 -105.5231
9202125000 -1.34307 133.89294 -8.8261099 -78.78167 -8.820075 -79.412102 -0.31505996 -105.50468
9202187500 -1.3361681 133.86076 -8.8202276 -78.740761 -8.815732 -79.432907 -0.30602461 -105.43327
9202250000 -1.3471196 133.84187 -8.833065 -78.752007 -8.8176384 -79.401077 -0.30708468 -105.45222
9202312500 -1.3370366 133.82527 -8.8194475 -78.669662 -8.8153286 -79.486916 -0.30608869 -105.46889
9202375000 -1.3404886 133.78581 -8.8190899 -78.729813 -8.8096609 -79.485886 -0.31505752 -105.41586
9202437500 -1.3446833 133.79895 -8.8235817 -78.71656 -8.8047791 -79.484138 -0.30242828 -105.48061
9202500000 -1.3484486 133.77332 -8.8233471 -78.724716 -8.8207226 -79.448753 -0.30674472 -105.43954
9202562500 -1.3347067 133.74829 -8.811697 -78.686264 -8.8211021 -79.433884 -0.32073277 -105.37613
9202625000 -1.3456235 133.81276 -8.8231039 -78.725479 -8.8088026 -79.427513 -0.3104676 -105.34955
9202687500 -1.3419698 133.73904 -8.819313 -78.706757 -8.8099155 -79.40313 -0.29962748 -105.27068
9202750000 -1.3318055 133.68521 -8.8125992 -78.764732 -8.808918 -79.484428 -0.30630502 -105.32236
9202812500 -1.3448457 133.68858 -8.8128166 -78.766808 -8.7952051 -79.534431 -0.30139029 -105.29987
9202875000 -1.3374902 133.65573 -8.8119831 -78.693428 -8.8065987 -79.450363 -0.30104741 -105.26496
9202937500 -1.3391092 133.66212 -8.804368 -78.82415 -8.8021603 -79.438843 -0.30930522 -105.27309
9203000000 -1.3459653 133.69139 -8.8156233 -78.716408 -8.8076992 -79.46373 -0.3028678 -105.16696
9203062500 -1.3374001 133.63242 -8.8143377 -78.718407 -8.8040142 -79.446655 -0.3120138 -105.24696
9203125000 -1.3441782 133.59531 -8.8139286 -78.74765 -8.7885427 -79.46048 -0.30611384 -105.24626
9203187500 -1.3423518 133.5891 -8.8067102 -78.774742 -8.8031664 -79.499817 -0.30732718 -105.2263
9203250000 -1.3454984 133.56155 -8.807725 -78.707664 -8.8046522 -79.53849 -0.30780497 -105.23708
9203312500 -1.3481551 133.62624 -8.8106327 -78.645714 -8.7943802 -79.48407 -0.29885778 -105.15053
9203375000 -1.345174 133.56506 -8.8093576 -78.750687 -8.7974043 -79.466042 -0.30958948 -105.11076
9203437500 -1.3473917 133.57758 -8.8125248 -78.761917 -8.7971649 -79.411438 -0.30684406 -105.1653
9203500000 -1.334648 133.55063 -8.7918434 -78.714745 -8.8011856 -79.453331 -0.30556169 -105.14024
9203562500 -1.349337 133.55103 -8.8145275 -78.7257 -8.811799 -79.527611 -0.32445836 -105.16901
9203625000 -1.3466355 133.53419 -8.8116808 -78.706009 -8.7964725 -79.448929 -0.30786693 -105.12218
9203687500 -1.3509082 133.49153 -8.8257351 -78.733551 -8.8070221 -79.434868 -0.31507465 -105.09524
9203750000 -1.3452578 133.49248 -8.8010683 -78.740288 -8.7964773 -79.409973 -0.30144995 -105.0556
9203812500 -1.3433652 133.49376 -8.7981157 -78.785561 -8.7945633 -79.48922 -0.30936509 -105.04268
9203875000 -1.342999 133.45557 -8.8012047 -78.71418 -8.796771 -79.471291 -0.32219574 -105.07103
9203937500 -1.3500077 133.44781 -8.793458 -78.730408 -8.7948627 -79.448425 -0.30834693 -105.03855
9204000000 -1.3443822 133.40479 -8.8021479 -78.795097 -8.7938042 -79.422516 -0.31090543 -104.9649
9204062500 -1.3383211 133.43483 -8.7958193 -78.688904 -8.789772 -79.44873 -0.31773791 -104.95683
9204125000 -1.3460151 133.42355 -8.7958908 -78.660118 -8.7846498 -79.436584 -0.30301544 -104.92943
9204187500 -1.3559458 133.36974 -8.8129559 -78.730965 -8.8038712 -79.447403 -0.32075855 -104.94186
9204250000 -1.3501886 133.37276 -8.7937813 -78.686264 -8.7959776 -79.440651 -0.31858942 -104.95438
9204312500 -1.3441302 133.38171 -8.7991943 -78.696129 -8.7887211 -79.422707 -0.31954882 -104.87129
9204375000 -1.3381449 133.36488 -8.7940702 -78.660385 -8.7904196 -79.433197 -0.30933595 -104.92783
9204437500 -1.3578492 133.35902 -8.8011875 -78.730682 -8.7909393 -79.430084 -0.31048974 -104.87021
9204500000 -1.3485752 133.34172 -8.7958164 -78.726486 -8.8018017 -79.510178 -0.31767401 -104.91914
9204562500 -1.3499936 133.30687 -8.7948818 -78.767769 -8.7880602 -79.406349 -0.30327538 -104.87251
9204625000 -1.3365426 133.26454 -8.7909689 -78.696793 -8.7848072 -79.501114 -0.31538582 -104.80547
9204687500 -1.3457987 133.26358 -8.7959642 -78.719467 -8.7889662 -79.468674 -0.31607208 -104.82201
9204750000 -1.3484175 133.26505 -8.7860718 -78.626007 -8.7895355 -79.37117 -0.32925963 -104.76223
9204812500 -1.342069 133.28616 -8.7893314 -78.646233 -8.7863016 -79.458466 -0.31210381 -104.80437
9204875000 -1.3472917 133.3013 -8.7865858 -78.680061 -8.799962 -79.393402 -0.31919825 -104.77717
9204937500 -1.3458546 133.23505 -8.7896233 -78.772865 -8.7806091 -79.448692 -0.30970186 -104.73026
9205000000 -1.3420614 133.19809 -8.7854662 -78.629791 -8.777133 -79.356552 -0.33003005 -104.66161
9205062500 -1.3471341 133.18198 -8.7939062 -78.740013 -8.7772121 -79.38739 -0.3218056 -104.64816
9205125000 -1.3484521 133.18752 -8.7826843 -78.674118 -8.7878685 -79.382149 -0.32266027 -104.63423
9205187500 -1.3491628 133.23874 -8.7927771 -78.589638 -8.7791348 -79.401001 -0.31779322 -104.64853
9205250000 -1.3439755 133.1761 -8.7823114 -78.726372 -8.7850952 -79.431946 -0.32374042 -104.71085
9205312500 -1.3472707 133.20636 -8.7866287 -78.685089 -8.7825413 -79.391998 -0.31976661 -104.65046
9205375000 -1.3510678 133.13898 -8.7940302 -78.698769 -8.7873135 -79.43663 -0.31669068 -104.62857
9205437500 -1.3393862 133.13795 -8.7781878 -78.588402 -8.7773542 -79.362602 -0.31823394 -104.57016
9205500000 -1.3557137 133.06853 -8.7828989 -78.6772 -8.7695456 -79.489082 -0.31279045 -104.56057
9205562500 -1.3478643 133.06384 -8.7868052 -78.692184 -8.7733088 -79.466095 -0.31598195 -104.54198
9205625000 -1.3571151 133.08263 -8.7834444 -78.701996 -8.7736073 -79.398926 -0.31895301 -104.52794
9205687500 -1.3441159 133.0929 -8.7719002 -78.642136 -8.771759 -79.428658 -0.32113394 -104.50467
9205750000 -1.3494165 133.02715 -8.7813549 -78.726501 -8.7853956 -79.396248 -0.32288581 -104.47482
9205812500 -1.3515592 132.99844 -8.7726212 -78.684135 -8.7777939 -79.405022 -0.31796116 -104.42879
9205875000 -1.3428432 133.02986 -8.7736673 -78.683998 -8.7765541 -79.419403 -0.32190081 -104.53298
9205937500 -1.3458049 132.99162 -8.7750692 -78.704514 -8.7645283 -79.343163 -0.32162961 -104.44868
9206000000 -1.3498516 133.01138 -8.7712097 -78.698891 -8.7709408 -79.415352 -0.31326324 -104.44521
9206062500 -1.3473302 132.98441 -8.7752972 -78.757813 -8.7838221 -79.454903 -0.32865742 -104.4875
9206125000 -1.3513211 132.97171 -8.7765226 -78.764473 -8.7610178 -79.392708 -0.32240924 -104.39856
9206187500 -1.3454889 132.99211 -8.7717495 -78.722382 -8.7665253 -79.389458 -0.3170656 -104.37721
9206250000 -1.3538439 132.90834 -8.7781334 -78.758888 -8.7701674 -79.39003 -0.32435989 -104.40005
9206312500 -1.350275 132.87993 -8.7795029 -78.705261 -8.7683697 -79.485016 -0.32324079 -104.39091
9206375000 -1.3489865 132.89415 -8.7739992 -78.684341 -8.7579031 -79.366577 -0.3107793 -104.36564
9206437500 -1.3444902 132.89676 -8.7748117 -78.640739 -8.767025 -79.413696 -0.32567602 -104.38581
9206500000 -1.3536098 132.86267 -8.773304 -78.701202 -8.7613783 -79.373589 -0.32731783 -104.33894
9206562500 -1.3528172 132.87988 -8.7788601 -78.797226 -8.7678556 -79.397537 -0.32382396 -104.39575
9206625000 -1.3549031 132.7793 -8.7601624 -78.710052 -8.766737 -79.471878 -0.31971726 -104.3068
9206687500 -1.355646 132.86153 -8.7755957 -78.701271 -8.7601023 -79.449142 -0.31731445 -104.33934
9206750000 -1.3501011 132.84932 -8.7546921 -78.630142 -8.7698536 -79.340233 -0.32450661 -104.25638
9206812500 -1.3478361 132.87012 -8.7638016 -78.665932 -8.7589102 -79.38752 -0.32120046 -104.28918
9206875000 -1.351289 132.81668 -8.7687025 -78.732864 -8.7624207 -79.38327 -0.32474574 -104.19348
9206937500 -1.3556879 132.82349 -8.7745972 -78.677147 -8.7620649 -79.366837 -0.3234784 -104.17764
9207000000 -1.3504915 132.78233 -8.7728739 -78.685593 -8.7626238 -79.436256 -0.32167059 -104.19745
9207062500 -1.351815 132.76688 -8.7579384 -78.709335 -8.7539854 -79.377342 -0.32081217 -104.08775
9207125000 -1.3637098 132.73155 -8.7656641 -78.726387 -8.7581377 -79.444328 -0.32497683 -104.11947
9207187500 -1.3478042 132.69864 -8.7526493 -78.758331 -8.7663326 -79.362556 -0.3283419 -104.16077
9207250000 -1.351056 132.68747 -8.7629795 -78.682449 -8.7654734 -79.406395 -0.31792131 -104.18993
9207312500 -1.3450006 132.71738 -8.7612839 -78.723831 -8.7506723 -79.403008 -0.31847197 -104.13165
9207375000 -1.3583791 132.68951 -8.776967 -78.699516 -8.7568474 -79.399002 -0.32937598 -104.06766
9207437500 -1.3447806 132.76144 -8.7648296 -78.621063 -8.7650871 -79.365562 -0.32143518 -104.0547
9207500000 -1.3534708 132.67992 -8.7598515 -78.720039 -8.7438192 -79.323601 -0.3357918 -104.02726
9207562500 -1.3480703 132.68826 -8.7658663 -78.687859 -8.7499723 -79.348274 -0.33371916 -104.03519
9207625000 -1.3544978 132.61118 -8.756155 -78.58799 -8.7526093 -79.39315 -0.32846943 -103.95399
9207687500 -1.3584065 132.65462 -8.7560291 -78.668808 -8.7533684 -79.405022 -0.32963353 -104.02344
9207750000 -1.3545552 132.60091 -8.7579432 -78.674019 -8.7429781 -79.350227 -0.32236439 -103.98431
9207812500 -1.3540348 132.59596 -8.76334 -78.732071 -8.7422543 -79.374184 -0.32901314 -104.00915
9207875000 -1.3543289 132.61554 -8.7632198 -78.662086 -8.7508535 -79.414894 -0.32907638 -103.92484
9207937500 -1.3583935 132.49634 -8.7631645 -78.643768 -8.7477903 -79.409035 -0.33595729 -103.98277
9208000000 -1.3549595 132.54987 -8.749362 -78.685211 -8.7520952 -79.338516 -0.3275831 -103.90445
9208062500 -1.3523947 132.57251 -8.7533808 -78.634682 -8.7421198 -79.392113 -0.32632747 -103.88741
9208125000 -1.3551018 132.51221 -8.7476845 -78.651527 -8.7448902 -79.42572 -0.32912049 -103.89452
9208187500 -1.3496675 132.55521 -8.7563238 -78.649261 -8.7534962 -79.359909 -0.33250606 -103.89629
9208250000 -1.3685027 132.51689 -8.7619238 -78.633553 -8.7450628 -79.44873 -0.33837155 -103.8709
9208312500 -1.3560387 132.53555 -8.7591724 -78.64576 -8.7391987 -79.427414 -0.32874885 -103.83192
9208375000 -1.3627193 132.47209 -8.7481518 -78.677467 -8.7364922 -79.435249 -0.32609433 -103.81391
9208437500 -1.3594962 132.44467 -8.7607317 -78.734566 -8.7440491 -79.362015 -0.33987206 -103.80775
9208500000 -1.3586712 132.41354 -8.7542791 -78.654785 -8.7422724 -79.389786 -0.33549643 -103.77895
9208562500 -1.3584663 132.46051 -8.7474318 -78.625374 -8.7428236 -79.334435 -0.33416966 -103.72501
9208625000 -1.3536812 132.37059 -8.7360249 -78.695877 -8.741457 -79.305634 -0.34579051 -103.73508
9208687500 -1.3447326 132.38184 -8.7295561 -78.626076 -8.7427797 -79.401924 -0.3313078 -103.71264
9208750000 -1.3556607 132.40817 -8.7482605 -78.652237 -8.7342978 -79.363838 -0.33646706 -103.7172
9208812500 -1.3599877 132.50627 -8.7541304 -78.61055 -8.7450323 -79.370872 -0.33410725 -103.71138
9208875000 -1.352639 132.35101 -8.7445679 -78.648987 -8.7432222 -79.334312 -0.32531443 -103.64118
9208937500 -1.3533529 132.35793 -8.7344847 -78.68605 -8.7296696 -79.328987 -0.32631132 -103.66982
9209000000 -1.3502398 132.34402 -8.7465973 -78.664864 -8.730382 -79.363968 -0.34008625 -103.70296
9209062500 -1.3583965 132.34616 -8.737978 -78.654518 -8.7367039 -79.38121 -0.33582389 -103.62451
9209125000 -1.3616149 132.34921 -8.7431622 -78.638237 -8.7283478 -79.392342 -0.33066893 -103.57621
9209187500 -1.3598979 132.31163 -8.737607 -78.630836 -8.7308102 -79.34864 -0.33244878 -103.58605
9209250000 -1.3517243 132.25949 -8.7345467 -78.614983 -8.7320232 -79.432892 -0.34330487 -103.521
9209312500 -1.355316 132.22859 -8.7407541 -78.587639 -8.7244244 -79.35965 -0.33576974 -103.54758
9209375000 -1.3502243 132.27281 -8.7363062 -78.644897 -8.7482424 -79.316307 -0.34771711 -103.59222
9209437500 -1.367098 132.20024 -8.738615 -78.659378 -8.7271376 -79.408813 -0.33683011 -103.49139
9209500000 -1.3539824 132.2397 -8.7318792 -78.696693 -8.7407341 -79.377647 -0.34255469 -103.48058
9209562500 -1.3685024 132.20889 -8.7413435 -78.661537 -8.7302494 -79.358856 -0.34658167 -103.4239
9209625000 -1.3582793 132.14108 -8.7311544 -78.681358 -8.7241011 -79.366295 -0.34141257 -103.44581
9209687500 -1.3594234 132.08813 -8.7356558 -78.668823 -8.7242441 -79.325165 -0.33856368 -103.46031
9209750000 -1.358882 132.1403 -8.7271652 -78.74733 -8.7234364 -79.271698 -0.32798138 -103.43427
9209812500 -1.3617965 132.10199 -8.7360535 -78.657295 -8.730773 -79.365929 -0.33829767 -103.40451
9209875000 -1.3567142 132.17473 -8.7230167 -78.599823 -8.7171297 -79.33078 -0.33259118 -103.38621
9209937500 -1.3627285 132.22363 -8.7432337 -78.624161 -8.7270288 -79.313141 -0.34409848 -103.46282
9210000000 -1.3555683 132.08252 -8.722847 -78.614311 -8.7288666 -79.323059 -0.35765958 -103.32375
9210062500 -1.3636982 132.14647 -8.7378845 -78.659447 -8.7267914 -79.318687 -0.34304732 -103.32688
9210125000 -1.3565239 132.09792 -8.738946 -78.609207 -8.7190914 -79.285583 -0.34502593 -103.33958
9210187500 -1.3581184 132.10088 -8.726655 -78.657921 -8.7225475 -79.35244 -0.34563258 -103.30042
9210250000 -1.3598074 132.09119 -8.7262869 -78.663887 -8.7185707 -79.328804 -0.34619874 -103.31326
9210312500 -1.3651114 132.06436 -8.7295523 -78.609024 -8.7263594 -79.405174 -0.34252152 -103.34138
9210375000 -1.3553592 132.11307 -8.7285471 -78.643654 -8.7205019 -79.358063 -0.33822051 -103.23289
9210437500 -1.3553824 132.02765 -8.735199 -78.612732 -8.7160234 -79.3741 -0.3317138 -103.24158
9210500000 -1.3530596 131.98143 -8.7160473 -78.640076 -8.7105913 -79.407417 -0.33604509 -103.27556
9210562500 -1.3593709 131.98029 -8.7234039 -78.596611 -8.7128496 -79.411499 -0.34670404 -103.22691
9210625000 -1.3580725 132.01553 -8.7298307 -78.60025 -8.7217855 -79.255219 -0.34570497 -103.20947
9210687500 -1.3550631 131.98531 -8.7125959 -78.634789 -8.7175684 -79.412231 -0.34165576 -103.20152
9210750000 -1.35967 131.97174 -8.7186346 -78.650284 -8.7168036 -79.330521 -0.33990958 -103.15851
9210812500 -1.360589 131.94339 -8.7243776 -78.679649 -8.7153025 -79.298332 -0.35302758 -103.1498
9210875000 -1.3642514 131.93768 -8.7279348 -78.634613 -8.7064905 -79.337082 -0.34340677 -103.18556
9210937500 -1.3623629 131.93086 -8.7215176 -78.629005 -8.708703 -79.292664 -0.34829447 -103.13901
9211000000 -1.3591784 131.96786 -8.7268276 -78.601227 -8.7215166 -79.334419 -0.33932018 -103.09766
9211062500 -1.3602983 131.89021 -8.7168179 -78.567871 -8.7185669 -79.29998 -0.35372755 -103.10706
9211125000 -1.3563977 131.82425 -8.7125416 -78.640221 -8.7066107 -79.295113 -0.3358312 -103.03596
9211187500 -1.3696448 131.84059 -8.72188 -78.654335 -8.7038031 -79.266228 -0.34719762 -103.01363
9211250000 -1.3626156 131.86137 -8.7096796 -78.671028 -8.7092896 -79.259354 -0.33964172 -103.03798
9211312500 -1.362097 131.89091 -8.7156811 -78.611717 -8.7084837 -79.363617 -0.35175416 -103.08069
9211375000 -1.3600022 131.75955 -8.7079124 -78.677971 -8.7094517 -79.333717 -0.35586494 -102.94195
9211437500 -1.3592181 131.7915 -8.7112741 -78.614716 -8.7074614 -79.352921 -0.34890059 -102.96014
9211500000 -1.3635143 131.72743 -8.7139215 -78.592628 -8.708312 -79.301712 -0.34790727 -102.96365
9211562500 -1.3667156 131.81821 -8.7127495 -78.623322 -8.702754 -79.289963 -0.34582579 -102.98611
9211625000 -1.3658888 131.72681 -8.7081366 -78.750549 -8.7010059 -79.340622 -0.34308919 -102.91793
9211687500 -1.3652092 131.76491 -8.7088156 -78.603699 -8.6994476 -79.285416 -0.34892416 -102.87098
9211750000 -1.3654834 131.71556 -8.7050858 -78.593033 -8.6949635 -79.309853 -0.34094653 -102.86956
9211812500 -1.3649511 131.744 -8.7240667 -78.659821 -8.7057133 -79.350594 -0.35895246 -102.94562
9211875000 -1.3679986 131.65173 -8.708333 -78.715881 -8.6953239 -79.303146 -0.34776276 -102.83575
9211937500 -1.3641672 131.7114 -8.7026157 -78.633247 -8.7024012 -79.331505 -0.35629466 -102.85761
9212000000 -1.3622223 131.632 -8.6992893 -78.627495 -8.6985531 -79.391876 -0.35262159 -102.8141
9212062500 -1.3650568 131.6311 -8.709549 -78.582008 -8.6984892 -79.293289 -0.35285032 -102.83002
9212125000 -1.3578136 131.56639 -8.6952295 -78.679214 -8.7186613 -79.343826 -0.3537007 -102.79282
9212187500 -1.3585057 131.6163 -8.6956511 -78.602852 -8.6822214 -79.260033 -0.35635599 -102.73325
9212250000 -1.3651158 131.6004 -8.7103624 -78.653519 -8.6903429 -79.338898 -0.34585115 -102.76931
9212312500 -1.365087 131.58372 -8.7026453 -78.623047 -8.7024422 -79.259583 -0.35898346 -102.76398
