!Agilent Technologies,N5242A,MY51221714,A.09.90.19
!Agilent N5242A: A.09.90.19
!Date: Tuesday, March 26, 2024 16:32:01
!Correction: S11(Full 2 Port(1,2)) 
!S21(Full 2 Port(1,2)) 
!S12(Full 2 Port(1,2)) 
!S22(Full 2 Port(1,2)) 
!S2P File: Measurements: S11, S21, S12, S22:
# Hz S  dB   R 50
9200000000 -0.99890405 137.2766 -9.3045778 -72.595703 -9.2789078 -73.386848 0.0026773473 -103.11125
9200062500 -1.0013386 137.29271 -9.2903957 -72.727325 -9.2872162 -73.393303 0.0076927892 -103.11987
9200125000 -0.99726582 137.27512 -9.2816076 -72.639206 -9.2910309 -73.418137 -0.0023199685 -103.08778
9200187500 -1.0044501 137.28995 -9.2874222 -72.585854 -9.2771711 -73.409325 0.018995119 -103.0532
9200250000 -0.99706912 137.21956 -9.2788219 -72.684296 -9.276041 -73.419891 0.011746955 -103.12488
9200312500 -1.0093831 137.22401 -9.2837152 -72.68119 -9.2817202 -73.448372 0.0065417984 -103.09149
9200375000 -1.0086477 137.24564 -9.2885094 -72.574341 -9.2671499 -73.493652 0.017711828 -103.05432
9200437500 -1.0044769 137.21173 -9.2800102 -72.645012 -9.2723131 -73.432266 0.012836182 -102.98713
9200500000 -0.99620998 137.20761 -9.2857723 -72.670891 -9.2822084 -73.424347 -0.00064369239 -103.01802
9200562500 -0.99342114 137.17387 -9.2774124 -72.633049 -9.2867231 -73.373245 0.014077397 -103.02987
9200625000 -1.0046939 137.13913 -9.2841988 -72.633232 -9.2678947 -73.377579 0.0090542743 -102.99924
9200687500 -0.9941597 137.17081 -9.2789202 -72.591354 -9.275075 -73.328354 0.013566618 -102.8865
9200750000 -1.0043135 137.10641 -9.2917318 -72.641571 -9.2803869 -73.34565 0.0079685915 -102.94488
9200812500 -1.0151216 137.16534 -9.2882242 -72.582184 -9.2749491 -73.376541 -0.0090751974 -102.92465
9200875000 -1.002982 137.19905 -9.2879229 -72.558327 -9.2735138 -73.315575 0.0025702051 -102.93913
9200937500 -1.0079107 137.1465 -9.288703 -72.641235 -9.2740908 -73.384926 0.0040110881 -102.87662
9201000000 -0.99772745 137.0766 -9.2895327 -72.686493 -9.2742643 -73.372147 0.0092912838 -102.87862
9201062500 -1.0017051 137.08708 -9.2733469 -72.566544 -9.2655916 -73.440735 0.0059988522 -102.90234
9201125000 -0.99997199 137.05794 -9.2718353 -72.618866 -9.2713194 -73.391655 0.010175379 -102.8199
9201187500 -1.0033168 137.02696 -9.2750053 -72.590019 -9.2715006 -73.340515 -0.0037343523 -102.70069
9201250000 -1.0064721 137.06645 -9.2813616 -72.582863 -9.2716904 -73.364555 0.0018149351 -102.79162
9201312500 -1.0113909 137.04749 -9.279808 -72.638008 -9.2683649 -73.34642 0.0093048867 -102.77419
9201375000 -1.0083725 137.03403 -9.2762136 -72.656952 -9.2750778 -73.308296 -0.0037666771 -102.73445
9201437500 -1.0008978 136.99477 -9.2792673 -72.604256 -9.2766628 -73.347183 0.0023759366 -102.80056
9201500000 -1.0040119 137.01199 -9.2882872 -72.632751 -9.2789946 -73.317307 -0.0050156023 -102.73819
9201562500 -1.004083 136.96764 -9.2733459 -72.598534 -9.2797489 -73.284424 -0.014660052 -102.71235
9201625000 -1.0061065 136.9666 -9.2865782 -72.638763 -9.262702 -73.335564 -0.0079556098 -102.64607
9201687500 -1.0074887 136.93854 -9.2668314 -72.557152 -9.2723808 -73.313667 0.00029478373 -102.60162
9201750000 -1.0061463 136.94833 -9.2842121 -72.587601 -9.2612972 -73.367599 0.0084184455 -102.67487
9201812500 -1.008009 136.95731 -9.283493 -72.638573 -9.2619638 -73.370438 -0.0047081029 -102.7274
9201875000 -1.0046237 136.90282 -9.265049 -72.557968 -9.2525311 -73.331757 0.013384885 -102.58089
9201937500 -1.0130496 136.85588 -9.2762632 -72.594345 -9.2585659 -73.362602 0.0030841418 -102.59006
9202000000 -1.0057622 136.86972 -9.2751646 -72.62632 -9.2710209 -73.3536 -0.0040432252 -102.57941
9202062500 -1.006198 136.88528 -9.2625647 -72.582848 -9.2566071 -73.353081 0.0052277017 -102.57934
9202125000 -1.0091916 136.89148 -9.2790461 -72.62915 -9.268795 -73.330887 -0.00038285696 -102.59589
9202187500 -1.0037702 136.88614 -9.2706232 -72.605118 -9.2664108 -73.270653 0.0023677959 -102.44883
9202250000 -1.004434 136.86388 -9.2695608 -72.556038 -9.2521782 -73.287094 -0.0012368055 -102.47301
9202312500 -0.99932963 136.82368 -9.274004 -72.549042 -9.2557402 -73.347939 0.0056379451 -102.52479
9202375000 -1.0027833 136.7951 -9.2805109 -72.577461 -9.2500315 -73.326378 -0.00021074589 -102.44971
9202437500 -1.0050927 136.81866 -9.2640676 -72.555786 -9.2552176 -73.328819 0.0034371805 -102.49847
9202500000 -1.0145649 136.80537 -9.2733889 -72.62735 -9.270607 -73.341278 -0.0029499754 -102.49163
9202562500 -0.9977302 136.73877 -9.258976 -72.579277 -9.2689342 -73.320404 -0.011369717 -102.47129
9202625000 -1.0073953 136.82072 -9.265502 -72.589478 -9.2550516 -73.298447 -0.0026108874 -102.43664
9202687500 -1.0068804 136.76489 -9.2663193 -72.555443 -9.2472372 -73.315308 0.0057698968 -102.35536
9202750000 -0.99735367 136.70766 -9.2590551 -72.581451 -9.2545576 -73.307022 0.0017504845 -102.41037
9202812500 -1.007279 136.73441 -9.2707691 -72.564209 -9.2513676 -73.346741 0.00095373811 -102.32224
9202875000 -1.0006341 136.6861 -9.2542734 -72.547325 -9.2601805 -73.323166 0.0037599634 -102.28581
9202937500 -1.0052193 136.70848 -9.2672462 -72.617836 -9.2494717 -73.223389 0.0038720188 -102.30378
9203000000 -1.0026472 136.70905 -9.262702 -72.546127 -9.2593412 -73.314705 -0.0027188449 -102.25092
9203062500 -1.0028789 136.64413 -9.2583704 -72.523636 -9.2499046 -73.265511 -0.0023252943 -102.28431
9203125000 -0.9995808 136.62877 -9.2476435 -72.566986 -9.2560873 -73.35144 -0.0020272525 -102.29649
9203187500 -1.004136 136.65675 -9.2673836 -72.578751 -9.2474174 -73.32637 -0.0013885561 -102.26472
9203250000 -1.0040309 136.61588 -9.2560768 -72.507492 -9.2511978 -73.286186 -0.0028620602 -102.21915
9203312500 -1.0122513 136.6288 -9.2616806 -72.586868 -9.2442961 -73.318565 0.0084512839 -102.19368
9203375000 -1.0031576 136.62981 -9.2614374 -72.49971 -9.2425575 -73.311127 -0.0015335374 -102.18642
9203437500 -1.0152612 136.58032 -9.263279 -72.622551 -9.2453613 -73.300003 0.00081967469 -102.20953
9203500000 -1.0014762 136.5554 -9.2513409 -72.558792 -9.242156 -73.32959 0.0099618789 -102.23423
9203562500 -1.0132396 136.55321 -9.2661352 -72.57795 -9.2582273 -73.274788 -0.013243552 -102.17782
9203625000 -1.0105802 136.53378 -9.2638702 -72.614464 -9.2479219 -73.285782 -0.0067655505 -102.18048
9203687500 -1.0152768 136.52554 -9.2660065 -72.572281 -9.2605944 -73.29583 -0.011182304 -102.13448
9203750000 -1.010277 136.50056 -9.2578459 -72.521027 -9.2477655 -73.246239 0.0045161378 -102.06203
9203812500 -1.0095907 136.52843 -9.2525816 -72.577919 -9.2420864 -73.24855 -0.0051728296 -102.04699
9203875000 -1.0060252 136.52585 -9.2650833 -72.518082 -9.2576723 -73.30307 -0.01561015 -102.09001
9203937500 -1.0125611 136.47493 -9.2613039 -72.567734 -9.245347 -73.274704 -0.0027524284 -102.08252
9204000000 -1.0093961 136.49107 -9.253459 -72.50827 -9.2447805 -73.299805 -0.0017022275 -102.01991
9204062500 -1.0021433 136.46667 -9.2636414 -72.487404 -9.2332468 -73.218399 -0.0049667992 -101.96714
9204125000 -1.0075718 136.46059 -9.248332 -72.54689 -9.239749 -73.242195 0.0033818509 -101.95256
9204187500 -1.0147535 136.37323 -9.2632456 -72.551773 -9.2552595 -73.296555 -0.016058207 -101.9716
9204250000 -1.0138777 136.40642 -9.2498007 -72.528496 -9.2408314 -73.259575 -0.00072923477 -102.01804
9204312500 -1.0067655 136.40901 -9.2445917 -72.515968 -9.2342911 -73.24353 -0.0064468752 -101.85912
9204375000 -1.0016093 136.39151 -9.2557516 -72.589424 -9.2402849 -73.272873 -0.0074717375 -101.99634
9204437500 -1.0169629 136.42125 -9.2501383 -72.55024 -9.2389355 -73.258461 -0.0044589648 -101.95356
9204500000 -1.015432 136.39685 -9.2516079 -72.489395 -9.2446547 -73.28598 -0.0050296998 -101.91396
9204562500 -1.0067151 136.31934 -9.2509308 -72.584244 -9.2444353 -73.270271 -0.0011481788 -101.96487
9204625000 -0.99696338 136.31825 -9.2338657 -72.476639 -9.2390041 -73.30381 -0.0077648372 -101.81922
9204687500 -1.0087615 136.3288 -9.2524643 -72.504425 -9.231883 -73.240654 -0.0016708296 -101.81956
9204750000 -1.017735 136.33179 -9.2466993 -72.460503 -9.2392817 -73.217957 -0.018119305 -101.84713
9204812500 -0.99937922 136.27454 -9.242259 -72.526024 -9.23701 -73.316368 -0.00035164563 -101.81702
9204875000 -1.0074172 136.31218 -9.2425318 -72.563019 -9.2537451 -73.237885 -0.01293882 -101.88287
9204937500 -1.0012057 136.25569 -9.2367496 -72.550629 -9.234086 -73.235809 0.00051075302 -101.77686
9205000000 -0.99719971 136.22292 -9.2424021 -72.47187 -9.2391052 -73.261009 -0.021231052 -101.77311
9205062500 -1.0047139 136.20544 -9.245472 -72.597816 -9.225029 -73.245811 -0.0080839042 -101.70197
9205125000 -1.0075879 136.2377 -9.2403212 -72.522934 -9.2265081 -73.232361 -0.0046834536 -101.66592
9205187500 -1.0044334 136.24356 -9.2433376 -72.467552 -9.2457552 -73.24321 -0.018804692 -101.71863
9205250000 -1.009887 136.14694 -9.2488375 -72.544968 -9.2362862 -73.229042 -0.012923812 -101.74131
9205312500 -1.0020248 136.25069 -9.229578 -72.509308 -9.2292175 -73.192123 -0.019174015 -101.68996
9205375000 -1.0010866 136.14804 -9.2226162 -72.47541 -9.2415228 -73.211128 -0.0058722799 -101.653
9205437500 -1.0032719 136.17641 -9.2340431 -72.466537 -9.2288857 -73.265961 -0.0042367275 -101.69638
9205500000 -1.0140001 136.0901 -9.2371635 -72.486847 -9.228405 -73.23584 -0.0043202639 -101.56904
9205562500 -1.013074 136.15135 -9.234479 -72.468628 -9.224534 -73.240997 -0.0043711253 -101.58216
9205625000 -1.013128 136.13295 -9.2418213 -72.476357 -9.2318974 -73.210091 -0.0066764276 -101.53369
9205687500 -1.0023397 136.1257 -9.2344847 -72.468803 -9.2332726 -73.288177 -0.007932147 -101.56625
9205750000 -1.002491 136.07503 -9.2212877 -72.514252 -9.2348623 -73.214378 -0.0069786855 -101.49461
9205812500 -1.0102773 136.0555 -9.2305555 -72.542595 -9.231617 -73.237762 -0.0085689053 -101.48934
9205875000 -1.0006821 136.11433 -9.2280445 -72.449432 -9.2255058 -73.225151 -0.0069842278 -101.56116
9205937500 -1.0070064 136.04941 -9.2378922 -72.488472 -9.2226868 -73.139084 -0.011407485 -101.46022
9206000000 -1.0108159 136.0773 -9.2290268 -72.427841 -9.2350121 -73.200089 -0.0084751826 -101.40759
9206062500 -1.0065085 136.06589 -9.2279034 -72.524612 -9.2303753 -73.242554 -0.016188174 -101.46491
9206125000 -1.0063508 136.04045 -9.222229 -72.478943 -9.2232246 -73.142418 -0.015020942 -101.3952
9206187500 -1.0072008 136.03178 -9.2305708 -72.468575 -9.2282381 -73.187401 -0.004540531 -101.39421
9206250000 -1.0081048 135.94316 -9.2397766 -72.58075 -9.2229109 -73.173302 -0.014639726 -101.40538
9206312500 -0.99731839 135.91566 -9.2264643 -72.46978 -9.2277632 -73.266815 -0.0064926869 -101.39688
9206375000 -1.0072187 135.96977 -9.2305546 -72.466927 -9.2190065 -73.162735 -0.010921409 -101.36546
9206437500 -1.0046279 135.95905 -9.2315474 -72.417824 -9.228838 -73.203262 -0.016300119 -101.40154
9206500000 -1.0094616 135.91203 -9.2367125 -72.495453 -9.2207193 -73.137527 -0.018231291 -101.34943
9206562500 -1.0057137 135.93648 -9.2304583 -72.58812 -9.2210426 -73.156815 -0.016489115 -101.38264
9206625000 -1.0080404 135.8141 -9.217392 -72.520378 -9.2247467 -73.283035 -0.010135976 -101.35526
9206687500 -1.0054834 135.88521 -9.2297678 -72.517921 -9.2185602 -73.282661 -0.0024445427 -101.43426
9206750000 -1.005173 135.88667 -9.2123842 -72.482872 -9.2196465 -73.18557 -0.014680741 -101.33797
9206812500 -1.0001203 135.8782 -9.2258348 -72.460129 -9.2263527 -73.21524 -0.012667576 -101.33994
9206875000 -1.0159116 135.86626 -9.23209 -72.458153 -9.2141819 -73.138977 -0.0086593255 -101.18088
9206937500 -1.0076354 135.87471 -9.2189131 -72.430374 -9.2274714 -73.207413 -0.019970343 -101.21326
9207000000 -1.0077754 135.85318 -9.2238226 -72.452484 -9.2230339 -73.232483 -0.016807532 -101.18997
9207062500 -1.0040188 135.82495 -9.2127876 -72.451683 -9.2135143 -73.146965 -0.015235071 -101.12648
9207125000 -1.0178589 135.77824 -9.217905 -72.49659 -9.2130575 -73.187004 -0.016065586 -101.1282
9207187500 -1.0070863 135.76141 -9.2089844 -72.546532 -9.2212782 -73.125504 -0.010996988 -101.16293
9207250000 -1.0085341 135.76523 -9.2123241 -72.510986 -9.2138443 -73.171951 -0.0067003258 -101.14223
9207312500 -1.004301 135.75278 -9.2175465 -72.459793 -9.2203407 -73.087189 -0.0098013803 -101.08112
9207375000 -1.0179648 135.72435 -9.2278147 -72.442894 -9.2098274 -73.197075 -0.017285949 -101.0122
9207437500 -1.0024191 135.77882 -9.2237492 -72.412987 -9.227685 -73.139412 -0.016302457 -101.05306
9207500000 -1.0108602 135.77063 -9.2311916 -72.451668 -9.2100525 -73.128349 -0.022722268 -101.02335
9207562500 -1.0076803 135.746 -9.2222748 -72.443489 -9.2040491 -73.134415 -0.020125216 -101.05322
9207625000 -1.0111253 135.63147 -9.2157536 -72.466347 -9.2152166 -73.21302 -0.021852599 -101.04533
9207687500 -1.0144429 135.71255 -9.211134 -72.462326 -9.198597 -73.10743 -0.0085135754 -101.01395
9207750000 -1.0079303 135.6595 -9.2111139 -72.447556 -9.2112713 -73.130226 -0.0070947665 -100.98736
9207812500 -1.012225 135.65004 -9.2173443 -72.477051 -9.2104111 -73.125397 -0.021804608 -100.9848
9207875000 -1.009938 135.68938 -9.2209578 -72.361404 -9.2075396 -73.203613 -0.011201074 -100.94858
9207937500 -1.0143986 135.58179 -9.2190952 -72.468834 -9.2064209 -73.188217 -0.017752312 -101.00363
9208000000 -1.012867 135.60889 -9.2107639 -72.497986 -9.2090788 -73.130424 -0.01046147 -100.93971
9208062500 -1.0118276 135.60295 -9.2141724 -72.407387 -9.2070599 -73.199944 -0.014023577 -100.9249
9208125000 -1.0187821 135.55299 -9.217865 -72.426849 -9.2151423 -73.109222 -0.017131243 -100.87302
9208187500 -1.0047102 135.6066 -9.2180166 -72.433975 -9.2149363 -73.120842 -0.019701432 -100.85851
9208250000 -1.0171896 135.57361 -9.2084436 -72.361542 -9.2021732 -73.157402 -0.012669872 -100.85026
9208312500 -1.0082004 135.58725 -9.2219152 -72.399178 -9.1979237 -73.183678 -0.015771575 -100.89857
9208375000 -1.0103855 135.58459 -9.2119522 -72.433784 -9.2004366 -73.164742 -0.013297071 -100.83977
9208437500 -1.0104749 135.48352 -9.2017317 -72.457901 -9.204792 -73.111458 -0.022239173 -100.78408
9208500000 -1.0130709 135.4687 -9.2122364 -72.437531 -9.2077494 -73.176376 -0.018801659 -100.78309
9208562500 -1.0087055 135.5058 -9.1996841 -72.47789 -9.2053566 -73.141563 -0.020560024 -100.80503
9208625000 -1.0085611 135.46381 -9.1956921 -72.428116 -9.2092161 -73.078285 -0.027145917 -100.78024
9208687500 -1.0025395 135.46957 -9.1987238 -72.379272 -9.2026186 -73.142914 -0.015937125 -100.71719
9208750000 -1.0047055 135.47549 -9.197752 -72.392906 -9.1953697 -73.102188 -0.011174099 -100.71828
9208812500 -1.0121588 135.50653 -9.2070847 -72.419083 -9.2020044 -73.195404 -0.019942123 -100.72974
9208875000 -1.0059294 135.38947 -9.1997366 -72.460739 -9.2088652 -73.140877 -0.016853563 -100.71193
9208937500 -1.0111517 135.41072 -9.1985149 -72.451073 -9.1918364 -73.108109 -0.011894699 -100.6569
9209000000 -1.0050739 135.42352 -9.2076054 -72.423279 -9.1930771 -73.123283 -0.022662694 -100.70811
9209062500 -1.0123073 135.38585 -9.2061901 -72.401237 -9.2099276 -73.128639 -0.021462662 -100.62691
9209125000 -1.0130668 135.39735 -9.2043171 -72.422661 -9.1944847 -73.10495 -0.013639787 -100.58624
9209187500 -1.0089177 135.38988 -9.1903019 -72.372726 -9.2003002 -73.080406 -0.022852225 -100.61189
9209250000 -1.0051645 135.34091 -9.2081871 -72.354713 -9.1899929 -73.176376 -0.019070078 -100.49828
9209312500 -1.0096227 135.26306 -9.1997652 -72.384529 -9.1923809 -73.156845 -0.024538439 -100.57657
9209375000 -0.99889171 135.343 -9.195034 -72.388664 -9.2034531 -73.059669 -0.028662916 -100.55196
9209437500 -1.0144451 135.2695 -9.2051964 -72.368591 -9.1946774 -73.147812 -0.020299003 -100.50546
9209500000 -1.0103904 135.31625 -9.1988029 -72.41523 -9.1911554 -73.128426 -0.016987819 -100.47246
9209562500 -1.0185587 135.28136 -9.2058372 -72.376228 -9.197814 -73.096832 -0.028775968 -100.42886
9209625000 -1.01279 135.209 -9.2041731 -72.420631 -9.1889181 -73.125946 -0.01982899 -100.4519
9209687500 -1.0138165 135.19173 -9.1983252 -72.413101 -9.1965876 -73.050934 -0.024655292 -100.42194
9209750000 -1.0050036 135.18875 -9.1829414 -72.484978 -9.1975718 -73.126953 -0.016071374 -100.45783
9209812500 -1.006169 135.19077 -9.1905098 -72.418037 -9.1932955 -73.15023 -0.027141521 -100.42693
9209875000 -1.0088314 135.1907 -9.1880789 -72.413635 -9.1858768 -73.130089 -0.026626116 -100.4755
9209937500 -1.0098526 135.26703 -9.2086029 -72.370598 -9.1982174 -73.051025 -0.036272023 -100.45686
9210000000 -1.0055712 135.21899 -9.2008715 -72.307526 -9.1852713 -73.083107 -0.032139827 -100.357
9210062500 -1.0144855 135.15901 -9.1987896 -72.430855 -9.1830177 -73.118576 -0.022887312 -100.37989
9210125000 -1.0103208 135.15471 -9.2083502 -72.386932 -9.1832294 -73.078789 -0.021241391 -100.36948
9210187500 -1.0146011 135.20647 -9.1968374 -72.349419 -9.1827488 -73.082283 -0.021815311 -100.26144
9210250000 -1.0074807 135.1711 -9.184597 -72.390396 -9.180541 -73.020355 -0.024231952 -100.28259
9210312500 -1.0148685 135.14571 -9.1909084 -72.274193 -9.1834517 -73.086739 -0.022232581 -100.27217
9210375000 -1.0124702 135.17609 -9.1902943 -72.336456 -9.1845236 -73.088516 -0.024154952 -100.22775
9210437500 -1.0027486 135.11546 -9.2019987 -72.332268 -9.1868877 -73.193565 -0.02397071 -100.37608
9210500000 -1.0092319 135.0464 -9.1901045 -72.342232 -9.1788559 -73.102165 -0.014916454 -100.23056
9210562500 -1.0131276 135.05235 -9.1894674 -72.338242 -9.1884775 -73.120201 -0.027055195 -100.21819
9210625000 -1.0056993 135.04665 -9.1920786 -72.404533 -9.1967831 -73.071426 -0.032421917 -100.23367
9210687500 -1.0095325 135.06326 -9.1880054 -72.389404 -9.1793118 -73.119904 -0.02955899 -100.22043
9210750000 -1.0161201 135.05225 -9.1999569 -72.356552 -9.1818085 -73.03054 -0.022350881 -100.16633
9210812500 -1.0138839 134.99185 -9.1926508 -72.422211 -9.1809807 -72.995522 -0.029725144 -100.16237
9210875000 -1.007302 135.01563 -9.1950073 -72.326752 -9.1685476 -73.036987 -0.026090464 -100.17256
9210937500 -1.0076041 135.04614 -9.1855173 -72.302994 -9.1788416 -73.012169 -0.031388178 -100.1614
9211000000 -1.0079691 135.002 -9.1876297 -72.369644 -9.1949816 -73.068794 -0.027250051 -100.12154
9211062500 -1.0076329 135.01797 -9.1849985 -72.30098 -9.1838531 -73.072891 -0.031263314 -100.12063
9211125000 -1.009277 134.92706 -9.1827211 -72.353912 -9.1746521 -73.036781 -0.024580067 -100.0181
9211187500 -1.0105569 134.95775 -9.1871357 -72.31691 -9.1784868 -73.025414 -0.028762225 -100.0344
9211250000 -1.0128789 134.99065 -9.1760311 -72.352173 -9.1793003 -73.028145 -0.021945281 -100.01968
9211312500 -1.0093324 134.96255 -9.1911573 -72.260025 -9.183795 -73.042267 -0.035162572 -100.04556
9211375000 -1.002766 134.82315 -9.1799622 -72.317291 -9.1802044 -73.090607 -0.032525536 -99.982018
9211437500 -1.0073104 134.89641 -9.1679068 -72.281242 -9.1792345 -73.059845 -0.029511524 -99.989082
9211500000 -1.0137179 134.86945 -9.1897736 -72.341614 -9.1757021 -73.066483 -0.027750267 -100.00259
9211562500 -1.013772 134.89082 -9.1860561 -72.382507 -9.1670589 -73.054787 -0.030428501 -100.01795
9211625000 -1.0102489 134.83569 -9.1753149 -72.297676 -9.1700163 -73.068466 -0.021323232 -99.976158
9211687500 -1.0182756 134.86409 -9.1777887 -72.243011 -9.1730843 -73.073616 -0.031202799 -99.883545
9211750000 -1.0119244 134.7827 -9.1706982 -72.272591 -9.1723347 -72.981071 -0.027495384 -99.8395
9211812500 -1.0175369 134.79649 -9.1923704 -72.342224 -9.1654806 -73.028908 -0.035810612 -99.87886
9211875000 -1.0168837 134.73549 -9.1796999 -72.365326 -9.1617889 -72.964096 -0.024910862 -99.795784
9211937500 -1.0050628 134.8409 -9.1752415 -72.286057 -9.1693583 -73.041489 -0.030877329 -99.858078
9212000000 -1.0072907 134.69507 -9.1728544 -72.3209 -9.1650925 -73.004066 -0.03264574 -99.799698
9212062500 -1.0066063 134.73499 -9.1754208 -72.30912 -9.1730003 -73.015755 -0.038286086 -99.834305
9212125000 -1.0096816 134.68887 -9.1807594 -72.328499 -9.1821585 -72.981575 -0.033439051 -99.734344
9212187500 -1.0025364 134.74672 -9.1639376 -72.208336 -9.1624451 -73.019753 -0.033118796 -99.780548
