!Agilent Technologies,N5242A,MY51221714,A.09.90.19
!Agilent N5242A: A.09.90.19
!Date: Tuesday, March 26, 2024 16:33:33
!Correction: S11(Full 2 Port(1,2)) 
!S21(Full 2 Port(1,2)) 
!S12(Full 2 Port(1,2)) 
!S22(Full 2 Port(1,2)) 
!S2P File: Measurements: S11, S21, S12, S22:
# Hz S  dB   R 50
9200000000 -0.9973976 137.18059 -9.2909517 -72.623085 -9.2657585 -73.378738 0.0035114666 -103.05315
9200062500 -1.003857 137.1871 -9.2840252 -72.67086 -9.2684717 -73.404144 0.016289009 -103.06128
9200125000 -0.99595648 137.13055 -9.2706385 -72.669113 -9.2703009 -73.28627 0.0042177574 -102.96504
9200187500 -1.0055115 137.15463 -9.2855473 -72.596123 -9.2740612 -73.404526 0.013633392 -102.94483
9200250000 -0.99237114 137.13031 -9.2769785 -72.611786 -9.2726698 -73.312119 0.010412683 -102.99406
9200312500 -1.0053613 137.08865 -9.266736 -72.742691 -9.2714567 -73.35424 0.0096362932 -102.95622
9200375000 -1.0057752 137.05025 -9.2637491 -72.67804 -9.2676821 -73.391762 0.013098698 -102.93051
9200437500 -0.99938726 137.12041 -9.2748499 -72.601265 -9.2579088 -73.345413 0.01402592 -102.9354
9200500000 -0.99825364 137.05916 -9.2730722 -72.596855 -9.2721062 -73.315445 -0.00027167946 -102.87337
9200562500 -0.99219799 137.06955 -9.2765942 -72.568977 -9.2694273 -73.37709 0.011208579 -102.94461
9200625000 -1.0047278 137.03004 -9.2728548 -72.671181 -9.2619019 -73.313614 0.011189383 -102.87341
9200687500 -0.98985291 137.05591 -9.2587481 -72.58606 -9.2655849 -73.369064 0.01590996 -102.84327
9200750000 -0.99987227 136.95021 -9.271162 -72.680222 -9.2693758 -73.324448 0.0041515739 -102.81829
9200812500 -1.0112489 136.994 -9.2716799 -72.661331 -9.2643328 -73.326408 -0.0048662098 -102.83344
9200875000 -0.99428731 137.10698 -9.2621584 -72.571564 -9.272707 -73.34465 -0.0011531465 -102.8211
9200937500 -0.99968451 136.96724 -9.2641735 -72.638893 -9.2643957 -73.252831 0.012817157 -102.76589
9201000000 -0.99568927 136.95134 -9.2714653 -72.676216 -9.2577496 -73.386162 0.015239039 -102.78692
9201062500 -0.99990261 136.94528 -9.2777739 -72.592316 -9.2650681 -73.373718 0.0037905178 -102.77092
9201125000 -1.0063298 136.92491 -9.2733984 -72.592323 -9.269701 -73.369232 0.0058129882 -102.74136
9201187500 -1.004554 136.87337 -9.2712612 -72.637985 -9.2546806 -73.330421 0.0038782223 -102.6512
9201250000 -1.0051516 136.93976 -9.2674217 -72.541832 -9.2570076 -73.267128 0.0097605661 -102.65374
9201312500 -1.0101444 136.91032 -9.2669153 -72.593849 -9.2626963 -73.333832 0.007795928 -102.70294
9201375000 -1.011994 136.89619 -9.2702465 -72.468735 -9.2672319 -73.229912 0.0010061627 -102.66032
9201437500 -0.99973381 136.90134 -9.279562 -72.566719 -9.2672262 -73.324905 -0.0015198739 -102.69604
9201500000 -1.0094439 136.84734 -9.2614746 -72.621475 -9.2631617 -73.21373 0.0020617582 -102.61882
9201562500 -1.0010175 136.81636 -9.2639475 -72.568115 -9.26933 -73.270409 -0.0060121752 -102.60036
9201625000 -0.99931777 136.85757 -9.2664146 -72.563896 -9.2556887 -73.260681 -0.0018533494 -102.56064
9201687500 -1.0133085 136.84198 -9.262826 -72.476677 -9.2551098 -73.285507 0.0049789045 -102.48761
9201750000 -1.0036335 136.76904 -9.2611656 -72.571327 -9.245656 -73.314438 0.010977903 -102.54761
9201812500 -1.0035555 136.78867 -9.2712069 -72.613113 -9.2650995 -73.268684 -0.0094979117 -102.57127
9201875000 -1.0056713 136.74702 -9.2602034 -72.568802 -9.2504559 -73.287415 0.010542081 -102.47648
9201937500 -1.011467 136.70821 -9.2635622 -72.527908 -9.2486362 -73.38324 0.012026623 -102.57281
9202000000 -1.0048378 136.72638 -9.247386 -72.541824 -9.2501783 -73.282707 0.010046419 -102.47361
9202062500 -1.011712 136.76343 -9.2676306 -72.580978 -9.2526178 -73.322365 0.010963036 -102.4414
9202125000 -1.0083801 136.76524 -9.2765875 -72.57444 -9.252552 -73.201645 0.0018962073 -102.44873
9202187500 -0.99958801 136.68512 -9.2563934 -72.661476 -9.2584209 -73.278801 0.0069708787 -102.38635
9202250000 -1.0083119 136.68956 -9.2623339 -72.62912 -9.2524996 -73.218613 -0.0056562368 -102.40543
9202312500 -0.99508965 136.69038 -9.2505512 -72.564209 -9.2520552 -73.255791 0.00093677669 -102.39258
9202375000 -1.0035927 136.67154 -9.2689829 -72.542953 -9.24611 -73.329185 -0.0082643414 -102.39148
9202437500 -1.0074763 136.7067 -9.2640381 -72.566841 -9.248807 -73.231865 0.0019806116 -102.40341
9202500000 -1.0047028 136.63954 -9.2545137 -72.604645 -9.2581673 -73.323524 0.0008187379 -102.39006
9202562500 -0.99783778 136.61003 -9.2548532 -72.525787 -9.2569494 -73.252731 -0.0093098711 -102.35378
9202625000 -1.0022495 136.66267 -9.2527351 -72.579018 -9.2472782 -73.271187 -0.00093123748 -102.33208
9202687500 -1.0031548 136.62505 -9.2498856 -72.507225 -9.2506828 -73.290489 0.0065666749 -102.26128
9202750000 -0.99491692 136.55513 -9.2442207 -72.536644 -9.2430744 -73.285728 0.0051981313 -102.2878
9202812500 -1.0041245 136.57837 -9.2558784 -72.557457 -9.2415838 -73.317451 -0.00016634307 -102.27634
9202875000 -1.0027881 136.53247 -9.251503 -72.519661 -9.2558708 -73.291672 -0.0030172453 -102.22673
9202937500 -0.99269128 136.55086 -9.239975 -72.615036 -9.2410917 -73.258034 -0.0015366622 -102.24522
9203000000 -1.0049795 136.55803 -9.2483177 -72.544579 -9.2506533 -73.234077 -0.0010652406 -102.15497
9203062500 -1.0070323 136.4901 -9.249094 -72.55571 -9.2411327 -73.226845 -0.0024715627 -102.24545
9203125000 -1.0022345 136.46661 -9.2561712 -72.562088 -9.2398558 -73.267242 -0.0014934752 -102.20892
9203187500 -1.0004103 136.45935 -9.2486477 -72.550911 -9.2341204 -73.289726 0.0086151073 -102.20333
9203250000 -0.99954635 136.44479 -9.237834 -72.527977 -9.2358494 -73.234329 -7.618597e-005 -102.16326
9203312500 -1.0089422 136.48422 -9.2558947 -72.557083 -9.2333536 -73.266747 0.0091017438 -102.13357
9203375000 -1.00219 136.46205 -9.2475872 -72.481186 -9.2386951 -73.261551 0.0034602222 -102.07253
9203437500 -1.0123821 136.45271 -9.2515554 -72.54715 -9.2438459 -73.250458 0.0047974987 -102.12079
9203500000 -1.0009456 136.40852 -9.2481232 -72.494911 -9.2414045 -73.262077 -0.0034072474 -102.09019
9203562500 -1.0109991 136.42458 -9.2652521 -72.525093 -9.2501402 -73.302338 -0.017450152 -102.10679
9203625000 -1.0102593 136.38879 -9.2603855 -72.571754 -9.2358236 -73.230072 -0.0018241222 -102.07021
9203687500 -1.0117805 136.38951 -9.2525129 -72.536224 -9.2490044 -73.176987 -0.0063597318 -102.01256
9203750000 -1.007036 136.36684 -9.2421303 -72.527718 -9.2372389 -73.264595 0.012431156 -101.98876
9203812500 -1.0050118 136.39888 -9.239172 -72.519264 -9.241991 -73.208038 -0.0051261629 -101.9615
9203875000 -0.99982357 136.37917 -9.2481308 -72.490547 -9.2449512 -73.253464 -0.01662048 -101.97784
9203937500 -1.005623 136.33282 -9.2410727 -72.572212 -9.2421789 -73.176514 -0.001724121 -101.94983
9204000000 -1.0032455 136.30788 -9.2398767 -72.59198 -9.2425747 -73.231659 -0.004477575 -101.92323
9204062500 -1.0003307 136.35243 -9.2508554 -72.435104 -9.237771 -73.22274 -0.008116194 -101.91938
9204125000 -1.0160116 136.31244 -9.2445879 -72.533821 -9.2330723 -73.236534 0.00094241725 -101.89725
9204187500 -1.0093282 136.2135 -9.2423906 -72.546249 -9.2287254 -73.202095 -0.0064419638 -101.89125
9204250000 -1.010628 136.28529 -9.2291832 -72.549782 -9.2311201 -73.245148 0.0039473986 -101.9216
9204312500 -1.0076915 136.3161 -9.2355423 -72.432549 -9.2282572 -73.245148 -0.010170328 -101.79618
9204375000 -1.0009402 136.24426 -9.2395411 -72.547722 -9.229104 -73.211197 -0.0027967889 -101.89857
9204437500 -1.0124272 136.25871 -9.2431812 -72.467056 -9.2308064 -73.139412 0.0048509445 -101.75353
9204500000 -1.0112765 136.276 -9.2434597 -72.450111 -9.2424316 -73.277054 -0.011733995 -101.84648
9204562500 -1.0038109 136.20596 -9.243639 -72.541046 -9.2304029 -73.232056 -0.0056668599 -101.82429
9204625000 -0.99405962 136.17422 -9.2308073 -72.395424 -9.2238407 -73.257248 -0.0052383938 -101.72985
9204687500 -1.0062973 136.14209 -9.2370243 -72.504036 -9.2275124 -73.163788 -0.0018592242 -101.73983
9204750000 -1.0156028 136.17172 -9.2469912 -72.481461 -9.2380552 -73.206573 -0.016614966 -101.73792
9204812500 -1.0001738 136.1333 -9.2398176 -72.463074 -9.2286272 -73.242256 -0.0021399257 -101.72791
9204875000 -1.0024943 136.19696 -9.2278061 -72.475914 -9.2495804 -73.149422 -0.014706231 -101.72367
9204937500 -1.0013927 136.14792 -9.2249804 -72.523415 -9.2247524 -73.236893 0.0032481411 -101.70147
9205000000 -0.99813098 136.07335 -9.2407484 -72.41629 -9.2219448 -73.184395 -0.020246714 -101.62469
9205062500 -1.0053616 136.07368 -9.2418184 -72.496773 -9.2178936 -73.217911 -0.0087452866 -101.64054
9205125000 -1.0061444 136.07828 -9.2288256 -72.454788 -9.2192736 -73.206818 -0.0022787298 -101.57601
9205187500 -1.0034932 136.09654 -9.2310543 -72.423546 -9.2241039 -73.22097 -0.011414224 -101.60408
9205250000 -1.0033926 136.08296 -9.2371979 -72.499588 -9.2326469 -73.156311 -0.014212658 -101.6245
9205312500 -1.008118 136.10728 -9.231123 -72.430824 -9.2225075 -73.196671 -0.011208863 -101.5984
9205375000 -1.0081921 136.01042 -9.2263718 -72.410576 -9.2267694 -73.168976 -0.0047513857 -101.53394
9205437500 -0.99757409 136.0325 -9.2107811 -72.47226 -9.2341814 -73.243423 -0.0085976096 -101.58708
9205500000 -1.0144818 135.93652 -9.2207623 -72.496109 -9.2151966 -73.253906 0.003794631 -101.46754
9205562500 -1.0080565 136.00386 -9.2277842 -72.534851 -9.2237396 -73.222153 -0.010232918 -101.48679
9205625000 -1.0151396 135.9836 -9.2282896 -72.475716 -9.2230959 -73.187256 -0.01003604 -101.42308
9205687500 -1.0056849 136.00488 -9.2271156 -72.479164 -9.2243528 -73.276443 -0.012098454 -101.48499
9205750000 -1.0091188 135.92368 -9.2195301 -72.555885 -9.2222166 -73.165413 -0.0042965305 -101.41866
9205812500 -1.0068095 135.8877 -9.2055788 -72.42141 -9.2183027 -73.208366 -0.008750191 -101.39548
9205875000 -0.99854982 135.92067 -9.2276363 -72.535744 -9.2289343 -73.121872 -0.014899363 -101.45814
9205937500 -1.0017115 135.88031 -9.2269306 -72.475143 -9.2195444 -73.133247 -0.011380334 -101.38495
9206000000 -1.009733 135.89143 -9.2036047 -72.454002 -9.2176552 -73.173317 -0.0026181024 -101.34628
9206062500 -1.0064003 135.90813 -9.2224855 -72.519829 -9.2202587 -73.170662 -0.012067572 -101.39638
9206125000 -1.0006415 135.8902 -9.2106857 -72.416306 -9.2126646 -73.063171 -0.012243169 -101.30599
9206187500 -0.99961424 135.85342 -9.2139339 -72.431465 -9.215889 -73.127533 -0.0027738472 -101.30958
9206250000 -1.0108355 135.77686 -9.2327156 -72.529495 -9.2199345 -73.100861 -0.011353031 -101.34306
9206312500 -0.99960101 135.78326 -9.2134895 -72.471474 -9.2163973 -73.239609 -0.0071851001 -101.33347
9206375000 -1.0056598 135.81879 -9.2207518 -72.476814 -9.2135954 -73.134521 -0.00836425 -101.31701
9206437500 -1.0058944 135.75533 -9.2281475 -72.497269 -9.2225838 -73.159119 -0.014669291 -101.3259
9206500000 -1.0138046 135.7928 -9.2193995 -72.488365 -9.208725 -73.102982 -0.016362522 -101.24261
9206562500 -1.0090871 135.75439 -9.2219486 -72.50029 -9.2118082 -73.099525 -0.015644018 -101.24133
9206625000 -1.0078844 135.71828 -9.2024555 -72.437531 -9.2176628 -73.177032 -0.012524033 -101.22307
9206687500 -1.0104793 135.77805 -9.218401 -72.474106 -9.2135849 -73.160324 0.00042029208 -101.28247
9206750000 -1.0052633 135.76131 -9.2118587 -72.382149 -9.2148104 -73.05584 -0.0075978595 -101.19485
9206812500 -1.0045949 135.78386 -9.2177839 -72.434937 -9.214592 -73.117661 -0.0044533536 -101.20444
9206875000 -1.0067873 135.73886 -9.2201567 -72.378464 -9.2125454 -73.072899 -0.0064590364 -101.07656
9206937500 -1.0047058 135.7218 -9.2035408 -72.427788 -9.2088394 -73.112144 -0.006346554 -101.10336
9207000000 -1.0030785 135.69679 -9.214879 -72.49086 -9.2193098 -73.164894 -0.019707642 -101.15021
9207062500 -1.0057864 135.67206 -9.2149143 -72.429871 -9.2010317 -73.096046 -0.009889964 -101.01431
9207125000 -1.0179913 135.64014 -9.2167807 -72.423485 -9.1949368 -73.109718 -0.0045582904 -101.01056
9207187500 -1.0025811 135.61089 -9.1977091 -72.542015 -9.2203627 -73.140945 -0.01441003 -101.09312
9207250000 -1.008623 135.64192 -9.2144804 -72.41346 -9.2048473 -73.176376 -0.0060671284 -101.12408
9207312500 -1.004957 135.57976 -9.2129478 -72.523155 -9.195631 -73.193062 -0.0021439923 -101.05676
9207375000 -1.0186803 135.59006 -9.2152529 -72.460617 -9.1999083 -73.112312 -0.011677449 -100.99007
9207437500 -1.0003364 135.63933 -9.2070398 -72.375771 -9.2144375 -73.132851 -0.0099707842 -101.00019
9207500000 -1.0106868 135.59737 -9.2074766 -72.435013 -9.1933546 -73.089439 -0.016724769 -100.96027
9207562500 -1.002174 135.56133 -9.2042513 -72.455093 -9.1938448 -73.059349 -0.014455253 -100.96152
9207625000 -1.0079455 135.49252 -9.1980572 -72.454247 -9.1993132 -73.096634 -0.014206852 -100.84528
9207687500 -1.012684 135.55847 -9.2067194 -72.415268 -9.1966467 -73.110687 -0.0068625323 -100.91576
9207750000 -1.0060288 135.56876 -9.2033587 -72.376678 -9.1950607 -73.1446 -0.0088235494 -100.92004
9207812500 -1.0085338 135.53079 -9.215003 -72.4375 -9.1960411 -73.090317 -0.01501373 -100.85701
9207875000 -1.006013 135.5531 -9.2154102 -72.328171 -9.1964216 -73.174507 -0.015047459 -100.88081
9207937500 -1.0068641 135.47598 -9.2020111 -72.410652 -9.1972904 -73.241852 -0.013266224 -100.91582
9208000000 -1.0147887 135.47749 -9.2053375 -72.407204 -9.1978922 -73.107674 -0.015626408 -100.82825
9208062500 -1.0080864 135.44243 -9.2133627 -72.436035 -9.19841 -73.163078 -0.014770317 -100.84064
9208125000 -1.0119872 135.45647 -9.2082386 -72.43145 -9.192071 -73.160065 -0.01589945 -100.82786
9208187500 -1.0036108 135.41544 -9.1991043 -72.45652 -9.1979599 -73.061913 -0.014304512 -100.77023
9208250000 -1.0090727 135.43085 -9.2128897 -72.383423 -9.2014923 -73.090805 -0.020747749 -100.7561
9208312500 -0.99889225 135.42491 -9.2054615 -72.449646 -9.1832447 -73.08503 -0.010518108 -100.74279
9208375000 -1.0121238 135.43695 -9.2040319 -72.355476 -9.1919403 -73.059052 -0.014551785 -100.66912
9208437500 -1.0080184 135.31651 -9.2023754 -72.430328 -9.1944809 -73.063713 -0.02093428 -100.72901
9208500000 -1.0069793 135.33992 -9.1942568 -72.394157 -9.1859608 -73.165237 -0.015230767 -100.72238
9208562500 -1.0127312 135.38446 -9.1930017 -72.384811 -9.199564 -73.133667 -0.017300563 -100.71144
9208625000 -1.0078723 135.30971 -9.1833868 -72.393814 -9.1917419 -73.094978 -0.024100265 -100.72208
9208687500 -1.0043675 135.34103 -9.190671 -72.367874 -9.1875229 -73.08857 -0.014844087 -100.59203
9208750000 -1.0080041 135.34285 -9.1970015 -72.403511 -9.1931953 -73.040154 -0.020965954 -100.64898
9208812500 -1.009325 135.33231 -9.1940489 -72.341148 -9.1961317 -73.046303 -0.012392207 -100.57958
9208875000 -1.0051569 135.26109 -9.1876764 -72.369301 -9.1976919 -73.076454 -0.020716293 -100.58232
9208937500 -1.0058308 135.27583 -9.1869249 -72.421135 -9.1876802 -73.050995 -0.016436597 -100.55701
9209000000 -1.0020454 135.2688 -9.1940746 -72.36618 -9.1914434 -73.091064 -0.022281939 -100.60852
9209062500 -1.0115503 135.26108 -9.1968994 -72.356033 -9.1991053 -73.018982 -0.024812704 -100.53606
9209125000 -1.0116286 135.22989 -9.1975746 -72.394699 -9.1878443 -73.058365 -0.017782766 -100.50151
9209187500 -1.009537 135.24744 -9.1862049 -72.392685 -9.196126 -73.078804 -0.022254728 -100.55582
9209250000 -1.0040803 135.20718 -9.1839142 -72.348709 -9.1919413 -73.113716 -0.026022363 -100.44199
9209312500 -1.008091 135.13501 -9.1911535 -72.387459 -9.188076 -73.08947 -0.023633173 -100.51811
9209375000 -0.99924165 135.19926 -9.1862383 -72.34182 -9.1883698 -73.008179 -0.028140202 -100.44812
9209437500 -1.0166347 135.16277 -9.1933784 -72.340836 -9.1853075 -73.082253 -0.019454127 -100.36344
9209500000 -1.0093502 135.16747 -9.190486 -72.350777 -9.1796579 -73.045113 -0.019684514 -100.34447
9209562500 -1.0137221 135.14609 -9.1928225 -72.354416 -9.1868229 -73.034927 -0.030537019 -100.33916
9209625000 -1.0146075 135.06213 -9.187212 -72.402748 -9.1811409 -73.079872 -0.014157309 -100.37157
9209687500 -1.0094995 135.06326 -9.1827383 -72.414085 -9.1864347 -73.018005 -0.028289143 -100.33736
9209750000 -1.0119917 135.07878 -9.1844397 -72.421295 -9.1880207 -73.049728 -0.010145931 -100.35545
9209812500 -1.0058699 135.0426 -9.1830091 -72.356743 -9.1874075 -73.071053 -0.025565131 -100.27264
9209875000 -1.0082177 135.06506 -9.1834364 -72.326004 -9.1767931 -73.021126 -0.017706802 -100.29249
9209937500 -1.0113088 135.14281 -9.1999292 -72.337273 -9.188282 -73.084618 -0.030316634 -100.33109
9210000000 -1.0021298 135.03134 -9.1856318 -72.324699 -9.1779499 -73.029251 -0.031944521 -100.27427
9210062500 -1.0139629 135.0513 -9.1920328 -72.341499 -9.1767864 -73.054482 -0.025748493 -100.24488
9210125000 -1.0015113 135.01175 -9.1904545 -72.404236 -9.1713972 -73.068405 -0.01949859 -100.2813
9210187500 -1.0066589 135.03993 -9.1861258 -72.36174 -9.1716251 -72.996971 -0.02281761 -100.19233
9210250000 -1.0151588 135.02908 -9.1787481 -72.384689 -9.1702356 -72.977341 -0.02810164 -100.22121
9210312500 -1.0142579 134.95966 -9.1793299 -72.375862 -9.1770926 -73.12915 -0.020861918 -100.24187
9210375000 -1.003901 135.02133 -9.1769924 -72.259186 -9.1782351 -72.999924 -0.029195068 -100.08849
9210437500 -1.0019752 134.93335 -9.1821489 -72.3078 -9.1598969 -73.085892 -0.014855296 -100.19995
9210500000 -1.0002576 134.91872 -9.1739779 -72.393898 -9.1583719 -73.087616 -0.0091154957 -100.17775
9210562500 -1.0124712 134.91632 -9.1824179 -72.270401 -9.1787214 -73.075317 -0.023731554 -100.12617
9210625000 -1.0031658 134.92625 -9.1768475 -72.322289 -9.1740103 -73.058853 -0.025812849 -100.20065
9210687500 -1.0115571 134.90538 -9.1770239 -72.357887 -9.1758347 -73.032669 -0.024168486 -100.07304
9210750000 -1.0113326 134.87961 -9.1766806 -72.379471 -9.1683083 -73.010674 -0.022262704 -100.0593
9210812500 -1.0122849 134.84386 -9.1828661 -72.35273 -9.1624355 -72.93824 -0.025756033 -100.01312
9210875000 -1.0142686 134.87517 -9.177721 -72.326111 -9.1654139 -73.045517 -0.027185703 -100.11081
9210937500 -1.0067991 134.8826 -9.1760921 -72.312317 -9.1823397 -72.940529 -0.033938415 -100.01002
9211000000 -1.0087274 134.84155 -9.1803179 -72.333488 -9.1733551 -72.998154 -0.017863246 -100.03063
9211062500 -1.0005183 134.83029 -9.1727104 -72.324226 -9.1694136 -72.963921 -0.025102641 -99.982117
9211125000 -1.0043242 134.769 -9.163003 -72.391243 -9.1647005 -73.014702 -0.017416513 -99.993576
9211187500 -1.011844 134.80029 -9.1729269 -72.310486 -9.1716862 -72.95414 -0.034652591 -99.922173
9211250000 -1.014609 134.79437 -9.1664724 -72.361671 -9.1712093 -72.968666 -0.024313493 -99.972115
9211312500 -1.0101194 134.81557 -9.1710148 -72.237694 -9.1681957 -72.930077 -0.030518044 -99.897697
9211375000 -1.0061045 134.67635 -9.1665707 -72.35038 -9.1504002 -73.026253 -0.025573621 -99.8619
9211437500 -1.0090741 134.72649 -9.1660366 -72.34993 -9.1671724 -73.075188 -0.029992417 -99.897278
9211500000 -1.0149428 134.72066 -9.1826677 -72.28067 -9.1635447 -73.042793 -0.024406968 -99.932297
9211562500 -1.0126151 134.72539 -9.179801 -72.377487 -9.1642075 -73.025688 -0.030358788 -99.875565
9211625000 -1.0091112 134.64108 -9.1583128 -72.322098 -9.1521873 -73.065186 -0.014816988 -99.87339
9211687500 -1.011261 134.73985 -9.1666718 -72.239304 -9.1629705 -73.00248 -0.03012038 -99.797714
9211750000 -1.0083028 134.66478 -9.159112 -72.271835 -9.1642532 -72.986359 -0.024418375 -99.766212
9211812500 -1.0135502 134.68968 -9.1788301 -72.306046 -9.1625443 -72.958275 -0.038743004 -99.821671
9211875000 -1.017179 134.64873 -9.1664267 -72.312897 -9.1474476 -72.978073 -0.019338338 -99.739594
9211937500 -1.006565 134.67036 -9.1638336 -72.27121 -9.1559334 -72.977333 -0.027120898 -99.701286
9212000000 -1.0074096 134.57033 -9.1621161 -72.272652 -9.1550331 -73.030014 -0.032123961 -99.741646
9212062500 -1.015873 134.56367 -9.1689596 -72.281097 -9.1561708 -72.91449 -0.030104231 -99.650833
9212125000 -1.0118604 134.49956 -9.1643314 -72.373329 -9.1682758 -72.956764 -0.02980585 -99.69902
9212187500 -1.0038761 134.54549 -9.1575451 -72.322197 -9.1568832 -72.93161 -0.04288286 -99.640839
