!Agilent Technologies,N5242A,MY51221714,A.09.90.19
!Agilent N5242A: A.09.90.19
!Date: Tuesday, March 26, 2024 16:34:46
!Correction: S11(Full 2 Port(1,2)) 
!S21(Full 2 Port(1,2)) 
!S12(Full 2 Port(1,2)) 
!S22(Full 2 Port(1,2)) 
!S2P File: Measurements: S11, S21, S12, S22:
# Hz S  dB   R 50
9200000000 -0.98344707 137.91161 -9.3571301 -72.6502 -9.3314791 -73.270256 0.018655632 -103.56712
9200062500 -0.98923904 137.92957 -9.3615026 -72.64679 -9.3448124 -73.274246 0.022483578 -103.52184
9200125000 -0.98740327 137.93694 -9.3424196 -72.565521 -9.3364267 -73.307549 0.015353297 -103.50519
9200187500 -0.99836177 137.94691 -9.3527355 -72.534393 -9.3410625 -73.323822 0.027976802 -103.46526
9200250000 -0.9841792 137.90482 -9.3466253 -72.590477 -9.333765 -73.257072 0.02742924 -103.47552
9200312500 -0.99288243 137.85425 -9.350214 -72.636566 -9.3475332 -73.293037 0.020025805 -103.49553
9200375000 -0.99107099 137.84209 -9.344574 -72.593704 -9.3399839 -73.363731 0.027351197 -103.50495
9200437500 -0.99056834 137.89038 -9.3488579 -72.549835 -9.3273277 -73.35598 0.028026294 -103.45389
9200500000 -0.98725337 137.83762 -9.3566532 -72.558159 -9.3325529 -73.304131 0.012554335 -103.42134
9200562500 -0.98480117 137.84299 -9.3421221 -72.505287 -9.3456402 -73.274834 0.021210235 -103.40369
9200625000 -0.98568898 137.84395 -9.3498049 -72.531021 -9.3288965 -73.311211 0.023067201 -103.381
9200687500 -0.98145759 137.83344 -9.3394928 -72.480568 -9.3377323 -73.318138 0.019976657 -103.34248
9200750000 -0.98929125 137.76587 -9.3455095 -72.580406 -9.3311987 -73.293755 0.022842867 -103.40067
9200812500 -0.99893308 137.77361 -9.3502483 -72.5578 -9.3443003 -73.290581 0.0083249593 -103.35889
9200875000 -0.9828862 137.83316 -9.3334455 -72.533638 -9.3415823 -73.214958 0.010245664 -103.35191
9200937500 -0.98420566 137.77689 -9.3379412 -72.529495 -9.3253393 -73.326912 0.036379673 -103.30223
9201000000 -0.98350888 137.75015 -9.3377905 -72.606201 -9.3251543 -73.289749 0.022579625 -103.3171
9201062500 -0.98950791 137.69638 -9.3414726 -72.541046 -9.3215971 -73.288361 0.018693099 -103.30556
9201125000 -0.98758459 137.73643 -9.3452616 -72.503288 -9.342411 -73.252373 0.013720645 -103.2229
9201187500 -0.98739904 137.63185 -9.3361549 -72.486275 -9.3295116 -73.258972 0.016543012 -103.1574
9201250000 -0.99417114 137.71544 -9.3418055 -72.500999 -9.3426075 -73.229828 0.0086639291 -103.22375
9201312500 -1.0007969 137.64053 -9.3510017 -72.554253 -9.3417215 -73.309563 0.015742673 -103.18581
9201375000 -0.99982947 137.67273 -9.3457756 -72.470169 -9.3298187 -73.159195 0.015319333 -103.13791
9201437500 -0.99033892 137.67917 -9.3535414 -72.484192 -9.3405066 -73.27433 0.0074232351 -103.23182
9201500000 -0.99497014 137.66489 -9.3390675 -72.515099 -9.3381357 -73.232574 0.013438708 -103.16103
9201562500 -0.99580419 137.59 -9.3474016 -72.494141 -9.3401241 -73.240417 0.0041784309 -103.1833
9201625000 -0.99081033 137.63388 -9.3346615 -72.443161 -9.329875 -73.225113 0.0079466719 -103.0741
9201687500 -0.9978717 137.59784 -9.3365631 -72.545578 -9.3315973 -73.234428 0.013100385 -103.03056
9201750000 -0.9911747 137.60956 -9.3349323 -72.478249 -9.3242283 -73.174095 0.027918503 -103.0244
9201812500 -0.98443383 137.59801 -9.3303413 -72.538582 -9.3308954 -73.221794 0.0049608103 -103.10725
9201875000 -0.98734349 137.53995 -9.3296194 -72.567482 -9.327302 -73.256248 0.022638714 -103.01658
9201937500 -0.99788994 137.5162 -9.338582 -72.532684 -9.3271646 -73.305595 0.016581075 -103.06463
9202000000 -0.99796385 137.53412 -9.3369751 -72.525566 -9.3250904 -73.29261 0.020507881 -103.03315
9202062500 -0.9933362 137.5041 -9.3286476 -72.539856 -9.31285 -73.245422 0.02566685 -102.98477
9202125000 -0.99831641 137.5071 -9.3601685 -72.562859 -9.3382092 -73.187431 -0.00060461694 -103.00085
9202187500 -0.99111098 137.51746 -9.3281765 -72.508514 -9.3223372 -73.22023 0.018411679 -102.92023
9202250000 -0.98590857 137.45233 -9.3347082 -72.503586 -9.3290014 -73.163574 0.002322624 -102.86983
9202312500 -0.98740739 137.4884 -9.335248 -72.47477 -9.3238602 -73.187622 0.013386516 -102.91988
9202375000 -0.99102312 137.42371 -9.3338547 -72.485161 -9.3116627 -73.232925 0.019019546 -102.86616
9202437500 -0.99130768 137.48309 -9.3343363 -72.431351 -9.3300714 -73.203423 0.013878046 -102.89615
9202500000 -0.99657053 137.43221 -9.3339262 -72.516891 -9.3259201 -73.23703 0.013589459 -102.91154
9202562500 -0.98553413 137.37267 -9.3267965 -72.51268 -9.3186121 -73.217995 0.003270257 -102.86069
9202625000 -0.994569 137.46194 -9.3212118 -72.510498 -9.3171301 -73.237091 0.0083860485 -102.87
9202687500 -0.99508756 137.41078 -9.3280058 -72.451958 -9.3094349 -73.17067 0.019526593 -102.76698
9202750000 -0.97690099 137.32773 -9.3040333 -72.480278 -9.3221626 -73.210663 0.015708966 -102.81868
9202812500 -0.99427909 137.37804 -9.3309946 -72.456833 -9.3245697 -73.318596 0.013536221 -102.77544
9202875000 -0.98516935 137.33147 -9.3217974 -72.467972 -9.3145761 -73.235321 0.022344282 -102.73358
9202937500 -0.98534507 137.32872 -9.3246641 -72.507538 -9.3097305 -73.170319 0.016670724 -102.72869
9203000000 -0.9946205 137.38039 -9.3207741 -72.530113 -9.3087301 -73.220436 0.015859127 -102.65653
9203062500 -0.98941445 137.27014 -9.3159819 -72.553139 -9.3152056 -73.128456 0.0084893666 -102.72545
9203125000 -0.99076486 137.23546 -9.3205061 -72.532188 -9.302227 -73.215889 0.012994095 -102.72174
9203187500 -0.99207056 137.29642 -9.3231916 -72.486244 -9.3056765 -73.26915 0.0084097758 -102.67609
9203250000 -0.9913649 137.28371 -9.320014 -72.453568 -9.3082371 -73.167885 0.014312757 -102.60127
9203312500 -0.99805254 137.26709 -9.3358784 -72.499001 -9.3114424 -73.234985 0.019617015 -102.63441
9203375000 -0.99087512 137.24892 -9.3200636 -72.479904 -9.3073082 -73.166595 0.013097474 -102.59374
9203437500 -0.99894834 137.26109 -9.3371601 -72.496788 -9.3127317 -73.216217 0.014337183 -102.6898
9203500000 -0.98577106 137.22899 -9.3156109 -72.492043 -9.3113337 -73.179733 0.022390638 -102.60069
9203562500 -0.99607992 137.19418 -9.3289261 -72.433182 -9.3217096 -73.180092 -0.0012231594 -102.61066
9203625000 -0.99478805 137.21541 -9.3290873 -72.469727 -9.3091097 -73.174812 0.001268542 -102.60688
9203687500 -0.99793297 137.16467 -9.3284864 -72.457664 -9.321207 -73.167213 0.0083211269 -102.56754
9203750000 -0.99042684 137.14308 -9.3250904 -72.456924 -9.3137159 -73.177277 0.014995254 -102.51784
9203812500 -0.99255055 137.16757 -9.3114204 -72.485947 -9.317421 -73.217247 0.0044264505 -102.50665
9203875000 -0.98796934 137.17456 -9.3146992 -72.405426 -9.3085117 -73.236725 -0.0014960286 -102.54517
9203937500 -1.0003039 137.10277 -9.3163252 -72.492104 -9.3141689 -73.094078 0.0083462019 -102.50688
9204000000 -0.99017912 137.1058 -9.3059044 -72.441254 -9.3193264 -73.091637 0.0097486386 -102.38765
9204062500 -0.98796958 137.12642 -9.307312 -72.366768 -9.3006821 -73.18969 0.0110278 -102.39309
9204125000 -0.99394429 137.0923 -9.3099461 -72.442329 -9.3044138 -73.144493 0.012454927 -102.42502
9204187500 -1.0008266 137.03056 -9.3195801 -72.474884 -9.3123293 -73.200417 9.695303e-005 -102.42159
9204250000 -0.9975571 137.08806 -9.31003 -72.435204 -9.3044386 -73.135597 0.01156961 -102.40637
9204312500 -0.99793303 137.0977 -9.3110228 -72.452286 -9.3028889 -73.217621 0.0087543065 -102.32626
9204375000 -0.98911756 137.05122 -9.3128128 -72.418449 -9.3049021 -73.163826 0.008365293 -102.37148
9204437500 -1.0050225 137.06905 -9.3163252 -72.429863 -9.3025866 -73.076836 0.0076570576 -102.30618
9204500000 -0.99421245 137.02109 -9.301383 -72.431778 -9.3156509 -73.167068 0.0087066721 -102.31862
9204562500 -0.99110603 136.97169 -9.3174629 -72.519897 -9.2981052 -73.190231 0.014875681 -102.38176
9204625000 -0.98514563 136.97792 -9.3030195 -72.395393 -9.2999964 -73.196602 0.0093900179 -102.26385
9204687500 -0.99235004 136.9575 -9.3065281 -72.342606 -9.2983122 -73.114113 0.013351562 -102.22095
9204750000 -0.99903238 136.94101 -9.3097725 -72.375488 -9.3117237 -73.15377 -0.0069511095 -102.2585
9204812500 -0.98924184 136.9294 -9.3158445 -72.399948 -9.295558 -73.209053 0.012180375 -102.26006
9204875000 -0.99322414 136.97624 -9.3047743 -72.463585 -9.3170185 -73.099243 0.0025185824 -102.28147
9204937500 -0.9949913 136.90273 -9.3034706 -72.465446 -9.2917557 -73.109848 0.017410304 -102.18772
9205000000 -0.99014318 136.87048 -9.3040142 -72.340988 -9.2955446 -73.054176 -0.0052352878 -102.15863
9205062500 -0.99457449 136.88098 -9.3102255 -72.400322 -9.2867508 -73.117485 0.0073739765 -102.14349
9205125000 -0.99017346 136.87967 -9.3009071 -72.37899 -9.2967596 -73.160118 0.0093706008 -102.08741
9205187500 -0.99294746 136.88953 -9.3089533 -72.374809 -9.3053741 -73.191986 -0.00045261299 -102.15172
9205250000 -0.99207151 136.83954 -9.3071175 -72.468872 -9.3025389 -73.133629 -0.0031219812 -102.19891
9205312500 -0.99392825 136.90463 -9.3013372 -72.331451 -9.2972059 -73.084351 0.0018219457 -102.08868
9205375000 -0.99827522 136.83058 -9.3000021 -72.383972 -9.2928972 -73.149429 0.01107682 -102.07887
9205437500 -0.98231763 136.8199 -9.2925625 -72.429352 -9.3040962 -73.096329 0.0071553481 -102.06271
9205500000 -0.99483848 136.72856 -9.3004236 -72.389206 -9.2945995 -73.137466 0.015355447 -101.935
9205562500 -0.99321193 136.79694 -9.2942314 -72.40155 -9.296443 -73.150002 0.0076854071 -102.03439
9205625000 -0.99690002 136.75572 -9.3022375 -72.370377 -9.2956419 -73.133286 -0.0022129437 -101.96682
9205687500 -0.99147421 136.79504 -9.29109 -72.345757 -9.283287 -73.154381 0.0052075894 -101.94918
9205750000 -0.99157608 136.74571 -9.2965307 -72.453148 -9.2907372 -73.124153 0.0082504721 -101.91711
9205812500 -0.99495542 136.71162 -9.2972736 -72.413857 -9.2986498 -73.143127 0.00082234986 -101.88199
9205875000 -0.99035376 136.73552 -9.3052683 -72.339699 -9.3039551 -73.051941 0.0016753738 -101.92271
9205937500 -0.99563867 136.7094 -9.2964096 -72.359848 -9.2809296 -73.051666 0.0079297852 -101.92904
9206000000 -0.99591106 136.65662 -9.2813206 -72.381302 -9.2928677 -73.079437 0.0073788133 -101.8775
9206062500 -0.99761891 136.6992 -9.3030434 -72.423706 -9.292675 -73.081474 -0.0043190219 -101.93898
9206125000 -0.99017447 136.65555 -9.2828465 -72.387856 -9.2793407 -73.065536 0.0064865462 -101.82997
9206187500 -0.99121022 136.6736 -9.2955933 -72.365059 -9.2905779 -73.061699 0.012054022 -101.80595
9206250000 -0.9988997 136.55989 -9.2953329 -72.492142 -9.2943764 -73.058975 0.0045543262 -101.84397
9206312500 -0.99020219 136.5775 -9.2912149 -72.422844 -9.282774 -73.187256 0.00043958475 -101.85889
9206375000 -0.9943921 136.61993 -9.295989 -72.362793 -9.2910624 -73.037872 0.0049606534 -101.79279
9206437500 -0.9929648 136.57713 -9.2956152 -72.355232 -9.289587 -73.09967 -0.0026081544 -101.81112
9206500000 -0.99886954 136.58551 -9.3033018 -72.405586 -9.2872162 -73.091782 -0.006652677 -101.80861
9206562500 -0.99633133 136.56032 -9.2982044 -72.45327 -9.2848024 -73.034836 0.00065007911 -101.79053
9206625000 -0.99867249 136.50716 -9.2893 -72.439095 -9.287179 -73.103889 -0.00080480787 -101.80905
9206687500 -1.0021893 136.52034 -9.3020945 -72.363655 -9.2710762 -73.092911 0.017558899 -101.76787
9206750000 -0.99544144 136.55321 -9.287796 -72.346497 -9.2847643 -73.045746 -0.0041523781 -101.70014
9206812500 -0.99513805 136.51924 -9.2940912 -72.340942 -9.2837849 -73.064354 0.007235378 -101.70847
9206875000 -1.0000176 136.50323 -9.2907562 -72.376282 -9.2792606 -73.072487 0.0068906844 -101.60872
9206937500 -0.99656016 136.50047 -9.2988939 -72.319794 -9.2893744 -73.092163 0.0014451861 -101.65376
9207000000 -0.99385995 136.4825 -9.2841635 -72.381828 -9.2840071 -73.079033 0.00072858843 -101.57488
9207062500 -0.993119 136.45926 -9.2761126 -72.408081 -9.2755919 -73.102852 0.00055519579 -101.5505
9207125000 -0.99930257 136.43935 -9.2767611 -72.350143 -9.2734327 -73.096375 0.001320461 -101.58878
9207187500 -0.99333054 136.4211 -9.2744951 -72.405403 -9.284565 -73.097397 -0.0042019007 -101.64156
9207250000 -0.99640214 136.38301 -9.2815351 -72.390106 -9.2844095 -73.079941 -0.0017583541 -101.6342
9207312500 -0.98561954 136.41966 -9.2835007 -72.362999 -9.2798338 -73.029221 0.012042022 -101.53955
9207375000 -0.99998224 136.38072 -9.2931786 -72.377846 -9.2771215 -73.065857 -0.0028097327 -101.50511
9207437500 -0.99673384 136.42657 -9.2910633 -72.406357 -9.2812681 -73.040001 -0.0028545947 -101.53233
9207500000 -0.99789596 136.42262 -9.2866249 -72.364975 -9.2672691 -73.043091 -0.0020014392 -101.50395
9207562500 -0.99341935 136.40846 -9.2814608 -72.358902 -9.2752199 -73.07769 -0.0027066746 -101.4883
9207625000 -0.99188131 136.33466 -9.2856064 -72.27681 -9.2836781 -73.08316 0.00065164978 -101.411
9207687500 -0.99814218 136.32016 -9.2801676 -72.33886 -9.2750359 -73.0746 0.0014012189 -101.48248
9207750000 -0.99431306 136.28209 -9.2849102 -72.358284 -9.2704506 -73.041985 0.0037696394 -101.43177
9207812500 -0.99628824 136.28665 -9.2860165 -72.330482 -9.2666893 -73.000778 -0.0047546029 -101.39072
9207875000 -0.99319005 136.29573 -9.2818012 -72.265121 -9.2681351 -73.091484 0.0021422768 -101.41745
9207937500 -0.99374133 136.25102 -9.2767496 -72.330666 -9.2757969 -73.133339 -0.0121803 -101.41696
9208000000 -1.0016131 136.26534 -9.2638321 -72.361679 -9.2732983 -73.019974 0.0024715357 -101.34374
9208062500 -0.99463624 136.25824 -9.2740011 -72.329819 -9.2738104 -73.021301 -0.0066253222 -101.33064
9208125000 -1.0004762 136.21002 -9.2757444 -72.396622 -9.2724428 -73.061295 -0.0050693769 -101.33145
9208187500 -0.99375176 136.25977 -9.2824907 -72.334953 -9.2715397 -72.998871 -0.003442477 -101.3559
9208250000 -1.0052294 136.23701 -9.2821836 -72.228287 -9.2702503 -73.073959 0.0015352165 -101.28561
9208312500 -0.99192089 136.20152 -9.2849627 -72.306915 -9.2589617 -73.067772 -0.00042732558 -101.29266
9208375000 -0.99779612 136.22874 -9.2705784 -72.334648 -9.2628975 -73.025688 -0.0041928361 -101.22681
9208437500 -0.9992553 136.14783 -9.2668152 -72.404793 -9.2677155 -72.974854 -0.01513426 -101.21937
9208500000 -0.99465752 136.15448 -9.2681332 -72.254547 -9.274931 -73.048576 -0.006449223 -101.23332
9208562500 -1.0020477 136.13239 -9.2732372 -72.313026 -9.2721624 -72.990685 -0.00077455124 -101.18844
9208625000 -0.99116963 136.11018 -9.2552824 -72.271126 -9.2677612 -72.92028 -0.011018583 -101.18681
9208687500 -0.99629664 136.09119 -9.2618046 -72.341591 -9.266345 -72.99987 -0.0074602081 -101.14417
9208750000 -0.99527442 136.15831 -9.2657652 -72.237076 -9.2582674 -72.997688 -0.0024332025 -101.11737
9208812500 -0.99837357 136.17332 -9.2784576 -72.262367 -9.2651615 -73.0317 -0.0054490082 -101.13092
9208875000 -0.99808931 136.04913 -9.2704611 -72.312057 -9.2641201 -73.012253 0.0021214434 -101.11655
9208937500 -0.99825692 136.06573 -9.2696638 -72.322418 -9.2672739 -72.999748 -0.0066888235 -101.06791
9209000000 -0.99295002 136.09264 -9.2746964 -72.292664 -9.2572432 -73.015846 -0.0095277606 -101.10895
9209062500 -0.99772149 136.06406 -9.2795181 -72.253143 -9.273056 -72.946999 -0.0034451671 -100.9761
9209125000 -1.0017682 136.00159 -9.2722244 -72.297737 -9.2639999 -73.042511 0.0039655184 -101.06347
9209187500 -0.99052268 136.06578 -9.2587128 -72.242119 -9.268919 -72.971184 -0.0076247687 -101.01947
9209250000 -0.9930253 135.97906 -9.2679501 -72.295769 -9.2655268 -73.061928 -0.014716824 -100.97106
9209312500 -0.9976052 135.9064 -9.2731466 -72.302917 -9.2569466 -73.05719 -0.0031103075 -101.01678
9209375000 -0.99059957 135.9818 -9.2699804 -72.247734 -9.2593193 -72.908394 -0.012153191 -100.97623
9209437500 -1.0051273 135.91983 -9.270587 -72.326157 -9.2586317 -73.052574 -0.012745964 -100.9038
9209500000 -0.99480319 135.93633 -9.2602005 -72.31427 -9.251811 -72.995659 -0.0011070413 -100.91442
9209562500 -1.0011976 135.93365 -9.2609358 -72.314499 -9.2580996 -72.98394 -0.0084565785 -100.86442
9209625000 -0.99805611 135.88983 -9.2575779 -72.322166 -9.2543631 -72.985519 -0.0054203989 -100.88361
9209687500 -1.0013022 135.82382 -9.2646046 -72.290939 -9.2577114 -72.965843 -0.0099110007 -100.83726
9209750000 -0.99762899 135.85403 -9.2456818 -72.377899 -9.2587757 -72.974022 -0.0036029853 -100.90926
9209812500 -0.99823809 135.8661 -9.2672653 -72.247826 -9.2610502 -73.004059 -0.014482736 -100.7901
9209875000 -0.99780506 135.8455 -9.2554035 -72.273132 -9.2533751 -72.973495 -0.0064237206 -100.81129
9209937500 -0.99561602 135.92671 -9.2694788 -72.257813 -9.2641621 -72.968071 -0.017720087 -100.84745
9210000000 -0.99116242 135.83078 -9.2482519 -72.244949 -9.247179 -72.956673 -0.016627315 -100.75409
9210062500 -1.0046909 135.82057 -9.2727041 -72.259186 -9.2458677 -72.948395 -0.0096748397 -100.77176
9210125000 -0.99398839 135.78839 -9.2593689 -72.294861 -9.2568369 -72.933456 -0.013529412 -100.75347
9210187500 -0.99968547 135.80367 -9.2608967 -72.263992 -9.247735 -72.961205 -0.014508078 -100.74101
9210250000 -0.99566495 135.80539 -9.260644 -72.254768 -9.2458687 -72.880905 -0.0088627366 -100.73531
9210312500 -0.99732655 135.78262 -9.2529535 -72.249245 -9.2548923 -72.958786 -0.013725708 -100.72193
9210375000 -0.99616808 135.81602 -9.2625475 -72.215683 -9.2378817 -72.905029 -0.0067693563 -100.65379
9210437500 -0.99400586 135.71088 -9.2553091 -72.246552 -9.2418203 -73.063812 -0.0010774562 -100.73796
9210500000 -0.99377346 135.72646 -9.2530861 -72.317696 -9.2468634 -73.000984 -0.0062538874 -100.73027
9210562500 -1.0004127 135.73097 -9.2639256 -72.216583 -9.24858 -72.976273 -0.01174421 -100.6097
9210625000 -0.9963612 135.71652 -9.2647552 -72.226578 -9.2538128 -72.925041 -0.012066058 -100.65469
9210687500 -0.99546784 135.71649 -9.255702 -72.278244 -9.2489014 -73.001961 -0.012134375 -100.6468
9210750000 -0.99940366 135.72337 -9.2559175 -72.285225 -9.2438555 -72.936249 -0.008356858 -100.63068
9210812500 -1.0003861 135.63841 -9.2529402 -72.306755 -9.2431793 -72.901077 -0.016784465 -100.53501
9210875000 -1.0009819 135.67818 -9.2598314 -72.275459 -9.237524 -72.938751 -0.014976786 -100.59567
9210937500 -0.99516302 135.68787 -9.2547617 -72.236702 -9.2544107 -72.869743 -0.02166843 -100.54032
9211000000 -1.0002694 135.65454 -9.2506237 -72.199905 -9.2569618 -72.990181 -0.013394319 -100.57996
9211062500 -0.9965691 135.63907 -9.2535477 -72.211319 -9.2380648 -72.896515 -0.016063044 -100.5433
9211125000 -0.99156988 135.56252 -9.2497368 -72.303345 -9.2371588 -72.935844 -0.006243783 -100.45444
9211187500 -1.0036757 135.60535 -9.2465963 -72.244957 -9.2294674 -72.922127 -0.011260481 -100.46327
9211250000 -0.99826562 135.56476 -9.2399855 -72.248238 -9.2476883 -72.82605 -0.0095325802 -100.43237
9211312500 -0.99731761 135.57924 -9.2480116 -72.174469 -9.2371616 -72.889412 -0.010369036 -100.42591
9211375000 -0.99639499 135.49234 -9.2518072 -72.282623 -9.2417479 -72.982094 -0.019932715 -100.43056
9211437500 -0.9939906 135.52487 -9.2363167 -72.206085 -9.2372179 -72.941872 -0.010376396 -100.35778
9211500000 -0.99783021 135.49571 -9.2503614 -72.226074 -9.2430067 -72.906685 -0.015532245 -100.43156
9211562500 -1.0098991 135.50864 -9.2550764 -72.272369 -9.2346735 -72.921837 -0.019032424 -100.45304
9211625000 -1.0004101 135.44902 -9.2403669 -72.291046 -9.2305193 -72.963295 -0.011882403 -100.39729
9211687500 -0.99911231 135.50513 -9.2441854 -72.203796 -9.2374954 -72.936089 -0.016886834 -100.30689
9211750000 -1.0042601 135.42331 -9.2371321 -72.231873 -9.2318993 -72.863464 -0.0017135413 -100.29488
9211812500 -1.0023594 135.45255 -9.2577972 -72.210716 -9.2384491 -72.92926 -0.029473947 -100.32234
9211875000 -1.0066679 135.424 -9.2515278 -72.296211 -9.2278128 -72.848541 -0.013179965 -100.24029
9211937500 -0.99697405 135.45114 -9.2331924 -72.207016 -9.2295208 -72.847115 -0.020705258 -100.22979
9212000000 -0.99594259 135.3456 -9.2381582 -72.27298 -9.2358131 -72.93708 -0.014912428 -100.24384
9212062500 -0.99505699 135.35493 -9.2341633 -72.180679 -9.2330294 -72.937332 -0.019158261 -100.30396
9212125000 -0.99660385 135.3367 -9.2443323 -72.239258 -9.2389326 -72.922226 -0.021871008 -100.17877
