!Agilent Technologies,N5242A,MY51221714,A.09.90.19
!Agilent N5242A: A.09.90.19
!Date: Tuesday, March 26, 2024 16:36:02
!Correction: S11(Full 2 Port(1,2)) 
!S21(Full 2 Port(1,2)) 
!S12(Full 2 Port(1,2)) 
!S22(Full 2 Port(1,2)) 
!S2P File: Measurements: S11, S21, S12, S22:
# Hz S  dB   R 50
9200000000 -0.98215371 138.13136 -9.3499632 -72.547958 -9.3279724 -73.286606 0.025183149 -103.91901
9200062500 -0.98339379 138.12183 -9.3367567 -72.591682 -9.3481903 -73.27317 0.031359497 -103.907
9200125000 -0.9883855 138.04321 -9.3467712 -72.579132 -9.3323374 -73.2742 0.026605001 -103.8365
9200187500 -0.99047792 138.15173 -9.3431759 -72.472832 -9.3334742 -73.309593 0.03682287 -103.81355
9200250000 -0.98267961 138.07053 -9.3382912 -72.512268 -9.346571 -73.242386 0.031042272 -103.81669
9200312500 -0.98857039 138.08461 -9.3422718 -72.542465 -9.3432159 -73.229073 0.023026586 -103.78217
9200375000 -0.98838025 138.07739 -9.3470001 -72.510574 -9.3318758 -73.374702 0.032250952 -103.79
9200437500 -0.98746854 138.04221 -9.3409491 -72.524544 -9.3212776 -73.268265 0.036897101 -103.77505
9200500000 -0.98739439 137.99341 -9.3511362 -72.535767 -9.3342962 -73.241699 0.022428673 -103.75191
9200562500 -0.98695678 137.97473 -9.338892 -72.542122 -9.3340588 -73.256096 0.038655929 -103.80149
9200625000 -0.98631287 138.00687 -9.3394108 -72.523857 -9.3231573 -73.226212 0.033996332 -103.65756
9200687500 -0.97969002 138.01387 -9.3382053 -72.485825 -9.3388853 -73.247368 0.025350254 -103.65936
9200750000 -0.98371869 137.95859 -9.3378496 -72.456985 -9.3313246 -73.211159 0.031524152 -103.67281
9200812500 -0.9998098 137.96268 -9.335125 -72.537392 -9.3358507 -73.260384 0.012151984 -103.68153
9200875000 -0.98764622 138.02068 -9.3390207 -72.467773 -9.342411 -73.179352 0.017380683 -103.6438
9200937500 -0.98627079 137.92635 -9.3405113 -72.514465 -9.3246441 -73.214577 0.030412141 -103.60087
9201000000 -0.98192221 137.89313 -9.3488598 -72.588333 -9.3215952 -73.229675 0.033007268 -103.62468
9201062500 -0.97980183 137.90926 -9.3258924 -72.471542 -9.3189211 -73.319038 0.02928411 -103.64102
9201125000 -0.9896192 137.94971 -9.3394156 -72.42598 -9.3260851 -73.204285 0.028506629 -103.58559
9201187500 -0.9849506 137.82883 -9.3323393 -72.478996 -9.3236389 -73.197693 0.018939257 -103.45679
9201250000 -0.99230337 137.8853 -9.3319407 -72.453888 -9.325738 -73.164398 0.026907593 -103.48126
9201312500 -0.99877143 137.875 -9.3369131 -72.434746 -9.3256359 -73.220284 0.031813506 -103.55591
9201375000 -0.99713039 137.84842 -9.3442373 -72.45166 -9.3357277 -73.169533 0.014585092 -103.46843
9201437500 -0.98177642 137.81621 -9.3359118 -72.514168 -9.3339052 -73.238533 0.026339374 -103.57413
9201500000 -0.98868418 137.83545 -9.3376369 -72.489128 -9.3314161 -73.216805 0.023359723 -103.4882
9201562500 -0.98803341 137.81682 -9.3478537 -72.433411 -9.3389492 -73.216019 0.0064999177 -103.46162
9201625000 -0.99024338 137.83321 -9.3328648 -72.392433 -9.3241291 -73.232849 0.01362339 -103.40836
9201687500 -0.99681383 137.79782 -9.3260412 -72.385963 -9.3282452 -73.172958 0.016811946 -103.34502
9201750000 -0.98917216 137.7769 -9.3353834 -72.460945 -9.3173742 -73.201935 0.034847178 -103.36449
9201812500 -0.98684645 137.74986 -9.3266306 -72.509644 -9.3214283 -73.196526 0.016789496 -103.43317
9201875000 -0.98582679 137.74782 -9.3107862 -72.424294 -9.3156118 -73.265999 0.029997136 -103.33886
9201937500 -0.99779218 137.6931 -9.337347 -72.422882 -9.3182592 -73.279236 0.031587347 -103.41363
9202000000 -0.99099493 137.67981 -9.3209314 -72.516922 -9.3197699 -73.221077 0.029411273 -103.33377
9202062500 -0.99347705 137.71846 -9.3106422 -72.370178 -9.3152561 -73.246483 0.025068279 -103.27946
9202125000 -0.99375498 137.70769 -9.3394766 -72.428383 -9.3211155 -73.19738 0.018259047 -103.33463
9202187500 -0.98324311 137.70764 -9.3252039 -72.493446 -9.328701 -73.161102 0.024889251 -103.24297
9202250000 -0.98693615 137.65382 -9.3291702 -72.482567 -9.319478 -73.139633 0.020587284 -103.25909
9202312500 -0.98735237 137.6234 -9.3184519 -72.425507 -9.3134356 -73.184395 0.019885158 -103.23767
9202375000 -0.99293715 137.63245 -9.3360624 -72.453873 -9.3028603 -73.197174 0.018705023 -103.19484
9202437500 -0.99269623 137.67128 -9.3299103 -72.44709 -9.30791 -73.216713 0.027346415 -103.22846
9202500000 -0.99729472 137.60355 -9.3239889 -72.579811 -9.3198738 -73.143959 0.022467472 -103.2709
9202562500 -0.98346126 137.55667 -9.3202076 -72.398682 -9.3228455 -73.158745 0.011283121 -103.22259
9202625000 -0.98772389 137.63838 -9.3242598 -72.430885 -9.3088236 -73.246597 0.019832924 -103.16527
9202687500 -0.99011469 137.59314 -9.3133249 -72.480957 -9.3065138 -73.171265 0.033833936 -103.13089
9202750000 -0.98062056 137.51361 -9.3044415 -72.456215 -9.3035536 -73.16964 0.026550084 -103.11696
9202812500 -0.98952621 137.54886 -9.3193893 -72.396484 -9.3058929 -73.165428 0.031706285 -103.10382
9202875000 -0.98315138 137.52766 -9.3153524 -72.375748 -9.3128023 -73.196922 0.022192558 -103.04926
9202937500 -0.98961425 137.53046 -9.3177729 -72.467369 -9.2982073 -73.104935 0.031732786 -103.04099
9203000000 -0.99256706 137.52209 -9.3243113 -72.44223 -9.3081436 -73.227173 0.0261936 -103.00582
9203062500 -0.990426 137.47299 -9.3225689 -72.424942 -9.3078804 -73.112923 0.018143645 -103.07108
9203125000 -0.98798686 137.44728 -9.315731 -72.366142 -9.2936764 -73.181526 0.030146034 -103.01477
9203187500 -0.98791546 137.44302 -9.3317537 -72.44088 -9.3058996 -73.187447 0.018102305 -102.98501
9203250000 -0.99021971 137.42186 -9.3197908 -72.459709 -9.3129406 -73.146118 0.018830106 -102.96835
9203312500 -0.99561191 137.43983 -9.3116922 -72.418365 -9.3058434 -73.14518 0.032156948 -102.9565
9203375000 -0.99061996 137.43823 -9.3164225 -72.421638 -9.3039789 -73.132622 0.026030812 -102.90762
9203437500 -0.99378669 137.44182 -9.3154573 -72.418953 -9.3039446 -73.108238 0.022160379 -102.90658
9203500000 -0.98912334 137.40677 -9.3102617 -72.371841 -9.2955322 -73.165558 0.02946914 -102.92091
9203562500 -0.99342221 137.3895 -9.3187342 -72.426979 -9.3141584 -73.105652 0.0090931403 -102.91202
9203625000 -0.987257 137.38338 -9.3160677 -72.423744 -9.3108664 -73.151016 0.011875615 -102.95841
9203687500 -0.99519908 137.37071 -9.3208189 -72.436424 -9.3065414 -73.143616 0.021556437 -102.86057
9203750000 -0.9887951 137.32632 -9.3086796 -72.447929 -9.2958364 -73.13739 0.033189174 -102.82108
9203812500 -0.99065655 137.31921 -9.3010521 -72.410759 -9.3013659 -73.13398 0.022768758 -102.7982
9203875000 -0.99028665 137.38307 -9.3133821 -72.345863 -9.3070803 -73.186676 0.0068910201 -102.83335
9203937500 -0.9910593 137.32004 -9.3073616 -72.37394 -9.3077984 -73.105515 0.019366207 -102.80182
9204000000 -0.99058831 137.29793 -9.3073816 -72.397224 -9.3026505 -73.157669 0.022350615 -102.73057
9204062500 -0.98315293 137.3214 -9.3079348 -72.352081 -9.2907677 -73.173874 0.01515865 -102.77971
9204125000 -0.99495792 137.27815 -9.3069086 -72.400063 -9.2911263 -73.117096 0.023828408 -102.72395
9204187500 -0.99378395 137.24832 -9.3064508 -72.377243 -9.3029394 -73.141121 0.0065197288 -102.70089
9204250000 -0.99277753 137.26559 -9.3018055 -72.423569 -9.2986259 -73.099548 0.019403536 -102.75052
9204312500 -0.9916954 137.25851 -9.3077574 -72.382507 -9.3008356 -73.173042 0.0164754 -102.6715
9204375000 -0.98815727 137.21288 -9.3117828 -72.359131 -9.2943316 -73.135796 0.022184236 -102.72607
9204437500 -1.0011344 137.23354 -9.3119316 -72.420845 -9.2946262 -73.127388 0.023378996 -102.66146
9204500000 -0.998097 137.21217 -9.3076229 -72.424133 -9.3086443 -73.107788 0.012325013 -102.64901
9204562500 -0.98815614 137.16066 -9.3024244 -72.436386 -9.2944441 -73.108345 0.026674647 -102.64562
9204625000 -0.98047549 137.19676 -9.2986431 -72.24247 -9.2837496 -73.193726 0.022559302 -102.56584
9204687500 -0.99165213 137.18793 -9.3026257 -72.32621 -9.2930346 -73.117668 0.015996801 -102.52577
9204750000 -1.0003996 137.12671 -9.2985487 -72.384392 -9.3031521 -73.080627 0.0010811122 -102.58687
9204812500 -0.98474437 137.0816 -9.3049707 -72.353767 -9.3012047 -73.11132 0.015801363 -102.52941
9204875000 -0.98931199 137.18617 -9.2979307 -72.319504 -9.3012962 -73.110397 0.016255213 -102.6039
9204937500 -0.99209648 137.11963 -9.3091373 -72.403023 -9.2866383 -73.175545 0.019955877 -102.54183
9205000000 -0.9851597 137.05431 -9.2991476 -72.309998 -9.2857199 -73.09066 0.0096797179 -102.51011
9205062500 -0.98874271 137.06728 -9.2992897 -72.392761 -9.2860012 -73.114983 0.012796457 -102.48371
9205125000 -0.98757797 137.07332 -9.2983589 -72.362785 -9.2904453 -73.163391 0.011506824 -102.42524
9205187500 -0.99217653 137.10405 -9.3041687 -72.280861 -9.2782116 -73.095169 0.014829926 -102.399
9205250000 -0.98305589 137.01155 -9.2966805 -72.409294 -9.2970543 -73.031731 0.010556782 -102.4716
9205312500 -0.99245006 137.09859 -9.2947035 -72.324387 -9.295516 -73.011932 0.012360456 -102.38551
9205375000 -0.99151844 137.0011 -9.288434 -72.257027 -9.2914648 -73.096275 0.013179789 -102.39965
9205437500 -0.98001939 136.97217 -9.2878189 -72.290947 -9.2884169 -73.103989 0.019952454 -102.38142
9205500000 -0.99792463 136.93153 -9.2860022 -72.3535 -9.2809019 -73.12886 0.020813536 -102.31063
9205562500 -0.99456251 136.97546 -9.2870474 -72.361526 -9.284523 -73.092834 0.017166555 -102.36077
9205625000 -0.99531943 136.9552 -9.2836161 -72.348328 -9.285675 -73.076157 0.013625729 -102.26524
9205687500 -0.98856598 136.97157 -9.2841778 -72.295784 -9.2781658 -73.128342 0.017444618 -102.30188
9205750000 -0.99327826 136.92969 -9.2982244 -72.368851 -9.2926455 -73.069946 0.0091060763 -102.22143
9205812500 -0.99660194 136.86658 -9.2794237 -72.417191 -9.2949104 -73.139038 0.013362368 -102.27956
9205875000 -0.98418319 136.91208 -9.2973976 -72.332695 -9.2911358 -73.043587 0.01335264 -102.30194
9205937500 -0.98897445 136.88272 -9.2874184 -72.368881 -9.2710257 -73.036591 0.017496152 -102.18963
9206000000 -0.99800158 136.88638 -9.2858868 -72.308311 -9.2763386 -73.070816 0.019607276 -102.14701
9206062500 -0.99056703 136.86188 -9.2920008 -72.34832 -9.2918053 -73.04232 0.0062137363 -102.21826
9206125000 -0.99023223 136.85658 -9.280735 -72.32019 -9.2806978 -73.049538 0.015233389 -102.12337
9206187500 -0.99389321 136.85823 -9.2833719 -72.329597 -9.2752123 -73.090866 0.025272286 -102.18887
9206250000 -0.992567 136.77719 -9.284853 -72.351082 -9.276824 -73.021591 0.0086531434 -102.15404
9206312500 -0.98400229 136.77496 -9.2898045 -72.386513 -9.2872896 -73.189873 0.017644463 -102.16403
9206375000 -0.9949199 136.78532 -9.2827711 -72.342613 -9.2725077 -73.005043 0.019817561 -102.11491
9206437500 -0.98945338 136.77304 -9.2838135 -72.285866 -9.2775059 -73.097855 0.0097452588 -102.12278
9206500000 -0.99127871 136.77 -9.2875681 -72.322975 -9.2794437 -73.053391 0.0044636014 -102.10646
9206562500 -0.99577522 136.73869 -9.2904634 -72.446907 -9.2787066 -73.037895 0.020960562 -102.14347
9206625000 -0.99359161 136.69026 -9.2735662 -72.353401 -9.2698936 -73.085258 0.014833442 -102.06328
9206687500 -0.99923664 136.7541 -9.2918921 -72.391106 -9.2645473 -73.081436 0.020933434 -102.09727
9206750000 -0.9882015 136.66808 -9.2693081 -72.397003 -9.2870264 -73.009544 0.0069749602 -102.04691
9206812500 -0.98915154 136.72844 -9.2829323 -72.348221 -9.2800922 -73.060379 0.012583467 -102.03868
9206875000 -0.98934239 136.68767 -9.2796402 -72.367012 -9.2772837 -73.064178 0.006681304 -101.94555
9206937500 -0.98745519 136.69022 -9.2733841 -72.264282 -9.2836075 -73.06987 0.008119531 -101.94998
9207000000 -0.99304163 136.67685 -9.2831039 -72.332687 -9.2690802 -73.08931 0.017042376 -101.94836
9207062500 -0.99092418 136.67284 -9.2784042 -72.339203 -9.2618093 -73.020844 0.011894532 -101.8685
9207125000 -1.0006686 136.61707 -9.2726917 -72.364609 -9.266119 -73.094437 0.013748949 -101.86726
9207187500 -0.99123228 136.56837 -9.267436 -72.357956 -9.2768812 -73.014992 0.0074406224 -101.89675
9207250000 -0.99182189 136.59317 -9.2718592 -72.346375 -9.274374 -73.04557 0.022205107 -101.97298
9207312500 -0.9912833 136.55113 -9.2857075 -72.444542 -9.2713661 -73.03196 0.0082332268 -101.88261
9207375000 -1.0030642 136.54582 -9.2784195 -72.32888 -9.2647915 -73.040245 0.0081680706 -101.84563
9207437500 -0.99079031 136.60403 -9.2758474 -72.2948 -9.2785034 -73.010017 0.0061931922 -101.84011
9207500000 -0.99801397 136.60027 -9.2816525 -72.369263 -9.263402 -73.049431 0.00027708171 -101.82174
9207562500 -0.99137163 136.60498 -9.2793207 -72.327255 -9.2646313 -73.0093 0.0042712758 -101.82435
9207625000 -0.99536979 136.48566 -9.2801867 -72.20948 -9.2732868 -73.029991 0.008587826 -101.73325
9207687500 -0.98791003 136.53761 -9.2624779 -72.327553 -9.2647266 -73.05545 0.014208606 -101.78822
9207750000 -0.99496865 136.4872 -9.2805891 -72.31086 -9.2691259 -73.031853 0.010858542 -101.76805
9207812500 -0.99592167 136.51628 -9.2803307 -72.294624 -9.2624121 -73.030838 0.0022757826 -101.78916
9207875000 -0.99432641 136.49136 -9.2713108 -72.274536 -9.2605839 -73.056206 0.010626876 -101.70605
9207937500 -0.99978381 136.40269 -9.2796869 -72.287193 -9.2741365 -73.071739 0.00024458944 -101.72744
9208000000 -0.99862421 136.43135 -9.2644053 -72.286598 -9.2580175 -72.982185 0.014141163 -101.63388
9208062500 -1.0017154 136.46404 -9.2797098 -72.292778 -9.260129 -73.001167 0.0074317981 -101.6583
9208125000 -1.0019706 136.383 -9.2734299 -72.295181 -9.2596474 -73.038918 0.011564668 -101.64555
9208187500 -0.99032062 136.46043 -9.2680197 -72.247833 -9.2571507 -73.004745 0.0068640849 -101.6212
9208250000 -0.99734253 136.38853 -9.2723293 -72.274544 -9.2497749 -72.991051 0.010379256 -101.62679
9208312500 -0.99362105 136.41061 -9.2841425 -72.279922 -9.2490835 -73.004875 0.010476744 -101.60246
9208375000 -0.99971873 136.3894 -9.2628107 -72.294487 -9.2528162 -72.951385 0.016523546 -101.51235
9208437500 -0.99151468 136.31619 -9.267313 -72.244736 -9.2649822 -72.941322 -0.001797485 -101.51028
9208500000 -0.99713808 136.29144 -9.2723083 -72.303246 -9.2607412 -73.059456 0.0022586263 -101.56522
9208562500 -0.9961623 136.32278 -9.2667103 -72.269737 -9.2612934 -72.96949 0.0073144916 -101.48299
9208625000 -0.99401391 136.3022 -9.2608194 -72.237373 -9.25385 -72.97834 0.0049641682 -101.55016
9208687500 -0.98573542 136.26768 -9.2561626 -72.294609 -9.2589226 -72.952682 0.0055192709 -101.47204
9208750000 -0.99141163 136.32782 -9.2608433 -72.29821 -9.2494726 -72.957329 0.012392214 -101.44141
9208812500 -0.9949612 136.3407 -9.2639771 -72.282608 -9.2523947 -72.919205 0.0089788605 -101.37593
9208875000 -0.99578065 136.22003 -9.2715712 -72.317955 -9.2615471 -72.964798 0.0049688509 -101.41702
9208937500 -0.99714541 136.25403 -9.2476072 -72.359932 -9.2455482 -72.937477 0.0073917182 -101.36085
9209000000 -0.99021941 136.23972 -9.2716455 -72.223167 -9.2422304 -72.928337 0.0053521856 -101.44339
9209062500 -1.0000839 136.20483 -9.2653942 -72.249161 -9.2571087 -72.943886 0.00041069582 -101.36468
9209125000 -0.99819672 136.18913 -9.2582359 -72.252266 -9.2508411 -73.005112 0.0046534897 -101.34554
9209187500 -0.99492866 136.18364 -9.2527637 -72.313042 -9.2611914 -72.943314 -0.00045693919 -101.34683
9209250000 -0.9880873 136.17435 -9.2549801 -72.295647 -9.2517424 -72.988861 0.0057621184 -101.2744
9209312500 -0.99661493 136.08678 -9.2584877 -72.263618 -9.2506094 -72.956688 0.00019425373 -101.28719
9209375000 -0.98744613 136.15312 -9.2486744 -72.234444 -9.2601328 -72.905098 -0.003457282 -101.29411
9209437500 -1.0046453 136.10342 -9.2623682 -72.229416 -9.2464437 -72.999023 0.0011754581 -101.19458
9209500000 -0.99518204 136.12086 -9.265811 -72.243279 -9.2513742 -72.976692 0.00028529321 -101.21133
9209562500 -0.99559444 136.08778 -9.2627945 -72.228981 -9.2575855 -72.909836 -0.0049955067 -101.19826
9209625000 -0.9964149 136.07227 -9.2511311 -72.260941 -9.2404852 -72.93499 0.0029527873 -101.20447
9209687500 -0.99820912 136.03551 -9.2568169 -72.300423 -9.2516222 -72.95752 -0.0047488734 -101.20482
9209750000 -0.99162269 136.04768 -9.2400427 -72.323288 -9.2502584 -72.912804 0.012347213 -101.20636
9209812500 -0.99296099 136.02226 -9.2529793 -72.258095 -9.2532387 -72.930061 -8.0270765e-005 -101.12225
9209875000 -0.99646711 136.06454 -9.2623777 -72.185028 -9.2356253 -73.015755 0.0045301858 -101.19325
9209937500 -0.99339503 136.11374 -9.2634239 -72.23381 -9.2539368 -72.968285 -0.0032459607 -101.19172
9210000000 -0.9901312 136.02194 -9.2516413 -72.214661 -9.2331791 -72.944603 -0.0033445761 -101.08096
9210062500 -0.99771744 136.02162 -9.2571964 -72.234962 -9.2330942 -72.914169 0.00092225091 -101.08133
9210125000 -0.99330723 136.00243 -9.2530251 -72.16523 -9.2365379 -72.916519 -2.5962134e-005 -101.08047
9210187500 -1.0001142 136.00865 -9.2604847 -72.214699 -9.2370329 -72.958176 -0.0034600764 -101.06584
9210250000 -0.99876416 136.01593 -9.2502117 -72.247551 -9.2390299 -72.957268 -6.8038498e-005 -101.08129
9210312500 -0.99893242 135.95502 -9.2475863 -72.101334 -9.245203 -72.959358 0.00067502528 -101.05697
9210375000 -0.99256772 135.97252 -9.2530937 -72.178162 -9.2407188 -72.933594 -0.0044038282 -100.96342
9210437500 -0.98928112 135.90094 -9.2445641 -72.204742 -9.2437429 -73.003708 0.0020585719 -101.01884
9210500000 -0.99190718 135.9017 -9.243351 -72.286385 -9.2379198 -72.923851 0.0056314832 -100.98637
9210562500 -0.98936671 135.90889 -9.2448826 -72.178581 -9.2357607 -72.957756 -1.9744881e-005 -100.95732
9210625000 -0.99107075 135.89117 -9.2536707 -72.174873 -9.2436838 -72.911812 0.00066503655 -101.0551
9210687500 -0.99889296 135.89148 -9.2455225 -72.25238 -9.2457829 -72.941132 -0.0059949788 -100.88893
9210750000 -0.99508315 135.87625 -9.2430868 -72.258797 -9.2323179 -72.923958 0.0032490708 -100.91682
9210812500 -0.99754006 135.80896 -9.2459393 -72.21563 -9.24545 -72.864792 -0.0078465892 -100.87014
9210875000 -0.99628198 135.82956 -9.2453651 -72.215775 -9.2406034 -72.876816 -0.013803418 -100.91301
9210937500 -0.99241263 135.86566 -9.2549944 -72.16008 -9.2468452 -72.873375 -0.016391782 -100.85944
9211000000 -0.99232388 135.85471 -9.2418604 -72.189354 -9.240098 -72.925407 0.0039640628 -100.86858
9211062500 -0.99583912 135.80937 -9.2411432 -72.156403 -9.2321749 -72.906235 -0.0079424977 -100.82636
9211125000 -0.99016148 135.78136 -9.2304811 -72.254845 -9.2274208 -72.927788 -0.0016106949 -100.82496
9211187500 -0.9992649 135.80057 -9.2409735 -72.188728 -9.2279959 -72.865547 -0.0054445569 -100.78963
9211250000 -0.99761647 135.76619 -9.2374973 -72.269981 -9.2400398 -72.834305 -0.00023238522 -100.7694
9211312500 -0.99452412 135.75191 -9.2503071 -72.166885 -9.2290316 -72.874481 -0.0050240015 -100.75018
9211375000 -0.99003345 135.69594 -9.2231674 -72.140732 -9.2304659 -72.987648 -0.0088819079 -100.72269
9211437500 -0.99397659 135.74001 -9.2308683 -72.166748 -9.2374945 -72.900177 -0.0042076237 -100.69835
9211500000 -1.0003072 135.69966 -9.2429819 -72.173721 -9.2276688 -72.880753 -0.0013046393 -100.75871
9211562500 -1.0070308 135.72115 -9.2379169 -72.254494 -9.2221127 -72.871819 -0.0094480906 -100.68714
9211625000 -0.99121326 135.6649 -9.2331972 -72.19445 -9.2215881 -72.939392 0.0029433467 -100.71982
9211687500 -1.0008008 135.73038 -9.2445507 -72.109642 -9.2251139 -72.890137 -0.0053400146 -100.60801
9211750000 -0.99826479 135.63194 -9.2271786 -72.109756 -9.2246618 -72.829613 5.3852495e-005 -100.56848
9211812500 -0.99822086 135.62277 -9.2384815 -72.092712 -9.2286758 -72.888611 -0.011010911 -100.62949
9211875000 -1.0047759 135.61554 -9.2334156 -72.195404 -9.2238941 -72.861061 -0.0016518752 -100.55864
9211937500 -0.99899447 135.60724 -9.2357998 -72.225548 -9.2259283 -72.837189 -0.010898898 -100.54837
9212000000 -0.99981534 135.54796 -9.2250166 -72.171295 -9.2199554 -72.870354 -0.0093848649 -100.55305
9212062500 -0.99414444 135.5757 -9.2411137 -72.12867 -9.2284021 -72.916512 -0.01332087 -100.58642
9212125000 -0.99449503 135.4808 -9.2255335 -72.223991 -9.2316275 -72.898323 -0.00032399083 -100.53693
