!Agilent Technologies,N5242A,MY51221714,A.09.90.19
!Agilent N5242A: A.09.90.19
!Date: Tuesday, March 26, 2024 16:22:27
!Correction: S11(Full 2 Port(1,2)) 
!S21(Full 2 Port(1,2)) 
!S12(Full 2 Port(1,2)) 
!S22(Full 2 Port(1,2)) 
!S2P File: Measurements: S11, S21, S12, S22:
# Hz S  dB   R 50
9200000000 -1.1215277 135.65417 -9.1055136 -75.433754 -9.0793161 -76.16391 -0.10621979 -104.65349
9200062500 -1.1164905 135.63434 -9.0884428 -75.491096 -9.0906305 -76.180161 -0.09652143 -104.71072
9200125000 -1.1175261 135.60089 -9.0922689 -75.459579 -9.0849466 -76.137878 -0.10681145 -104.64975
9200187500 -1.1275831 135.66318 -9.0978956 -75.337242 -9.0817633 -76.196411 -0.092722513 -104.63422
9200250000 -1.1076223 135.54712 -9.0839987 -75.498535 -9.0859823 -76.158348 -0.10324504 -104.67538
9200312500 -1.1224726 135.59114 -9.0849018 -75.494583 -9.0886602 -76.155052 -0.10569996 -104.68464
9200375000 -1.120599 135.58255 -9.0957804 -75.429855 -9.0786877 -76.238075 -0.095767714 -104.61723
9200437500 -1.1171533 135.53354 -9.0838671 -75.465134 -9.0777617 -76.155952 -0.096732147 -104.62979
9200500000 -1.1134855 135.49898 -9.0944767 -75.418991 -9.075573 -76.119194 -0.10459467 -104.56087
9200562500 -1.1148292 135.50911 -9.078701 -75.419426 -9.0870314 -76.244469 -0.10195728 -104.63363
9200625000 -1.1215421 135.50269 -9.0956059 -75.407822 -9.0744982 -76.120827 -0.10009734 -104.54633
9200687500 -1.1131661 135.49658 -9.0880766 -75.41156 -9.0900087 -76.157669 -0.097971931 -104.52094
9200750000 -1.1158246 135.40625 -9.0863781 -75.446533 -9.081727 -76.148834 -0.10809641 -104.52921
9200812500 -1.1288638 135.47488 -9.095891 -75.446404 -9.0770788 -76.180283 -0.11469892 -104.55438
9200875000 -1.1117001 135.52786 -9.0791531 -75.365616 -9.0834103 -76.084251 -0.10342832 -104.54659
9200937500 -1.1174307 135.44536 -9.0839586 -75.424736 -9.0741291 -76.171761 -0.098086372 -104.45412
9201000000 -1.1137309 135.39925 -9.0861635 -75.478424 -9.0730934 -76.10804 -0.094264939 -104.4651
9201062500 -1.1151522 135.41881 -9.0844917 -75.437897 -9.0685558 -76.17347 -0.10618559 -104.47272
9201125000 -1.1221753 135.45219 -9.0841303 -75.405014 -9.0794258 -76.12674 -0.10807876 -104.3911
9201187500 -1.1205157 135.31984 -9.0853653 -75.384445 -9.0726547 -76.103004 -0.11038055 -104.29163
9201250000 -1.1229106 135.36392 -9.0748997 -75.403816 -9.0836248 -76.117157 -0.10688329 -104.35251
9201312500 -1.1296654 135.37943 -9.0801392 -75.362617 -9.0734911 -76.17923 -0.10018372 -104.36798
9201375000 -1.1292588 135.33313 -9.088212 -75.352577 -9.0753651 -76.081299 -0.11306448 -104.32607
9201437500 -1.1160744 135.31645 -9.0833445 -75.413986 -9.0808115 -76.116737 -0.11290824 -104.3998
9201500000 -1.1216604 135.34259 -9.076416 -75.416878 -9.0859652 -76.122246 -0.11401523 -104.33797
9201562500 -1.122684 135.28143 -9.0836143 -75.395805 -9.0873051 -76.048096 -0.11881594 -104.29366
9201625000 -1.1163883 135.34859 -9.073041 -75.340172 -9.0673351 -76.154274 -0.1132226 -104.2545
9201687500 -1.1245188 135.25203 -9.0749092 -75.389381 -9.0699263 -76.085182 -0.11177205 -104.16664
9201750000 -1.116183 135.25163 -9.0792961 -75.423714 -9.0737686 -76.076202 -0.1025814 -104.21504
9201812500 -1.1134883 135.25366 -9.0709629 -75.38987 -9.0703239 -76.095039 -0.11907469 -104.28992
9201875000 -1.1199598 135.23572 -9.0664024 -75.397324 -9.0694504 -76.163994 -0.10016762 -104.17796
9201937500 -1.1282153 135.18546 -9.0754261 -75.361519 -9.0693216 -76.103989 -0.099982664 -104.21949
9202000000 -1.1272295 135.19308 -9.0775976 -75.374672 -9.0696716 -76.133324 -0.1087903 -104.12535
9202062500 -1.1263808 135.18304 -9.0680809 -75.40168 -9.0622206 -76.156219 -0.099710338 -104.15084
9202125000 -1.1223629 135.20955 -9.0837278 -75.410889 -9.0730438 -76.087852 -0.1137341 -104.18776
9202187500 -1.116999 135.18199 -9.0786333 -75.431274 -9.0833988 -76.085831 -0.11670667 -104.05628
9202250000 -1.1226158 135.16946 -9.0855064 -75.358055 -9.0531797 -76.06424 -0.11115224 -104.11271
9202312500 -1.1183482 135.14487 -9.0800257 -75.411652 -9.0691051 -76.133492 -0.11353194 -104.11944
9202375000 -1.1232511 135.1487 -9.0808668 -75.32798 -9.0556087 -76.14817 -0.11282045 -104.05973
9202437500 -1.127635 135.16312 -9.0737257 -75.391159 -9.06493 -76.098854 -0.1130695 -104.08829
9202500000 -1.1285822 135.09372 -9.0787125 -75.446289 -9.0662231 -76.156395 -0.11165659 -104.11115
9202562500 -1.1157986 135.04233 -9.0693884 -75.426491 -9.0722084 -76.043694 -0.12119961 -104.05439
9202625000 -1.1266509 135.10675 -9.0774603 -75.390198 -9.0647678 -76.080788 -0.11650098 -104.02369
9202687500 -1.1186925 135.09032 -9.0656214 -75.39064 -9.0632629 -76.053375 -0.11225501 -103.89983
9202750000 -1.1143991 134.98039 -9.0712357 -75.405197 -9.0604038 -76.059883 -0.11392153 -103.95785
9202812500 -1.1205338 134.99049 -9.0652037 -75.449799 -9.0460691 -76.139664 -0.10617842 -103.93134
9202875000 -1.1146187 135.02901 -9.0598459 -75.324539 -9.0593805 -76.093277 -0.11153878 -103.87885
9202937500 -1.1178598 135.01486 -9.0632954 -75.467461 -9.0551796 -76.070984 -0.1112 -103.90708
9203000000 -1.1229289 135.04239 -9.0654221 -75.347488 -9.0602808 -76.108177 -0.11147187 -103.86977
9203062500 -1.1175401 134.95181 -9.0646257 -75.406433 -9.0614653 -76.054123 -0.12186962 -103.90667
9203125000 -1.1204733 134.92931 -9.0617647 -75.430267 -9.0479584 -76.143448 -0.11565777 -103.90805
9203187500 -1.1190712 134.93803 -9.0746059 -75.320518 -9.0482969 -76.064751 -0.11304462 -103.85792
9203250000 -1.1221746 134.94072 -9.062892 -75.354248 -9.0521774 -76.025116 -0.10772391 -103.81063
9203312500 -1.1263514 134.94342 -9.0632095 -75.416756 -9.0484476 -76.138504 -0.10972453 -103.85836
9203375000 -1.1199193 134.92918 -9.0533991 -75.354607 -9.0493746 -76.143822 -0.10134399 -103.81727
9203437500 -1.1258832 134.91599 -9.0681152 -75.406548 -9.0575209 -76.085381 -0.11401795 -103.8197
9203500000 -1.1184435 134.86168 -9.0539083 -75.38195 -9.052618 -76.094193 -0.114137 -103.78454
9203562500 -1.1282691 134.89157 -9.0701904 -75.324608 -9.0613785 -76.064842 -0.12504217 -103.7794
9203625000 -1.1305038 134.83813 -9.0639286 -75.405258 -9.051301 -76.062897 -0.11535034 -103.7944
9203687500 -1.1299551 134.81877 -9.0649834 -75.382668 -9.0552292 -76.041412 -0.11667391 -103.72484
9203750000 -1.1237994 134.80717 -9.0569897 -75.357185 -9.0540419 -76.063843 -0.10664355 -103.67667
9203812500 -1.1264136 134.81151 -9.0573797 -75.374214 -9.0605793 -76.073479 -0.12104272 -103.68651
9203875000 -1.1234496 134.81755 -9.0597095 -75.339508 -9.0555687 -76.108559 -0.13058981 -103.69885
9203937500 -1.1320641 134.81422 -9.049387 -75.360039 -9.0511913 -76.02095 -0.11826603 -103.67864
9204000000 -1.127089 134.80304 -9.0531244 -75.270622 -9.0453653 -76.03022 -0.11221103 -103.58803
9204062500 -1.1180826 134.789 -9.0535631 -75.303833 -9.0413446 -76.100204 -0.12631284 -103.6201
9204125000 -1.1258265 134.75304 -9.0501566 -75.385628 -9.0415592 -76.061653 -0.11370915 -103.60641
9204187500 -1.1289684 134.72337 -9.0575485 -75.322403 -9.0541639 -76.088295 -0.12283565 -103.57774
9204250000 -1.1277319 134.7453 -9.0504646 -75.345482 -9.0414066 -76.079323 -0.11273877 -103.58034
9204312500 -1.1211745 134.77333 -9.0408287 -75.315414 -9.048666 -76.115967 -0.12059017 -103.52725
9204375000 -1.1261923 134.70912 -9.0556307 -75.37355 -9.0453672 -76.076912 -0.11872841 -103.60847
9204437500 -1.1333792 134.70654 -9.0554047 -75.376106 -9.0391397 -75.970718 -0.1178363 -103.51503
9204500000 -1.1263298 134.69063 -9.0585356 -75.332527 -9.0479145 -76.052177 -0.12185768 -103.54987
9204562500 -1.1242199 134.60156 -9.0555449 -75.42942 -9.0435238 -76.084824 -0.11688598 -103.56474
9204625000 -1.1211431 134.67215 -9.0495911 -75.273094 -9.0392799 -75.991608 -0.117258 -103.41751
9204687500 -1.1240312 134.61447 -9.0580778 -75.336426 -9.0405664 -76.123848 -0.12418251 -103.46217
9204750000 -1.1376325 134.62009 -9.0531864 -75.321106 -9.0490284 -76.08448 -0.13172823 -103.46967
9204812500 -1.1208509 134.61742 -9.0501003 -75.298073 -9.0416527 -76.08522 -0.11787719 -103.44573
9204875000 -1.125337 134.66272 -9.0483093 -75.341782 -9.0596466 -76.050583 -0.12424526 -103.43842
9204937500 -1.1230332 134.56299 -9.0464945 -75.397247 -9.0356379 -76.079002 -0.11589865 -103.37473
9205000000 -1.1141319 134.52708 -9.0458603 -75.332481 -9.0347195 -76.013397 -0.13404234 -103.34457
9205062500 -1.1209549 134.52908 -9.0467367 -75.370316 -9.0255804 -75.988075 -0.12145251 -103.31779
9205125000 -1.1238055 134.55687 -9.0414972 -75.272667 -9.0343571 -76.010078 -0.12093512 -103.25561
9205187500 -1.1253107 134.54501 -9.0423937 -75.261551 -9.0329094 -76.040009 -0.11752439 -103.32668
9205250000 -1.1236081 134.49706 -9.0455208 -75.363861 -9.0429716 -76.025993 -0.12610886 -103.33092
9205312500 -1.1268451 134.59239 -9.0350857 -75.312759 -9.0367622 -76.00428 -0.12834738 -103.32975
9205375000 -1.1242603 134.45447 -9.0340939 -75.318611 -9.0400133 -76.041748 -0.1234387 -103.26311
9205437500 -1.1232306 134.48956 -9.0318537 -75.268768 -9.0330734 -76.038643 -0.11645825 -103.21542
9205500000 -1.1279444 134.40881 -9.0373535 -75.318459 -9.0214615 -76.01712 -0.11549067 -103.13181
9205562500 -1.1300622 134.43687 -9.029438 -75.319099 -9.039505 -76.008385 -0.12071366 -103.14991
9205625000 -1.132077 134.4429 -9.0429239 -75.282066 -9.0278234 -76.013977 -0.12772323 -103.13137
9205687500 -1.1236931 134.43507 -9.0269327 -75.309525 -9.0285397 -76.040932 -0.12072629 -103.1427
9205750000 -1.1256492 134.36403 -9.0320873 -75.363594 -9.02847 -76.022461 -0.11253533 -103.14487
9205812500 -1.1339823 134.34988 -9.0230036 -75.345009 -9.0239248 -76.012512 -0.1189369 -103.08016
9205875000 -1.1188637 134.38295 -9.0298901 -75.369034 -9.0301094 -75.940392 -0.12023701 -103.12447
9205937500 -1.1273961 134.35963 -9.0325279 -75.343651 -9.0214005 -75.976967 -0.11969916 -103.1125
9206000000 -1.12696 134.32022 -9.0225468 -75.309631 -9.028861 -76.001213 -0.12077699 -103.07869
9206062500 -1.1251974 134.35663 -9.0309191 -75.390816 -9.0296774 -76.048744 -0.12925565 -103.14319
9206125000 -1.1271636 134.32452 -9.0226746 -75.368111 -9.0204849 -75.926163 -0.12276534 -103.00439
9206187500 -1.1249052 134.34114 -9.0357161 -75.290352 -9.0147486 -76.043434 -0.11378743 -103.04335
9206250000 -1.1303707 134.2876 -9.034524 -75.326576 -9.0232496 -75.957787 -0.12585877 -103.01646
9206312500 -1.1247323 134.25159 -9.0189762 -75.279564 -9.0185413 -76.057625 -0.11727379 -102.98812
9206375000 -1.1277825 134.26907 -9.0298319 -75.299812 -9.0267677 -75.93615 -0.12199623 -103.00628
9206437500 -1.1279378 134.23528 -9.0325232 -75.257446 -9.0282679 -76.051346 -0.13072178 -103.06687
9206500000 -1.1296065 134.23537 -9.0367384 -75.310135 -9.0211477 -75.962303 -0.13009106 -102.97703
9206562500 -1.1291219 134.20364 -9.032011 -75.359032 -9.0245247 -75.988289 -0.12454326 -102.96871
9206625000 -1.1315186 134.13794 -9.0150509 -75.374237 -9.0183992 -75.994347 -0.12472904 -102.89484
9206687500 -1.1273526 134.18817 -9.026536 -75.359322 -9.0215235 -76.045639 -0.12292635 -103.00295
9206750000 -1.1323674 134.22418 -9.0252428 -75.265465 -9.0201473 -76.015167 -0.13116139 -102.9339
9206812500 -1.1258121 134.22165 -9.0228281 -75.285645 -9.0212574 -75.989868 -0.12304827 -102.93682
9206875000 -1.1341794 134.16257 -9.0322685 -75.304115 -9.0193901 -75.923622 -0.13148436 -102.79752
9206937500 -1.1252767 134.15497 -9.0241852 -75.295151 -9.0302048 -75.998253 -0.13458055 -102.82681
9207000000 -1.1274502 134.14618 -9.0253897 -75.334572 -9.0195589 -76.033119 -0.12738664 -102.85912
9207062500 -1.1267732 134.13193 -9.016798 -75.306679 -9.0132675 -75.984161 -0.12326103 -102.74979
9207125000 -1.1424572 134.09299 -9.010478 -75.31459 -9.0158539 -75.998161 -0.1306621 -102.72254
9207187500 -1.1268153 134.06447 -9.0112152 -75.35006 -9.0252199 -76.001251 -0.1329958 -102.80384
9207250000 -1.1283212 134.07329 -9.0136061 -75.317558 -9.0128717 -76.029121 -0.12329057 -102.86797
9207312500 -1.119622 134.05986 -9.0197153 -75.346352 -9.019084 -75.955261 -0.12400047 -102.73562
9207375000 -1.1328579 134.0643 -9.0172215 -75.315826 -9.0055151 -76.045059 -0.12878053 -102.73367
9207437500 -1.1227283 134.07045 -9.0169697 -75.297318 -9.0210037 -75.944481 -0.12672012 -102.71119
9207500000 -1.1337755 134.04886 -9.0220785 -75.283897 -8.9874468 -75.923363 -0.12318404 -102.69864
9207562500 -1.1270123 134.04636 -9.0143375 -75.320961 -9.0018816 -75.956085 -0.12896858 -102.70442
9207625000 -1.1290044 133.94058 -9.0140018 -75.285286 -9.0189276 -75.945663 -0.13529652 -102.59466
9207687500 -1.1350754 133.96939 -9.0174417 -75.27816 -8.9974337 -75.898445 -0.12490932 -102.64159
9207750000 -1.1314487 133.95503 -9.0205612 -75.27623 -9.0072479 -75.954674 -0.12597242 -102.62541
9207812500 -1.1321352 133.92757 -9.0152502 -75.305359 -9.0029593 -75.932243 -0.13270159 -102.62556
9207875000 -1.1291528 133.98434 -9.0168734 -75.270882 -9.0027437 -75.987793 -0.13331807 -102.59616
9207937500 -1.1332817 133.90857 -9.0100336 -75.214058 -9.0135317 -76.021103 -0.13577791 -102.64318
9208000000 -1.1341307 133.89337 -9.0136976 -75.281654 -9.0028086 -75.967155 -0.13054952 -102.5387
9208062500 -1.1329201 133.89172 -9.0208025 -75.268814 -9.0012121 -75.990784 -0.13489343 -102.54861
9208125000 -1.128474 133.87819 -9.0040112 -75.312233 -8.9993725 -76.025269 -0.1285134 -102.55586
9208187500 -1.1240697 133.88934 -9.0103302 -75.268272 -9.007081 -75.894249 -0.13109609 -102.46758
9208250000 -1.1418678 133.86926 -9.0128078 -75.217331 -8.9975977 -75.977745 -0.12684733 -102.46477
9208312500 -1.125393 133.8739 -9.0095673 -75.265823 -8.9976263 -75.955086 -0.13468572 -102.50904
9208375000 -1.1376948 133.83678 -9.0094881 -75.317101 -9.0062437 -75.975929 -0.13562275 -102.42263
9208437500 -1.1275492 133.78888 -9.0038519 -75.270851 -9.0027065 -75.890823 -0.14431198 -102.40628
9208500000 -1.1355942 133.77287 -9.0089426 -75.252495 -8.9972019 -75.974609 -0.12470986 -102.41772
9208562500 -1.1341683 133.82767 -9.0074825 -75.244263 -9.0015802 -75.93692 -0.13176762 -102.3817
9208625000 -1.1268973 133.74387 -9.0034008 -75.253372 -8.9991226 -75.968987 -0.14298746 -102.40514
9208687500 -1.1246454 133.74844 -8.9924755 -75.260429 -9.0001745 -75.913124 -0.1345015 -102.34995
9208750000 -1.1259341 133.80219 -9.0036249 -75.189857 -8.9930687 -75.952736 -0.13592115 -102.37157
9208812500 -1.133531 133.80956 -9.0081558 -75.218536 -9.0034466 -76.016579 -0.13603355 -102.31956
9208875000 -1.1275859 133.72577 -8.9978418 -75.19902 -8.9952469 -75.958748 -0.12964541 -102.28715
9208937500 -1.1322134 133.71834 -8.9896307 -75.265724 -8.9919605 -75.901123 -0.13158953 -102.26866
9209000000 -1.1289645 133.72679 -9.0094728 -75.266815 -8.9887838 -75.950676 -0.14479312 -102.3575
9209062500 -1.1299434 133.71376 -8.9952478 -75.261993 -9.0004435 -75.878502 -0.13783869 -102.24302
9209125000 -1.1323818 133.65834 -8.9944515 -75.309143 -8.9898653 -75.914413 -0.12979178 -102.22815
9209187500 -1.1323026 133.67982 -8.9991064 -75.212852 -8.9914637 -75.827789 -0.13950069 -102.19789
9209250000 -1.1316032 133.63953 -9.0039768 -75.265862 -8.9889755 -75.998947 -0.13941142 -102.17049
9209312500 -1.1371802 133.56407 -9.0036325 -75.235138 -8.9856701 -75.939713 -0.14182617 -102.21284
9209375000 -1.1229699 133.59422 -9.0022135 -75.273102 -9.0034914 -75.873543 -0.15156218 -102.18667
9209437500 -1.1403701 133.58005 -9.0026731 -75.235298 -8.9942598 -75.940834 -0.14145245 -102.11271
9209500000 -1.1335026 133.57828 -8.9909697 -75.284294 -8.990489 -75.950691 -0.13415255 -102.12427
9209562500 -1.1372898 133.55502 -8.9947138 -75.205292 -8.9905071 -75.897141 -0.14310701 -102.10669
9209625000 -1.1315347 133.55617 -8.9822664 -75.177933 -8.9896021 -75.898308 -0.13449679 -102.04974
9209687500 -1.135004 133.49721 -8.9925299 -75.226952 -8.9967299 -75.834198 -0.14403687 -102.04145
9209750000 -1.1297791 133.5007 -8.9822826 -75.323669 -8.9889002 -75.850456 -0.13189587 -102.0491
9209812500 -1.133245 133.52032 -8.9950123 -75.1894 -8.9874239 -75.934769 -0.1434274 -102.05315
9209875000 -1.1283965 133.49754 -8.9873886 -75.21434 -8.9845333 -75.881592 -0.14831759 -102.01743
9209937500 -1.1300863 133.59744 -8.999733 -75.172142 -8.9909153 -75.937332 -0.14720027 -102.07881
9210000000 -1.122381 133.49521 -8.9867191 -75.236519 -8.9843922 -75.89119 -0.15775654 -101.95179
9210062500 -1.137213 133.49086 -9.00035 -75.262589 -8.9802132 -75.911003 -0.14257447 -102.01026
9210125000 -1.1253588 133.43352 -8.9838676 -75.195457 -8.9818697 -75.889282 -0.14211439 -101.94627
9210187500 -1.1331401 133.51317 -8.9826393 -75.241158 -8.9733191 -75.965485 -0.14106503 -101.97008
9210250000 -1.1335227 133.4481 -8.9780817 -75.220329 -8.9775047 -75.851997 -0.146162 -101.91662
9210312500 -1.1399209 133.44687 -8.9851351 -75.185715 -8.9831791 -75.955963 -0.14254996 -101.96809
9210375000 -1.1331811 133.43398 -8.9921665 -75.177002 -8.9869251 -75.87426 -0.14148317 -101.84581
9210437500 -1.1320983 133.37341 -8.9938021 -75.280159 -8.9851236 -75.931686 -0.13700008 -101.92046
9210500000 -1.1312357 133.35637 -8.9808617 -75.239151 -8.973278 -75.891769 -0.13113393 -101.91666
9210562500 -1.1369783 133.35893 -8.9850969 -75.165352 -8.9782724 -75.926392 -0.14602382 -101.83211
9210625000 -1.1260014 133.34207 -8.9843826 -75.169991 -8.9818535 -75.834732 -0.14622997 -101.85944
9210687500 -1.1318696 133.36438 -8.9807901 -75.190933 -8.9761477 -75.911819 -0.1427642 -101.81274
9210750000 -1.1424518 133.31094 -8.9932766 -75.223427 -8.9751368 -75.83223 -0.14590943 -101.78298
9210812500 -1.1385061 133.31421 -8.9879255 -75.234993 -8.9756336 -75.812973 -0.14758211 -101.74361
9210875000 -1.137228 133.31421 -8.9806929 -75.240196 -8.9692841 -75.896736 -0.14825065 -101.85424
9210937500 -1.1279353 133.3277 -8.9750891 -75.175201 -8.9791746 -75.802414 -0.14936991 -101.73866
9211000000 -1.1279498 133.27454 -8.9638472 -75.167862 -8.9788465 -75.910072 -0.1388765 -101.78645
9211062500 -1.1344368 133.30138 -8.9848156 -75.153191 -8.9770937 -75.837944 -0.15653878 -101.70837
9211125000 -1.1302512 133.21214 -8.9773417 -75.210892 -8.9734945 -75.89595 -0.13933323 -101.70641
9211187500 -1.1378053 133.21573 -8.9779625 -75.187584 -8.9680185 -75.895836 -0.14662264 -101.66875
9211250000 -1.1389799 133.22815 -8.9686871 -75.228333 -8.9712229 -75.832664 -0.13688371 -101.64062
9211312500 -1.1321222 133.21094 -8.9648514 -75.194077 -8.9719687 -75.861237 -0.14464712 -101.63875
9211375000 -1.1361424 133.14668 -8.9846382 -75.192642 -8.9628754 -75.897964 -0.14799531 -101.62039
9211437500 -1.1295794 133.1765 -8.9588442 -75.173012 -8.9684 -75.92028 -0.14908561 -101.64429
9211500000 -1.1381738 133.13013 -8.984828 -75.192787 -8.9744635 -75.893044 -0.14277478 -101.66139
9211562500 -1.1413374 133.16255 -8.9822483 -75.194069 -8.9639034 -75.868286 -0.14891483 -101.6223
9211625000 -1.13375 133.08156 -8.9622488 -75.261116 -8.9567413 -75.820709 -0.14054419 -101.57213
9211687500 -1.1385193 133.15477 -8.9755354 -75.206802 -8.969677 -75.937569 -0.15544783 -101.53403
9211750000 -1.1388259 133.08443 -8.9699049 -75.148315 -8.9632587 -75.826141 -0.14271991 -101.47944
9211812500 -1.1384828 133.0638 -8.9926386 -75.19397 -8.9696493 -75.861313 -0.16047329 -101.54809
9211875000 -1.1426398 133.06342 -8.9683142 -75.214478 -8.9555655 -75.830421 -0.14436823 -101.46152
9211937500 -1.139908 133.04996 -8.9719543 -75.196083 -8.965333 -75.878639 -0.15237872 -101.52227
9212000000 -1.133278 132.9966 -8.9603033 -75.198273 -8.9602375 -75.891769 -0.14573924 -101.46891
9212062500 -1.1327639 132.97266 -8.959466 -75.147598 -8.9651203 -75.791893 -0.15431403 -101.44285
9212125000 -1.1357281 132.93089 -8.9635048 -75.263153 -8.9696217 -75.878014 -0.1503683 -101.41448
9212187500 -1.1312987 133.0166 -8.9579554 -75.147522 -8.9517593 -75.809898 -0.15153535 -101.37386
9212250000 -1.1326293 132.98338 -8.9643373 -75.189896 -8.9632339 -75.820496 -0.14679459 -101.36438
9212312500 -1.1352333 132.98149 -8.9643116 -75.212067 -8.9638052 -75.780434 -0.15574096 -101.32948
