!Agilent Technologies,N5242A,MY51221714,A.09.90.19
!Agilent N5242A: A.09.90.19
!Date: Tuesday, March 26, 2024 16:23:39
!Correction: S11(Full 2 Port(1,2)) 
!S21(Full 2 Port(1,2)) 
!S12(Full 2 Port(1,2)) 
!S22(Full 2 Port(1,2)) 
!S2P File: Measurements: S11, S21, S12, S22:
# Hz S  dB   R 50
9200000000 -1.3481827 133.58011 -8.7660685 -78.780373 -8.7462301 -79.4515 -0.27487811 -105.59188
9200062500 -1.3441465 133.54933 -8.7576199 -78.818085 -8.7601423 -79.560135 -0.26750904 -105.58786
9200125000 -1.343143 133.50768 -8.760396 -78.800171 -8.7442532 -79.43235 -0.28086576 -105.49414
9200187500 -1.3476461 133.54132 -8.757164 -78.766373 -8.7451706 -79.536064 -0.25802392 -105.51397
9200250000 -1.3361527 133.47957 -8.7465763 -78.791016 -8.7507267 -79.443008 -0.26554799 -105.50233
9200312500 -1.3457854 133.51328 -8.7496233 -78.790817 -8.7458267 -79.47892 -0.27152434 -105.52751
9200375000 -1.345461 133.48161 -8.7556171 -78.732872 -8.7539463 -79.598198 -0.26852778 -105.48421
9200437500 -1.3418975 133.43817 -8.7559776 -78.784752 -8.738636 -79.536278 -0.26608843 -105.51633
9200500000 -1.3395724 133.42709 -8.7591801 -78.828583 -8.7439709 -79.407883 -0.27718583 -105.43747
9200562500 -1.3383518 133.46988 -8.7525473 -78.750381 -8.7525654 -79.519165 -0.263491 -105.46004
9200625000 -1.3473127 133.42944 -8.7582426 -78.734207 -8.7393312 -79.465073 -0.26912999 -105.40218
9200687500 -1.3341461 133.42052 -8.7550344 -78.76902 -8.7571049 -79.473381 -0.2758404 -105.38102
9200750000 -1.3439432 133.38698 -8.7522898 -78.77253 -8.7413235 -79.474304 -0.27028126 -105.4028
9200812500 -1.355363 133.35931 -8.7576466 -78.780586 -8.7507792 -79.446358 -0.29065028 -105.36713
9200875000 -1.3442783 133.47383 -8.7557011 -78.739677 -8.7501888 -79.470741 -0.28111321 -105.40488
9200937500 -1.3465465 133.40265 -8.7546463 -78.771103 -8.7374916 -79.470055 -0.26882917 -105.31942
9201000000 -1.3435607 133.30812 -8.7487955 -78.796257 -8.7324238 -79.494499 -0.26974133 -105.33102
9201062500 -1.3455485 133.29747 -8.7396507 -78.772842 -8.7233095 -79.463493 -0.27254167 -105.31255
9201125000 -1.3432833 133.32724 -8.733573 -78.764343 -8.7455053 -79.494598 -0.2764388 -105.28606
9201187500 -1.352488 133.25241 -8.7503986 -78.7631 -8.7274303 -79.473442 -0.27357003 -105.20226
9201250000 -1.3503155 133.30879 -8.7424965 -78.714569 -8.743206 -79.432518 -0.27771086 -105.21065
9201312500 -1.3504084 133.27898 -8.7471342 -78.739502 -8.7457962 -79.47599 -0.27302751 -105.24889
9201375000 -1.3573016 133.25719 -8.7449074 -78.713135 -8.7451258 -79.369171 -0.28679755 -105.19672
9201437500 -1.3473896 133.26514 -8.7426205 -78.648994 -8.7386084 -79.493919 -0.28211963 -105.25317
9201500000 -1.3484539 133.25883 -8.7551117 -78.717407 -8.7440338 -79.430405 -0.283481 -105.22324
9201562500 -1.3445028 133.18732 -8.7400103 -78.719902 -8.7530308 -79.464645 -0.29315326 -105.18425
9201625000 -1.3416494 133.1848 -8.7367401 -78.764198 -8.7284565 -79.435547 -0.28816423 -105.12365
9201687500 -1.3585759 133.19757 -8.7426453 -78.668846 -8.7342377 -79.397675 -0.28442368 -105.00709
9201750000 -1.3510772 133.17273 -8.7427521 -78.724022 -8.7238894 -79.471199 -0.2692655 -105.08869
9201812500 -1.3505785 133.15134 -8.7459564 -78.760162 -8.7322397 -79.429924 -0.28532174 -105.10349
9201875000 -1.3524398 133.15073 -8.7382193 -78.773552 -8.7380791 -79.48513 -0.28116408 -105.06807
9201937500 -1.3595127 133.1035 -8.7411394 -78.737541 -8.7352638 -79.494194 -0.27985042 -105.08199
9202000000 -1.3518105 133.11398 -8.7341776 -78.697189 -8.7315207 -79.494667 -0.27874398 -105.01827
9202062500 -1.358861 133.11389 -8.7357264 -78.699165 -8.7211351 -79.494186 -0.27092856 -105.01669
9202125000 -1.3525145 133.12465 -8.7485933 -78.769829 -8.7309341 -79.454575 -0.28547099 -105.03236
9202187500 -1.3488654 133.08247 -8.7342176 -78.737122 -8.7229548 -79.430809 -0.27879247 -104.95165
9202250000 -1.3492587 133.09254 -8.7472334 -78.719437 -8.7284527 -79.357903 -0.28832674 -104.90961
9202312500 -1.3479877 133.06305 -8.7366982 -78.696754 -8.7195244 -79.440254 -0.2814855 -104.94706
9202375000 -1.3521994 133.04048 -8.7411213 -78.715485 -8.7190237 -79.479523 -0.2880311 -104.90602
9202437500 -1.3494184 133.06424 -8.732975 -78.700737 -8.722579 -79.438232 -0.27478552 -104.94673
9202500000 -1.3572903 133.00174 -8.7336082 -78.763504 -8.7336893 -79.508888 -0.28869379 -104.9782
9202562500 -1.3467772 132.97409 -8.7257023 -78.719521 -8.7289362 -79.443909 -0.28897816 -104.9069
9202625000 -1.3546121 133.01247 -8.73349 -78.759987 -8.7162657 -79.481133 -0.28368336 -104.90315
9202687500 -1.3531226 133.00417 -8.7297344 -78.707886 -8.7204189 -79.439865 -0.27603117 -104.80881
9202750000 -1.3416522 132.91035 -8.7207289 -78.733223 -8.7179317 -79.451096 -0.27887696 -104.85204
9202812500 -1.3513031 132.89879 -8.7406569 -78.753426 -8.7148294 -79.526123 -0.28001514 -104.80906
9202875000 -1.3408871 132.92676 -8.7250957 -78.662697 -8.7266665 -79.434761 -0.28991732 -104.74304
9202937500 -1.3508627 132.90936 -8.7234602 -78.803688 -8.7174959 -79.3778 -0.28475592 -104.76974
9203000000 -1.3540688 132.91594 -8.7312737 -78.707573 -8.7147646 -79.44413 -0.28115568 -104.68803
9203062500 -1.3463637 132.86458 -8.7186518 -78.731865 -8.7220964 -79.417442 -0.29051763 -104.77861
9203125000 -1.3445882 132.88106 -8.7191916 -78.669907 -8.705286 -79.491341 -0.27861401 -104.75494
9203187500 -1.3468173 132.85179 -8.729187 -78.746063 -8.7080107 -79.415695 -0.28345075 -104.6664
9203250000 -1.3562536 132.81705 -8.723855 -78.76857 -8.7201099 -79.377556 -0.28315869 -104.68449
9203312500 -1.35884 132.84309 -8.7314873 -78.747742 -8.7084236 -79.512062 -0.27702159 -104.67371
9203375000 -1.351772 132.80695 -8.7197666 -78.7369 -8.7166157 -79.422516 -0.27636945 -104.61524
9203437500 -1.3572762 132.81648 -8.7208738 -78.753387 -8.7170153 -79.436996 -0.28548664 -104.70082
9203500000 -1.3494871 132.78189 -8.7165937 -78.703857 -8.7166805 -79.437325 -0.2807416 -104.62154
9203562500 -1.3573226 132.7935 -8.7267179 -78.74379 -8.7202797 -79.430054 -0.2937099 -104.67487
9203625000 -1.3575091 132.75092 -8.7266321 -78.731766 -8.7203064 -79.371536 -0.29323974 -104.64308
9203687500 -1.3580799 132.70305 -8.7267141 -78.78669 -8.7155275 -79.364769 -0.29201618 -104.56271
9203750000 -1.3548515 132.73712 -8.724967 -78.714088 -8.7009296 -79.457886 -0.27679786 -104.53768
9203812500 -1.3576208 132.71492 -8.7105694 -78.752831 -8.713459 -79.400085 -0.29320562 -104.48598
9203875000 -1.351078 132.69942 -8.7241793 -78.733528 -8.7044716 -79.439972 -0.29441974 -104.55232
9203937500 -1.3592207 132.67711 -8.7147102 -78.763527 -8.7037354 -79.36882 -0.28281245 -104.51315
9204000000 -1.3519902 132.67459 -8.7078724 -78.712685 -8.7120752 -79.370277 -0.28870896 -104.49269
9204062500 -1.3471272 132.69646 -8.7058887 -78.673401 -8.6928377 -79.471268 -0.29088023 -104.50482
9204125000 -1.356459 132.66891 -8.7055178 -78.680908 -8.7032843 -79.4226 -0.28636938 -104.44765
9204187500 -1.3589939 132.63251 -8.7191486 -78.693176 -8.6985588 -79.461716 -0.29963711 -104.47503
9204250000 -1.357736 132.64339 -8.7051897 -78.724358 -8.701869 -79.448685 -0.29070807 -104.49703
9204312500 -1.3568286 132.65085 -8.7088423 -78.674843 -8.710084 -79.442078 -0.29910716 -104.34984
9204375000 -1.3448833 132.63667 -8.7139301 -78.690216 -8.6998892 -79.411636 -0.29281738 -104.41434
9204437500 -1.3621688 132.59666 -8.706543 -78.761787 -8.7026567 -79.402908 -0.28682578 -104.40231
9204500000 -1.3663809 132.60542 -8.7120647 -78.682899 -8.7083464 -79.421875 -0.29400903 -104.38633
9204562500 -1.3568896 132.54723 -8.7147141 -78.786255 -8.697691 -79.452225 -0.28511301 -104.39741
9204625000 -1.3512213 132.55991 -8.7027769 -78.649963 -8.6947737 -79.405449 -0.29263958 -104.24232
9204687500 -1.3560206 132.55612 -8.7075548 -78.690628 -8.7012653 -79.408798 -0.29418829 -104.29299
9204750000 -1.3574353 132.50473 -8.7050543 -78.648209 -8.7074308 -79.39032 -0.30481687 -104.30602
9204812500 -1.3540142 132.48502 -8.7046356 -78.639297 -8.6986008 -79.405357 -0.28779525 -104.25154
9204875000 -1.3544372 132.56613 -8.6984997 -78.68679 -8.7033014 -79.373627 -0.28943649 -104.28136
9204937500 -1.3587998 132.51439 -8.6970272 -78.683731 -8.6889238 -79.438629 -0.29017833 -104.23879
9205000000 -1.3443511 132.42078 -8.699666 -78.734818 -8.6893606 -79.313316 -0.30234629 -104.21317
9205062500 -1.3547796 132.42548 -8.6994114 -78.739456 -8.6825838 -79.432877 -0.29512104 -104.17392
9205125000 -1.3543217 132.44402 -8.7017765 -78.692055 -8.6859226 -79.393318 -0.28889129 -104.1114
9205187500 -1.3610272 132.42902 -8.7045956 -78.705887 -8.6983461 -79.398399 -0.30222616 -104.11089
9205250000 -1.3494279 132.41663 -8.6911564 -78.686943 -8.7012329 -79.454979 -0.30507928 -104.2522
9205312500 -1.3588333 132.48128 -8.697628 -78.627235 -8.6958141 -79.37603 -0.29889867 -104.16566
9205375000 -1.3597462 132.35065 -8.6869364 -78.696426 -8.6916151 -79.402977 -0.28883165 -104.11533
9205437500 -1.3522638 132.3916 -8.6842203 -78.65107 -8.6901541 -79.406662 -0.29767308 -104.11558
9205500000 -1.3615481 132.29288 -8.6961651 -78.728561 -8.6863203 -79.436539 -0.29300055 -104.01754
9205562500 -1.3558743 132.33072 -8.6942434 -78.748749 -8.6855145 -79.402596 -0.28670064 -104.05714
9205625000 -1.3654914 132.34776 -8.6972952 -78.708755 -8.6783581 -79.44973 -0.29037315 -104.07706
9205687500 -1.3589891 132.32013 -8.6916571 -78.677071 -8.6841383 -79.406998 -0.29707059 -103.99491
9205750000 -1.3601285 132.25232 -8.6921463 -78.716614 -8.6935635 -79.43898 -0.29142302 -104.04553
9205812500 -1.3599786 132.25606 -8.6789341 -78.663185 -8.6920776 -79.352821 -0.29777348 -103.94633
9205875000 -1.3512077 132.30678 -8.6911736 -78.654236 -8.687355 -79.377319 -0.29989871 -104.01683
9205937500 -1.3639892 132.25551 -8.6949539 -78.659294 -8.6764011 -79.353615 -0.29038996 -103.9272
9206000000 -1.363525 132.25717 -8.6775122 -78.675346 -8.6807756 -79.417229 -0.28873515 -103.96307
9206062500 -1.3631277 132.26224 -8.6976404 -78.720833 -8.6851511 -79.385635 -0.30398715 -103.95927
9206125000 -1.3594865 132.22227 -8.679924 -78.68985 -8.6770887 -79.384293 -0.29816979 -103.86162
9206187500 -1.3649828 132.21397 -8.6919479 -78.71273 -8.675168 -79.413544 -0.28781912 -103.89185
9206250000 -1.3629593 132.16016 -8.6986713 -78.725075 -8.6800499 -79.355316 -0.30107942 -103.90051
9206312500 -1.358775 132.12407 -8.6882935 -78.717613 -8.6794243 -79.464569 -0.29183084 -103.90855
9206375000 -1.3610421 132.16518 -8.6897564 -78.729256 -8.6806583 -79.361938 -0.29874402 -103.88837
9206437500 -1.3508369 132.14825 -8.691638 -78.734245 -8.6786175 -79.455528 -0.30376664 -103.91432
9206500000 -1.3620043 132.11945 -8.6891632 -78.722267 -8.675189 -79.344353 -0.30413577 -103.85183
9206562500 -1.3589566 132.10626 -8.6778851 -78.780876 -8.6765385 -79.350601 -0.29645726 -103.84305
9206625000 -1.3569878 132.05214 -8.6713963 -78.734901 -8.6806736 -79.45784 -0.30325729 -103.82561
9206687500 -1.3624597 132.10057 -8.6829777 -78.764717 -8.6652718 -79.374367 -0.28678054 -103.84428
9206750000 -1.356487 132.09698 -8.6812553 -78.643417 -8.6841812 -79.368675 -0.30286172 -103.7856
9206812500 -1.3559725 132.07224 -8.682044 -78.731483 -8.6757545 -79.393555 -0.29872233 -103.77849
9206875000 -1.3629955 132.03937 -8.6865377 -78.730515 -8.6680565 -79.314163 -0.29393205 -103.66273
9206937500 -1.3642707 132.03604 -8.6765976 -78.701859 -8.6781349 -79.375809 -0.30286494 -103.731
9207000000 -1.3575189 132.04482 -8.6816378 -78.669609 -8.6744547 -79.431313 -0.30503783 -103.74654
9207062500 -1.3560487 131.97235 -8.6664696 -78.712326 -8.6654673 -79.388168 -0.30140498 -103.63063
9207125000 -1.3718449 131.95799 -8.6717787 -78.739952 -8.6690979 -79.466835 -0.29791147 -103.67024
9207187500 -1.361003 131.9489 -8.6630526 -78.747765 -8.6702528 -79.416969 -0.3024047 -103.67976
9207250000 -1.3557886 131.93602 -8.6663599 -78.686813 -8.6717796 -79.373207 -0.29803118 -103.66084
9207312500 -1.360224 131.9279 -8.6751623 -78.772224 -8.6647596 -79.370316 -0.29722077 -103.63796
9207375000 -1.3725309 131.93739 -8.6811142 -78.650955 -8.6715841 -79.419121 -0.30523807 -103.60415
9207437500 -1.3633829 131.98502 -8.6702938 -78.667343 -8.674715 -79.301659 -0.29960832 -103.57167
9207500000 -1.3678812 131.95903 -8.6798906 -78.677895 -8.6585712 -79.356087 -0.30887911 -103.59194
9207562500 -1.3583431 131.91696 -8.6655188 -78.682617 -8.6610174 -79.360085 -0.30812564 -103.56969
9207625000 -1.3604003 131.83586 -8.6691246 -78.679474 -8.6629267 -79.348709 -0.30197358 -103.46503
9207687500 -1.3648878 131.91248 -8.6649208 -78.679359 -8.6592636 -79.422531 -0.29609635 -103.57413
9207750000 -1.366282 131.85428 -8.6743832 -78.694183 -8.6584949 -79.448158 -0.30061898 -103.54504
9207812500 -1.3675745 131.85887 -8.6704245 -78.679749 -8.6706123 -79.386909 -0.31022701 -103.49621
9207875000 -1.3598958 131.82991 -8.6692114 -78.639404 -8.663476 -79.373161 -0.29726338 -103.43701
9207937500 -1.3649993 131.78278 -8.6739569 -78.634216 -8.6611738 -79.342766 -0.3106243 -103.49898
9208000000 -1.3668203 131.78497 -8.6571836 -78.681396 -8.6631756 -79.333237 -0.30853155 -103.40791
9208062500 -1.3681381 131.77524 -8.665719 -78.700432 -8.6584482 -79.371437 -0.31 -103.44652
9208125000 -1.3691294 131.77069 -8.6659021 -78.698547 -8.6526413 -79.395714 -0.30627161 -103.41987
9208187500 -1.3616964 131.79167 -8.6621761 -78.677238 -8.6686659 -79.366829 -0.31470659 -103.39017
9208250000 -1.3650279 131.74527 -8.666666 -78.665977 -8.6484318 -79.3937 -0.30489063 -103.36194
9208312500 -1.36335 131.76147 -8.6670599 -78.664803 -8.6505737 -79.402161 -0.31206077 -103.42805
9208375000 -1.3652766 131.74091 -8.6681547 -78.645584 -8.656621 -79.396584 -0.31132811 -103.30466
9208437500 -1.3636166 131.64828 -8.6623631 -78.724464 -8.6628571 -79.374504 -0.32272014 -103.33102
9208500000 -1.3682411 131.66026 -8.6690435 -78.68512 -8.6623335 -79.413887 -0.31235909 -103.27085
9208562500 -1.3709474 131.69467 -8.6637363 -78.67485 -8.6584091 -79.351471 -0.31472769 -103.26924
9208625000 -1.3601903 131.65631 -8.649231 -78.65271 -8.6486311 -79.336632 -0.31299266 -103.32019
9208687500 -1.3554951 131.58801 -8.6424379 -78.683464 -8.6562824 -79.33712 -0.30275923 -103.22429
9208750000 -1.3609692 131.64838 -8.6500864 -78.707825 -8.6516304 -79.352028 -0.31028751 -103.21323
9208812500 -1.3724772 131.7075 -8.6612473 -78.602196 -8.6535759 -79.395317 -0.3100425 -103.17918
9208875000 -1.3657464 131.53812 -8.6509542 -78.727646 -8.6544847 -79.359886 -0.31279552 -103.14283
9208937500 -1.3718487 131.61647 -8.6518116 -78.740227 -8.6355686 -79.283318 -0.29932731 -103.13344
9209000000 -1.3598791 131.60358 -8.6622181 -78.627556 -8.6352692 -79.306404 -0.31122428 -103.21438
9209062500 -1.3707246 131.60277 -8.6655893 -78.648048 -8.6541691 -79.381783 -0.31445357 -103.16446
9209125000 -1.3708842 131.5394 -8.6463375 -78.700325 -8.6417952 -79.398804 -0.30666789 -103.11349
9209187500 -1.3677665 131.55861 -8.6537085 -78.691719 -8.6455364 -79.342758 -0.31312615 -103.14983
9209250000 -1.363288 131.50815 -8.6588411 -78.648796 -8.6432629 -79.431755 -0.31399333 -103.01867
9209312500 -1.3693874 131.45346 -8.6595125 -78.697426 -8.6395922 -79.41143 -0.32068527 -103.12205
9209375000 -1.3589237 131.49742 -8.645051 -78.626686 -8.6543226 -79.2733 -0.32475224 -103.05752
9209437500 -1.3723607 131.44801 -8.6520262 -78.655891 -8.6413155 -79.382706 -0.31326178 -102.9758
9209500000 -1.3576492 131.44218 -8.6359177 -78.644257 -8.6438799 -79.416031 -0.31548217 -103.00805
9209562500 -1.3768266 131.4221 -8.6657057 -78.66806 -8.6397419 -79.371773 -0.31631291 -102.9778
9209625000 -1.3678405 131.40382 -8.6403236 -78.670357 -8.6379929 -79.346771 -0.3140361 -102.96396
9209687500 -1.3666861 131.35141 -8.6386328 -78.691505 -8.6435394 -79.324371 -0.31626752 -102.96082
9209750000 -1.3685743 131.40202 -8.6447411 -78.726303 -8.6411018 -79.349281 -0.31379285 -103.00491
9209812500 -1.3650658 131.3941 -8.6439619 -78.598808 -8.6370993 -79.391739 -0.31612641 -102.91953
9209875000 -1.3692162 131.3593 -8.6517134 -78.674553 -8.6373987 -79.361465 -0.32114381 -102.91055
9209937500 -1.3663604 131.46127 -8.6539288 -78.636345 -8.6511974 -79.320351 -0.32852143 -102.96967
9210000000 -1.362908 131.35884 -8.6421824 -78.596123 -8.6359835 -79.336899 -0.3288312 -102.88332
9210062500 -1.3726636 131.37245 -8.645793 -78.685898 -8.6293306 -79.355003 -0.31942442 -102.90671
9210125000 -1.3623127 131.31786 -8.6418829 -78.648506 -8.6278744 -79.31282 -0.31406361 -102.83056
9210187500 -1.3690215 131.34853 -8.6379023 -78.672867 -8.624917 -79.330261 -0.3192544 -102.78893
9210250000 -1.3666351 131.33258 -8.6397314 -78.624512 -8.6278563 -79.296707 -0.31773451 -102.80206
9210312500 -1.3716613 131.2534 -8.6378689 -78.587013 -8.6353588 -79.316254 -0.31936628 -102.79687
9210375000 -1.3685714 131.32727 -8.6397343 -78.532051 -8.6324081 -79.338211 -0.31969696 -102.69247
9210437500 -1.3656384 131.25549 -8.6438856 -78.628113 -8.6273165 -79.429352 -0.31299534 -102.83296
9210500000 -1.3635774 131.23146 -8.6410494 -78.715302 -8.6245146 -79.354774 -0.31239039 -102.79716
9210562500 -1.3717325 131.24513 -8.6327562 -78.611877 -8.6320772 -79.396683 -0.3170566 -102.7085
9210625000 -1.3676412 131.24989 -8.646843 -78.604919 -8.6351824 -79.293152 -0.3236199 -102.75283
9210687500 -1.371848 131.23723 -8.631114 -78.628761 -8.6300726 -79.346497 -0.32323429 -102.70942
9210750000 -1.3722597 131.21701 -8.6353569 -78.676102 -8.6263523 -79.313072 -0.32445112 -102.71416
9210812500 -1.3703078 131.1499 -8.6345863 -78.642609 -8.6226091 -79.287781 -0.33015105 -102.66362
9210875000 -1.3682846 131.15131 -8.6326885 -78.667213 -8.6265945 -79.275627 -0.32145646 -102.68958
9210937500 -1.3686368 131.20125 -8.6274862 -78.644783 -8.6305075 -79.295662 -0.32664269 -102.64648
9211000000 -1.3676006 131.16591 -8.6239185 -78.627769 -8.6267452 -79.293678 -0.31372544 -102.66076
9211062500 -1.37064 131.17361 -8.635066 -78.578239 -8.6220894 -79.306595 -0.32699901 -102.61954
9211125000 -1.3683234 131.11778 -8.6360626 -78.623627 -8.6147575 -79.31295 -0.31625089 -102.59586
9211187500 -1.3756841 131.10223 -8.623086 -78.639854 -8.618269 -79.316536 -0.32588178 -102.56538
9211250000 -1.3733476 131.07587 -8.6233358 -78.647591 -8.6267061 -79.245872 -0.31433833 -102.52016
9211312500 -1.367641 131.10365 -8.6279716 -78.605103 -8.6268415 -79.30188 -0.32716617 -102.57461
9211375000 -1.3682276 131.02661 -8.6402187 -78.565773 -8.6151762 -79.362236 -0.32414842 -102.49512
9211437500 -1.3709095 131.03531 -8.6239815 -78.620918 -8.6247768 -79.342834 -0.33095619 -102.46673
9211500000 -1.3706964 131.02728 -8.6239996 -78.606071 -8.6270342 -79.343842 -0.32524303 -102.52045
9211562500 -1.3736423 131.02971 -8.6270809 -78.675652 -8.613596 -79.268234 -0.336041 -102.49355
9211625000 -1.367726 130.9614 -8.62432 -78.698509 -8.6123486 -79.340981 -0.31630182 -102.49059
9211687500 -1.3773557 131.02159 -8.6368523 -78.574173 -8.6179981 -79.314499 -0.33694133 -102.43919
9211750000 -1.3709555 130.94182 -8.6136475 -78.627373 -8.61098 -79.337128 -0.31527382 -102.3825
9211812500 -1.3793105 130.95766 -8.6443367 -78.613754 -8.617856 -79.30526 -0.34492305 -102.41988
9211875000 -1.3739351 130.93915 -8.6227398 -78.674805 -8.6047773 -79.262184 -0.3190386 -102.34408
9211937500 -1.3757522 130.95012 -8.6238146 -78.622803 -8.6027174 -79.299339 -0.33354667 -102.34447
9212000000 -1.3741722 130.85933 -8.6156569 -78.615692 -8.600872 -79.321014 -0.32548091 -102.3418
9212062500 -1.3746604 130.85196 -8.6221066 -78.586823 -8.6131001 -79.313461 -0.33675659 -102.33257
9212125000 -1.3690288 130.8353 -8.6087141 -78.666328 -8.6203003 -79.279343 -0.33216727 -102.25603
9212187500 -1.3685892 130.87643 -8.6118956 -78.577156 -8.6079655 -79.302536 -0.33355197 -102.27007
9212250000 -1.3742709 130.83659 -8.6106958 -78.670227 -8.6014538 -79.268951 -0.31403032 -102.28284
9212312500 -1.3705305 130.88091 -8.6144075 -78.571312 -8.6048594 -79.235619 -0.32691345 -102.2678
