!Agilent Technologies,N5242A,MY51221714,A.09.90.19
!Agilent N5242A: A.09.90.19
!Date: Tuesday, March 26, 2024 16:25:55
!Correction: S11(Full 2 Port(1,2)) 
!S21(Full 2 Port(1,2)) 
!S12(Full 2 Port(1,2)) 
!S22(Full 2 Port(1,2)) 
!S2P File: Measurements: S11, S21, S12, S22:
# Hz S  dB   R 50
9200000000 -1.3129044 133.91785 -8.801897 -78.812508 -8.7733011 -79.564011 -0.28113934 -106.04789
9200062500 -1.3139931 133.87572 -8.7916241 -78.901619 -8.785037 -79.544052 -0.273366 -106.04024
9200125000 -1.3101038 133.85376 -8.7845116 -78.790779 -8.7744465 -79.540649 -0.2729573 -105.97729
9200187500 -1.3202723 133.87663 -8.7896147 -78.75563 -8.7845631 -79.595268 -0.26699993 -106.00739
9200250000 -1.3059325 133.82722 -8.7811203 -78.814842 -8.7809544 -79.440849 -0.27448809 -105.96896
9200312500 -1.3175998 133.81377 -8.7838516 -78.808342 -8.7835112 -79.495674 -0.27252367 -105.99508
9200375000 -1.3087087 133.78325 -8.7814083 -78.834602 -8.7709942 -79.64399 -0.26883572 -105.97392
9200437500 -1.3124756 133.80414 -8.7808075 -78.813965 -8.7719593 -79.55899 -0.27355516 -105.95129
9200500000 -1.3095982 133.76608 -8.7889633 -78.830078 -8.7709742 -79.463364 -0.27391347 -105.89586
9200562500 -1.3107389 133.77016 -8.7794647 -78.855667 -8.7840881 -79.518135 -0.27029982 -105.90612
9200625000 -1.3167659 133.75432 -8.7888279 -78.825218 -8.7709541 -79.517281 -0.27636635 -105.88894
9200687500 -1.3057818 133.7388 -8.7776423 -78.82338 -8.77351 -79.487595 -0.27324817 -105.88009
9200750000 -1.3145076 133.67876 -8.7790365 -78.878471 -8.7771645 -79.4562 -0.28183579 -105.82635
9200812500 -1.3227655 133.69456 -8.7896357 -78.790619 -8.773469 -79.527924 -0.29281476 -105.82837
9200875000 -1.3082372 133.79204 -8.779809 -78.780525 -8.7794495 -79.464455 -0.28366569 -105.85583
9200937500 -1.3140767 133.68661 -8.7826471 -78.815483 -8.7634554 -79.550842 -0.2715883 -105.80766
9201000000 -1.3119831 133.66003 -8.7889709 -78.853455 -8.7689152 -79.500038 -0.27525529 -105.80705
9201062500 -1.3095467 133.67773 -8.770072 -78.754463 -8.7723761 -79.520157 -0.28204593 -105.75304
9201125000 -1.3120042 133.67639 -8.7803354 -78.76947 -8.7841702 -79.478989 -0.2841801 -105.70511
9201187500 -1.3172492 133.59276 -8.7778263 -78.781776 -8.7647486 -79.508858 -0.28420421 -105.65397
9201250000 -1.3226538 133.67035 -8.7698298 -78.733513 -8.7672472 -79.49688 -0.278548 -105.70922
9201312500 -1.3279794 133.58525 -8.7777939 -78.77803 -8.7721043 -79.464432 -0.27336815 -105.71012
9201375000 -1.3196448 133.63559 -8.7788363 -78.721657 -8.7659311 -79.437248 -0.28921762 -105.69711
9201437500 -1.3127272 133.57867 -8.7763243 -78.764053 -8.7687626 -79.518082 -0.28740197 -105.76447
9201500000 -1.3153955 133.61906 -8.7691069 -78.769188 -8.7686625 -79.497864 -0.28206372 -105.71577
9201562500 -1.3182815 133.51244 -8.7811661 -78.839828 -8.7760677 -79.455124 -0.29335603 -105.68033
9201625000 -1.3116977 133.53671 -8.7714443 -78.75592 -8.7582121 -79.530464 -0.29189309 -105.60872
9201687500 -1.318648 133.52919 -8.7644377 -78.739136 -8.7607307 -79.531929 -0.28152889 -105.57958
9201750000 -1.3198657 133.50438 -8.7800522 -78.802879 -8.7527227 -79.517761 -0.27043933 -105.57709
9201812500 -1.3139956 133.51831 -8.7720079 -78.809494 -8.7673931 -79.469597 -0.2929081 -105.62273
9201875000 -1.3200109 133.4528 -8.7694941 -78.851234 -8.7614565 -79.559456 -0.27555972 -105.56904
9201937500 -1.323498 133.44116 -8.7693262 -78.769974 -8.759058 -79.524437 -0.27840838 -105.58419
9202000000 -1.3189456 133.44212 -8.7661991 -78.83091 -8.7652168 -79.572083 -0.28273299 -105.527
9202062500 -1.3242385 133.45874 -8.7653399 -78.819473 -8.7574081 -79.547386 -0.27907005 -105.49036
9202125000 -1.3181871 133.48854 -8.7780685 -78.808701 -8.767869 -79.488762 -0.2974633 -105.51217
9202187500 -1.3183926 133.38501 -8.7658215 -78.860397 -8.7544756 -79.499878 -0.27727616 -105.45218
9202250000 -1.3241153 133.40166 -8.7756062 -78.776878 -8.7537861 -79.452087 -0.29288182 -105.45901
9202312500 -1.3157669 133.38324 -8.7692356 -78.757233 -8.7549105 -79.486275 -0.29397053 -105.42742
9202375000 -1.3162279 133.35773 -8.7677841 -78.800232 -8.7463112 -79.518753 -0.28754368 -105.38098
9202437500 -1.3183048 133.38989 -8.7653313 -78.785378 -8.7579594 -79.539993 -0.28898191 -105.46294
9202500000 -1.3274503 133.33586 -8.766428 -78.764809 -8.7662363 -79.488884 -0.28918251 -105.38332
9202562500 -1.315387 133.33897 -8.7599115 -78.705994 -8.7583447 -79.431984 -0.28985429 -105.37851
9202625000 -1.3225918 133.36546 -8.763793 -78.782852 -8.7553415 -79.470665 -0.28762892 -105.37717
9202687500 -1.3233323 133.3132 -8.7536612 -78.748589 -8.7457685 -79.415154 -0.27921599 -105.24538
9202750000 -1.3104092 133.23662 -8.7533569 -78.784683 -8.7503395 -79.499161 -0.28889856 -105.34151
9202812500 -1.3188215 133.27377 -8.7612963 -78.722961 -8.7356052 -79.534294 -0.27877122 -105.27228
9202875000 -1.3157094 133.24255 -8.7535477 -78.750336 -8.7476215 -79.443733 -0.28635553 -105.24761
9202937500 -1.3191874 133.25755 -8.7517748 -78.830856 -8.7446175 -79.486725 -0.27745649 -105.27676
9203000000 -1.3185196 133.29297 -8.7512684 -78.741425 -8.7578335 -79.510612 -0.2927627 -105.19161
9203062500 -1.3198929 133.19182 -8.759614 -78.810822 -8.7555227 -79.48333 -0.29397842 -105.25949
9203125000 -1.3195043 133.21863 -8.7557859 -78.743301 -8.7393723 -79.509315 -0.28604549 -105.24126
9203187500 -1.318743 133.18124 -8.76017 -78.830063 -8.7378721 -79.588165 -0.28250796 -105.27753
9203250000 -1.3196995 133.15369 -8.7518692 -78.775032 -8.7420588 -79.445389 -0.28225154 -105.14264
9203312500 -1.3218492 133.22128 -8.7459965 -78.703072 -8.7515926 -79.533081 -0.28254554 -105.14772
9203375000 -1.3236014 133.15782 -8.7524738 -78.763084 -8.743474 -79.489052 -0.28328642 -105.09931
9203437500 -1.3331351 133.1586 -8.765871 -78.783966 -8.7464447 -79.472557 -0.29076529 -105.14462
9203500000 -1.3167677 133.08868 -8.7499218 -78.757126 -8.7426672 -79.449631 -0.28226128 -105.10211
9203562500 -1.3228469 133.10649 -8.7537022 -78.750015 -8.7584906 -79.485634 -0.3037264 -105.16826
9203625000 -1.3229282 133.13417 -8.7496109 -78.793411 -8.7468138 -79.47699 -0.29882675 -105.14434
9203687500 -1.3302486 133.08772 -8.7592144 -78.739952 -8.7454329 -79.448402 -0.2939977 -105.07339
9203750000 -1.3198651 133.08131 -8.7449121 -78.752823 -8.7402573 -79.437569 -0.27709809 -105.0406
9203812500 -1.3231776 133.06526 -8.7402086 -78.820686 -8.7350225 -79.530396 -0.29121715 -105.02196
9203875000 -1.3161558 133.05333 -8.7457151 -78.756935 -8.7392035 -79.457863 -0.30739239 -105.0005
9203937500 -1.3261974 133.02969 -8.7341785 -78.789146 -8.7296734 -79.453995 -0.28632778 -105.04028
9204000000 -1.3288912 133.0471 -8.7461367 -78.777214 -8.7273064 -79.434593 -0.28556141 -104.95161
9204062500 -1.3174295 133.03047 -8.7373381 -78.736877 -8.7337055 -79.483398 -0.2930665 -104.96189
9204125000 -1.3264751 133.00714 -8.7404785 -78.713417 -8.7289782 -79.473022 -0.28624162 -104.97333
9204187500 -1.3303632 132.96342 -8.7489033 -78.782463 -8.7396135 -79.463455 -0.3062267 -104.93373
9204250000 -1.3203056 132.95689 -8.7285872 -78.764374 -8.7438717 -79.433411 -0.29569665 -104.93684
9204312500 -1.3247625 132.94746 -8.7401667 -78.701584 -8.7228003 -79.511169 -0.29217276 -104.87218
9204375000 -1.312652 132.91656 -8.7269716 -78.78595 -8.721384 -79.489403 -0.29235634 -104.92207
9204437500 -1.3312459 132.95367 -8.7450562 -78.799477 -8.7334957 -79.415054 -0.29150742 -104.87137
9204500000 -1.3330114 132.89294 -8.7414322 -78.827805 -8.733181 -79.496353 -0.29373425 -104.88931
9204562500 -1.3223422 132.90202 -8.7322683 -78.795601 -8.7357397 -79.522285 -0.2898646 -104.87942
9204625000 -1.3168386 132.87048 -8.7315588 -78.725311 -8.7237921 -79.593155 -0.29534027 -104.80021
9204687500 -1.3208108 132.86441 -8.7358694 -78.755104 -8.7227974 -79.45871 -0.29108298 -104.75651
9204750000 -1.3305954 132.86528 -8.7309904 -78.657104 -8.7313156 -79.459229 -0.30709752 -104.80032
9204812500 -1.3194222 132.85501 -8.7284479 -78.734833 -8.734601 -79.483994 -0.29383901 -104.77199
9204875000 -1.3215957 132.86707 -8.7296486 -78.709702 -8.7376633 -79.399529 -0.29904637 -104.75119
9204937500 -1.3225989 132.79543 -8.7292223 -78.811249 -8.7189789 -79.476166 -0.29260898 -104.737
9205000000 -1.316967 132.76222 -8.7337475 -78.750031 -8.7203846 -79.423431 -0.30395845 -104.71252
9205062500 -1.3256456 132.76299 -8.7332468 -78.822128 -8.7089338 -79.44445 -0.29378083 -104.67683
9205125000 -1.319948 132.76913 -8.7116642 -78.713837 -8.7203436 -79.474693 -0.29972923 -104.65308
9205187500 -1.3269217 132.81958 -8.7298384 -78.663956 -8.7192001 -79.440048 -0.30096209 -104.63036
9205250000 -1.3207595 132.71878 -8.7283859 -78.796494 -8.7379074 -79.462296 -0.30907425 -104.75465
9205312500 -1.320976 132.81505 -8.7129879 -78.696022 -8.723958 -79.444168 -0.30356339 -104.68578
9205375000 -1.321871 132.67369 -8.7216921 -78.755806 -8.7271414 -79.423706 -0.29555985 -104.60928
9205437500 -1.32092 132.7355 -8.717598 -78.729942 -8.7158308 -79.477882 -0.29348326 -104.62271
9205500000 -1.3292332 132.63567 -8.7153683 -78.700569 -8.7161684 -79.524025 -0.29762068 -104.56501
9205562500 -1.3267831 132.67485 -8.7261705 -78.748032 -8.7249956 -79.473785 -0.30238709 -104.5458
9205625000 -1.3274361 132.64714 -8.7171345 -78.748314 -8.727294 -79.431984 -0.30880457 -104.5425
9205687500 -1.3300838 132.68553 -8.7168636 -78.718498 -8.7125998 -79.495659 -0.29447293 -104.52576
9205750000 -1.3249396 132.64001 -8.7206755 -78.704445 -8.7205915 -79.492363 -0.2984722 -104.51986
9205812500 -1.33384 132.56841 -8.717989 -78.820854 -8.7219505 -79.420776 -0.29907963 -104.45638
9205875000 -1.3180554 132.60565 -8.7262287 -78.725296 -8.7284279 -79.376892 -0.30689135 -104.50985
9205937500 -1.3249863 132.57611 -8.7205229 -78.756897 -8.7074137 -79.368576 -0.30263004 -104.45329
9206000000 -1.3355155 132.57988 -8.7119093 -78.749252 -8.7155361 -79.407074 -0.29571185 -104.42969
9206062500 -1.3256928 132.59662 -8.7267838 -78.78331 -8.7174387 -79.491119 -0.30795103 -104.47993
9206125000 -1.328392 132.5484 -8.713645 -78.703445 -8.7074966 -79.411873 -0.30192786 -104.39897
9206187500 -1.3313276 132.55882 -8.720171 -78.696342 -8.718709 -79.42337 -0.29702058 -104.38668
9206250000 -1.3302789 132.47295 -8.7286186 -78.77137 -8.7069664 -79.41684 -0.30207202 -104.41681
9206312500 -1.3226516 132.46768 -8.7025051 -78.726845 -8.7085257 -79.548653 -0.29874712 -104.42719
9206375000 -1.3274932 132.47975 -8.7145004 -78.730919 -8.7061644 -79.419998 -0.30045557 -104.39017
9206437500 -1.3271331 132.44432 -8.7187614 -78.776535 -8.7030754 -79.461395 -0.30339491 -104.39
9206500000 -1.3297418 132.47482 -8.7166185 -78.752174 -8.7104073 -79.373077 -0.31058517 -104.3298
9206562500 -1.3277087 132.47717 -8.7225761 -78.830666 -8.7058449 -79.416153 -0.30134261 -104.38177
9206625000 -1.3328925 132.36258 -8.7084398 -78.801453 -8.7012177 -79.465546 -0.3000091 -104.30563
9206687500 -1.3314317 132.42464 -8.7151127 -78.786812 -8.7019472 -79.435623 -0.30423421 -104.32101
9206750000 -1.3294795 132.39891 -8.7038279 -78.739197 -8.7079525 -79.420433 -0.30545071 -104.28307
9206812500 -1.3229829 132.45488 -8.7076683 -78.769516 -8.7068939 -79.443733 -0.30266738 -104.3149
9206875000 -1.3316915 132.38956 -8.704814 -78.733658 -8.7014532 -79.440514 -0.29765913 -104.18613
9206937500 -1.3301414 132.36642 -8.7108088 -78.709541 -8.7058172 -79.472008 -0.29825747 -104.2067
9207000000 -1.3257866 132.36678 -8.7129173 -78.724258 -8.710597 -79.433319 -0.31557623 -104.19404
9207062500 -1.3225721 132.39722 -8.7018366 -78.635628 -8.7018099 -79.364265 -0.31138605 -104.06158
9207125000 -1.3370744 132.32704 -8.6978111 -78.719818 -8.702693 -79.472504 -0.30652174 -104.1506
9207187500 -1.3220764 132.28754 -8.6967583 -78.778595 -8.7017479 -79.451424 -0.30632985 -104.18428
9207250000 -1.3257821 132.28989 -8.7065191 -78.768059 -8.7056532 -79.431519 -0.30737224 -104.21323
9207312500 -1.3207572 132.25844 -8.7011213 -78.713692 -8.6923771 -79.367561 -0.30096376 -104.06186
9207375000 -1.3367714 132.25023 -8.7093067 -78.762169 -8.6911306 -79.452866 -0.30562857 -104.06621
9207437500 -1.3233033 132.29439 -8.7013874 -78.731339 -8.7066107 -79.386879 -0.30777827 -104.07641
9207500000 -1.3337166 132.27985 -8.7057495 -78.69519 -8.6867914 -79.417862 -0.31886169 -104.0678
9207562500 -1.3262599 132.2571 -8.6923285 -78.718697 -8.6872234 -79.391953 -0.31429279 -104.05215
9207625000 -1.3281446 132.15092 -8.6910353 -78.700546 -8.6885023 -79.465858 -0.3075113 -104.01186
9207687500 -1.3317689 132.24445 -8.6946688 -78.724525 -8.6859846 -79.414604 -0.29966319 -103.98522
9207750000 -1.327046 132.21724 -8.694253 -78.707672 -8.682827 -79.451469 -0.29663938 -103.99587
9207812500 -1.3322088 132.2001 -8.6970282 -78.716286 -8.6939754 -79.397018 -0.31595996 -103.987
9207875000 -1.3306006 132.17007 -8.6989431 -78.640923 -8.6888885 -79.469925 -0.30935466 -103.97986
9207937500 -1.3343117 132.09894 -8.7015076 -78.702629 -8.6961555 -79.431801 -0.31469086 -103.97069
9208000000 -1.3406117 132.12248 -8.6955118 -78.752876 -8.6887026 -79.399178 -0.30848587 -103.91376
9208062500 -1.3381702 132.1053 -8.697011 -78.749397 -8.6878614 -79.396545 -0.3099198 -103.89909
9208125000 -1.3322499 132.12718 -8.6898003 -78.709671 -8.6870327 -79.495247 -0.3128933 -103.93237
9208187500 -1.3256649 132.10036 -8.6893263 -78.778648 -8.6826811 -79.40918 -0.3152242 -103.89117
9208250000 -1.3370337 132.07773 -8.6890621 -78.687599 -8.6821175 -79.518456 -0.31369901 -103.92724
9208312500 -1.3282211 132.09 -8.6974649 -78.717285 -8.6711731 -79.395737 -0.30670539 -103.84943
9208375000 -1.3372008 132.04404 -8.6873722 -78.708199 -8.6874619 -79.361977 -0.31123027 -103.78573
9208437500 -1.3352242 131.98486 -8.7013073 -78.716377 -8.6878376 -79.330673 -0.31976491 -103.79913
9208500000 -1.3320556 131.98145 -8.683588 -78.729973 -8.6809416 -79.474289 -0.3151812 -103.80996
9208562500 -1.3308867 131.99825 -8.6819344 -78.759682 -8.6839981 -79.396317 -0.31130245 -103.76333
9208625000 -1.3292577 131.92169 -8.6829891 -78.772835 -8.6817932 -79.374184 -0.31957412 -103.78628
9208687500 -1.3283097 131.91492 -8.6772299 -78.802116 -8.6797361 -79.432343 -0.31270421 -103.77865
9208750000 -1.3291113 132.00668 -8.6811695 -78.664558 -8.6750078 -79.382248 -0.31837258 -103.73491
9208812500 -1.3366143 132.02907 -8.6934624 -78.642334 -8.6797886 -79.396385 -0.31060684 -103.70368
9208875000 -1.3326614 131.91483 -8.6791039 -78.754059 -8.6786308 -79.383263 -0.31334314 -103.69997
9208937500 -1.3380375 131.95102 -8.683239 -78.744568 -8.6658278 -79.407715 -0.30600885 -103.66119
9209000000 -1.3256062 131.93552 -8.6809387 -78.753601 -8.6699715 -79.39225 -0.31765935 -103.72408
9209062500 -1.3326983 131.90498 -8.6814394 -78.669411 -8.6779461 -79.366188 -0.31182292 -103.63267
9209125000 -1.3344008 131.86812 -8.6738501 -78.708565 -8.6706886 -79.391609 -0.31013325 -103.64556
9209187500 -1.3343095 131.86334 -8.6848249 -78.71701 -8.6885509 -79.340065 -0.32332191 -103.59144
9209250000 -1.3313948 131.81647 -8.6733656 -78.715332 -8.6701212 -79.442238 -0.31766731 -103.51595
9209312500 -1.3351794 131.77623 -8.6820469 -78.717056 -8.6680546 -79.402893 -0.32642898 -103.57494
9209375000 -1.3276671 131.82938 -8.6772232 -78.708504 -8.6705303 -79.360886 -0.31058148 -103.58852
9209437500 -1.3438516 131.80075 -8.6885748 -78.656387 -8.6730623 -79.425758 -0.32182869 -103.5137
9209500000 -1.3328197 131.772 -8.6701651 -78.735481 -8.6708221 -79.391609 -0.31451881 -103.50594
9209562500 -1.3416083 131.85803 -8.6900902 -78.658554 -8.6742859 -79.369377 -0.33121622 -103.45741
9209625000 -1.3337617 131.77338 -8.676115 -78.693832 -8.6652594 -79.448494 -0.31687111 -103.43517
9209687500 -1.3306309 131.67758 -8.6655855 -78.768517 -8.6649179 -79.341331 -0.31500065 -103.43783
9209750000 -1.333131 131.71948 -8.6677122 -78.756477 -8.663538 -79.386246 -0.3088823 -103.45399
9209812500 -1.3317375 131.74388 -8.6753845 -78.681602 -8.6720982 -79.371338 -0.31698251 -103.40057
9209875000 -1.3307008 131.69028 -8.6618032 -78.662674 -8.6639309 -79.363686 -0.31642437 -103.42474
9209937500 -1.3387049 131.79579 -8.6816244 -78.657295 -8.6708326 -79.365913 -0.32425228 -103.42416
9210000000 -1.3304281 131.69267 -8.6722374 -78.660843 -8.65977 -79.40155 -0.32723665 -103.39579
9210062500 -1.3399395 131.73502 -8.6767521 -78.622757 -8.6578684 -79.368164 -0.32505336 -103.36127
9210125000 -1.3281684 131.67032 -8.6804581 -78.657112 -8.6549072 -79.358688 -0.31574762 -103.35495
9210187500 -1.3426489 131.68999 -8.6704683 -78.684662 -8.6626387 -79.377098 -0.32197502 -103.30942
9210250000 -1.3420707 131.69336 -8.6722937 -78.682198 -8.6532106 -79.393066 -0.32502919 -103.3277
9210312500 -1.3403971 131.63248 -8.6717691 -78.630119 -8.6656857 -79.442772 -0.33199906 -103.35113
9210375000 -1.3348745 131.67253 -8.67099 -78.657112 -8.6596708 -79.337227 -0.32268518 -103.16963
9210437500 -1.3328692 131.58034 -8.6716509 -78.679443 -8.6575747 -79.407066 -0.31913939 -103.30073
9210500000 -1.33127 131.57492 -8.6572504 -78.730865 -8.6477165 -79.385681 -0.30728698 -103.25127
9210562500 -1.3405975 131.56541 -8.6672297 -78.62719 -8.6535425 -79.412216 -0.31784022 -103.2161
9210625000 -1.3396749 131.56306 -8.6717052 -78.692352 -8.6651192 -79.349487 -0.32858562 -103.23103
9210687500 -1.3309847 131.57228 -8.6608076 -78.662201 -8.6596546 -79.360558 -0.32535091 -103.16839
9210750000 -1.3391722 131.53737 -8.661911 -78.691971 -8.6480589 -79.381844 -0.32287702 -103.18758
9210812500 -1.3419867 131.49702 -8.667243 -78.698639 -8.6522694 -79.325447 -0.32816833 -103.16022
9210875000 -1.3392696 131.52612 -8.6726103 -78.65197 -8.6552458 -79.330276 -0.33270922 -103.16986
9210937500 -1.3366773 131.52444 -8.658227 -78.663498 -8.6550856 -79.328384 -0.33278728 -103.09893
9211000000 -1.3317651 131.47746 -8.6584663 -78.682617 -8.6714172 -79.330917 -0.33202961 -103.07292
9211062500 -1.3325715 131.43837 -8.6594114 -78.691078 -8.6572275 -79.344025 -0.33148965 -103.15524
9211125000 -1.336499 131.44643 -8.6562281 -78.65181 -8.6512594 -79.360481 -0.32175654 -103.08295
9211187500 -1.3487068 131.42503 -8.658289 -78.667168 -8.6450405 -79.336472 -0.3296316 -103.06052
9211250000 -1.3477063 131.43376 -8.6576872 -78.703629 -8.6539536 -79.273529 -0.31924948 -102.99834
9211312500 -1.3345919 131.42775 -8.6470451 -78.672455 -8.647254 -79.317757 -0.33353877 -103.05444
9211375000 -1.3399639 131.33432 -8.6598921 -78.747559 -8.6500854 -79.391617 -0.32728601 -103.02332
9211437500 -1.3379822 131.38681 -8.6468296 -78.628273 -8.6452084 -79.386787 -0.32955852 -103.01152
9211500000 -1.3413891 131.34691 -8.6536188 -78.609169 -8.6430178 -79.299751 -0.32242569 -102.97708
9211562500 -1.3417993 131.38593 -8.6520491 -78.706306 -8.6332846 -79.352875 -0.3253805 -102.96628
9211625000 -1.3385487 131.32303 -8.6505346 -78.675819 -8.6451921 -79.409271 -0.32639843 -102.97381
9211687500 -1.3397541 131.38289 -8.6461992 -78.578865 -8.6423845 -79.371902 -0.3327398 -102.95219
9211750000 -1.3410106 131.32773 -8.6486359 -78.651764 -8.6472225 -79.339287 -0.32821679 -102.89538
9211812500 -1.3429105 131.29826 -8.6616516 -78.644547 -8.6371975 -79.356361 -0.33565435 -102.92603
9211875000 -1.3419005 131.27098 -8.6534424 -78.646935 -8.6381512 -79.333107 -0.32639027 -102.80144
9211937500 -1.3369653 131.30899 -8.6520271 -78.693344 -8.6483727 -79.340111 -0.33662525 -102.84399
9212000000 -1.3388946 131.20322 -8.6386213 -78.649483 -8.6374559 -79.351051 -0.33403325 -102.81458
9212062500 -1.3415358 131.19931 -8.6502867 -78.606018 -8.6370192 -79.350174 -0.34013557 -102.84457
9212125000 -1.3404977 131.15804 -8.6429834 -78.702477 -8.6457634 -79.354576 -0.33735165 -102.82999
9212187500 -1.3306202 131.21536 -8.6317062 -78.59642 -8.6305637 -79.329208 -0.33367527 -102.77929
9212250000 -1.3379529 131.16383 -8.6396303 -78.686768 -8.6251736 -79.339104 -0.32780597 -102.78822
9212312500 -1.3410124 131.17279 -8.6341944 -78.695709 -8.6301384 -79.302162 -0.32640609 -102.76562
