!Agilent Technologies,N5242A,MY51221714,A.09.90.19
!Agilent N5242A: A.09.90.19
!Date: Tuesday, March 26, 2024 16:24:45
!Correction: S11(Full 2 Port(1,2)) 
!S21(Full 2 Port(1,2)) 
!S12(Full 2 Port(1,2)) 
!S22(Full 2 Port(1,2)) 
!S2P File: Measurements: S11, S21, S12, S22:
# Hz S  dB   R 50
9200000000 -2.0506983 131.07486 -8.2975683 -88.681152 -8.2880707 -89.428444 -0.89031476 -107.47343
9200062500 -2.0446508 131.08415 -8.2958231 -88.670547 -8.2977276 -89.423363 -0.89017779 -107.41564
9200125000 -2.0534663 131.08237 -8.2987518 -88.662048 -8.289073 -89.408577 -0.89883447 -107.39507
9200187500 -2.0572662 131.10001 -8.3004255 -88.621964 -8.291069 -89.462639 -0.87956327 -107.38034
9200250000 -2.0496037 131.0323 -8.2965765 -88.725899 -8.2899942 -89.393135 -0.89285326 -107.40372
9200312500 -2.0588145 131.04102 -8.3012829 -88.672546 -8.2917929 -89.422699 -0.89237469 -107.38274
9200375000 -2.0518479 130.99802 -8.2967863 -88.711006 -8.2967873 -89.531624 -0.89083725 -107.35496
9200437500 -2.049185 131.00482 -8.2891493 -88.70562 -8.2852812 -89.461517 -0.88066024 -107.32888
9200500000 -2.0577981 130.95383 -8.2998085 -88.734932 -8.2805462 -89.443512 -0.89259201 -107.3267
9200562500 -2.0511394 130.96759 -8.298625 -88.670372 -8.2917719 -89.427116 -0.8953371 -107.31924
9200625000 -2.0559313 130.9666 -8.2873926 -88.741982 -8.2790117 -89.407562 -0.89233941 -107.26348
9200687500 -2.0471158 130.95636 -8.2897406 -88.667297 -8.2917967 -89.41423 -0.89524049 -107.2725
9200750000 -2.0550303 130.86693 -8.2901554 -88.788132 -8.2831287 -89.418053 -0.89955795 -107.2411
9200812500 -2.0675747 130.88725 -8.2914591 -88.738503 -8.2827787 -89.422577 -0.90555471 -107.26145
9200875000 -2.0490129 130.96021 -8.2798452 -88.687782 -8.2913294 -89.361664 -0.9030261 -107.26647
9200937500 -2.0587578 130.90102 -8.2935505 -88.767845 -8.2753935 -89.410698 -0.89269823 -107.19688
9201000000 -2.0482984 130.87352 -8.2874947 -88.807419 -8.2744064 -89.434853 -0.89437723 -107.21654
9201062500 -2.0515065 130.8441 -8.2756624 -88.699173 -8.2902403 -89.464333 -0.9120571 -107.17426
9201125000 -2.0564492 130.82091 -8.2777081 -88.709846 -8.2861147 -89.424828 -0.89873344 -107.17825
9201187500 -2.0637474 130.79335 -8.282609 -88.715065 -8.2672691 -89.417336 -0.90398097 -107.08105
9201250000 -2.0601854 130.83153 -8.2778053 -88.69606 -8.2849789 -89.417061 -0.90283394 -107.0892
9201312500 -2.0674014 130.82068 -8.282958 -88.716843 -8.2806959 -89.471901 -0.90151066 -107.14194
9201375000 -2.0631783 130.77083 -8.2915363 -88.728355 -8.2806091 -89.385948 -0.91253704 -107.07094
9201437500 -2.0566416 130.76439 -8.2926216 -88.72393 -8.279294 -89.463951 -0.90693831 -107.15917
9201500000 -2.0579791 130.80022 -8.2794151 -88.689453 -8.2807608 -89.414604 -0.90200806 -107.05907
9201562500 -2.0596399 130.73085 -8.2787733 -88.677597 -8.2766113 -89.408821 -0.91470045 -107.0516
9201625000 -2.0539389 130.74916 -8.2753849 -88.698891 -8.2764397 -89.427521 -0.91370255 -106.995
9201687500 -2.0665414 130.71666 -8.270216 -88.699486 -8.2766609 -89.449059 -0.90217972 -106.95786
9201750000 -2.0566676 130.73337 -8.27637 -88.732834 -8.2576599 -89.412781 -0.88695943 -106.939
9201812500 -2.0597146 130.69724 -8.2791872 -88.701378 -8.26476 -89.429718 -0.90985936 -107.02075
9201875000 -2.0617642 130.65154 -8.2726488 -88.724083 -8.2633858 -89.452629 -0.89728957 -106.92664
9201937500 -2.0709698 130.64442 -8.2815285 -88.692307 -8.2659683 -89.491592 -0.90166688 -106.97074
9202000000 -2.0654082 130.64642 -8.2610178 -88.701782 -8.257268 -89.438148 -0.89406955 -106.8891
9202062500 -2.0698357 130.61815 -8.2677107 -88.816017 -8.27318 -89.516624 -0.90362179 -106.90497
9202125000 -2.0688856 130.66302 -8.2888308 -88.723419 -8.2763128 -89.39637 -0.91595393 -106.89639
9202187500 -2.0628858 130.63034 -8.2664423 -88.763023 -8.2691603 -89.451729 -0.90136343 -106.81968
9202250000 -2.0675755 130.59001 -8.2826996 -88.7612 -8.2666912 -89.41272 -0.90831542 -106.84938
9202312500 -2.0635641 130.60728 -8.2778168 -88.724609 -8.2633772 -89.437073 -0.91049832 -106.8539
9202375000 -2.0681117 130.52507 -8.2733774 -88.795959 -8.2518663 -89.462044 -0.90896809 -106.84544
9202437500 -2.0640559 130.56287 -8.2710094 -88.723785 -8.268733 -89.486595 -0.90782547 -106.8333
9202500000 -2.0711043 130.5565 -8.2677536 -88.74617 -8.27143 -89.490829 -0.91187853 -106.85979
9202562500 -2.0623899 130.50259 -8.2686224 -88.721481 -8.2687874 -89.384453 -0.92310262 -106.7612
9202625000 -2.0637531 130.55522 -8.2607718 -88.809319 -8.2536507 -89.451134 -0.91311437 -106.79197
9202687500 -2.0675418 130.48813 -8.2687063 -88.75412 -8.2638597 -89.423607 -0.90937793 -106.70084
9202750000 -2.0609663 130.45975 -8.2663164 -88.746803 -8.2637901 -89.485001 -0.91735351 -106.74206
9202812500 -2.0685506 130.4399 -8.2662735 -88.755539 -8.2460699 -89.508766 -0.90835738 -106.69825
9202875000 -2.0672171 130.45422 -8.2674398 -88.70356 -8.2586203 -89.480721 -0.91475117 -106.68188
9202937500 -2.0665843 130.42531 -8.2535763 -88.807571 -8.2443399 -89.431999 -0.91140699 -106.62682
9203000000 -2.0714307 130.45026 -8.2652884 -88.759117 -8.2585621 -89.409988 -0.91657162 -106.57822
9203062500 -2.0686307 130.36212 -8.257823 -88.806664 -8.2529659 -89.419823 -0.91438168 -106.65568
9203125000 -2.0681546 130.37518 -8.2590628 -88.761818 -8.2485991 -89.490074 -0.91305429 -106.60373
9203187500 -2.0654922 130.39304 -8.2656641 -88.752678 -8.2471504 -89.521217 -0.91464847 -106.59782
9203250000 -2.0679822 130.3385 -8.2518396 -88.777893 -8.2528896 -89.474815 -0.91290712 -106.57865
9203312500 -2.0750268 130.37457 -8.2602806 -88.743111 -8.2497969 -89.492455 -0.91138107 -106.5496
9203375000 -2.0703313 130.29889 -8.2552156 -88.822693 -8.2404566 -89.464294 -0.90594804 -106.52824
9203437500 -2.0777006 130.32129 -8.2679377 -88.810486 -8.2481737 -89.454308 -0.91530567 -106.55473
9203500000 -2.0703042 130.30989 -8.2600307 -88.727707 -8.2399025 -89.415527 -0.90514201 -106.47841
9203562500 -2.0827398 130.31264 -8.2646389 -88.764465 -8.2583303 -89.535629 -0.92572993 -106.54885
9203625000 -2.0777364 130.29416 -8.2657604 -88.791641 -8.2463007 -89.469994 -0.92368793 -106.57956
9203687500 -2.0803938 130.27985 -8.259882 -88.757202 -8.2533216 -89.438576 -0.9187237 -106.46301
9203750000 -2.071208 130.274 -8.2464418 -88.738335 -8.2428799 -89.465981 -0.90909725 -106.47339
9203812500 -2.0766084 130.25836 -8.2473478 -88.788017 -8.2475576 -89.475967 -0.92023855 -106.39986
9203875000 -2.0704286 130.25989 -8.2566576 -88.692093 -8.2539291 -89.490311 -0.93450701 -106.44676
9203937500 -2.0807223 130.20596 -8.247571 -88.78511 -8.2426605 -89.454346 -0.91601342 -106.40437
9204000000 -2.0724928 130.22147 -8.2392588 -88.733116 -8.2466087 -89.494293 -0.91869622 -106.33823
9204062500 -2.0727055 130.21132 -8.2514353 -88.763313 -8.2329788 -89.507118 -0.92033178 -106.39015
9204125000 -2.0779285 130.19672 -8.2438059 -88.750557 -8.2346611 -89.504471 -0.91533279 -106.32956
9204187500 -2.0819831 130.14467 -8.2524557 -88.804794 -8.2469645 -89.509453 -0.93115246 -106.34976
9204250000 -2.0769079 130.16492 -8.2394218 -88.787979 -8.2357893 -89.52636 -0.91552174 -106.37791
9204312500 -2.0763006 130.17827 -8.2511845 -88.733047 -8.2372704 -89.539696 -0.92434514 -106.27816
9204375000 -2.0727642 130.1149 -8.2429705 -88.750572 -8.2346039 -89.517708 -0.91954935 -106.31319
9204437500 -2.0942702 130.1707 -8.2498283 -88.796371 -8.2359934 -89.48941 -0.91986501 -106.25562
9204500000 -2.0782042 130.12201 -8.2428198 -88.783875 -8.2409401 -89.522995 -0.921498 -106.28725
9204562500 -2.080039 130.08279 -8.249342 -88.859245 -8.2349539 -89.48822 -0.91573018 -106.32114
9204625000 -2.073499 130.07288 -8.2342548 -88.73877 -8.2244158 -89.547691 -0.91896266 -106.17881
9204687500 -2.0776844 130.07266 -8.2372351 -88.768524 -8.2269764 -89.476639 -0.92008448 -106.18184
9204750000 -2.0940335 130.01622 -8.2496986 -88.771782 -8.2364092 -89.462196 -0.93876648 -106.19543
9204812500 -2.0739865 130.0309 -8.2453442 -88.752556 -8.2312212 -89.490463 -0.92468148 -106.20577
9204875000 -2.081429 130.09348 -8.2408266 -88.74511 -8.2495012 -89.460014 -0.93707252 -106.20933
9204937500 -2.0786803 130.00374 -8.2229414 -88.773872 -8.2290096 -89.520439 -0.92444825 -106.14732
9205000000 -2.0669613 129.96724 -8.2307558 -88.727081 -8.2306185 -89.483475 -0.94307774 -106.12233
9205062500 -2.0804555 129.93941 -8.244422 -88.82135 -8.2205706 -89.501999 -0.93374604 -106.10294
9205125000 -2.0826478 129.94098 -8.235796 -88.776688 -8.2279148 -89.492203 -0.92895192 -106.02875
9205187500 -2.0900226 129.94901 -8.2417889 -88.736031 -8.230073 -89.455376 -0.93291622 -106.04193
9205250000 -2.0762732 129.95398 -8.2421808 -88.808334 -8.2391424 -89.501457 -0.93604434 -106.09776
9205312500 -2.0785606 129.96579 -8.2289228 -88.759491 -8.2251663 -89.476036 -0.9314 -106.05499
9205375000 -2.0835803 129.8699 -8.2268333 -88.821999 -8.2295876 -89.545013 -0.92598563 -106.06062
9205437500 -2.0812607 129.88109 -8.2321653 -88.762856 -8.2286739 -89.463875 -0.92727959 -106.02184
9205500000 -2.085978 129.79637 -8.2274342 -88.823288 -8.21875 -89.500305 -0.92416829 -105.93123
9205562500 -2.0884337 129.87601 -8.2302494 -88.815056 -8.2292395 -89.493752 -0.92876875 -105.95128
9205625000 -2.0942261 129.87759 -8.2249765 -88.75985 -8.219923 -89.508598 -0.93229854 -105.88005
9205687500 -2.0768967 129.84892 -8.2244501 -88.773506 -8.2192535 -89.567719 -0.93861157 -105.92491
9205750000 -2.0840445 129.832 -8.2255678 -88.735878 -8.220643 -89.528267 -0.93126214 -105.88741
9205812500 -2.0873234 129.76833 -8.2199688 -88.835289 -8.2308321 -89.522026 -0.93638021 -105.84953
9205875000 -2.0784571 129.76073 -8.2251482 -88.805557 -8.2289324 -89.502449 -0.93613386 -105.95334
9205937500 -2.0839796 129.77751 -8.2169027 -88.753532 -8.221242 -89.510406 -0.93440682 -105.85638
9206000000 -2.0871408 129.77873 -8.2166481 -88.755119 -8.2207747 -89.558159 -0.93327874 -105.83636
9206062500 -2.0824809 129.76794 -8.2210064 -88.842384 -8.2194405 -89.561493 -0.94135332 -105.89487
9206125000 -2.0858779 129.72481 -8.2219486 -88.827179 -8.2092705 -89.459404 -0.93710077 -105.80179
9206187500 -2.090193 129.70276 -8.2141285 -88.936638 -8.2122421 -89.499931 -0.93020296 -105.80473
9206250000 -2.0943108 129.64494 -8.2212791 -88.872871 -8.2132301 -89.489334 -0.94321042 -105.76946
9206312500 -2.080364 129.61827 -8.2164068 -88.838135 -8.2193556 -89.594124 -0.9393484 -105.78103
9206375000 -2.0865455 129.70267 -8.2175608 -88.789101 -8.2087536 -89.469131 -0.93402046 -105.74918
9206437500 -2.0877967 129.64455 -8.2122116 -88.802147 -8.218318 -89.580582 -0.94438726 -105.81601
9206500000 -2.0931599 129.664 -8.2297373 -88.823372 -8.206501 -89.517021 -0.94481343 -105.7478
9206562500 -2.0884414 129.66045 -8.2168674 -88.859428 -8.2170525 -89.50312 -0.94618112 -105.75629
9206625000 -2.0988131 129.55006 -8.2158422 -88.840439 -8.2151861 -89.568947 -0.94191509 -105.70109
9206687500 -2.0945668 129.60184 -8.2232399 -88.87355 -8.2067909 -89.518318 -0.93830824 -105.68026
9206750000 -2.0952873 129.58418 -8.2197342 -88.799423 -8.213644 -89.518738 -0.94062436 -105.65821
9206812500 -2.0854447 129.62584 -8.2149181 -88.822395 -8.2118196 -89.568008 -0.94146085 -105.73096
9206875000 -2.0899749 129.55463 -8.2126627 -88.876251 -8.2056379 -89.465569 -0.94152802 -105.55255
9206937500 -2.0956891 129.54787 -8.2214651 -88.80378 -8.207984 -89.568588 -0.9479453 -105.63944
9207000000 -2.0902092 129.54724 -8.2120581 -88.876053 -8.2153997 -89.566093 -0.94739372 -105.5949
9207062500 -2.0943148 129.51746 -8.198946 -88.825462 -8.1990519 -89.513885 -0.94893527 -105.48959
9207125000 -2.0991676 129.48207 -8.2022972 -88.853874 -8.2010813 -89.574295 -0.9382844 -105.51364
9207187500 -2.0924776 129.50031 -8.1998215 -88.899849 -8.212533 -89.539085 -0.9469505 -105.54725
9207250000 -2.0863781 129.46935 -8.2037973 -88.844231 -8.2010851 -89.540543 -0.93815786 -105.55779
9207312500 -2.0877001 129.43036 -8.2090788 -88.879478 -8.2025967 -89.505264 -0.9476499 -105.49844
9207375000 -2.1003354 129.43916 -8.2110987 -88.813263 -8.1991615 -89.509949 -0.94308108 -105.43554
9207437500 -2.0909841 129.46509 -8.2080879 -88.827606 -8.2124004 -89.509361 -0.94519597 -105.49087
9207500000 -2.1013253 129.46399 -8.211544 -88.756577 -8.1901684 -89.505898 -0.95415539 -105.44059
9207562500 -2.0918298 129.43224 -8.2112064 -88.887436 -8.1948099 -89.507538 -0.96033812 -105.49783
9207625000 -2.0975795 129.29012 -8.2063293 -88.887627 -8.1941338 -89.562424 -0.94718927 -105.39841
9207687500 -2.1026001 129.38593 -8.2028503 -88.904549 -8.2007456 -89.525269 -0.94843608 -105.37896
9207750000 -2.0962512 129.37703 -8.196806 -88.829269 -8.1959848 -89.576012 -0.94650084 -105.42239
9207812500 -2.0973639 129.34395 -8.2119827 -88.887321 -8.1981955 -89.509697 -0.96165657 -105.37163
9207875000 -2.0968249 129.36847 -8.2050562 -88.850822 -8.1878691 -89.533783 -0.94895345 -105.33562
9207937500 -2.1001792 129.28258 -8.2022638 -88.810951 -8.2065516 -89.522881 -0.96002698 -105.35756
9208000000 -2.1055827 129.3248 -8.1953297 -88.909782 -8.1946468 -89.512871 -0.94333136 -105.29809
9208062500 -2.1018801 129.27968 -8.2053652 -88.863533 -8.1963196 -89.507622 -0.95096123 -105.27856
9208125000 -2.1042738 129.28244 -8.2019491 -88.871353 -8.1953325 -89.562271 -0.96051276 -105.28806
9208187500 -2.0937872 129.3158 -8.1987095 -88.849831 -8.1919699 -89.552452 -0.95469135 -105.24329
9208250000 -2.1057262 129.25327 -8.1984024 -88.814133 -8.1922712 -89.523178 -0.955392 -105.19154
9208312500 -2.0987625 129.27765 -8.204422 -88.860565 -8.1874542 -89.574295 -0.9553597 -105.22073
9208375000 -2.1094706 129.25729 -8.1978607 -88.881683 -8.1792507 -89.56855 -0.95175523 -105.19962
9208437500 -2.1079357 129.15567 -8.2021122 -88.903397 -8.183939 -89.512741 -0.95832807 -105.18568
9208500000 -2.1018603 129.1767 -8.1922159 -88.91304 -8.188694 -89.57534 -0.95076257 -105.18669
9208562500 -2.1025827 129.19806 -8.1870041 -88.884483 -8.1898184 -89.559166 -0.95987529 -105.1647
9208625000 -2.1013231 129.16917 -8.1857109 -88.796516 -8.1864347 -89.520996 -0.96746522 -105.16732
9208687500 -2.0927846 129.13011 -8.1774311 -88.914925 -8.1920843 -89.584023 -0.95148963 -105.13805
9208750000 -2.0981951 129.1665 -8.1862946 -88.847366 -8.1829185 -89.519981 -0.9582088 -105.09825
9208812500 -2.1108575 129.21994 -8.1916409 -88.816895 -8.1833906 -89.561058 -0.95348704 -105.11342
9208875000 -2.1008139 129.0927 -8.1766357 -88.919983 -8.1874819 -89.535927 -0.95654756 -105.06272
9208937500 -2.1074378 129.14412 -8.1883106 -88.837547 -8.1765442 -89.545967 -0.9612112 -105.07103
9209000000 -2.0952713 129.12764 -8.1870317 -88.874916 -8.1784716 -89.50367 -0.96148443 -105.09981
9209062500 -2.1048429 129.09541 -8.1885147 -88.813339 -8.191349 -89.541473 -0.96937275 -105.02
9209125000 -2.112082 129.09271 -8.1876383 -88.826027 -8.1773844 -89.600426 -0.95615214 -105.00485
9209187500 -2.1075065 129.07826 -8.1767807 -88.875504 -8.1739969 -89.531647 -0.95879215 -105.01143
9209250000 -2.0994167 129.03001 -8.1773596 -88.829315 -8.1716461 -89.613098 -0.95577115 -104.93108
9209312500 -2.1060605 128.98624 -8.1866789 -88.860527 -8.1810007 -89.593178 -0.97139382 -105.00418
9209375000 -2.0980949 128.99968 -8.1754799 -88.870827 -8.1784248 -89.492584 -0.96920502 -104.9556
9209437500 -2.1137619 128.96716 -8.1830921 -88.89817 -8.1752138 -89.623146 -0.96485525 -104.89693
9209500000 -2.1032193 128.97534 -8.1805391 -88.880989 -8.1714315 -89.591843 -0.95726264 -104.8875
9209562500 -2.1142385 128.93794 -8.1856937 -88.843933 -8.1776962 -89.565613 -0.9741298 -104.85136
9209625000 -2.1108861 128.91527 -8.1770039 -88.878639 -8.1675901 -89.573753 -0.96064216 -104.83056
9209687500 -2.1138513 128.87332 -8.1710615 -88.906693 -8.1702824 -89.568146 -0.96591049 -104.83952
9209750000 -2.1108449 128.89429 -8.1768665 -88.913017 -8.1796923 -89.566711 -0.96033907 -104.85613
9209812500 -2.1085043 128.8696 -8.1776314 -88.873184 -8.173542 -89.590057 -0.96213615 -104.75977
9209875000 -2.1087191 128.89149 -8.1706915 -88.883575 -8.1690512 -89.616127 -0.96764481 -104.81706
9209937500 -2.1093504 128.96176 -8.1857033 -88.858315 -8.1695232 -89.57991 -0.97068834 -104.86181
9210000000 -2.103405 128.86063 -8.1654768 -88.873169 -8.1736832 -89.547356 -0.9856047 -104.76875
9210062500 -2.1128099 128.91125 -8.1663752 -88.854782 -8.1637497 -89.575752 -0.97170091 -104.72812
9210125000 -2.10268 128.85591 -8.1717434 -88.885124 -8.1590872 -89.578278 -0.96511346 -104.78465
9210187500 -2.1189463 128.84944 -8.1748514 -88.919548 -8.1722088 -89.580765 -0.97732604 -104.70283
9210250000 -2.1163316 128.84099 -8.1733742 -88.917473 -8.1591787 -89.484581 -0.97175229 -104.68274
9210312500 -2.123754 128.80605 -8.1741209 -88.86705 -8.1676512 -89.616089 -0.97328597 -104.73113
9210375000 -2.1074805 128.84668 -8.1620131 -88.8536 -8.1611204 -89.543251 -0.96810585 -104.61234
9210437500 -2.1084533 128.79401 -8.1654463 -88.833031 -8.1543455 -89.561844 -0.96082926 -104.58472
9210500000 -2.1120911 128.72855 -8.1662798 -88.938301 -8.1573124 -89.598389 -0.96076471 -104.6547
9210562500 -2.1202416 128.74696 -8.1755199 -88.828896 -8.1522474 -89.607941 -0.96760905 -104.60548
9210625000 -2.1135104 128.75029 -8.1786547 -88.878922 -8.1706038 -89.539787 -0.98232406 -104.62715
9210687500 -2.1099794 128.73483 -8.1591892 -88.877228 -8.159873 -89.615959 -0.96885514 -104.5518
9210750000 -2.1194501 128.70877 -8.1716089 -88.907555 -8.1499844 -89.559158 -0.97055203 -104.57454
9210812500 -2.116667 128.66861 -8.1623373 -88.908882 -8.1559658 -89.537109 -0.9807741 -104.5215
9210875000 -2.1149137 128.66631 -8.1651144 -88.938202 -8.1482487 -89.524055 -0.97461289 -104.57501
9210937500 -2.1134715 128.69937 -8.1614285 -88.931488 -8.1522026 -89.515549 -0.9799279 -104.51919
9211000000 -2.1169422 128.71313 -8.1678009 -88.846825 -8.1564865 -89.59137 -0.9696334 -104.55579
9211062500 -2.1106124 128.63481 -8.1541214 -88.823456 -8.1659336 -89.508217 -0.98619837 -104.45836
9211125000 -2.1172488 128.61728 -8.1559258 -88.920692 -8.1479359 -89.562004 -0.97476631 -104.50939
9211187500 -2.1237867 128.62894 -8.1470528 -88.889168 -8.1494884 -89.578049 -0.97904384 -104.44673
9211250000 -2.1200197 128.57787 -8.1488018 -88.968376 -8.1622 -89.465508 -0.97526151 -104.39124
9211312500 -2.1183915 128.61958 -8.1569824 -88.896446 -8.1496725 -89.53698 -0.97811145 -104.44601
9211375000 -2.1211097 128.49873 -8.1603928 -88.924561 -8.1417503 -89.642929 -0.97658759 -104.35655
9211437500 -2.1183486 128.52917 -8.1446352 -88.905075 -8.143507 -89.622612 -0.98706985 -104.35374
9211500000 -2.1284082 128.52188 -8.1578779 -88.931168 -8.1514273 -89.575951 -0.98191226 -104.39385
9211562500 -2.1275268 128.55484 -8.1583357 -88.896576 -8.1393433 -89.524178 -0.98258013 -104.29286
9211625000 -2.1236377 128.49469 -8.1499681 -88.955406 -8.1391983 -89.608009 -0.97818816 -104.3796
9211687500 -2.120961 128.53391 -8.1541176 -88.881714 -8.145442 -89.635025 -0.9903658 -104.33823
9211750000 -2.124969 128.45195 -8.1500902 -88.959763 -8.1494026 -89.607903 -0.97859383 -104.26358
9211812500 -2.127615 128.45857 -8.1629019 -88.879875 -8.1429853 -89.587486 -0.98708504 -104.27942
9211875000 -2.1244051 128.45625 -8.1525106 -88.921928 -8.1394854 -89.546257 -0.98452646 -104.18684
9211937500 -2.1251781 128.4742 -8.1510592 -88.971512 -8.144454 -89.639496 -0.98903263 -104.27316
9212000000 -2.1241062 128.34213 -8.1492186 -88.939102 -8.1380329 -89.607826 -0.99201596 -104.19524
9212062500 -2.1248405 128.35617 -8.1546011 -88.896011 -8.1420479 -89.563423 -0.99162126 -104.18985
9212125000 -2.1264753 128.32608 -8.1375465 -88.915138 -8.1464357 -89.585976 -0.98732239 -104.13116
9212187500 -2.1141725 128.36807 -8.1331186 -88.85379 -8.1356592 -89.562233 -0.99421686 -104.13193
9212250000 -2.1231525 128.36383 -8.1429682 -88.931984 -8.1328745 -89.569489 -0.97468835 -104.14751
9212312500 -2.125834 128.37889 -8.1403866 -88.921463 -8.1345367 -89.549423 -0.98715711 -104.13493
