!Agilent Technologies,N5242A,MY51221714,A.09.90.19
!Agilent N5242A: A.09.90.19
!Date: Saturday, March 16, 2024 09:00:55
!Correction: S11(Full 2 Port(1,2)) 
!S21(Full 2 Port(1,2)) 
!S12(Full 2 Port(1,2)) 
!S22(Full 2 Port(1,2)) 
!S2P File: Measurements: S11, S21, S12, S22:
# Hz S  dB   R 50
9200000000 -0.8971948 125.28012 -8.9753275 -73.015747 -8.9681616 -73.455971 -0.21846248 -90.982941
9200062500 -0.89962035 125.28138 -8.9802866 -72.983765 -8.9669409 -73.479279 -0.22094737 -91.004135
9200125000 -0.90124148 125.28399 -8.9694071 -72.915489 -8.9638538 -73.521362 -0.21810909 -90.997856
9200187500 -0.90298492 125.27231 -8.9774618 -72.944435 -8.9651861 -73.509193 -0.21634875 -91.01651
9200250000 -0.89694256 125.25827 -8.9689598 -72.94072 -8.9584789 -73.515938 -0.22141434 -90.972626
9200312500 -0.89512432 125.18748 -8.9698687 -73.029907 -8.9571686 -73.442467 -0.21725102 -90.927437
9200375000 -0.89928788 125.1953 -8.972683 -72.976494 -8.9551735 -73.466011 -0.21690139 -90.924309
9200437500 -0.89356059 125.20498 -8.9702644 -72.976219 -8.9517622 -73.522522 -0.21715054 -90.925751
9200500000 -0.89085722 125.15675 -8.96731 -72.984444 -8.9510679 -73.473289 -0.21860297 -90.867905
9200562500 -0.89682496 125.19103 -8.9794245 -72.927803 -8.9558659 -73.471191 -0.22261944 -90.851646
9200625000 -0.89683819 125.15848 -8.9723444 -72.969223 -8.9489231 -73.484261 -0.22370666 -90.817848
9200687500 -0.89178234 125.15205 -8.969614 -72.889297 -8.9437704 -73.509125 -0.22529289 -90.832115
9200750000 -0.89798337 125.13217 -8.9774933 -72.881218 -8.946887 -73.425461 -0.22554873 -90.750809
9200812500 -0.89456499 125.10121 -8.9734344 -72.931183 -8.9419117 -73.429657 -0.22700849 -90.717186
9200875000 -0.89887279 125.09531 -8.9661255 -72.934875 -8.9452362 -73.458527 -0.22993274 -90.712608
9200937500 -0.89651394 125.0995 -8.9656534 -72.910301 -8.9439688 -73.396622 -0.22561783 -90.663918
9201000000 -0.89667481 125.0868 -8.9628582 -72.854942 -8.9498901 -73.468582 -0.22893985 -90.682564
9201062500 -0.89504433 125.06993 -8.9618654 -72.882637 -8.943367 -73.416054 -0.2226827 -90.640694
9201125000 -0.89755702 125.04697 -8.9611273 -72.916344 -8.9487648 -73.416298 -0.228689 -90.654282
9201187500 -0.89287895 125.0382 -8.9590797 -72.927795 -8.9477129 -73.441589 -0.22727472 -90.662163
9201250000 -0.89470404 125.02509 -8.9562845 -72.847214 -8.9525995 -73.398911 -0.22919343 -90.59446
9201312500 -0.89614439 124.99574 -8.9631643 -72.937347 -8.9436178 -73.428589 -0.22286847 -90.640785
9201375000 -0.89811766 124.99149 -8.9601974 -72.900833 -8.9519558 -73.452301 -0.22826198 -90.623581
9201437500 -0.89824545 124.9594 -8.9597902 -72.938499 -8.9553642 -73.425201 -0.22923325 -90.609184
9201500000 -0.89705837 124.95774 -8.9579887 -72.981483 -8.9525938 -73.435509 -0.22580516 -90.611145
9201562500 -0.89534843 124.96073 -8.967392 -72.91436 -8.9462833 -73.390564 -0.22729625 -90.574974
9201625000 -0.9003619 124.99626 -8.9680414 -72.877747 -8.9473047 -73.4459 -0.22740678 -90.536293
9201687500 -0.89997512 124.95886 -8.9658995 -72.891533 -8.9456167 -73.444534 -0.22717561 -90.562607
9201750000 -0.89909333 124.90904 -8.951128 -72.917854 -8.9439373 -73.408531 -0.22691384 -90.522469
9201812500 -0.89590931 124.88964 -8.9577026 -72.969917 -8.9494362 -73.398293 -0.23052616 -90.48671
9201875000 -0.8981393 124.89602 -8.9523172 -72.900108 -8.9398069 -73.407616 -0.22278579 -90.461861
9201937500 -0.89734358 124.83239 -8.9605112 -72.895767 -8.948596 -73.383728 -0.23644486 -90.445457
9202000000 -0.89253616 124.84325 -8.94767 -72.877121 -8.935297 -73.376671 -0.22816852 -90.376976
9202062500 -0.89522463 124.81857 -8.9448204 -72.878342 -8.93923 -73.429863 -0.22679755 -90.417702
9202125000 -0.89356565 124.83495 -8.9410353 -72.926193 -8.9434919 -73.363083 -0.2297547 -90.397705
9202187500 -0.89368093 124.80394 -8.9493904 -72.850121 -8.9429998 -73.385521 -0.22720334 -90.335838
9202250000 -0.89376205 124.82429 -8.9385643 -72.86821 -8.940155 -73.48922 -0.2221684 -90.421555
9202312500 -0.89542139 124.79663 -8.9433126 -72.892876 -8.93822 -73.414757 -0.22432196 -90.387276
9202375000 -0.89858788 124.76645 -8.9464169 -72.864449 -8.9409971 -73.415596 -0.22678724 -90.325493
9202437500 -0.89818728 124.76498 -8.9424658 -72.891853 -8.9378967 -73.472 -0.2310202 -90.348518
9202500000 -0.89461625 124.72993 -8.9370718 -72.889412 -8.9446726 -73.406113 -0.22799939 -90.285515
9202562500 -0.90163481 124.72363 -8.9471312 -72.895683 -8.9365673 -73.417435 -0.23827386 -90.311256
9202625000 -0.89693487 124.71107 -8.9465179 -72.932388 -8.9424114 -73.391289 -0.23056945 -90.232971
9202687500 -0.9004541 124.71669 -8.9498177 -72.856323 -8.9391556 -73.398918 -0.23994972 -90.247093
9202750000 -0.90426266 124.69055 -8.9606133 -72.849739 -8.9447031 -73.447014 -0.2416427 -90.260841
9202812500 -0.89740402 124.655 -8.9453087 -72.885727 -8.931982 -73.398682 -0.23537427 -90.192245
9202875000 -0.89964008 124.65549 -8.9484453 -72.866875 -8.9272089 -73.374519 -0.23242928 -90.169151
9202937500 -0.89601475 124.62504 -8.9376993 -72.896416 -8.9386578 -73.380333 -0.23346291 -90.182114
9203000000 -0.89641201 124.60526 -8.9407721 -72.857628 -8.9325037 -73.38665 -0.22975025 -90.121933
9203062500 -0.8926475 124.6112 -8.9402428 -72.874847 -8.938818 -73.376091 -0.23640966 -90.127785
9203125000 -0.89500827 124.61385 -8.940712 -72.852448 -8.9270363 -73.35836 -0.23031476 -90.082909
9203187500 -0.89751476 124.60029 -8.9384613 -72.903961 -8.9335785 -73.402489 -0.23209424 -90.13028
9203250000 -0.89599246 124.57736 -8.9354753 -72.925713 -8.9356403 -73.426651 -0.23242353 -90.087349
9203312500 -0.8996098 124.57249 -8.9438095 -72.85759 -8.9312801 -73.425621 -0.2349893 -90.058968
9203375000 -0.89806151 124.57294 -8.931159 -72.888786 -8.9352407 -73.409828 -0.235438 -90.057076
9203437500 -0.89973307 124.53471 -8.9377794 -72.887238 -8.9312096 -73.398125 -0.23045324 -90.015976
9203500000 -0.89600849 124.53992 -8.9451666 -72.852295 -8.9317722 -73.385345 -0.23372753 -89.972107
9203562500 -0.89598978 124.53139 -8.933794 -72.863014 -8.9326153 -73.39994 -0.23656294 -89.968384
9203625000 -0.89497685 124.50677 -8.9322996 -72.868698 -8.9382677 -73.389336 -0.23925458 -89.980583
9203687500 -0.89268893 124.53132 -8.9296074 -72.844025 -8.9208813 -73.423782 -0.2324667 -89.960846
9203750000 -0.89902413 124.41125 -8.9355726 -72.903572 -8.9322662 -73.384666 -0.24351698 -89.931839
9203812500 -0.89790148 124.46645 -8.9346848 -72.846985 -8.9290695 -73.330276 -0.23768657 -89.894699
9203875000 -0.89757884 124.423 -8.934433 -72.870819 -8.9264898 -73.402039 -0.2392185 -89.876854
9203937500 -0.89687711 124.41343 -8.9354753 -72.853645 -8.9219522 -73.406021 -0.24767007 -89.887764
9204000000 -0.89646065 124.37747 -8.9351082 -72.929649 -8.9190226 -73.376801 -0.24795894 -89.851173
9204062500 -0.89463115 124.42529 -8.9396391 -72.873833 -8.9178991 -73.354782 -0.24697033 -89.847267
9204125000 -0.89317018 124.32414 -8.9408779 -72.93441 -8.9210415 -73.281677 -0.24709971 -89.80439
9204187500 -0.8937223 124.36108 -8.9386053 -72.777405 -8.9222326 -73.37719 -0.25569668 -89.805077
9204250000 -0.89066857 124.359 -8.9470472 -72.813629 -8.9168901 -73.352921 -0.24528609 -89.765823
9204312500 -0.88834459 124.34634 -8.9310188 -72.905983 -8.9225569 -73.341278 -0.24512425 -89.740616
9204375000 -0.89086491 124.33854 -8.9294968 -72.824577 -8.9144773 -73.30513 -0.23968469 -89.734856
9204437500 -0.89134037 124.31329 -8.9330606 -72.810509 -8.9201269 -73.31543 -0.24093592 -89.691284
9204500000 -0.89218003 124.29578 -8.9251556 -72.857391 -8.9076052 -73.367424 -0.22879219 -89.724922
9204562500 -0.88673389 124.27826 -8.9142199 -72.810707 -8.9157305 -73.309647 -0.23926887 -89.668564
9204625000 -0.8913911 124.25806 -8.9273462 -72.788193 -8.9185209 -73.324921 -0.23623881 -89.623909
9204687500 -0.88784605 124.26356 -8.9248056 -72.810783 -8.9136019 -73.317192 -0.23549527 -89.642723
9204750000 -0.89421719 124.24983 -8.9231987 -72.817719 -8.9154825 -73.352386 -0.23796616 -89.620461
9204812500 -0.89299202 124.25324 -8.92698 -72.848526 -8.9176731 -73.31469 -0.24321568 -89.632027
9204875000 -0.89421594 124.25066 -8.9296103 -72.780312 -8.9100199 -73.364029 -0.23892358 -89.593933
9204937500 -0.88914871 124.24672 -8.922143 -72.742096 -8.9128942 -73.397003 -0.23868568 -89.642944
9205000000 -0.89854133 124.23165 -8.9273939 -72.792465 -8.9122267 -73.377197 -0.24588735 -89.608757
9205062500 -0.90151906 124.21059 -8.9155455 -72.770874 -8.9158535 -73.360207 -0.24348842 -89.559921
9205125000 -0.90009332 124.14781 -8.9191265 -72.805794 -8.9177074 -73.352097 -0.23780043 -89.575706
9205187500 -0.89576465 124.13372 -8.9220619 -72.79715 -8.9129591 -73.385857 -0.23841675 -89.573448
9205250000 -0.89988273 124.10648 -8.9182072 -72.830696 -8.916214 -73.380203 -0.24328184 -89.54776
9205312500 -0.89843506 124.04557 -8.9255161 -72.825195 -8.9169855 -73.354034 -0.23931 -89.522079
9205375000 -0.90028602 124.09028 -8.9199486 -72.746422 -8.9156418 -73.40374 -0.23844412 -89.517868
9205437500 -0.89397228 124.06702 -8.9164848 -72.728683 -8.9160662 -73.328461 -0.24035333 -89.486885
9205500000 -0.89679378 124.03944 -8.913887 -72.821068 -8.9130163 -73.360489 -0.23945965 -89.464958
9205562500 -0.89869505 124.04987 -8.9156961 -72.768547 -8.907546 -73.342346 -0.23363268 -89.43457
9205625000 -0.89702439 124.04021 -8.9168234 -72.762611 -8.9092798 -73.350174 -0.23669748 -89.440079
9205687500 -0.897717 124.01192 -8.9117546 -72.818535 -8.9225121 -73.300636 -0.24348897 -89.401115
9205750000 -0.89785987 124.01129 -8.9106979 -72.833389 -8.9131708 -73.281425 -0.24017562 -89.388206
9205812500 -0.89690149 123.99693 -8.9176025 -72.813713 -8.9187307 -73.273857 -0.24082558 -89.389229
9205875000 -0.89531171 124.02583 -8.9248323 -72.771271 -8.9084539 -73.344017 -0.24212307 -89.356598
9205937500 -0.88700861 123.97925 -8.9089279 -72.793442 -8.9101791 -73.297279 -0.23789772 -89.357689
9206000000 -0.89090908 123.99184 -8.9102535 -72.791779 -8.9131031 -73.243568 -0.23920827 -89.25927
9206062500 -0.89236277 123.94158 -8.9176693 -72.7836 -8.9113569 -73.227165 -0.23982029 -89.247658
9206125000 -0.89005768 123.96873 -8.9099264 -72.780777 -8.9140568 -73.320961 -0.24812028 -89.286514
9206187500 -0.8924883 123.95281 -8.8987446 -72.758362 -8.9047031 -73.302353 -0.24208504 -89.259361
9206250000 -0.894871 123.9444 -8.9086256 -72.724709 -8.8997879 -73.263771 -0.23615512 -89.19136
9206312500 -0.89414626 123.93313 -8.9122076 -72.697472 -8.9050779 -73.33622 -0.24283502 -89.214951
9206375000 -0.89556766 123.92586 -8.9044266 -72.763557 -8.8954239 -73.335129 -0.23668055 -89.207581
9206437500 -0.88972002 123.89704 -8.9082518 -72.753891 -8.9020195 -73.347939 -0.23911482 -89.180481
9206500000 -0.89160502 123.90719 -8.9036961 -72.771469 -8.9010296 -73.333954 -0.24341708 -89.17572
9206562500 -0.89558393 123.85419 -8.8954763 -72.765648 -8.8895378 -73.320457 -0.23164693 -89.159294
9206625000 -0.89446515 123.84878 -8.8904819 -72.716263 -8.8951168 -73.395897 -0.23556687 -89.129189
9206687500 -0.89577526 123.84525 -8.8975267 -72.7145 -8.8791227 -73.289299 -0.2271401 -89.080704
9206750000 -0.89919925 123.83453 -8.8987274 -72.745888 -8.8884745 -73.245773 -0.23031148 -89.050957
9206812500 -0.90118116 123.841 -8.8984985 -72.724152 -8.8819189 -73.281319 -0.23434572 -89.056396
9206875000 -0.89433795 123.80543 -8.8909492 -72.746017 -8.8822193 -73.266357 -0.2338395 -88.999397
9206937500 -0.89569747 123.78971 -8.8937902 -72.706238 -8.8873549 -73.316399 -0.23589136 -89.017838
9207000000 -0.89617634 123.75448 -8.8920403 -72.746529 -8.8950787 -73.222473 -0.2414804 -88.970886
9207062500 -0.89263552 123.74033 -8.896636 -72.720184 -8.9024639 -73.272751 -0.2459715 -88.997917
9207125000 -0.89377755 123.70789 -8.892643 -72.777275 -8.8917589 -73.309174 -0.24679641 -89.006912
9207187500 -0.89287728 123.71095 -8.9026661 -72.771141 -8.9007263 -73.301826 -0.2486877 -88.944756
9207250000 -0.89227122 123.6782 -8.8962526 -72.771828 -8.8999424 -73.266579 -0.2495352 -88.949814
9207312500 -0.89001101 123.64444 -8.8972569 -72.813545 -8.8838453 -73.232391 -0.24451575 -88.961594
9207375000 -0.89379513 123.62691 -8.8946104 -72.756248 -8.8826427 -73.22831 -0.2389107 -88.90934
9207437500 -0.88609713 123.60282 -8.8852577 -72.819221 -8.8922062 -73.267242 -0.24778388 -88.889664
9207500000 -0.89398086 123.59187 -8.8976068 -72.751411 -8.883791 -73.28183 -0.24590501 -88.940163
9207562500 -0.89249617 123.57524 -8.8936062 -72.770905 -8.884429 -73.282692 -0.24343322 -88.911873
9207625000 -0.89766413 123.53947 -8.8991289 -72.795181 -8.8927364 -73.266464 -0.25217408 -88.877525
9207687500 -0.89837682 123.52338 -8.8927088 -72.776299 -8.8891191 -73.323753 -0.24162568 -88.85289
9207750000 -0.90152526 123.5517 -8.8888035 -72.749977 -8.8755007 -73.281296 -0.23612697 -88.864197
9207812500 -0.8991853 123.52636 -8.8938942 -72.777473 -8.8806381 -73.337608 -0.2359328 -88.82711
9207875000 -0.90567297 123.5287 -8.9029694 -72.771385 -8.8795929 -73.267746 -0.23141116 -88.770531
9207937500 -0.90109301 123.5695 -8.8862877 -72.721268 -8.8811998 -73.318291 -0.23537405 -88.787628
9208000000 -0.90190852 123.53873 -8.8882723 -72.707993 -8.8884792 -73.274361 -0.2391849 -88.683723
9208062500 -0.90168166 123.50665 -8.8890896 -72.716164 -8.8843317 -73.291962 -0.24174748 -88.705978
9208125000 -0.89897567 123.52725 -8.8824091 -72.734917 -8.8836508 -73.255585 -0.24351712 -88.683632
9208187500 -0.89999169 123.49924 -8.8960333 -72.718155 -8.893239 -73.29203 -0.2471486 -88.686119
9208250000 -0.89338183 123.49162 -8.8922138 -72.719521 -8.8828163 -73.229958 -0.25012776 -88.652901
9208312500 -0.9001807 123.46104 -8.8925686 -72.725609 -8.8833876 -73.215851 -0.25273708 -88.597771
9208375000 -0.89409071 123.47146 -8.8796349 -72.662514 -8.8719921 -73.221443 -0.2426018 -88.616013
9208437500 -0.89558274 123.42652 -8.8861389 -72.8125 -8.8807325 -73.241829 -0.24947281 -88.623932
9208500000 -0.89642012 123.4095 -8.8790255 -72.717781 -8.8788061 -73.245255 -0.24492471 -88.61956
9208562500 -0.89738637 123.39797 -8.8837309 -72.655411 -8.8744183 -73.195435 -0.24713364 -88.583466
9208625000 -0.90085572 123.36877 -8.8910847 -72.749969 -8.877038 -73.265152 -0.24756451 -88.591255
9208687500 -0.89863008 123.34882 -8.8821688 -72.758179 -8.8709517 -73.214523 -0.24165457 -88.546272
9208750000 -0.89988995 123.29859 -8.8801098 -72.790283 -8.8751869 -73.186874 -0.24062814 -88.492104
9208812500 -0.90165693 123.33288 -8.8845463 -72.73777 -8.869935 -73.246574 -0.24972874 -88.55751
9208875000 -0.89788729 123.35781 -8.8824282 -72.705437 -8.8758841 -73.227051 -0.24963337 -88.507965
9208937500 -0.89986277 123.33968 -8.8822966 -72.736435 -8.871419 -73.216713 -0.24592444 -88.496658
9209000000 -0.90071911 123.33092 -8.8859262 -72.738274 -8.8763475 -73.238686 -0.25463563 -88.501968
9209062500 -0.89803052 123.34549 -8.8853731 -72.714157 -8.8758049 -73.302223 -0.24734147 -88.524712
9209125000 -0.89825284 123.33566 -8.8793793 -72.742661 -8.8848076 -73.25808 -0.24940568 -88.48983
9209187500 -0.89654243 123.31938 -8.8707066 -72.714241 -8.8759842 -73.216255 -0.24821912 -88.426819
9209250000 -0.89593172 123.32623 -8.881237 -72.730591 -8.8690586 -73.230782 -0.24692771 -88.428299
9209312500 -0.89283442 123.27169 -8.8707228 -72.732346 -8.8811016 -73.238914 -0.25025249 -88.380508
9209375000 -0.89549673 123.28041 -8.8715429 -72.684319 -8.8740931 -73.175079 -0.25170165 -88.312439
9209437500 -0.894077 123.23676 -8.866704 -72.726921 -8.8765001 -73.233978 -0.25295275 -88.347847
9209500000 -0.89386624 123.22492 -8.8690786 -72.718399 -8.8775702 -73.151245 -0.25099143 -88.297104
9209562500 -0.89515984 123.16999 -8.8750763 -72.757828 -8.874383 -73.252388 -0.24997884 -88.333633
9209625000 -0.89926106 123.15907 -8.8772478 -72.730644 -8.8757153 -73.200241 -0.25003749 -88.283272
9209687500 -0.90360516 123.20275 -8.8747015 -72.698181 -8.8669538 -73.173141 -0.2417939 -88.201035
9209750000 -0.89826566 123.19384 -8.8696127 -72.703026 -8.8695087 -73.156815 -0.24185568 -88.22683
9209812500 -0.9014163 123.1645 -8.870101 -72.6791 -8.8670769 -73.254036 -0.24337693 -88.234573
9209875000 -0.894719 123.1319 -8.8729048 -72.785538 -8.8707771 -73.239609 -0.24192931 -88.240189
9209937500 -0.90438324 123.13242 -8.87714 -72.743629 -8.8663101 -73.196404 -0.24559021 -88.174194
9210000000 -0.90402806 123.11976 -8.870986 -72.773384 -8.8566465 -73.156601 -0.2466027 -88.189262
9210062500 -0.8944189 123.13118 -8.8621006 -72.650131 -8.8578291 -73.20237 -0.23532127 -88.165779
9210125000 -0.89476246 123.06594 -8.8607283 -72.762085 -8.8536921 -73.148514 -0.24270333 -88.089432
9210187500 -0.89557457 123.06959 -8.8665848 -72.67572 -8.8645725 -73.137016 -0.24645801 -88.122383
9210250000 -0.89546835 123.10181 -8.8665895 -72.644501 -8.8590498 -73.140724 -0.24777143 -88.09053
9210312500 -0.8954801 123.0798 -8.8659468 -72.704964 -8.8619156 -73.161217 -0.2419623 -88.109848
9210375000 -0.89116961 123.04529 -8.8604517 -72.670654 -8.8630934 -73.158913 -0.24695238 -88.079102
9210437500 -0.88792491 123.01472 -8.8565941 -72.651161 -8.8606577 -73.133003 -0.24556968 -88.050011
9210500000 -0.89497894 123.0305 -8.8673086 -72.666618 -8.8580799 -73.188835 -0.25579306 -88.035812
9210562500 -0.89150941 123.0127 -8.8641949 -72.656723 -8.8582582 -73.168297 -0.25536978 -88.008652
9210625000 -0.8905561 122.96067 -8.862525 -72.702164 -8.8615351 -73.151581 -0.251454 -88.010925
9210687500 -0.88826239 122.94859 -8.8595057 -72.646805 -8.8653574 -73.116562 -0.26042229 -87.993515
9210750000 -0.89407384 122.90478 -8.8662682 -72.684608 -8.8590403 -73.171555 -0.25784889 -87.996071
9210812500 -0.8895129 122.93829 -8.8608475 -72.640717 -8.8559761 -73.170456 -0.25417659 -87.941696
9210875000 -0.89399618 122.89729 -8.8628674 -72.69043 -8.8606567 -73.152855 -0.25840005 -87.946167
9210937500 -0.89310032 122.87252 -8.8661327 -72.662193 -8.8593111 -73.148506 -0.25988296 -87.902863
9211000000 -0.89857596 122.87404 -8.8523254 -72.61496 -8.8506823 -73.253494 -0.25338554 -87.917755
9211062500 -0.90487266 122.85515 -8.8674765 -72.653244 -8.8507013 -73.20137 -0.25984129 -87.907578
9211125000 -0.89737362 122.86762 -8.8582582 -72.63797 -8.8532772 -73.2034 -0.25311688 -87.886192
9211187500 -0.89864331 122.85371 -8.8616438 -72.729012 -8.8511744 -73.18206 -0.25664577 -87.885483
9211250000 -0.90236992 122.87359 -8.8539858 -72.660095 -8.8584976 -73.214111 -0.25104147 -87.883774
9211312500 -0.90236753 122.84361 -8.8510551 -72.704773 -8.8512049 -73.189148 -0.24751368 -87.905693
9211375000 -0.90005964 122.83292 -8.8602161 -72.763878 -8.8577633 -73.195358 -0.24630992 -87.814102
9211437500 -0.90142745 122.78739 -8.8524303 -72.637253 -8.8525753 -73.186874 -0.24801625 -87.771324
9211500000 -0.89995694 122.79305 -8.8576794 -72.718315 -8.8475418 -73.161903 -0.25136665 -87.810295
9211562500 -0.9018907 122.78663 -8.8484478 -72.684258 -8.8519468 -73.184792 -0.25305837 -87.788658
9211625000 -0.90559822 122.76455 -8.865674 -72.661018 -8.8460217 -73.170959 -0.24834779 -87.765808
9211687500 -0.90551013 122.70659 -8.8533449 -72.714211 -8.8521175 -73.101234 -0.26166162 -87.725304
9211750000 -0.89359468 122.71042 -8.8532381 -72.653023 -8.8559713 -73.169312 -0.2587387 -87.76313
9211812500 -0.89939559 122.66983 -8.8484907 -72.664627 -8.844697 -73.106468 -0.25114483 -87.658165
9211875000 -0.90292221 122.68331 -8.8454018 -72.633774 -8.85145 -73.174332 -0.25580928 -87.681007
9211937500 -0.90443373 122.66591 -8.8486118 -72.6856 -8.8419037 -73.124352 -0.25429887 -87.638496
9212000000 -0.90228534 122.62692 -8.8455448 -72.673409 -8.8438482 -73.126427 -0.25276005 -87.57856
9212062500 -0.90292543 122.6151 -8.8393974 -72.70575 -8.8467836 -73.128975 -0.25528598 -87.542206
9212125000 -0.90359432 122.58348 -8.8493605 -72.656662 -8.8438597 -73.153587 -0.2548705 -87.574776
9212187500 -0.90591055 122.57928 -8.8522434 -72.686592 -8.8476 -73.100082 -0.25624207 -87.530716
9212250000 -0.90560579 122.5714 -8.8484602 -72.660225 -8.8401146 -73.09127 -0.26024199 -87.47921
