!Agilent Technologies,N5242A,MY51221714,A.09.90.19
!Agilent N5242A: A.09.90.19
!Date: Saturday, March 16, 2024 09:02:14
!Correction: S11(Full 2 Port(1,2)) 
!S21(Full 2 Port(1,2)) 
!S12(Full 2 Port(1,2)) 
!S22(Full 2 Port(1,2)) 
!S2P File: Measurements: S11, S21, S12, S22:
# Hz S  dB   R 50
9200000000 -0.88656765 125.42242 -9.0262241 -72.764168 -9.0205402 -73.342125 -0.17830786 -91.091026
9200062500 -0.8849628 125.41978 -9.018671 -72.79567 -9.0220232 -73.291039 -0.17526756 -91.077049
9200125000 -0.88669229 125.44527 -9.0309744 -72.783882 -9.0191545 -73.326584 -0.17582276 -91.090904
9200187500 -0.888551 125.41133 -9.030447 -72.786087 -9.0101051 -73.298698 -0.17084284 -91.081207
9200250000 -0.8871246 125.36728 -9.0297441 -72.789574 -9.0088596 -73.314484 -0.17170914 -91.032028
9200312500 -0.88045323 125.35262 -9.0246925 -72.822975 -9.0025082 -73.342537 -0.17524265 -91.073364
9200375000 -0.88121223 125.38315 -9.0169716 -72.800858 -9.0074492 -73.337959 -0.17207865 -90.975021
9200437500 -0.8759535 125.35823 -9.0200033 -72.812645 -9.0088348 -73.285004 -0.17099649 -91.011017
9200500000 -0.87190193 125.29942 -9.0150414 -72.835022 -9.0023937 -73.378265 -0.17356038 -90.977425
9200562500 -0.88044763 125.29719 -9.0199738 -72.771736 -9.0049601 -73.318214 -0.18279323 -90.937767
9200625000 -0.88331646 125.32841 -9.0267687 -72.730942 -9.0042133 -73.312119 -0.1799258 -90.916748
9200687500 -0.88200027 125.28578 -9.0186749 -72.776146 -9.0048847 -73.327324 -0.18626012 -90.916451
9200750000 -0.88181055 125.28063 -9.0187292 -72.731522 -9.0038242 -73.308739 -0.19391024 -90.86689
9200812500 -0.88236606 125.28271 -9.0216351 -72.686058 -9.0000772 -73.245003 -0.18479343 -90.838249
9200875000 -0.8819775 125.2832 -9.028409 -72.654106 -8.9930782 -73.31646 -0.18612948 -90.807678
9200937500 -0.88526291 125.2453 -9.0246773 -72.732567 -9.0038452 -73.258453 -0.18638271 -90.799545
9201000000 -0.87265152 125.26707 -9.0122871 -72.687141 -8.9951792 -73.278885 -0.18106729 -90.786736
9201062500 -0.87718946 125.20441 -9.0133696 -72.697159 -9.0078335 -73.229393 -0.18590958 -90.759903
9201125000 -0.88157403 125.21289 -9.0159073 -72.731422 -9.002739 -73.248779 -0.18489167 -90.755013
9201187500 -0.87609738 125.19066 -9.0058384 -72.775208 -9.0033932 -73.280266 -0.18944252 -90.748352
9201250000 -0.87463009 125.17242 -9.0050983 -72.709206 -9.0044928 -73.279053 -0.18347473 -90.711189
9201312500 -0.87982529 125.13755 -9.0143194 -72.760948 -9.0027781 -73.301155 -0.18793304 -90.712135
9201375000 -0.87901646 125.11934 -9.0052376 -72.739708 -9.0036955 -73.240639 -0.18629451 -90.713318
9201437500 -0.88101649 125.0985 -9.0063181 -72.81012 -9.0117588 -73.31842 -0.18587929 -90.737282
9201500000 -0.8815465 125.13504 -9.0163412 -72.762825 -9.0015173 -73.294991 -0.18459454 -90.70993
9201562500 -0.88115019 125.16486 -9.0155621 -72.684303 -9.0018272 -73.311386 -0.1856024 -90.68689
9201625000 -0.88769305 125.08163 -9.0218287 -72.737625 -9.0007019 -73.256195 -0.18196803 -90.655777
9201687500 -0.87926072 125.09882 -9.0048075 -72.725372 -9.0027246 -73.236145 -0.18405992 -90.644066
9201750000 -0.87847507 125.05028 -9.009182 -72.709572 -8.9985085 -73.230927 -0.18299811 -90.621628
9201812500 -0.88224322 125.03765 -9.0055685 -72.765602 -8.9918823 -73.1884 -0.18350142 -90.579071
9201875000 -0.88406187 125.03354 -9.0123825 -72.734177 -8.9924641 -73.246773 -0.1806192 -90.568413
9201937500 -0.88251466 124.98906 -8.9938345 -72.794403 -8.9933033 -73.21804 -0.18755232 -90.560921
9202000000 -0.88537174 125.00608 -9.0055542 -72.742104 -8.983676 -73.27607 -0.18370825 -90.554695
9202062500 -0.87735784 124.99281 -9.0054913 -72.686111 -8.9958534 -73.258987 -0.18768388 -90.508308
9202125000 -0.88375735 124.98491 -9.0010376 -72.718201 -8.9951744 -73.194504 -0.18090928 -90.471283
9202187500 -0.88295889 124.92985 -8.9921598 -72.73922 -8.9891853 -73.239166 -0.17738323 -90.455971
9202250000 -0.87844872 124.93236 -8.9940481 -72.770103 -8.9888086 -73.286163 -0.17491667 -90.487915
9202312500 -0.8777746 124.94191 -8.9897423 -72.719131 -8.9968615 -73.301994 -0.18259527 -90.470848
9202375000 -0.88280511 124.93745 -8.9898872 -72.718208 -8.999259 -73.329597 -0.18608482 -90.49749
9202437500 -0.88585371 124.91003 -8.9882479 -72.728409 -8.9907169 -73.313187 -0.18491915 -90.459
9202500000 -0.88127506 124.91991 -8.994318 -72.704521 -9.0011721 -73.248627 -0.18727703 -90.369354
9202562500 -0.88314551 124.90672 -9.0016127 -72.745987 -8.9869871 -73.274117 -0.18497507 -90.373116
9202625000 -0.88460982 124.88316 -9.004015 -72.719994 -8.9951105 -73.252022 -0.1932501 -90.357765
9202687500 -0.88252729 124.90897 -8.9932146 -72.67614 -8.9867077 -73.264305 -0.19235702 -90.349922
9202750000 -0.88329554 124.8431 -8.9982138 -72.742607 -8.9901037 -73.188591 -0.19668293 -90.289513
9202812500 -0.88659877 124.82867 -8.9971342 -72.683998 -8.9825993 -73.250282 -0.19191061 -90.292213
9202875000 -0.88617617 124.81177 -8.9935188 -72.754631 -8.9846029 -73.232307 -0.18657264 -90.271065
9202937500 -0.88352644 124.81239 -9.0092783 -72.702789 -8.9877167 -73.229111 -0.19324419 -90.277916
9203000000 -0.878959 124.81488 -8.987175 -72.679993 -8.9803362 -73.259262 -0.18557921 -90.261421
9203062500 -0.88646501 124.74925 -9.0004683 -72.741882 -8.9856033 -73.218742 -0.18710472 -90.279167
9203125000 -0.87879759 124.75301 -8.9917364 -72.653099 -8.9728804 -73.284409 -0.18467452 -90.22226
9203187500 -0.88183552 124.7431 -8.9969645 -72.710594 -8.9900608 -73.191536 -0.18830541 -90.171204
9203250000 -0.88420618 124.7384 -8.9958363 -72.720963 -8.9924726 -73.23568 -0.19644573 -90.178154
9203312500 -0.88412482 124.70731 -8.9991531 -72.732758 -8.9755335 -73.220818 -0.18306248 -90.166145
9203375000 -0.88165826 124.72038 -8.9941359 -72.707504 -8.9793863 -73.275429 -0.18856044 -90.130013
9203437500 -0.88490403 124.70128 -8.9935169 -72.696594 -8.9786158 -73.22998 -0.18380797 -90.116951
9203500000 -0.87970263 124.69179 -8.9925995 -72.693619 -8.9776354 -73.229973 -0.19623959 -90.115883
9203562500 -0.88501459 124.68103 -8.9913473 -72.732552 -8.9856997 -73.243462 -0.18829066 -90.045509
9203625000 -0.88386065 124.62175 -8.9785938 -72.759323 -8.9782124 -73.24308 -0.18872416 -90.052177
9203687500 -0.88023585 124.62711 -8.9927206 -72.724129 -8.9866524 -73.247017 -0.1997754 -90.059662
9203750000 -0.888349 124.66642 -8.9913549 -72.67363 -8.9778547 -73.198227 -0.18654805 -90.022308
9203812500 -0.8828932 124.60397 -8.9904022 -72.71698 -8.97896 -73.253563 -0.19634975 -90.03756
9203875000 -0.8828153 124.6106 -8.9901018 -72.6558 -8.9758444 -73.216751 -0.19919948 -89.995102
9203937500 -0.88196141 124.55334 -8.9834404 -72.721069 -8.9633493 -73.205116 -0.192935 -89.993332
9204000000 -0.87648773 124.53473 -8.9862614 -72.73307 -8.9755154 -73.170692 -0.20309463 -89.961952
9204062500 -0.88048232 124.53722 -8.9873562 -72.661926 -8.9689598 -73.224762 -0.19895574 -89.991982
9204125000 -0.88084042 124.51314 -8.9892521 -72.657616 -8.9699888 -73.128571 -0.20620282 -89.910934
9204187500 -0.87568265 124.54311 -8.9879866 -72.655952 -8.9651785 -73.208847 -0.20109063 -89.938599
9204250000 -0.86809349 124.51855 -8.9804268 -72.641251 -8.9631243 -73.165215 -0.20317446 -89.888603
9204312500 -0.87395489 124.49208 -8.986412 -72.640633 -8.9589891 -73.168976 -0.19813232 -89.87233
9204375000 -0.87174785 124.47725 -8.980154 -72.628174 -8.967617 -73.181564 -0.19900683 -89.835297
9204437500 -0.87056726 124.49426 -8.9798155 -72.658813 -8.973176 -73.14254 -0.19376054 -89.786758
9204500000 -0.8739242 124.44747 -8.976881 -72.631615 -8.9654684 -73.139 -0.19738857 -89.818871
9204562500 -0.87294918 124.43265 -8.9754629 -72.683754 -8.9622984 -73.17749 -0.19358447 -89.798729
9204625000 -0.86823261 124.43481 -8.9670954 -72.637177 -8.9648733 -73.185997 -0.18737136 -89.767769
9204687500 -0.87555277 124.39292 -8.972517 -72.667488 -8.9646273 -73.149284 -0.1926071 -89.750504
9204750000 -0.87450475 124.37576 -8.9711847 -72.68042 -8.9684725 -73.159302 -0.1892191 -89.730659
9204812500 -0.87805718 124.39933 -8.978611 -72.655319 -8.9568663 -73.151756 -0.19489664 -89.760124
9204875000 -0.87835759 124.39392 -8.9765997 -72.660164 -8.96068 -73.161148 -0.19602107 -89.72406
9204937500 -0.87757748 124.4018 -8.9747181 -72.637802 -8.9720373 -73.159859 -0.19977176 -89.717171
9205000000 -0.88189131 124.39631 -8.9686222 -72.605659 -8.9657373 -73.184669 -0.19575778 -89.675278
9205062500 -0.88317138 124.3444 -8.9789028 -72.647057 -8.9594812 -73.141319 -0.19609857 -89.634422
9205125000 -0.87717485 124.3144 -8.9568787 -72.631729 -8.9591341 -73.211494 -0.18760735 -89.670341
9205187500 -0.87992662 124.3135 -8.9693937 -72.585114 -8.9673052 -73.197334 -0.18979065 -89.644905
9205250000 -0.88361061 124.25533 -8.963624 -72.549835 -8.9654446 -73.173309 -0.19917804 -89.640633
9205312500 -0.88567281 124.23042 -8.9628782 -72.654015 -8.9644499 -73.18129 -0.19100258 -89.618881
9205375000 -0.88325292 124.21536 -8.9574776 -72.652397 -8.9688873 -73.178925 -0.19086432 -89.615616
9205437500 -0.88005483 124.21131 -8.9706173 -72.527077 -8.9602451 -73.176186 -0.19061215 -89.559601
9205500000 -0.8787266 124.20985 -8.9629564 -72.620369 -8.9647074 -73.183273 -0.19648546 -89.60273
9205562500 -0.88637561 124.18479 -8.9657373 -72.642616 -8.9630718 -73.153358 -0.19014102 -89.543434
9205625000 -0.88391763 124.17992 -8.9610748 -72.652 -8.9604187 -73.133804 -0.19771807 -89.507912
9205687500 -0.87924498 124.19486 -8.9664383 -72.624191 -8.964612 -73.118774 -0.19687168 -89.484451
9205750000 -0.87988824 124.18108 -8.9599533 -72.644455 -8.9567719 -73.143326 -0.19049928 -89.477631
9205812500 -0.88087237 124.18073 -8.9717941 -72.565918 -8.9654331 -73.038986 -0.20061886 -89.425598
9205875000 -0.88171846 124.17423 -8.9692602 -72.598053 -8.9659023 -73.161644 -0.19855945 -89.449341
9205937500 -0.87643737 124.17608 -8.9639654 -72.585739 -8.9600964 -73.113503 -0.19385995 -89.434235
9206000000 -0.87747157 124.15204 -8.9717045 -72.574905 -8.9631271 -73.114883 -0.2016634 -89.396797
9206062500 -0.88062781 124.15104 -8.9648848 -72.593468 -8.9544382 -73.053841 -0.19849688 -89.379227
9206125000 -0.8772527 124.10317 -8.9644842 -72.599251 -8.9630289 -73.123795 -0.19872561 -89.342514
9206187500 -0.87889785 124.07276 -8.9611912 -72.647758 -8.9575853 -73.181892 -0.19394141 -89.356422
9206250000 -0.87918246 124.10368 -8.9594765 -72.574509 -8.9572802 -73.10807 -0.19599207 -89.317719
9206312500 -0.87702304 124.09089 -8.9546566 -72.607399 -8.9519901 -73.176682 -0.19664048 -89.332062
9206375000 -0.8760944 124.03002 -8.9462156 -72.578751 -8.9446383 -73.194778 -0.19434038 -89.28949
9206437500 -0.88253838 124.07364 -8.9566326 -72.564507 -8.9402647 -73.164482 -0.19152366 -89.305237
9206500000 -0.87622648 124.04036 -8.9499254 -72.578087 -8.9441195 -73.174446 -0.19167364 -89.292778
9206562500 -0.88109535 124.033 -8.9552069 -72.565498 -8.9438295 -73.198914 -0.19025272 -89.251648
9206625000 -0.87979066 124.02921 -8.9456863 -72.534782 -8.9481173 -73.098915 -0.1849494 -89.232948
9206687500 -0.88313913 124.02669 -8.9526205 -72.527321 -8.9332848 -73.19352 -0.17971331 -89.209908
9206750000 -0.88420671 123.9528 -8.9413471 -72.638359 -8.9272442 -73.095169 -0.18237187 -89.202042
9206812500 -0.88884807 124.00095 -8.944665 -72.53479 -8.933876 -73.117241 -0.18085611 -89.145714
9206875000 -0.88556647 123.97232 -8.9473085 -72.557404 -8.9369049 -73.120186 -0.18397148 -89.117126
9206937500 -0.87854242 123.96937 -8.9401751 -72.510529 -8.9437132 -73.051964 -0.1932302 -89.070633
9207000000 -0.88436693 123.89477 -8.955246 -72.566551 -8.9487629 -73.112671 -0.19720717 -89.103073
9207062500 -0.8757503 123.88365 -8.9462614 -72.538231 -8.9441442 -73.127777 -0.19955979 -89.090454
9207125000 -0.87783289 123.86671 -8.9452934 -72.596474 -8.9427862 -73.101624 -0.19833428 -89.08535
9207187500 -0.8706153 123.83919 -8.9486885 -72.586082 -8.9446545 -73.069542 -0.19914605 -89.033272
9207250000 -0.87708843 123.82398 -8.9464455 -72.577431 -8.9492445 -73.111786 -0.20059882 -89.052498
9207312500 -0.87382126 123.81185 -8.9460487 -72.596855 -8.9341755 -73.132957 -0.20082977 -89.098381
9207375000 -0.87897187 123.77532 -8.9511595 -72.650291 -8.939949 -73.120735 -0.20413901 -89.052422
9207437500 -0.87453055 123.81241 -8.9408731 -72.552155 -8.9411163 -73.097839 -0.19918361 -88.990501
9207500000 -0.8727811 123.73578 -8.9350262 -72.66111 -8.941534 -73.148567 -0.20391928 -89.021942
9207562500 -0.88370043 123.7025 -8.9511299 -72.646507 -8.9292889 -73.121582 -0.20366585 -88.988098
9207625000 -0.88049304 123.72691 -8.944519 -72.600807 -8.9291477 -73.16436 -0.20168543 -89.028809
9207687500 -0.87861961 123.72633 -8.9400253 -72.597672 -8.9327374 -73.093056 -0.19579139 -88.935127
9207750000 -0.88223904 123.69113 -8.9387217 -72.570366 -8.9331217 -73.156471 -0.19332911 -88.981049
9207812500 -0.88108265 123.70956 -8.9418154 -72.52858 -8.9416056 -73.097107 -0.19536285 -88.919235
9207875000 -0.88396496 123.69358 -8.9464979 -72.554077 -8.9270983 -73.17437 -0.18857141 -88.907097
9207937500 -0.88905239 123.68373 -8.9401121 -72.565384 -8.9362612 -73.145599 -0.19291463 -88.851997
9208000000 -0.89034116 123.7058 -8.9450903 -72.539749 -8.927536 -73.166992 -0.18965617 -88.8377
9208062500 -0.88518894 123.68285 -8.9373646 -72.542809 -8.9325476 -73.12867 -0.19708213 -88.826889
9208125000 -0.88931912 123.68052 -8.9348841 -72.527832 -8.9354868 -73.049225 -0.20159279 -88.771698
9208187500 -0.88353056 123.66167 -8.9388227 -72.588264 -8.9384956 -73.085213 -0.20090672 -88.776344
9208250000 -0.88617313 123.65126 -8.9461775 -72.539932 -8.9385033 -73.072014 -0.21041285 -88.756805
9208312500 -0.88546109 123.63917 -8.9385891 -72.527519 -8.9283161 -73.048004 -0.20693211 -88.750046
9208375000 -0.87739867 123.59565 -8.9354687 -72.527504 -8.9272833 -73.043053 -0.20673461 -88.725533
9208437500 -0.87945503 123.55027 -8.9347429 -72.60041 -8.933939 -73.088043 -0.2074264 -88.738556
9208500000 -0.87969863 123.57539 -8.9399958 -72.537804 -8.9352818 -73.05201 -0.20765507 -88.67202
9208562500 -0.88305622 123.544 -8.9284286 -72.570618 -8.9176645 -73.102501 -0.20104565 -88.680458
9208625000 -0.87945318 123.50784 -8.9247456 -72.552933 -8.9249411 -73.077171 -0.19547856 -88.681267
9208687500 -0.87856865 123.49473 -8.93398 -72.637726 -8.9305458 -73.052673 -0.2031326 -88.663155
9208750000 -0.87838966 123.47829 -8.9253044 -72.629211 -8.9256086 -73.041992 -0.20406564 -88.6642
9208812500 -0.87963855 123.46581 -8.9214687 -72.610985 -8.9198952 -73.047409 -0.20054738 -88.655174
9208875000 -0.88534558 123.4803 -8.9256277 -72.591637 -8.922451 -73.101204 -0.20193097 -88.652428
9208937500 -0.88325006 123.50486 -8.9319391 -72.605942 -8.9263029 -73.080704 -0.20701754 -88.635689
9209000000 -0.88904041 123.50601 -8.9257164 -72.563347 -8.9285641 -73.069618 -0.20693375 -88.628075
9209062500 -0.88287133 123.54269 -8.922719 -72.52211 -8.9233999 -73.050865 -0.20554307 -88.571915
9209125000 -0.88801938 123.50524 -8.9309359 -72.553497 -8.9223194 -73.043564 -0.19730808 -88.585312
9209187500 -0.88247925 123.50743 -8.9261856 -72.536263 -8.9234095 -73.078781 -0.19940101 -88.599411
9209250000 -0.88404286 123.48209 -8.9311914 -72.539734 -8.9228411 -73.042664 -0.20498596 -88.529518
9209312500 -0.87944788 123.44605 -8.9107485 -72.488335 -8.9151258 -73.03019 -0.19920182 -88.545563
9209375000 -0.88163227 123.40346 -8.9200096 -72.571365 -8.9317951 -73.035561 -0.20341347 -88.480904
9209437500 -0.88352734 123.43208 -8.9212618 -72.518883 -8.9271603 -73.083786 -0.20714206 -88.481194
9209500000 -0.8792814 123.35793 -8.9247351 -72.531609 -8.9284573 -73.028656 -0.20792356 -88.438812
9209562500 -0.8804515 123.32859 -8.9172096 -72.581734 -8.9282494 -73.033318 -0.20926751 -88.432327
9209625000 -0.88204056 123.30806 -8.9186306 -72.587303 -8.9146118 -72.989052 -0.20052999 -88.375206
9209687500 -0.88896632 123.36027 -8.9304914 -72.545044 -8.9228096 -73.089455 -0.2061101 -88.3759
9209750000 -0.87915093 123.32104 -8.9154243 -72.564713 -8.9240808 -73.021576 -0.20193687 -88.360489
9209812500 -0.88985282 123.30647 -8.9200726 -72.567078 -8.9139299 -73.003082 -0.19987993 -88.347763
9209875000 -0.88331598 123.28902 -8.9130039 -72.546654 -8.9127617 -73.070961 -0.19669436 -88.340065
9209937500 -0.88686013 123.27442 -8.920825 -72.547615 -8.9136171 -73.01664 -0.19694363 -88.289986
9210000000 -0.885189 123.22292 -8.9093275 -72.621063 -8.9168158 -73.017639 -0.19819292 -88.283173
9210062500 -0.8805697 123.26659 -8.9130335 -72.591087 -8.9091997 -73.007729 -0.18982187 -88.292191
9210125000 -0.87470049 123.2327 -8.9078245 -72.521477 -8.9106941 -72.984291 -0.2026078 -88.242393
9210187500 -0.88449156 123.21872 -8.9186487 -72.500488 -8.9167051 -73.013603 -0.20025654 -88.242233
9210250000 -0.87621278 123.2143 -8.9071655 -72.54744 -8.9178286 -72.997986 -0.20010465 -88.212914
9210312500 -0.87626028 123.19712 -8.9082937 -72.502884 -8.9133539 -72.995621 -0.2054348 -88.18708
9210375000 -0.87677073 123.17877 -8.9091578 -72.478172 -8.9117413 -72.986015 -0.20894392 -88.187408
9210437500 -0.8770929 123.17457 -8.9217548 -72.50779 -8.9118948 -72.963547 -0.2058285 -88.145149
9210500000 -0.876059 123.14968 -8.9120655 -72.478928 -8.9141293 -72.966011 -0.21154785 -88.133003
9210562500 -0.88078839 123.13081 -8.9137945 -72.48996 -8.9050913 -72.92791 -0.21064369 -88.11042
9210625000 -0.87496102 123.07953 -8.9186468 -72.565613 -8.9254246 -72.998535 -0.21851087 -88.11499
9210687500 -0.87632465 123.08169 -8.9105272 -72.50753 -8.9048586 -72.992096 -0.21070243 -88.105087
9210750000 -0.87974542 123.05366 -8.9152765 -72.459023 -8.9032021 -72.99427 -0.21423699 -88.069382
9210812500 -0.87613535 123.07609 -8.925024 -72.462715 -8.9076471 -73.037865 -0.21334639 -88.042206
9210875000 -0.87546819 123.01266 -8.9071617 -72.507065 -8.8989325 -72.987968 -0.20747504 -88.009216
9210937500 -0.87597513 123.04282 -8.9134998 -72.480453 -8.901309 -72.973251 -0.21293879 -87.993057
9211000000 -0.87956172 122.99959 -8.9180431 -72.437355 -8.91078 -72.986641 -0.21832931 -87.985023
9211062500 -0.88734591 123.0052 -8.9118395 -72.420067 -8.8955355 -72.983498 -0.20682532 -87.993912
9211125000 -0.88803267 123.00572 -8.9205904 -72.502083 -8.9003325 -73.019554 -0.20765449 -87.991302
9211187500 -0.88907701 122.97475 -8.9028997 -72.499809 -8.9085369 -73.024307 -0.20923629 -88.017723
9211250000 -0.89049226 123.00488 -8.9125814 -72.504555 -8.9006824 -73.003723 -0.20263889 -88.029465
9211312500 -0.88985163 122.99455 -8.9110537 -72.55246 -8.9070139 -73.090858 -0.20833011 -88.086281
9211375000 -0.88508737 123.01241 -8.9086561 -72.522644 -8.9010572 -73.011154 -0.20131597 -87.913818
9211437500 -0.883654 122.97947 -8.8970699 -72.538544 -8.9063597 -72.95697 -0.20187975 -87.86657
9211500000 -0.89053816 122.9481 -8.90973 -72.515991 -8.9007998 -72.984764 -0.19985014 -87.884094
9211562500 -0.88869649 122.94372 -8.9051704 -72.528732 -8.9000187 -72.961571 -0.20997965 -87.911987
9211625000 -0.88695019 122.89211 -8.9041004 -72.457039 -8.8985567 -72.943932 -0.2075675 -87.819893
9211687500 -0.88946706 122.89058 -8.9010544 -72.464111 -8.8979425 -73.029213 -0.20623352 -87.895844
9211750000 -0.87900907 122.88919 -8.9007111 -72.44487 -8.8972359 -72.953773 -0.20825146 -87.837799
9211812500 -0.88410288 122.85043 -8.9043207 -72.487381 -8.8978443 -73.010246 -0.20895974 -87.886246
9211875000 -0.88822198 122.82071 -8.8920383 -72.465401 -8.8942356 -72.95475 -0.21537277 -87.76123
9211937500 -0.88695747 122.80306 -8.889286 -72.520332 -8.9001646 -72.978287 -0.21427971 -87.758347
9212000000 -0.88712078 122.79911 -8.8940878 -72.508286 -8.8861227 -72.938522 -0.20475988 -87.722786
9212062500 -0.88775688 122.7807 -8.8888693 -72.465561 -8.8921328 -72.987602 -0.20794486 -87.695374
9212125000 -0.89061379 122.76244 -8.8904161 -72.486473 -8.8885908 -72.968575 -0.21156931 -87.655365
9212187500 -0.8931278 122.76873 -8.8948402 -72.487984 -8.8928604 -72.957108 -0.21146029 -87.674225
