!Agilent Technologies,N5242A,MY51221714,A.09.90.19
!Agilent N5242A: A.09.90.19
!Date: Saturday, March 16, 2024 09:03:23
!Correction: S11(Full 2 Port(1,2)) 
!S21(Full 2 Port(1,2)) 
!S12(Full 2 Port(1,2)) 
!S22(Full 2 Port(1,2)) 
!S2P File: Measurements: S11, S21, S12, S22:
# Hz S  dB   R 50
9200000000 -0.88279206 125.58154 -9.0321016 -72.780853 -9.0209227 -73.330467 -0.17707574 -91.13942
9200062500 -0.88987231 125.56532 -9.0323191 -72.765732 -9.0174685 -73.286606 -0.17508668 -91.085976
9200125000 -0.88599497 125.53876 -9.0397148 -72.772911 -9.0271254 -73.327209 -0.17763045 -91.092247
9200187500 -0.88548517 125.52022 -9.0310469 -72.812172 -9.026269 -73.284393 -0.18054503 -91.057343
9200250000 -0.88701594 125.51206 -9.0345545 -72.756561 -9.0254536 -73.317833 -0.1834407 -91.101013
9200312500 -0.87944901 125.49943 -9.0328302 -72.76664 -9.0202332 -73.282333 -0.17663282 -91.023682
9200375000 -0.88397014 125.49866 -9.0356474 -72.745621 -9.0179348 -73.316612 -0.18345532 -91.040604
9200437500 -0.87893981 125.4865 -9.0302696 -72.742073 -9.016777 -73.287552 -0.17389314 -91.006821
9200500000 -0.87654293 125.4687 -9.0325661 -72.785347 -9.0091133 -73.337143 -0.18198176 -90.989326
9200562500 -0.8778739 125.43386 -9.0143414 -72.762283 -9.0162163 -73.312981 -0.1801973 -91.003189
9200625000 -0.88034314 125.41192 -9.0261297 -72.755524 -9.0072136 -73.328812 -0.18196681 -90.928749
9200687500 -0.87849444 125.43751 -9.0289183 -72.714226 -9.0092468 -73.31929 -0.18649095 -90.890717
9200750000 -0.8872714 125.39258 -9.0364523 -72.701508 -9.0058928 -73.261269 -0.18569826 -90.814384
9200812500 -0.89040399 125.39887 -9.0315561 -72.698166 -8.9984426 -73.268311 -0.18308721 -90.819992
9200875000 -0.87893468 125.37984 -9.0296736 -72.667595 -9.0075102 -73.332146 -0.19419424 -90.820061
9200937500 -0.88401324 125.38078 -9.0308256 -72.675102 -9.0045633 -73.280304 -0.19087316 -90.796188
9201000000 -0.8824175 125.35271 -9.0189981 -72.694275 -9.0022974 -73.257515 -0.18959096 -90.81057
9201062500 -0.87819451 125.35019 -9.0215969 -72.702682 -9.0141668 -73.236732 -0.19442269 -90.713188
9201125000 -0.88031673 125.35278 -9.0252628 -72.708473 -9.0049505 -73.292244 -0.18732859 -90.757172
9201187500 -0.87869704 125.31325 -9.013299 -72.699089 -9.0043716 -73.264275 -0.18637164 -90.765022
9201250000 -0.87840515 125.28139 -9.0156898 -72.735313 -9.0083256 -73.244995 -0.18621171 -90.707275
9201312500 -0.88101065 125.3064 -9.013442 -72.682686 -8.9969616 -73.293503 -0.18582828 -90.740105
9201375000 -0.87830377 125.26009 -9.0135403 -72.740318 -9.0089626 -73.297592 -0.19023366 -90.764755
9201437500 -0.88517916 125.26742 -9.025773 -72.689186 -9.005456 -73.262856 -0.18799575 -90.717026
9201500000 -0.88363147 125.24962 -9.0253754 -72.75383 -9.0092125 -73.238556 -0.18783265 -90.69558
9201562500 -0.88401312 125.23317 -9.0210629 -72.725449 -9.001709 -73.284325 -0.18136936 -90.717842
9201625000 -0.88740051 125.21955 -9.0207825 -72.755318 -9.0055666 -73.232773 -0.18823934 -90.651756
9201687500 -0.88719565 125.22562 -9.0162296 -72.677567 -9.007515 -73.263626 -0.18901874 -90.652359
9201750000 -0.88013166 125.18554 -9.022419 -72.732399 -9.0042524 -73.220055 -0.19025481 -90.599373
9201812500 -0.88336849 125.18513 -9.021719 -72.718987 -9.0089827 -73.251488 -0.19810458 -90.619354
9201875000 -0.88314116 125.17722 -9.0162888 -72.711334 -9.0071917 -73.254433 -0.19728523 -90.591545
9201937500 -0.87679827 125.12943 -9.010601 -72.714935 -8.9998665 -73.20726 -0.18947253 -90.530434
9202000000 -0.87753254 125.12737 -9.0115166 -72.675491 -8.9991112 -73.205658 -0.18893604 -90.536018
9202062500 -0.87817484 125.12094 -9.0151176 -72.722527 -8.9996777 -73.277702 -0.18495508 -90.540977
9202125000 -0.88022083 125.09162 -9.0042067 -72.727173 -9.004571 -73.205948 -0.19212355 -90.525467
9202187500 -0.88406342 125.11047 -9.0084095 -72.712723 -8.9996662 -73.21534 -0.19075611 -90.502342
9202250000 -0.88050526 125.06387 -9.010047 -72.712952 -9.0037947 -73.281471 -0.18895882 -90.487534
9202312500 -0.88455087 125.06525 -9.0068111 -72.705803 -9.0029221 -73.239464 -0.18851843 -90.461113
9202375000 -0.87664711 125.086 -9.0018263 -72.644447 -9.0060101 -73.241096 -0.19379273 -90.427109
9202437500 -0.88240677 125.02364 -9.000102 -72.703896 -8.9983864 -73.263489 -0.18776695 -90.418556
9202500000 -0.88385105 125.00829 -9.00179 -72.751953 -9.0033398 -73.216545 -0.20087947 -90.395706
9202562500 -0.88650006 125.01283 -9.0090265 -72.703636 -8.9909859 -73.189087 -0.19347884 -90.364914
9202625000 -0.88722789 125.0321 -9.0120344 -72.679352 -8.9957209 -73.253212 -0.19514132 -90.39592
9202687500 -0.8825798 124.98964 -9.0114174 -72.726242 -8.9980268 -73.216583 -0.19096293 -90.31115
9202750000 -0.88696867 124.99152 -9.0072498 -72.687141 -8.9991798 -73.252731 -0.20011909 -90.320282
9202812500 -0.88620168 124.97516 -9.0008802 -72.694756 -8.9985199 -73.240067 -0.19705331 -90.300125
9202875000 -0.88798434 124.95527 -9.0125875 -72.691696 -9.000968 -73.227158 -0.19692346 -90.236885
9202937500 -0.8837564 124.95409 -9.0038061 -72.688812 -8.9945946 -73.199547 -0.19234353 -90.283241
9203000000 -0.88582766 124.91755 -9.014782 -72.723801 -8.9939394 -73.233154 -0.1945138 -90.24408
9203062500 -0.88103962 124.89825 -9.0001106 -72.619896 -8.9899549 -73.253632 -0.19375074 -90.270004
9203125000 -0.88523215 124.89158 -8.9997168 -72.701591 -8.9969816 -73.181107 -0.19961272 -90.157555
9203187500 -0.88194996 124.87784 -9.0047426 -72.719582 -8.9975719 -73.211311 -0.1954782 -90.195419
9203250000 -0.88674742 124.86189 -9.0017614 -72.729065 -8.9919844 -73.206512 -0.19716287 -90.144485
9203312500 -0.88294309 124.8194 -9.0060635 -72.793785 -8.9874258 -73.212166 -0.19013292 -90.122368
9203375000 -0.88705856 124.8319 -8.9976358 -72.668747 -8.9874535 -73.177727 -0.18862009 -90.092781
9203437500 -0.88343638 124.8336 -8.9963245 -72.728424 -8.9914217 -73.177422 -0.19283894 -90.095093
9203500000 -0.879004 124.83089 -8.9968233 -72.643143 -8.9801054 -73.206825 -0.18840714 -90.089493
9203562500 -0.88344532 124.80374 -9.0005226 -72.707756 -8.990797 -73.186409 -0.19839272 -90.072411
9203625000 -0.8839975 124.7645 -8.9999838 -72.708672 -8.9923468 -73.181976 -0.19577897 -90.083519
9203687500 -0.88433117 124.78265 -9.0001631 -72.683197 -8.9955883 -73.221565 -0.20094533 -90.0326
9203750000 -0.8901217 124.71336 -8.9960098 -72.699524 -8.9908953 -73.203896 -0.2023758 -89.996468
9203812500 -0.87751633 124.70152 -8.9867754 -72.667473 -8.9815655 -73.159775 -0.19764356 -90.024559
9203875000 -0.88064837 124.6961 -8.9947252 -72.728615 -8.9876328 -73.17746 -0.20279345 -89.943619
9203937500 -0.87814146 124.70161 -8.9888458 -72.668648 -8.9887905 -73.23465 -0.21077439 -89.998848
9204000000 -0.8820079 124.69318 -9.0013571 -72.681358 -8.9771576 -73.186157 -0.20086396 -89.958862
9204062500 -0.88132739 124.70539 -9.0000772 -72.646042 -8.9778376 -73.190918 -0.20532323 -89.930687
9204125000 -0.87751156 124.69302 -8.9958668 -72.640434 -8.9824429 -73.184448 -0.2094474 -89.955704
9204187500 -0.87444705 124.67942 -8.9918089 -72.649712 -8.9810648 -73.16378 -0.20849061 -89.903847
9204250000 -0.87945348 124.64388 -9.0012999 -72.69854 -8.981123 -73.129173 -0.21185099 -89.8591
9204312500 -0.87135321 124.62804 -8.9811134 -72.654465 -8.9771786 -73.239822 -0.20611015 -89.887505
9204375000 -0.87295145 124.61288 -8.9881535 -72.647675 -8.9760714 -73.231728 -0.19918694 -89.894592
9204437500 -0.87457401 124.55672 -8.9837151 -72.648712 -8.9745731 -73.148758 -0.20133072 -89.808769
9204500000 -0.87549204 124.58707 -8.9835176 -72.634689 -8.9793072 -73.18998 -0.19453897 -89.816307
9204562500 -0.8827166 124.54935 -8.99119 -72.64193 -8.9765129 -73.195473 -0.19526117 -89.780571
9204625000 -0.8745051 124.5329 -8.9857073 -72.635719 -8.9780569 -73.170441 -0.19631349 -89.739128
9204687500 -0.87734663 124.54019 -8.9840651 -72.637871 -8.9665928 -73.168877 -0.19149967 -89.74086
9204750000 -0.8743096 124.53405 -8.9782228 -72.628693 -8.975832 -73.171219 -0.19745646 -89.749481
9204812500 -0.86861229 124.51225 -8.9798183 -72.639786 -8.9727736 -73.135033 -0.20376378 -89.702423
9204875000 -0.87830842 124.53156 -8.9789906 -72.56633 -8.9768991 -73.122162 -0.2026141 -89.688408
9204937500 -0.88378406 124.53123 -8.9956703 -72.622467 -8.970396 -73.189651 -0.20118585 -89.717903
9205000000 -0.87978762 124.49158 -8.9805183 -72.644547 -8.9704723 -73.181541 -0.20019019 -89.682983
9205062500 -0.87911022 124.49136 -8.975852 -72.589989 -8.9700851 -73.191002 -0.19781342 -89.683128
9205125000 -0.88378704 124.47762 -8.9884825 -72.570709 -8.9657612 -73.203133 -0.19904435 -89.686852
9205187500 -0.88446516 124.45788 -8.9806232 -72.570633 -8.969141 -73.15271 -0.19853474 -89.629433
9205250000 -0.8844375 124.38171 -8.9797564 -72.624001 -8.9804106 -73.209541 -0.19979952 -89.670967
9205312500 -0.88689715 124.39027 -8.9793358 -72.547821 -8.9709558 -73.138123 -0.19597532 -89.565514
9205375000 -0.88391525 124.35223 -8.9843426 -72.592209 -8.9710894 -73.183159 -0.19238485 -89.615524
9205437500 -0.88660628 124.37066 -8.9874783 -72.613617 -8.9773483 -73.14949 -0.20328483 -89.586052
9205500000 -0.88284791 124.33813 -8.9713688 -72.577606 -8.9766836 -73.145409 -0.19902577 -89.512306
9205562500 -0.88413495 124.33383 -8.976697 -72.615044 -8.9684811 -73.166649 -0.19340862 -89.53627
9205625000 -0.88101333 124.32399 -8.973444 -72.607224 -8.9874144 -73.218292 -0.20512788 -89.533333
9205687500 -0.88072199 124.32685 -8.9749594 -72.628036 -8.9744186 -73.161514 -0.20273344 -89.533539
9205750000 -0.8796227 124.3092 -8.9729853 -72.588654 -8.9671984 -73.160324 -0.20337178 -89.518936
9205812500 -0.87743104 124.29935 -8.9844942 -72.618042 -8.9648485 -73.136269 -0.20024481 -89.440804
9205875000 -0.88306552 124.2692 -8.9769182 -72.634674 -8.9780731 -73.073425 -0.20564927 -89.456573
9205937500 -0.87933028 124.29081 -8.9748716 -72.638557 -8.9682112 -73.100578 -0.1993334 -89.407646
9206000000 -0.87627184 124.23994 -8.9696465 -72.629501 -8.9829931 -73.131432 -0.20613126 -89.409279
9206062500 -0.87808734 124.24216 -8.9654331 -72.568939 -8.9785728 -73.138954 -0.20611683 -89.373322
9206125000 -0.88046932 124.24529 -8.9795036 -72.560028 -8.9677773 -73.130867 -0.20590883 -89.372261
9206187500 -0.88078636 124.23328 -8.9672766 -72.589661 -8.966011 -73.137207 -0.20068341 -89.349678
9206250000 -0.87885451 124.2373 -8.9672699 -72.55983 -8.9662867 -73.134689 -0.20040159 -89.308815
9206312500 -0.87916178 124.23611 -8.967658 -72.617462 -8.9619999 -73.154648 -0.20679958 -89.341423
9206375000 -0.88025486 124.2207 -8.9717655 -72.609688 -8.96208 -73.136375 -0.19959936 -89.30645
9206437500 -0.87598419 124.18418 -8.9662399 -72.524971 -8.9545269 -73.119125 -0.19087815 -89.289131
9206500000 -0.8775053 124.17817 -8.9604874 -72.597153 -8.9583931 -73.164352 -0.20122921 -89.310539
9206562500 -0.87957901 124.16048 -8.9542341 -72.554848 -8.9625578 -73.124214 -0.19634046 -89.211021
9206625000 -0.88531524 124.15205 -8.9646854 -72.593071 -8.9486799 -73.091461 -0.19052783 -89.175308
9206687500 -0.88066489 124.12901 -8.9592094 -72.559303 -8.943018 -73.148216 -0.18704496 -89.248894
9206750000 -0.88610756 124.11846 -8.9535713 -72.524139 -8.9541607 -73.180595 -0.19052322 -89.189568
9206812500 -0.88296604 124.09013 -8.949132 -72.594772 -8.9480906 -73.122002 -0.19136238 -89.148048
9206875000 -0.89121515 124.1012 -8.9552422 -72.492958 -8.9424458 -73.151291 -0.19323075 -89.145576
9206937500 -0.88749367 124.07439 -8.9589624 -72.538483 -8.9455509 -73.118195 -0.19445682 -89.099663
9207000000 -0.88136977 124.07248 -8.9559813 -72.575752 -8.9550352 -73.143829 -0.20353563 -89.114212
9207062500 -0.88371938 124.01997 -8.9607105 -72.516777 -8.9538736 -73.043518 -0.20141178 -89.042229
9207125000 -0.87536049 124.00527 -8.9504652 -72.572342 -8.9493151 -73.07811 -0.1979674 -89.085884
9207187500 -0.87640268 123.95657 -8.9548197 -72.582512 -8.963377 -73.058113 -0.20926245 -89.068665
9207250000 -0.87484527 123.95435 -8.956378 -72.606598 -8.958087 -73.092941 -0.2144593 -89.07251
9207312500 -0.87924254 123.92615 -8.9585266 -72.582932 -8.9488287 -73.07579 -0.20567267 -89.04776
9207375000 -0.87848306 123.90149 -8.9614735 -72.604759 -8.9506569 -73.116173 -0.21032655 -89.018379
9207437500 -0.87564522 123.86079 -8.9501228 -72.652031 -8.9467573 -73.096703 -0.21035196 -88.97226
9207500000 -0.87493259 123.87862 -8.9516621 -72.567612 -8.9500589 -73.063744 -0.2086356 -89.00885
9207562500 -0.87987429 123.83002 -8.9607201 -72.611969 -8.944912 -73.088074 -0.20644137 -89.006912
9207625000 -0.879785 123.82384 -8.9564753 -72.569809 -8.9364557 -73.030434 -0.20416385 -88.922592
9207687500 -0.88450241 123.83692 -8.955493 -72.54438 -8.9367533 -73.121124 -0.20191431 -88.944962
9207750000 -0.88575548 123.81795 -8.9477015 -72.550194 -8.936533 -73.123825 -0.19503789 -88.964516
9207812500 -0.88524091 123.82721 -8.9522858 -72.591026 -8.9380112 -73.122437 -0.19722688 -88.905136
9207875000 -0.88795042 123.82372 -8.948885 -72.583153 -8.9318428 -73.166603 -0.18882403 -88.934402
9207937500 -0.89043486 123.85559 -8.9537573 -72.51757 -8.9341612 -73.130852 -0.19379452 -88.879837
9208000000 -0.88386685 123.80724 -8.9516706 -72.484673 -8.9392529 -73.081604 -0.19410898 -88.791313
9208062500 -0.88542539 123.8113 -8.950861 -72.525887 -8.9455395 -73.156487 -0.19793832 -88.8283
9208125000 -0.88486081 123.78441 -8.9513969 -72.54248 -8.9442329 -73.079292 -0.20423284 -88.791344
9208187500 -0.88306624 123.76003 -8.9469595 -72.54425 -8.9407654 -73.14769 -0.20303597 -88.786423
9208250000 -0.87875235 123.77225 -8.9524174 -72.487816 -8.9349642 -73.041504 -0.20674768 -88.700096
9208312500 -0.88157207 123.73324 -8.9437895 -72.582504 -8.9517326 -73.000206 -0.20775002 -88.722328
9208375000 -0.88362366 123.76127 -8.9485941 -72.498077 -8.9463139 -73.100807 -0.21305418 -88.766006
9208437500 -0.87755567 123.70084 -8.952076 -72.590897 -8.9492426 -73.02285 -0.22071095 -88.685417
9208500000 -0.88096189 123.67091 -8.9420271 -72.588921 -8.9414959 -73.040642 -0.21168931 -88.693542
9208562500 -0.88798922 123.62095 -8.9480038 -72.598289 -8.9351797 -73.06749 -0.20308329 -88.702858
9208625000 -0.88264459 123.63805 -8.9416447 -72.55526 -8.9345121 -73.008942 -0.20770027 -88.674767
9208687500 -0.88572502 123.6229 -8.946166 -72.569511 -8.930707 -73.069199 -0.20276421 -88.654503
9208750000 -0.88245171 123.59711 -8.9411535 -72.622314 -8.93857 -73.030113 -0.20165473 -88.625618
9208812500 -0.88334221 123.59039 -8.9424849 -72.571289 -8.9285812 -73.036194 -0.20246251 -88.645874
9208875000 -0.88295072 123.59928 -8.9409151 -72.589279 -8.936801 -73.018112 -0.20797049 -88.578651
9208937500 -0.88409454 123.66313 -8.9444332 -72.482903 -8.9365473 -73.114334 -0.20689084 -88.622543
9209000000 -0.8851099 123.6419 -8.948041 -72.5308 -8.9366646 -73.083885 -0.20439513 -88.642105
9209062500 -0.88276702 123.62875 -8.9423704 -72.569923 -8.9308662 -73.055748 -0.20362753 -88.577293
9209125000 -0.88576818 123.62035 -8.9416046 -72.537025 -8.9346294 -73.075516 -0.20511445 -88.601357
9209187500 -0.88708836 123.62869 -8.9414511 -72.468498 -8.939414 -73.001541 -0.21293905 -88.465408
9209250000 -0.88362998 123.61469 -8.9359493 -72.535698 -8.936451 -73.002579 -0.20679927 -88.505501
9209312500 -0.88097918 123.54507 -8.9284019 -72.536789 -8.9319973 -73.045189 -0.21202551 -88.4785
9209375000 -0.88025337 123.56435 -8.9313154 -72.516594 -8.9379549 -73.012184 -0.20581207 -88.486519
9209437500 -0.87533987 123.51189 -8.925684 -72.500114 -8.9290009 -73.040016 -0.20517074 -88.46714
9209500000 -0.87580913 123.51834 -8.9282093 -72.54377 -8.9366531 -73.015175 -0.20916979 -88.402283
9209562500 -0.88433003 123.49535 -8.935771 -72.554756 -8.9346189 -73.055199 -0.20990084 -88.405785
9209625000 -0.88864833 123.45339 -8.9247866 -72.579163 -8.9264908 -73.061615 -0.20375814 -88.388
9209687500 -0.88490993 123.46831 -8.9245663 -72.546165 -8.9222116 -73.009529 -0.19884205 -88.364273
9209750000 -0.88600856 123.44453 -8.9260988 -72.566986 -8.9360895 -72.969444 -0.20686579 -88.319115
9209812500 -0.88407093 123.4301 -8.9228086 -72.55172 -8.9191599 -73.044411 -0.19873908 -88.363136
9209875000 -0.89120555 123.41794 -8.9331732 -72.498856 -8.9252768 -73.105881 -0.20929042 -88.319527
9209937500 -0.88138509 123.42796 -8.9296799 -72.546753 -8.9238033 -73.076202 -0.20429972 -88.31501
9210000000 -0.88329154 123.42238 -8.9255648 -72.557648 -8.9209614 -73.011597 -0.20036606 -88.262817
9210062500 -0.88772678 123.41935 -8.9329224 -72.548096 -8.9142532 -73.018776 -0.19534835 -88.248665
9210125000 -0.87682086 123.37902 -8.9219189 -72.481148 -8.9270067 -73.053627 -0.20188072 -88.232002
9210187500 -0.87816894 123.35723 -8.9233532 -72.521027 -8.922884 -72.98526 -0.20235559 -88.228462
9210250000 -0.87759507 123.35057 -8.9244108 -72.537971 -8.9168739 -72.933174 -0.20324288 -88.198914
9210312500 -0.88094795 123.30808 -8.9356775 -72.51358 -8.9174261 -73.006104 -0.20896831 -88.216957
9210375000 -0.87720209 123.31065 -8.9179668 -72.521935 -8.921566 -72.993095 -0.20993948 -88.197304
9210437500 -0.88669086 123.29739 -8.9348507 -72.483788 -8.9148846 -73.006004 -0.21250238 -88.138847
9210500000 -0.87572384 123.30162 -8.9221401 -72.514069 -8.9222345 -72.929634 -0.21940845 -88.114738
9210562500 -0.87888652 123.26704 -8.9229174 -72.475967 -8.9224358 -72.965424 -0.21470615 -88.103935
9210625000 -0.87545276 123.24995 -8.921629 -72.463974 -8.9239655 -72.971519 -0.2152984 -88.105995
9210687500 -0.87698877 123.24044 -8.9292326 -72.437149 -8.9185944 -73.002762 -0.21467876 -88.061089
9210750000 -0.88278329 123.20928 -8.9259844 -72.453468 -8.9180498 -73.002228 -0.21710913 -88.088028
9210812500 -0.87650812 123.20858 -8.9222107 -72.500847 -8.9161863 -72.980019 -0.20578888 -88.057159
9210875000 -0.8831231 123.17139 -8.9219074 -72.453423 -8.9122725 -73.037323 -0.20995867 -88.041351
9210937500 -0.88360178 123.12666 -8.9239883 -72.433304 -8.9236355 -72.937607 -0.21732761 -87.987839
9211000000 -0.87777585 123.13174 -8.9179249 -72.435257 -8.9137344 -72.978279 -0.20904219 -87.986938
9211062500 -0.88328636 123.15601 -8.9150457 -72.456154 -8.9144545 -73.052925 -0.21251513 -88.008301
9211125000 -0.88427514 123.1426 -8.9174252 -72.41095 -8.9113951 -73.026199 -0.20926195 -87.993835
9211187500 -0.88511056 123.16351 -8.919282 -72.445404 -8.9190454 -73.007401 -0.2174564 -87.980812
9211250000 -0.8906635 123.12857 -8.9172373 -72.483604 -8.9080267 -72.978638 -0.20586143 -87.992012
9211312500 -0.88615823 123.15528 -8.915164 -72.53595 -8.9132824 -73.015831 -0.21125492 -88.01313
9211375000 -0.88586915 123.11628 -8.9190187 -72.505547 -8.9142885 -73.013298 -0.20717262 -87.904823
9211437500 -0.88608265 123.10987 -8.9205484 -72.435669 -8.907052 -73.011177 -0.21147546 -87.880157
9211500000 -0.88870031 123.07162 -8.9126215 -72.430908 -8.9094801 -72.997353 -0.20715876 -87.876495
9211562500 -0.89313507 123.02593 -8.9191265 -72.538742 -8.9076357 -72.967552 -0.21213262 -87.853172
9211625000 -0.88715225 123.04951 -8.9128075 -72.435593 -8.915184 -72.985321 -0.21492496 -87.88736
9211687500 -0.88440877 123.02026 -8.9123793 -72.462807 -8.9035416 -72.95443 -0.20976056 -87.831276
9211750000 -0.8825931 123.0132 -8.912365 -72.432915 -8.9168139 -72.950783 -0.21896124 -87.810081
9211812500 -0.8857668 122.98406 -8.9106274 -72.455605 -8.9098072 -72.887924 -0.21391261 -87.739693
9211875000 -0.88474667 122.98087 -8.9099045 -72.417015 -8.9149342 -72.94558 -0.22308205 -87.736221
9211937500 -0.88700938 122.96979 -8.9112396 -72.442184 -8.9095287 -72.903008 -0.21922231 -87.730537
9212000000 -0.89236993 122.90247 -8.9112186 -72.528755 -8.9152575 -72.92363 -0.2222843 -87.69912
9212062500 -0.89082748 122.91579 -8.9043427 -72.480072 -8.9088907 -72.953896 -0.21965371 -87.691322
9212125000 -0.89061147 122.87531 -8.9150848 -72.486656 -8.9008961 -72.873627 -0.21599796 -87.590965
9212187500 -0.88785326 122.88432 -8.8979645 -72.461731 -8.9054508 -72.918304 -0.21683767 -87.628548
