!Agilent Technologies,N5242A,MY51221714,A.09.90.19
!Agilent N5242A: A.09.90.19
!Date: Saturday, March 16, 2024 09:04:30
!Correction: S11(Full 2 Port(1,2)) 
!S21(Full 2 Port(1,2)) 
!S12(Full 2 Port(1,2)) 
!S22(Full 2 Port(1,2)) 
!S2P File: Measurements: S11, S21, S12, S22:
# Hz S  dB   R 50
9200000000 -0.88579124 125.70099 -9.0391226 -72.681366 -9.0437212 -73.126778 -0.17370659 -91.088409
9200062500 -0.88373733 125.68906 -9.0449181 -72.664749 -9.0331516 -73.187263 -0.17145179 -91.181068
9200125000 -0.88672304 125.72209 -9.0438452 -72.629967 -9.0314474 -73.162209 -0.17172462 -91.096848
9200187500 -0.88452113 125.68127 -9.0405226 -72.611473 -9.028491 -73.180748 -0.17113692 -91.129623
9200250000 -0.88438702 125.66724 -9.0386591 -72.654404 -9.0303125 -73.203163 -0.17662142 -91.119034
9200312500 -0.88172764 125.67663 -9.0463619 -72.616875 -9.0272179 -73.205902 -0.17220461 -91.086281
9200375000 -0.88175046 125.66323 -9.0369987 -72.612083 -9.0352478 -73.213974 -0.17313226 -91.108444
9200437500 -0.88008314 125.61046 -9.0334501 -72.717926 -9.0263653 -73.188866 -0.17275544 -91.086861
9200500000 -0.87925005 125.59501 -9.0411806 -72.649895 -9.0314932 -73.228584 -0.17765746 -91.042458
9200562500 -0.88031691 125.5798 -9.0453043 -72.610123 -9.0201969 -73.133476 -0.1809285 -91.002777
9200625000 -0.87761533 125.61502 -9.0300961 -72.603989 -9.0246649 -73.188896 -0.18159609 -90.999451
9200687500 -0.88325036 125.55508 -9.0444613 -72.647827 -9.0198402 -73.186958 -0.18407744 -90.943642
9200750000 -0.88305414 125.59351 -9.0458202 -72.596222 -9.020401 -73.159027 -0.18365583 -90.881256
9200812500 -0.88146251 125.5637 -9.0382271 -72.576653 -9.0148544 -73.138062 -0.1861077 -90.884521
9200875000 -0.88252747 125.56348 -9.0396976 -72.516777 -9.0138779 -73.192947 -0.18219227 -90.856354
9200937500 -0.88164794 125.53015 -9.0345221 -72.576515 -9.0141239 -73.122856 -0.17678457 -90.845894
9201000000 -0.88447058 125.51897 -9.0381947 -72.52742 -9.0161695 -73.119087 -0.18465579 -90.864372
9201062500 -0.8778488 125.52091 -9.0347586 -72.513206 -9.0205536 -73.141098 -0.18762352 -90.774544
9201125000 -0.8730616 125.45422 -9.0215864 -72.669106 -9.0328779 -73.136055 -0.18704432 -90.802383
9201187500 -0.87661397 125.47696 -9.0253525 -72.601692 -9.0075903 -73.127487 -0.17799743 -90.760849
9201250000 -0.87617928 125.44872 -9.0235863 -72.590111 -9.0138626 -73.190163 -0.17992748 -90.80085
9201312500 -0.87843275 125.44802 -9.0295305 -72.568932 -9.0201578 -73.104393 -0.18450804 -90.759331
9201375000 -0.88257468 125.41976 -9.0301275 -72.642746 -9.0191345 -73.114616 -0.17907991 -90.743019
9201437500 -0.88569599 125.42148 -9.0303068 -72.553902 -9.0231113 -73.083145 -0.17636645 -90.735344
9201500000 -0.88127416 125.4045 -9.0271549 -72.582344 -9.0127792 -73.151276 -0.1792445 -90.693398
9201562500 -0.88171047 125.40077 -9.0277166 -72.609596 -9.0221996 -73.15593 -0.17929067 -90.756142
9201625000 -0.88289487 125.39337 -9.0374517 -72.577835 -9.0188675 -73.119812 -0.18133521 -90.726868
9201687500 -0.88666862 125.34492 -9.0265646 -72.624481 -9.0162382 -73.079605 -0.18295474 -90.679085
9201750000 -0.87912464 125.36149 -9.0328035 -72.529755 -9.0095024 -73.129745 -0.17377312 -90.684669
9201812500 -0.88083386 125.33963 -9.0281277 -72.578865 -9.0152273 -73.08754 -0.18466122 -90.615837
9201875000 -0.88330966 125.29289 -9.0339813 -72.60733 -9.0147057 -73.058456 -0.18764521 -90.613823
9201937500 -0.87464428 125.2835 -9.0153656 -72.62133 -9.0174465 -73.123283 -0.19161716 -90.598679
9202000000 -0.88181454 125.27869 -9.0231609 -72.657234 -9.0046587 -73.068924 -0.18510041 -90.570549
9202062500 -0.87639809 125.24213 -9.0188122 -72.537933 -9.0138321 -73.059441 -0.1823718 -90.535828
9202125000 -0.87918562 125.23429 -9.0152206 -72.557816 -9.0105247 -73.088417 -0.18488705 -90.557938
9202187500 -0.87792134 125.23278 -9.0166121 -72.605728 -9.0178366 -73.066864 -0.18670486 -90.538338
9202250000 -0.87813783 125.20361 -9.0105715 -72.588577 -9.0173922 -73.10141 -0.18620545 -90.492218
9202312500 -0.88446188 125.21922 -9.017477 -72.531197 -9.0050974 -73.157326 -0.18235719 -90.513588
9202375000 -0.88113302 125.21204 -9.0031919 -72.578323 -9.0151205 -73.114929 -0.17819215 -90.460442
9202437500 -0.88107705 125.20242 -9.0084896 -72.583817 -9.0136423 -73.127228 -0.19161363 -90.468887
9202500000 -0.88276529 125.17036 -9.0114555 -72.591187 -9.0135603 -73.062447 -0.18614456 -90.412262
9202562500 -0.88383156 125.16994 -9.0184927 -72.587982 -9.0102358 -73.05706 -0.18800455 -90.450256
9202625000 -0.88847941 125.13235 -9.0266132 -72.604324 -9.0077887 -73.076691 -0.18765645 -90.40538
9202687500 -0.88439918 125.14317 -9.0237675 -72.591095 -8.9998512 -73.071304 -0.18929256 -90.35244
9202750000 -0.88204545 125.09818 -9.0222244 -72.569336 -9.0137453 -73.078621 -0.1904154 -90.346794
9202812500 -0.88206267 125.10624 -9.0098743 -72.560211 -9.0078211 -73.042595 -0.19369739 -90.340622
9202875000 -0.88018626 125.11725 -9.0094471 -72.636024 -9.0051212 -73.120468 -0.18994959 -90.34922
9202937500 -0.87780839 125.09276 -9.0096197 -72.467667 -9.0090332 -73.144188 -0.18810567 -90.317963
9203000000 -0.87990975 125.0073 -9.0160856 -72.581718 -9.0089741 -73.069038 -0.19329891 -90.240601
9203062500 -0.88181353 125.05013 -9.0199337 -72.558144 -9.0133495 -73.07299 -0.19056718 -90.22345
9203125000 -0.87791336 125.02634 -9.0017662 -72.569084 -9.0072937 -73.09993 -0.19403458 -90.229866
9203187500 -0.88004321 125.01331 -9.0045853 -72.55468 -9.0019207 -73.074295 -0.18614069 -90.21479
9203250000 -0.88610286 124.9995 -9.0178404 -72.601326 -9.0047226 -73.071007 -0.18776888 -90.210159
9203312500 -0.88300323 124.97585 -9.0121183 -72.585495 -9.0009375 -73.139336 -0.19076909 -90.213814
9203375000 -0.87793356 124.99327 -9.002984 -72.565239 -9.0035915 -73.080086 -0.1916935 -90.187241
9203437500 -0.88934779 124.97494 -9.0113583 -72.611282 -8.9978714 -73.116165 -0.18471369 -90.156769
9203500000 -0.8795594 124.95144 -9.0082111 -72.550323 -9.0022583 -73.134575 -0.18539263 -90.136696
9203562500 -0.88460493 124.95233 -9.0100594 -72.564018 -9.0009022 -73.077431 -0.18761313 -90.093483
9203625000 -0.8816424 124.93201 -9.0011711 -72.600914 -8.9994965 -73.105118 -0.19378902 -90.129417
9203687500 -0.8819772 124.90591 -9.0062618 -72.597755 -9.0029335 -73.120331 -0.19158186 -90.122574
9203750000 -0.87809408 124.88161 -9.006608 -72.556152 -9.0024986 -73.112503 -0.19089228 -90.042465
9203812500 -0.88202614 124.8914 -9.0061998 -72.545197 -9.0034466 -73.034172 -0.20007458 -89.992195
9203875000 -0.87951517 124.85349 -9.0104332 -72.583115 -9.0054674 -73.066254 -0.19866647 -90.046005
9203937500 -0.88512754 124.83543 -9.0154924 -72.528992 -8.9895754 -73.034882 -0.20353144 -89.987198
9204000000 -0.88158685 124.78594 -8.9991865 -72.607101 -8.9940109 -73.023941 -0.1990352 -89.99147
9204062500 -0.88124281 124.87086 -9.0129604 -72.515915 -8.993494 -73.065865 -0.2029312 -89.999603
9204125000 -0.87959653 124.8012 -9.0112152 -72.586449 -8.9991217 -73.036224 -0.20716326 -89.969749
9204187500 -0.87570477 124.76652 -9.004077 -72.529099 -8.9860773 -72.992821 -0.1965788 -89.933601
9204250000 -0.87566167 124.80574 -9.0051394 -72.467163 -8.9845457 -73.027344 -0.20109902 -89.929039
9204312500 -0.87692147 124.79726 -9.0019817 -72.538956 -8.9843788 -73.053276 -0.19535418 -89.944702
9204375000 -0.87505591 124.76144 -9.0014496 -72.543518 -8.9910736 -73.0186 -0.19787078 -89.882431
9204437500 -0.87314063 124.73111 -8.9973049 -72.513931 -8.9928656 -73.038475 -0.19992155 -89.852905
9204500000 -0.87200564 124.70815 -9.0000353 -72.506172 -8.9892864 -73.049301 -0.19070214 -89.856033
9204562500 -0.86829793 124.71621 -8.9923801 -72.47097 -8.9893179 -72.97702 -0.19333504 -89.775986
9204625000 -0.87263757 124.67166 -8.9901114 -72.503723 -8.9804649 -72.992752 -0.18868534 -89.744522
9204687500 -0.87503594 124.70598 -8.9967127 -72.475784 -8.9867296 -73.03421 -0.18797956 -89.777153
9204750000 -0.87467957 124.71192 -8.9926538 -72.466103 -8.9833651 -73.037903 -0.1903774 -89.75145
9204812500 -0.87521064 124.70525 -8.9980564 -72.429878 -8.9775791 -73.019569 -0.18890829 -89.760185
9204875000 -0.88262594 124.69138 -9.0007896 -72.450943 -8.9795628 -73.056435 -0.19046246 -89.73114
9204937500 -0.87567705 124.66359 -8.9897757 -72.514854 -8.9860935 -73.052765 -0.19401418 -89.713196
9205000000 -0.87938684 124.65417 -8.9915247 -72.465942 -8.9750853 -73.032616 -0.18687561 -89.743912
9205062500 -0.88217044 124.61959 -8.9955702 -72.510338 -8.9802856 -73.059151 -0.1956252 -89.743172
9205125000 -0.88536423 124.5919 -8.9874439 -72.521233 -8.9798946 -73.057457 -0.18753834 -89.708687
9205187500 -0.88276404 124.62519 -8.9932261 -72.450829 -8.9832935 -73.043808 -0.19275281 -89.663315
9205250000 -0.88844413 124.54741 -8.9932976 -72.471733 -8.9775076 -73.102562 -0.18651703 -89.683899
9205312500 -0.88804287 124.53438 -8.9889412 -72.428635 -8.9766216 -73.030182 -0.19027133 -89.62059
9205375000 -0.88495159 124.4574 -8.9858847 -72.487724 -8.9909716 -73.000847 -0.18700984 -89.554092
9205437500 -0.88407576 124.50887 -8.9837132 -72.469643 -8.9918871 -73.046387 -0.19861798 -89.571381
9205500000 -0.87753111 124.46351 -8.9783411 -72.451172 -8.9799547 -73.076538 -0.18965638 -89.635597
9205562500 -0.88357735 124.48019 -8.9917803 -72.486305 -8.9925556 -73.105774 -0.19579549 -89.643112
9205625000 -0.88141352 124.47557 -8.9887657 -72.452751 -8.9837894 -73.059631 -0.1965837 -89.57711
9205687500 -0.88471156 124.4877 -8.9943094 -72.463257 -8.984745 -72.981285 -0.19413091 -89.473358
9205750000 -0.87648535 124.46358 -8.9796476 -72.522766 -8.9879656 -73.004959 -0.19672398 -89.546013
9205812500 -0.8759827 124.42033 -8.9866543 -72.510361 -8.980628 -72.970551 -0.1956491 -89.474602
9205875000 -0.88168085 124.45426 -8.9941607 -72.505577 -8.9755955 -72.997246 -0.19413728 -89.468452
9205937500 -0.87401408 124.43128 -8.986845 -72.49765 -8.978467 -72.977661 -0.19646887 -89.468552
9206000000 -0.87794471 124.38616 -8.9743481 -72.481148 -8.9860706 -73.014351 -0.20009728 -89.44207
9206062500 -0.88015771 124.40593 -8.9823427 -72.471703 -8.9792624 -73.02224 -0.19630501 -89.400108
9206125000 -0.87878019 124.37474 -8.9872875 -72.408577 -8.9770842 -72.996628 -0.19083895 -89.359879
9206187500 -0.8767361 124.35267 -8.9739017 -72.433006 -8.9795752 -72.978737 -0.19318819 -89.335396
9206250000 -0.87426788 124.37151 -8.9800882 -72.444603 -8.9770308 -72.967049 -0.19737408 -89.335991
9206312500 -0.87501973 124.34133 -8.98347 -72.464592 -8.9708395 -73.030319 -0.19314714 -89.364792
9206375000 -0.88021743 124.32144 -8.9819355 -72.468216 -8.9732237 -73.002747 -0.20348465 -89.356476
9206437500 -0.87377852 124.36672 -8.9766579 -72.36042 -8.9665413 -73.028152 -0.18722433 -89.313736
9206500000 -0.87585938 124.31081 -8.9715633 -72.480865 -8.9728127 -73.016525 -0.20092806 -89.302353
9206562500 -0.88311696 124.29472 -8.9718857 -72.437698 -8.9634752 -73.014389 -0.1830983 -89.309669
9206625000 -0.88517988 124.32359 -8.976016 -72.389442 -8.9527111 -72.999321 -0.18566526 -89.244873
9206687500 -0.88192183 124.2405 -8.9662428 -72.440742 -8.9576225 -72.970787 -0.17969184 -89.207733
9206750000 -0.87915766 124.26532 -8.9567432 -72.416901 -8.9544458 -72.977577 -0.18514499 -89.181946
9206812500 -0.88648069 124.21692 -8.9663458 -72.432419 -8.9485073 -72.965584 -0.18472683 -89.139412
9206875000 -0.88702524 124.24222 -8.9701538 -72.357567 -8.9534397 -72.955849 -0.18279479 -89.123238
9206937500 -0.88080567 124.19991 -8.9723425 -72.407181 -8.9690151 -72.985077 -0.19071628 -89.146713
9207000000 -0.87953717 124.18747 -8.9676218 -72.424332 -8.9627981 -72.975883 -0.19074343 -89.105812
9207062500 -0.87961918 124.1767 -8.9736023 -72.42733 -8.9687834 -72.993881 -0.19510429 -89.103607
9207125000 -0.87425792 124.14664 -8.9675169 -72.397705 -8.9635019 -72.974899 -0.19506201 -89.081589
9207187500 -0.87214178 124.14761 -8.9695873 -72.428741 -8.9678574 -72.955437 -0.1968631 -89.095177
9207250000 -0.87032264 124.07998 -8.9615831 -72.47731 -8.9729452 -72.931236 -0.20388058 -89.065292
9207312500 -0.87578523 124.08544 -8.9596901 -72.49131 -8.9596329 -72.935211 -0.20555712 -89.069908
9207375000 -0.8784759 124.03545 -8.9685106 -72.495712 -8.9588776 -72.946815 -0.20541033 -89.067146
9207437500 -0.8737132 124.06721 -8.9592524 -72.501869 -8.9609365 -72.942039 -0.19988877 -89.063538
9207500000 -0.88152295 124.01341 -8.9634647 -72.487358 -8.9529657 -72.975769 -0.19794005 -89.063248
9207562500 -0.87897342 124.00061 -8.9650126 -72.536659 -8.9517908 -72.984467 -0.19783503 -89.064476
9207625000 -0.87563342 123.98569 -8.9633236 -72.454605 -8.9513826 -72.918404 -0.19604953 -88.948059
9207687500 -0.88259512 123.9752 -8.962184 -72.517975 -8.9485998 -72.973244 -0.19688763 -88.984344
9207750000 -0.88470775 123.98094 -8.9672632 -72.493057 -8.9521475 -73.01149 -0.19424538 -88.971176
9207812500 -0.879632 123.94987 -8.9594498 -72.467461 -8.9521179 -73.018272 -0.18887925 -88.989372
9207875000 -0.88691646 123.97916 -8.9657621 -72.439789 -8.9494133 -73.003822 -0.18474869 -88.9543
9207937500 -0.88932049 123.93959 -8.9593639 -72.467316 -8.951273 -72.951096 -0.18904486 -88.882248
9208000000 -0.88611114 123.95554 -8.9577093 -72.365211 -8.9562654 -72.993698 -0.19190966 -88.853004
9208062500 -0.88440573 123.96619 -8.9543457 -72.424049 -8.9549894 -72.9636 -0.19632076 -88.862686
9208125000 -0.88297117 123.94403 -8.9565458 -72.475861 -8.9580135 -72.967003 -0.1982988 -88.855515
9208187500 -0.88200718 123.93259 -8.9682417 -72.417542 -8.9554472 -72.94735 -0.20358548 -88.787186
9208250000 -0.88257122 123.92948 -8.958396 -72.436012 -8.9569378 -72.927689 -0.20259088 -88.757607
9208312500 -0.87779188 123.91578 -8.9531593 -72.388779 -8.9580927 -72.969902 -0.20596032 -88.769669
9208375000 -0.88173604 123.91324 -8.9630413 -72.351463 -8.9501085 -72.895424 -0.20629613 -88.719749
9208437500 -0.88159883 123.89974 -8.9687271 -72.386131 -8.9488096 -72.968376 -0.20008163 -88.756065
9208500000 -0.88041967 123.88023 -8.9579334 -72.391624 -8.9587288 -72.936302 -0.20506367 -88.688179
9208562500 -0.87997669 123.80895 -8.9561148 -72.440994 -8.9488707 -72.971123 -0.20330369 -88.725098
9208625000 -0.88098103 123.79662 -8.9563675 -72.491402 -8.9449244 -72.965851 -0.19895886 -88.720367
9208687500 -0.88134634 123.76173 -8.9529476 -72.409523 -8.9517412 -72.940178 -0.20109369 -88.70105
9208750000 -0.8813228 123.772 -8.9459534 -72.461105 -8.9443874 -72.99279 -0.19930148 -88.672241
9208812500 -0.88121742 123.77496 -8.9589949 -72.466125 -8.9436312 -72.966866 -0.19994445 -88.671089
9208875000 -0.88160694 123.75871 -8.9494419 -72.432808 -8.9565659 -72.971489 -0.20880519 -88.660934
9208937500 -0.88001847 123.77821 -8.9480944 -72.478645 -8.9437256 -72.973732 -0.19962716 -88.702698
9209000000 -0.88202572 123.76773 -8.9459906 -72.409172 -8.9452333 -72.925819 -0.19569553 -88.637474
9209062500 -0.88059163 123.76894 -8.9488211 -72.428558 -8.9444599 -72.955513 -0.19802378 -88.629875
9209125000 -0.8826009 123.77988 -8.9440174 -72.372437 -8.9438295 -72.938332 -0.19988753 -88.586906
9209187500 -0.87752813 123.78397 -8.9432278 -72.407578 -8.9525499 -72.962799 -0.20640577 -88.606972
9209250000 -0.88156646 123.72919 -8.9478655 -72.420769 -8.9522581 -72.919296 -0.19986053 -88.560516
9209312500 -0.88339937 123.69018 -8.9390068 -72.380936 -8.946557 -72.897232 -0.19782446 -88.529213
9209375000 -0.87951893 123.6767 -8.9430161 -72.38723 -8.94491 -72.891571 -0.20116889 -88.503319
9209437500 -0.87756854 123.67091 -8.9351187 -72.34861 -8.9447727 -72.911697 -0.2011767 -88.461319
9209500000 -0.88301522 123.65961 -8.9409428 -72.415482 -8.95082 -72.831696 -0.20414183 -88.416809
9209562500 -0.88203055 123.63023 -8.946804 -72.358414 -8.9490261 -72.842529 -0.20551038 -88.415382
9209625000 -0.8800084 123.60495 -8.9406633 -72.391533 -8.9320612 -72.918152 -0.19352001 -88.381233
9209687500 -0.88051039 123.60806 -8.9419127 -72.4487 -8.9416199 -72.962349 -0.20361236 -88.413185
9209750000 -0.88520825 123.59908 -8.9337254 -72.409073 -8.9363289 -72.877487 -0.19439632 -88.367027
9209812500 -0.88871378 123.58426 -8.9504824 -72.422134 -8.9342194 -72.881798 -0.19761573 -88.356667
9209875000 -0.88666433 123.57023 -8.9489975 -72.448418 -8.9351063 -72.974274 -0.19338149 -88.367378
9209937500 -0.88684785 123.58751 -8.9460182 -72.418304 -8.934248 -72.882759 -0.19755544 -88.325081
9210000000 -0.88373345 123.54742 -8.94034 -72.397011 -8.9296722 -72.855843 -0.19218576 -88.287468
9210062500 -0.87904513 123.54735 -8.9347582 -72.431999 -8.9323931 -72.849144 -0.19769435 -88.268555
9210125000 -0.87653476 123.51611 -8.9376154 -72.399261 -8.9367962 -72.877563 -0.19292426 -88.239258
9210187500 -0.87931883 123.48713 -8.9300089 -72.438934 -8.9279594 -72.846375 -0.19892633 -88.25174
9210250000 -0.87849069 123.47443 -8.9378748 -72.396088 -8.9380093 -72.837936 -0.19841857 -88.224342
9210312500 -0.87423402 123.51575 -8.9319878 -72.383545 -8.9198885 -72.846977 -0.19595632 -88.20874
9210375000 -0.87605244 123.48224 -8.9371624 -72.371841 -8.9359941 -72.837753 -0.20234101 -88.153664
9210437500 -0.87569296 123.42844 -8.9326735 -72.318443 -8.9340124 -72.805786 -0.20765762 -88.139336
9210500000 -0.87542498 123.42609 -8.9347506 -72.414421 -8.9299078 -72.807144 -0.20829809 -88.136124
9210562500 -0.87950027 123.4818 -8.937623 -72.334229 -8.9352055 -72.813362 -0.20721062 -88.146294
9210625000 -0.87752569 123.41376 -8.9435396 -72.320625 -8.9290857 -72.814766 -0.20706384 -88.134575
9210687500 -0.87704402 123.35972 -8.944521 -72.363892 -8.9276848 -72.804291 -0.20993729 -88.104477
9210750000 -0.87576717 123.33841 -8.9281712 -72.359512 -8.9317751 -72.880287 -0.20756391 -88.117737
9210812500 -0.87829387 123.34923 -8.9363737 -72.321846 -8.9239492 -72.898872 -0.20655195 -88.081818
9210875000 -0.87433046 123.34875 -8.9361038 -72.307419 -8.9242277 -72.84906 -0.20906235 -88.05677
9210937500 -0.87687558 123.29478 -8.9405127 -72.345505 -8.930069 -72.86203 -0.2096336 -88.034142
9211000000 -0.88183987 123.26466 -8.932807 -72.310715 -8.9199467 -72.856621 -0.20925808 -87.994606
9211062500 -0.88320386 123.25786 -8.9254808 -72.339958 -8.9284258 -72.878456 -0.20997597 -88.023384
9211125000 -0.88794744 123.26736 -8.9338923 -72.385605 -8.919589 -72.932228 -0.20567541 -88.057999
9211187500 -0.88490713 123.28181 -8.9342375 -72.387886 -8.9296722 -72.928543 -0.20998707 -88.051773
9211250000 -0.88883728 123.28436 -8.9332743 -72.419289 -8.9289703 -72.892487 -0.2074104 -88.034668
9211312500 -0.88769835 123.2679 -8.9275694 -72.41114 -8.9358778 -72.896194 -0.20812342 -88.042625
9211375000 -0.8887502 123.2715 -8.9326191 -72.34816 -8.9200315 -72.861252 -0.20017615 -87.890823
9211437500 -0.89160639 123.25408 -8.931941 -72.400665 -8.9156923 -72.915466 -0.19503759 -87.927528
9211500000 -0.883977 123.20954 -8.9205942 -72.421951 -8.9246845 -72.852577 -0.20553273 -87.909889
9211562500 -0.88032746 123.18961 -8.9165134 -72.406197 -8.9229708 -72.832794 -0.20872077 -87.887444
9211625000 -0.88557613 123.20694 -8.9349384 -72.341896 -8.9193106 -72.835106 -0.20813675 -87.864174
9211687500 -0.8853718 123.16166 -8.9312344 -72.367249 -8.9187965 -72.830139 -0.20835854 -87.872169
9211750000 -0.88156497 123.15411 -8.9232311 -72.343987 -8.9219513 -72.849998 -0.2072577 -87.867783
9211812500 -0.88404107 123.15897 -8.9260921 -72.333481 -8.9213581 -72.882744 -0.21131244 -87.813744
9211875000 -0.88479877 123.10031 -8.9161749 -72.339958 -8.9238262 -72.828773 -0.20879266 -87.809319
9211937500 -0.88235414 123.10937 -8.9199266 -72.350471 -8.9216881 -72.828156 -0.2125382 -87.807594
9212000000 -0.88597471 123.04429 -8.9173975 -72.427399 -8.9249296 -72.750114 -0.2128558 -87.736313
9212062500 -0.89152128 123.04719 -8.9203882 -72.394821 -8.9174805 -72.836662 -0.21422175 -87.684555
9212125000 -0.88542479 123.0515 -8.9171982 -72.344894 -8.9205179 -72.795242 -0.21275815 -87.689926
9212187500 -0.88678938 123.04934 -8.92029 -72.372284 -8.9189711 -72.77607 -0.21278155 -87.6334
