!Agilent Technologies,N5242A,MY51221714,A.09.90.19
!Agilent N5242A: A.09.90.19
!Date: Saturday, March 16, 2024 09:05:47
!Correction: S11(Full 2 Port(1,2)) 
!S21(Full 2 Port(1,2)) 
!S12(Full 2 Port(1,2)) 
!S22(Full 2 Port(1,2)) 
!S2P File: Measurements: S11, S21, S12, S22:
# Hz S  dB   R 50
9200000000 -0.88795978 125.67082 -9.0406837 -72.783646 -9.02631 -73.268265 -0.19188362 -91.220543
9200062500 -0.88997555 125.65749 -9.0363922 -72.783829 -9.0191164 -73.32885 -0.18739666 -91.218369
9200125000 -0.88979793 125.6431 -9.0385714 -72.843842 -9.0279732 -73.41198 -0.19252378 -91.22934
9200187500 -0.89382261 125.62796 -9.037282 -72.734383 -9.0290537 -73.300117 -0.19222987 -91.163994
9200250000 -0.88789338 125.63636 -9.0284204 -72.817757 -9.0085306 -73.311028 -0.1789827 -91.166801
9200312500 -0.88767433 125.63987 -9.0252161 -72.76371 -9.0218029 -73.337936 -0.18673941 -91.160736
9200375000 -0.8849951 125.61376 -9.0233841 -72.775902 -9.016984 -73.28775 -0.18263251 -91.107567
9200437500 -0.8796128 125.57292 -9.0284014 -72.843513 -9.0152407 -73.330162 -0.19261913 -91.121407
9200500000 -0.88359231 125.58817 -9.0247173 -72.775757 -9.0136433 -73.343636 -0.18966705 -91.133278
9200562500 -0.88768756 125.53593 -9.026412 -72.790123 -9.0089359 -73.330856 -0.19251338 -91.076576
9200625000 -0.88869667 125.54044 -9.022541 -72.768127 -9.0080624 -73.321045 -0.19111782 -91.049904
9200687500 -0.88712972 125.52445 -9.0328417 -72.751663 -9.0090065 -73.332962 -0.19535118 -91.037888
9200750000 -0.88219064 125.51443 -9.0224676 -72.724129 -9.0094633 -73.311859 -0.19365528 -91.002113
9200812500 -0.88511348 125.49447 -9.0234089 -72.730469 -9.0074434 -73.311852 -0.19696379 -90.93869
9200875000 -0.88400644 125.48686 -9.0256615 -72.724701 -9.0128403 -73.319305 -0.20255207 -90.934578
9200937500 -0.88347983 125.49451 -9.0188131 -72.686562 -9.0031681 -73.300056 -0.19945838 -90.900124
9201000000 -0.88689101 125.44427 -9.0214481 -72.747993 -9.0021591 -73.266075 -0.19267257 -90.897446
9201062500 -0.88985479 125.41721 -9.0289879 -72.74308 -9.0112314 -73.302284 -0.20102645 -90.870628
9201125000 -0.88178498 125.44924 -9.01583 -72.72007 -9.0088644 -73.294502 -0.19504772 -90.85006
9201187500 -0.88498372 125.41905 -9.0149202 -72.744698 -9.006094 -73.307899 -0.19503397 -90.833412
9201250000 -0.88336402 125.37027 -9.0120955 -72.81205 -9.0151348 -73.20565 -0.1960905 -90.824936
9201312500 -0.88137823 125.42925 -9.0140772 -72.712982 -9.0135736 -73.274872 -0.1939234 -90.809639
9201375000 -0.88849473 125.38973 -9.0230522 -72.724724 -9.0044794 -73.29406 -0.1945772 -90.837868
9201437500 -0.88436574 125.36169 -9.0086164 -72.751106 -9.0019436 -73.248268 -0.19005269 -90.830925
9201500000 -0.89532614 125.37616 -9.0241318 -72.726074 -9.0042229 -73.249283 -0.19607078 -90.786247
9201562500 -0.88704884 125.3973 -9.0280247 -72.68557 -9.0028038 -73.309067 -0.18823846 -90.802635
9201625000 -0.89056641 125.37162 -9.0252628 -72.65274 -9.0088387 -73.272552 -0.18933345 -90.761627
9201687500 -0.8885147 125.33227 -9.0226107 -72.709549 -9.0012455 -73.273384 -0.19522534 -90.746674
9201750000 -0.89077252 125.33183 -9.023057 -72.660095 -9.0015392 -73.281082 -0.1913836 -90.736038
9201812500 -0.88174522 125.2946 -9.0086174 -72.698166 -9.0072556 -73.23793 -0.19347192 -90.706642
9201875000 -0.88180429 125.27045 -9.0094156 -72.731987 -9.0095959 -73.250237 -0.20214668 -90.659065
9201937500 -0.88350552 125.23282 -9.0077562 -72.768921 -8.9895601 -73.228592 -0.19361094 -90.640213
9202000000 -0.87993342 125.24783 -9.011405 -72.704956 -9.000061 -73.196396 -0.1958973 -90.592476
9202062500 -0.8857922 125.19231 -9.0130997 -72.713997 -9.0013885 -73.186813 -0.19415487 -90.602737
9202125000 -0.88366973 125.17225 -9.0083132 -72.706619 -8.9979153 -73.286026 -0.20256056 -90.642151
9202187500 -0.88450515 125.18427 -9.0008583 -72.72805 -8.9999704 -73.226921 -0.19659516 -90.588135
9202250000 -0.88619357 125.18025 -9.0019064 -72.723068 -8.9890099 -73.250305 -0.18754236 -90.579086
9202312500 -0.88855743 125.15879 -8.9985571 -72.704735 -8.9983902 -73.273781 -0.18742932 -90.565353
9202375000 -0.88691521 125.19733 -9.0038128 -72.699112 -8.9986715 -73.281998 -0.20155513 -90.563141
9202437500 -0.88751918 125.13091 -8.9993868 -72.760277 -9.0076284 -73.272064 -0.20068137 -90.508583
9202500000 -0.88951963 125.16363 -8.9996958 -72.692436 -9.0021896 -73.238785 -0.19794112 -90.490814
9202562500 -0.89140928 125.14635 -9.0102825 -72.702942 -8.9956417 -73.234161 -0.20220497 -90.469971
9202625000 -0.88959914 125.12012 -9.0092726 -72.644508 -9.0026693 -73.227554 -0.19763768 -90.489548
9202687500 -0.8874073 125.10235 -9.0132732 -72.641022 -9.0066128 -73.235229 -0.20458426 -90.42086
9202750000 -0.88909912 125.1197 -9.0050364 -72.647758 -8.9968338 -73.196297 -0.20854704 -90.44709
9202812500 -0.89234746 125.09975 -9.0015459 -72.696373 -8.99786 -73.278748 -0.20721333 -90.414589
9202875000 -0.89364594 125.05049 -9.0125008 -72.709549 -8.9994545 -73.231834 -0.20592092 -90.360634
9202937500 -0.88409287 125.0691 -9.0050335 -72.650497 -8.9899635 -73.231445 -0.19798948 -90.382484
9203000000 -0.88429415 124.98505 -8.9979095 -72.747223 -8.9895926 -73.230164 -0.19909924 -90.36422
9203062500 -0.88312888 125.03254 -8.9972839 -72.666763 -8.9872818 -73.229385 -0.19678856 -90.366699
9203125000 -0.88334167 124.97816 -8.9960499 -72.699539 -8.9934006 -73.259369 -0.19931653 -90.347229
9203187500 -0.88638407 124.98719 -9.0031948 -72.718697 -9.0009546 -73.231865 -0.20466337 -90.302803
9203250000 -0.88592255 125.02074 -9.0040255 -72.684006 -8.997716 -73.208923 -0.20076196 -90.298683
9203312500 -0.8875972 124.96085 -8.9967012 -72.704948 -8.9931011 -73.231995 -0.20216364 -90.251099
9203375000 -0.89185458 124.94506 -8.9979162 -72.721321 -8.9866219 -73.205132 -0.20027985 -90.219864
9203437500 -0.88734287 124.90948 -8.9955854 -72.768898 -8.9839497 -73.222992 -0.19487204 -90.196274
9203500000 -0.88601565 124.92799 -9.0022306 -72.705528 -8.9933338 -73.292618 -0.20036203 -90.246407
9203562500 -0.88580644 124.89662 -9.0007887 -72.722534 -8.9852448 -73.20549 -0.20674159 -90.176323
9203625000 -0.88638866 124.88568 -8.9963675 -72.708336 -8.9894705 -73.221703 -0.20597267 -90.174408
9203687500 -0.88874686 124.86783 -8.9853086 -72.706009 -8.9935951 -73.252014 -0.20576197 -90.161827
9203750000 -0.88642704 124.8599 -8.9894314 -72.692673 -8.9836264 -73.280937 -0.20878661 -90.153641
9203812500 -0.88989556 124.83489 -8.9990721 -72.687973 -8.9894514 -73.24379 -0.21155964 -90.148094
9203875000 -0.88970721 124.82507 -8.9966888 -72.658615 -8.9838552 -73.209892 -0.20359604 -90.120949
9203937500 -0.88630545 124.79465 -8.9963427 -72.722488 -8.976675 -73.254684 -0.20756002 -90.141579
9204000000 -0.88138741 124.76221 -8.9820023 -72.696793 -8.9835424 -73.209106 -0.21506183 -90.021507
9204062500 -0.87762195 124.80968 -8.9911385 -72.686165 -8.9815006 -73.165985 -0.2124155 -89.976234
9204125000 -0.88114482 124.77547 -8.9949627 -72.720161 -8.9814224 -73.220505 -0.21668011 -90.069672
9204187500 -0.88166261 124.80939 -9.0000105 -72.675461 -8.9723434 -73.209915 -0.21191463 -90.054932
9204250000 -0.88167274 124.77315 -8.9940987 -72.68187 -8.9685135 -73.166702 -0.21154515 -89.998444
9204312500 -0.88411397 124.74369 -8.9949551 -72.654343 -8.9748278 -73.222305 -0.21571945 -89.995247
9204375000 -0.8738746 124.70415 -8.9920855 -72.656082 -8.9706421 -73.206062 -0.2079937 -89.993362
9204437500 -0.88171077 124.68459 -8.9843941 -72.667717 -8.9691525 -73.273895 -0.2018546 -89.962036
9204500000 -0.87965453 124.65688 -8.9842072 -72.603439 -8.9679976 -73.18869 -0.20326422 -89.944786
9204562500 -0.87770814 124.66142 -8.9854717 -72.61097 -8.9731178 -73.183403 -0.19730957 -89.874855
9204625000 -0.88314891 124.65573 -8.9852057 -72.652931 -8.9739408 -73.199577 -0.20570077 -89.887085
9204687500 -0.87990791 124.64719 -8.9877253 -72.587318 -8.9689417 -73.131065 -0.20049435 -89.845184
9204750000 -0.88093889 124.65523 -8.9834175 -72.648277 -8.9815912 -73.197433 -0.21015191 -89.856178
9204812500 -0.88656318 124.64628 -8.9946222 -72.656616 -8.9770565 -73.153748 -0.20629641 -89.856689
9204875000 -0.88227463 124.63487 -8.9764824 -72.619461 -8.9764938 -73.164772 -0.208177 -89.834358
9204937500 -0.88345098 124.63967 -8.9854746 -72.62693 -8.9672432 -73.226067 -0.20911363 -89.845886
9205000000 -0.88252866 124.61276 -8.9833403 -72.613113 -8.9719677 -73.160812 -0.20534785 -89.844231
9205062500 -0.88602006 124.58735 -8.98244 -72.618019 -8.9769564 -73.154984 -0.2107884 -89.760056
9205125000 -0.884583 124.5501 -8.9797258 -72.59787 -8.9666328 -73.21524 -0.20105062 -89.751709
9205187500 -0.88676041 124.55734 -8.9747753 -72.593117 -8.9692316 -73.226646 -0.20347886 -89.79332
9205250000 -0.89235812 124.49384 -8.9779186 -72.628006 -8.9721813 -73.212906 -0.20760593 -89.740173
9205312500 -0.88799125 124.52483 -8.9747 -72.568993 -8.9696941 -73.168365 -0.20574509 -89.709068
9205375000 -0.88812977 124.47572 -8.9764309 -72.577728 -8.9771557 -73.207321 -0.21445853 -89.733536
9205437500 -0.89099807 124.45095 -8.9766407 -72.613663 -8.9773827 -73.159752 -0.20143241 -89.679558
9205500000 -0.89010185 124.42921 -8.9769125 -72.665352 -8.9657764 -73.140434 -0.20229067 -89.636604
9205562500 -0.88455892 124.45218 -8.9686232 -72.618225 -8.9809093 -73.164581 -0.20960908 -89.675247
9205625000 -0.88959825 124.43612 -8.9818907 -72.567627 -8.9756165 -73.171173 -0.20628275 -89.626549
9205687500 -0.88223565 124.45046 -8.9698305 -72.610229 -8.9717464 -73.231056 -0.2029869 -89.674248
9205750000 -0.88449228 124.43441 -8.9739723 -72.616287 -8.9691153 -73.072578 -0.20995237 -89.556419
9205812500 -0.88551068 124.41053 -8.967906 -72.640732 -8.9703045 -73.125038 -0.20180239 -89.557381
9205875000 -0.88307697 124.40896 -8.9697943 -72.638 -8.9753733 -73.209717 -0.20642996 -89.607529
9205937500 -0.8803373 124.3946 -8.969676 -72.577827 -8.9743242 -73.104012 -0.21654795 -89.536667
9206000000 -0.88722008 124.38573 -8.9766607 -72.625687 -8.9664946 -73.150604 -0.20596749 -89.501671
9206062500 -0.8813678 124.37621 -8.9653578 -72.571793 -8.9653015 -73.164574 -0.21081705 -89.516273
9206125000 -0.88393176 124.36208 -8.9736767 -72.596741 -8.9638338 -73.173531 -0.21027002 -89.462013
9206187500 -0.88105446 124.36681 -8.9656458 -72.603371 -8.9626217 -73.173035 -0.2085585 -89.483299
9206250000 -0.88082403 124.35687 -8.9649267 -72.61335 -8.9644804 -73.149872 -0.21415432 -89.428497
9206312500 -0.87892061 124.28725 -8.968585 -72.578346 -8.9596577 -73.159142 -0.20705125 -89.455574
9206375000 -0.88350755 124.3404 -8.9607668 -72.584274 -8.9542332 -73.163857 -0.20144874 -89.434105
9206437500 -0.88350159 124.31189 -8.9706211 -72.595291 -8.9587126 -73.204422 -0.20612688 -89.441978
9206500000 -0.877958 124.28561 -8.9633512 -72.555862 -8.9535799 -73.177971 -0.20467584 -89.393089
9206562500 -0.88258636 124.29688 -8.9576035 -72.603249 -8.9599514 -73.155357 -0.20588624 -89.343063
9206625000 -0.88477701 124.26974 -8.9596405 -72.545364 -8.950407 -73.138695 -0.2014522 -89.305565
9206687500 -0.89043921 124.24766 -8.9617224 -72.553574 -8.9539843 -73.137871 -0.20765874 -89.261459
9206750000 -0.88804406 124.20877 -8.9507952 -72.541061 -8.9429207 -73.144104 -0.19713564 -89.271538
9206812500 -0.88933212 124.19447 -8.9450884 -72.569588 -8.9454508 -73.138367 -0.20304099 -89.263283
9206875000 -0.88875067 124.21069 -8.9452562 -72.539948 -8.9366074 -73.174675 -0.19629355 -89.259285
9206937500 -0.88718355 124.17556 -8.9565344 -72.535614 -8.9456062 -73.115318 -0.20222211 -89.227943
9207000000 -0.88282621 124.13647 -8.9427433 -72.539154 -8.9391823 -73.140045 -0.19571324 -89.206375
9207062500 -0.87815863 124.133 -8.9561119 -72.554626 -8.9462233 -73.136604 -0.20992436 -89.233719
9207125000 -0.87868708 124.10637 -8.9557219 -72.541695 -8.9536629 -73.098595 -0.21678689 -89.195534
9207187500 -0.8803665 124.12714 -8.9568377 -72.58876 -8.9561796 -73.124184 -0.21585022 -89.199394
9207250000 -0.87715089 124.04367 -8.9511909 -72.567047 -8.950388 -73.109711 -0.21154369 -89.160454
9207312500 -0.87818128 124.03277 -8.9576225 -72.568222 -8.949048 -73.093765 -0.21478534 -89.15329
9207375000 -0.8787868 123.99562 -8.9575367 -72.609299 -8.9461346 -73.089127 -0.21357059 -89.12603
9207437500 -0.88342696 123.98856 -8.9567242 -72.623779 -8.9535589 -73.118423 -0.21953033 -89.149956
9207500000 -0.88341838 124.0006 -8.9481354 -72.626854 -8.9518223 -73.100052 -0.21839273 -89.110649
9207562500 -0.88384408 123.97642 -8.9557133 -72.595154 -8.9462194 -73.134338 -0.21839631 -89.103401
9207625000 -0.88674366 123.96869 -8.9566908 -72.596741 -8.9422836 -73.142097 -0.21318161 -89.100922
9207687500 -0.88671082 123.9745 -8.9562807 -72.663498 -8.9394665 -73.132248 -0.21023314 -89.08123
9207750000 -0.89115387 123.91869 -8.9533606 -72.629578 -8.9417953 -73.15889 -0.20439376 -89.106071
9207812500 -0.89047706 123.94456 -8.9550953 -72.585106 -8.9383516 -73.128502 -0.2023039 -89.026329
9207875000 -0.89306921 123.94154 -8.9461508 -72.575455 -8.9343567 -73.146935 -0.1976824 -89.028961
9207937500 -0.89385843 123.90742 -8.9512987 -72.564873 -8.9388914 -73.146584 -0.19702141 -88.97757
9208000000 -0.89419484 123.92319 -8.9581108 -72.573959 -8.9442739 -73.101334 -0.20577258 -88.94635
9208062500 -0.88943136 123.92983 -8.9465427 -72.515038 -8.9465876 -73.104523 -0.21309552 -88.922882
9208125000 -0.89305788 123.937 -8.954052 -72.506165 -8.9384108 -73.084969 -0.20940264 -88.878151
9208187500 -0.88930792 123.92169 -8.9480801 -72.570549 -8.9475174 -73.124176 -0.22065973 -88.907669
9208250000 -0.88475364 123.87742 -8.9505663 -72.545265 -8.9503136 -73.112663 -0.2217181 -88.880722
9208312500 -0.88764107 123.85703 -8.9515705 -72.517982 -8.9467335 -73.056808 -0.22155836 -88.830437
9208375000 -0.88009602 123.84263 -8.9478321 -72.551697 -8.9429989 -73.084435 -0.21820988 -88.847755
9208437500 -0.88763261 123.79813 -8.9398928 -72.587395 -8.9463196 -73.03743 -0.21913327 -88.793953
9208500000 -0.88863659 123.80532 -8.9418573 -72.591339 -8.9325562 -73.099358 -0.21481575 -88.817818
9208562500 -0.88009155 123.77845 -8.9309521 -72.551231 -8.9316845 -73.070557 -0.21038334 -88.820595
9208625000 -0.88590068 123.74994 -8.9401836 -72.572601 -8.9281645 -73.098213 -0.20737597 -88.804451
9208687500 -0.88684058 123.74747 -8.9433432 -72.545609 -8.9366522 -73.105179 -0.21458665 -88.765099
9208750000 -0.88527721 123.71213 -8.94137 -72.618088 -8.9329929 -73.025116 -0.21082656 -88.710228
9208812500 -0.88850874 123.71518 -8.9405136 -72.600327 -8.9358683 -73.058769 -0.21261311 -88.742172
9208875000 -0.88853085 123.72336 -8.9399195 -72.596901 -8.9324207 -73.088158 -0.20993195 -88.747902
9208937500 -0.88952404 123.75047 -8.9452333 -72.588699 -8.938694 -73.085655 -0.21346109 -88.759155
9209000000 -0.88499016 123.73072 -8.9357147 -72.553566 -8.9378252 -73.10128 -0.215036 -88.732483
9209062500 -0.88818526 123.75407 -8.9382372 -72.538689 -8.9380312 -73.079094 -0.21811478 -88.703056
9209125000 -0.88763154 123.75925 -8.944006 -72.546402 -8.9318104 -73.058716 -0.21786948 -88.682648
9209187500 -0.88668448 123.69247 -8.9398279 -72.523903 -8.9434948 -73.032616 -0.22143574 -88.653503
9209250000 -0.88394964 123.74414 -8.9349375 -72.477104 -8.9289265 -73.059387 -0.21173322 -88.620064
9209312500 -0.88334882 123.69071 -8.9355173 -72.555367 -8.9303093 -73.094322 -0.21422023 -88.648415
9209375000 -0.88636643 123.65919 -8.9360485 -72.541405 -8.9394608 -73.010315 -0.21702349 -88.568741
9209437500 -0.88198036 123.62971 -8.9254742 -72.532982 -8.9304371 -73.022858 -0.21575665 -88.562302
9209500000 -0.8869254 123.59849 -8.9238539 -72.550499 -8.9369545 -73.068489 -0.21583582 -88.547325
9209562500 -0.88322282 123.60395 -8.9165096 -72.530952 -8.9322128 -73.054451 -0.21653393 -88.496803
9209625000 -0.88597918 123.62415 -8.9282808 -72.464279 -8.9291019 -73.020012 -0.21637863 -88.498611
9209687500 -0.88428688 123.57564 -8.9316607 -72.521332 -8.9299173 -73.067322 -0.21353637 -88.49369
9209750000 -0.88682491 123.55188 -8.9317865 -72.566246 -8.9307728 -73.036934 -0.21471114 -88.464424
9209812500 -0.89150769 123.54714 -8.9245663 -72.558746 -8.9194965 -73.056221 -0.20731714 -88.452324
9209875000 -0.88788128 123.50161 -8.9285326 -72.578308 -8.9265118 -73.066093 -0.21692996 -88.444443
9209937500 -0.88925683 123.52233 -8.9205732 -72.55146 -8.9133081 -73.07193 -0.20958233 -88.405998
9210000000 -0.88956088 123.50498 -8.9291544 -72.577705 -8.9293346 -73.040955 -0.21491268 -88.427711
9210062500 -0.88594258 123.4975 -8.9256163 -72.550041 -8.9134474 -73.025246 -0.20035212 -88.360283
9210125000 -0.89060771 123.47477 -8.9234934 -72.54776 -8.9226818 -72.998222 -0.20572434 -88.37191
9210187500 -0.87844801 123.49928 -8.9201984 -72.513359 -8.9246368 -72.967773 -0.21042681 -88.33194
9210250000 -0.88388771 123.45747 -8.9210968 -72.506416 -8.9203587 -72.973045 -0.21205388 -88.300377
9210312500 -0.8821817 123.4438 -8.9282885 -72.45816 -8.9205074 -72.977386 -0.21095748 -88.286285
9210375000 -0.88661176 123.42575 -8.9292192 -72.521797 -8.922986 -72.969627 -0.21772788 -88.292259
9210437500 -0.8834908 123.4399 -8.9301376 -72.52681 -8.9221268 -73.060837 -0.22148062 -88.273956
9210500000 -0.87964088 123.39089 -8.9284782 -72.546715 -8.9206638 -73.007835 -0.2187894 -88.276421
9210562500 -0.88284332 123.38211 -8.9268637 -72.532768 -8.9183254 -72.933411 -0.21441528 -88.218506
9210625000 -0.88527942 123.35677 -8.9300795 -72.425819 -8.9148445 -72.986847 -0.21607788 -88.216843
9210687500 -0.88797587 123.35755 -8.9305334 -72.482544 -8.9119492 -72.972588 -0.21952991 -88.19342
9210750000 -0.8767001 123.34786 -8.9194736 -72.422279 -8.9168882 -73.023033 -0.22321266 -88.232513
9210812500 -0.88282275 123.26861 -8.9222803 -72.509224 -8.9164858 -72.974823 -0.22240917 -88.183784
9210875000 -0.87730032 123.27202 -8.9183264 -72.438972 -8.9228926 -73.040962 -0.22890319 -88.164597
9210937500 -0.8831389 123.28784 -8.922843 -72.44352 -8.9136305 -73.015785 -0.22363473 -88.122253
9211000000 -0.88425559 123.24803 -8.9125586 -72.458305 -8.9222183 -73.007095 -0.22532053 -88.13755
9211062500 -0.8909933 123.24936 -8.9285698 -72.464142 -8.9231577 -72.999207 -0.22992316 -88.110298
9211125000 -0.89182109 123.25372 -8.9246864 -72.494362 -8.9171448 -73.014061 -0.22426444 -88.100952
9211187500 -0.88611805 123.2157 -8.9178381 -72.520805 -8.9148178 -73.020432 -0.22377943 -88.136772
9211250000 -0.89363146 123.23103 -8.9145098 -72.51696 -8.910718 -72.984962 -0.2137194 -88.128265
9211312500 -0.89409286 123.2351 -8.9184666 -72.52742 -8.9098692 -73.048813 -0.21412688 -88.121689
9211375000 -0.89453924 123.21496 -8.9239464 -72.536186 -8.9114037 -73.073799 -0.21952648 -88.042358
9211437500 -0.88719749 123.2309 -8.9218578 -72.505852 -8.9070139 -73.030693 -0.20927574 -88.033806
9211500000 -0.88916755 123.20602 -8.910881 -72.493217 -8.9086924 -73.019424 -0.21585906 -87.99173
9211562500 -0.89460057 123.16442 -8.9161777 -72.503937 -8.9042645 -73.003479 -0.21794686 -88.008263
9211625000 -0.8901332 123.17898 -8.9101629 -72.47261 -8.9013948 -73.0019 -0.21177082 -87.957283
9211687500 -0.88911015 123.12289 -8.9187765 -72.494553 -8.9067211 -72.967812 -0.22552338 -87.969803
9211750000 -0.88814712 123.11487 -8.9090281 -72.502197 -8.9100132 -72.997269 -0.22573856 -87.922348
9211812500 -0.89290881 123.0771 -8.9194918 -72.460518 -8.9012346 -72.948944 -0.2294274 -87.915619
9211875000 -0.88951671 123.06107 -8.9040146 -72.461876 -8.9104118 -72.927879 -0.22647867 -87.865303
9211937500 -0.89314413 123.06042 -8.8965721 -72.47731 -8.9068575 -73.019608 -0.22381228 -87.874352
9212000000 -0.89522904 123.02065 -8.9077864 -72.575882 -8.9104643 -72.96817 -0.22166339 -87.820457
9212062500 -0.89595884 122.98666 -8.9097595 -72.517525 -8.9029655 -72.891541 -0.23077688 -87.746925
9212125000 -0.89593452 123.02203 -8.9048281 -72.530891 -8.9018068 -72.976425 -0.21719131 -87.763794
9212187500 -0.89255446 122.96181 -8.9043112 -72.506157 -8.9014893 -72.980835 -0.22775842 -87.752998
