!Agilent Technologies,N5242A,MY51221714,A.09.90.19
!Agilent N5242A: A.09.90.19
!Date: Saturday, March 16, 2024 09:06:45
!Correction: S11(Full 2 Port(1,2)) 
!S21(Full 2 Port(1,2)) 
!S12(Full 2 Port(1,2)) 
!S22(Full 2 Port(1,2)) 
!S2P File: Measurements: S11, S21, S12, S22:
# Hz S  dB   R 50
9200000000 -0.88342017 125.73549 -9.0360012 -72.591515 -9.0274181 -73.16275 -0.17695847 -91.159737
9200062500 -0.8835566 125.70191 -9.0375805 -72.660988 -9.0273123 -73.193275 -0.17166235 -91.157219
9200125000 -0.8887248 125.71696 -9.0353937 -72.627426 -9.0300512 -73.144295 -0.17197479 -91.112091
9200187500 -0.87667882 125.7207 -9.0290689 -72.656586 -9.0247526 -73.172432 -0.16952743 -91.120018
9200250000 -0.88246959 125.70365 -9.0360527 -72.551468 -9.0153952 -73.144661 -0.1666939 -91.078125
9200312500 -0.8834877 125.64735 -9.0381565 -72.660248 -9.0247993 -73.15403 -0.17278729 -91.081841
9200375000 -0.87469059 125.67863 -9.0258932 -72.580109 -9.018611 -73.124084 -0.17318012 -91.029327
9200437500 -0.87922013 125.65477 -9.0304289 -72.629326 -9.009902 -73.17057 -0.16270673 -91.041893
9200500000 -0.87722349 125.63009 -9.0210571 -72.61412 -9.0201082 -73.146393 -0.17589346 -91.031876
9200562500 -0.87820607 125.637 -9.025836 -72.585419 -9.0201855 -73.178078 -0.17380469 -91.039299
9200625000 -0.87736344 125.59359 -9.0216455 -72.631203 -9.0110931 -73.15918 -0.17466305 -91.014648
9200687500 -0.87970918 125.57915 -9.0279655 -72.57328 -9.0148382 -73.116264 -0.17456469 -90.944786
9200750000 -0.87818623 125.58908 -9.0393419 -72.552773 -9.0190954 -73.121521 -0.18428753 -90.932938
9200812500 -0.87725925 125.56989 -9.0285311 -72.533646 -9.0109396 -73.074097 -0.18223199 -90.874557
9200875000 -0.87566048 125.58744 -9.023963 -72.498688 -9.0102463 -73.171349 -0.18083203 -90.892166
9200937500 -0.87626022 125.51478 -9.034338 -72.553276 -9.0155315 -73.070511 -0.1863485 -90.775604
9201000000 -0.87618303 125.52734 -9.0233774 -72.524025 -9.0117102 -73.082176 -0.1791499 -90.805099
9201062500 -0.87801546 125.46203 -9.0180683 -72.628349 -9.011116 -73.106926 -0.17606688 -90.801598
9201125000 -0.87620699 125.48557 -9.0220146 -72.574425 -9.0140009 -73.095764 -0.18614179 -90.769592
9201187500 -0.87260234 125.49176 -9.0087805 -72.549934 -9.02104 -73.129318 -0.18342802 -90.751457
9201250000 -0.8794167 125.47468 -9.0248156 -72.489388 -9.015852 -73.055161 -0.1810648 -90.743568
9201312500 -0.87610054 125.46947 -9.0281382 -72.547356 -9.0165329 -73.108238 -0.18295802 -90.765106
9201375000 -0.87835014 125.42837 -9.0272551 -72.522217 -9.0240192 -73.13089 -0.18546014 -90.777
9201437500 -0.87854779 125.44406 -9.031024 -72.537788 -9.0142698 -73.115089 -0.17997941 -90.760086
9201500000 -0.880885 125.4096 -9.0311136 -72.55294 -9.0106964 -73.095383 -0.17671703 -90.716507
9201562500 -0.87932485 125.4345 -9.0242834 -72.535782 -9.0043154 -73.099266 -0.1777315 -90.753258
9201625000 -0.88638908 125.41408 -9.0221395 -72.518707 -9.0066223 -73.104507 -0.17434096 -90.742851
9201687500 -0.87835062 125.3772 -9.029582 -72.51165 -9.0073586 -73.101723 -0.17780736 -90.684769
9201750000 -0.88430053 125.35654 -9.0226641 -72.558594 -9.0067511 -73.072319 -0.18492605 -90.664322
9201812500 -0.87602252 125.32541 -9.0188713 -72.565063 -9.0073709 -73.049026 -0.17792462 -90.615051
9201875000 -0.87346202 125.29543 -9.0088739 -72.567696 -9.007741 -73.041077 -0.18299496 -90.588921
9201937500 -0.87392807 125.28924 -9.0167093 -72.543777 -9.0081224 -73.034431 -0.18136379 -90.562592
9202000000 -0.87633163 125.24085 -9.0163164 -72.586555 -8.9978714 -73.067863 -0.1836516 -90.587303
9202062500 -0.87771875 125.24901 -9.0132399 -72.584785 -8.9972048 -73.068405 -0.17397176 -90.514908
9202125000 -0.87686431 125.26395 -9.0066147 -72.518875 -9.0069885 -73.07283 -0.18137142 -90.510277
9202187500 -0.88231999 125.22812 -9.0124683 -72.573792 -9.0013885 -73.096802 -0.17527306 -90.528526
9202250000 -0.88051033 125.20304 -9.0072584 -72.599213 -9.0073061 -73.096046 -0.18171686 -90.503426
9202312500 -0.88030607 125.22541 -8.9980125 -72.595268 -9.0051603 -73.138535 -0.17957585 -90.505081
9202375000 -0.87997127 125.2389 -8.9916401 -72.562172 -9.0065861 -73.127464 -0.18433443 -90.492851
9202437500 -0.88262868 125.20405 -9.0073481 -72.526108 -9.0009966 -73.086853 -0.18234205 -90.460518
9202500000 -0.88104016 125.19147 -9.0054941 -72.568459 -9.0066643 -73.122993 -0.18368649 -90.450577
9202562500 -0.87888461 125.18115 -9.0105839 -72.548584 -9.0037222 -73.089485 -0.18703504 -90.38652
9202625000 -0.88053399 125.14053 -9.0110979 -72.5793 -8.9979639 -73.064827 -0.18826275 -90.383072
9202687500 -0.8810069 125.15557 -9.0090618 -72.474037 -9.0067091 -73.018753 -0.18912283 -90.3396
9202750000 -0.88612252 125.13273 -9.0226154 -72.527214 -8.9839525 -73.110023 -0.18038183 -90.357948
9202812500 -0.88387281 125.12799 -9.016633 -72.492798 -8.9966097 -73.070259 -0.18985027 -90.339752
9202875000 -0.88025749 125.12924 -9.0000582 -72.497849 -8.9940987 -73.059387 -0.18439022 -90.30201
9202937500 -0.87918705 125.10871 -9.0068178 -72.518768 -8.9916945 -73.088226 -0.18434621 -90.289291
9203000000 -0.88035142 125.05697 -9.0095196 -72.557831 -8.9935331 -73.074532 -0.18884063 -90.273247
9203062500 -0.87785035 125.04239 -9.0068331 -72.553795 -8.9933357 -73.034325 -0.18793403 -90.239357
9203125000 -0.87939721 125.01745 -9.0051479 -72.562775 -8.994978 -73.060768 -0.18381302 -90.239632
9203187500 -0.88155723 125.04382 -9.0054417 -72.558113 -8.9942598 -73.072105 -0.18467575 -90.22641
9203250000 -0.88064182 125.02059 -9.0023718 -72.501526 -8.9931822 -73.081528 -0.18625449 -90.213722
9203312500 -0.8787601 125.00696 -8.9968739 -72.525856 -8.9969654 -73.073128 -0.1852542 -90.188042
9203375000 -0.87431991 124.99622 -8.9986629 -72.578903 -8.9902229 -73.085175 -0.18483737 -90.197556
9203437500 -0.88246679 125.00835 -9.0024061 -72.544235 -8.9900684 -73.105362 -0.18269263 -90.170311
9203500000 -0.87235361 124.9584 -8.998847 -72.523048 -8.9967079 -73.067314 -0.18851537 -90.10479
9203562500 -0.88076323 124.94987 -8.9961977 -72.530281 -8.9921131 -73.098839 -0.18927227 -90.145462
9203625000 -0.88166606 124.95721 -9.0013819 -72.550308 -8.9867764 -73.083717 -0.19347051 -90.104958
9203687500 -0.87340099 124.92918 -8.9978285 -72.506523 -8.9930754 -73.027031 -0.19357145 -90.048317
9203750000 -0.8784672 124.90912 -8.9988966 -72.494446 -8.9919348 -73.008163 -0.19133329 -90.041077
9203812500 -0.88286793 124.91233 -8.9980555 -72.493675 -8.9911385 -73.03791 -0.19760635 -90.033287
9203875000 -0.87852913 124.84519 -8.9985085 -72.552467 -8.9880629 -73.056015 -0.1949569 -90.048897
9203937500 -0.88226765 124.87543 -9.0029173 -72.512032 -8.9875422 -73.02739 -0.19585685 -90.01133
9204000000 -0.87383187 124.85091 -8.9928865 -72.495712 -8.9899063 -73.015495 -0.19578542 -89.970024
9204062500 -0.87916595 124.85097 -9.008708 -72.522141 -8.9844513 -73.012566 -0.2071169 -89.983147
9204125000 -0.87357908 124.86199 -9.0017862 -72.484344 -8.9842062 -72.999786 -0.20449288 -89.938446
9204187500 -0.87365174 124.84104 -8.9949284 -72.539261 -8.9835253 -73.044571 -0.20144972 -89.948212
9204250000 -0.87971616 124.82967 -9.0008011 -72.403053 -8.9873619 -72.996025 -0.20216773 -89.906792
9204312500 -0.87319046 124.79858 -8.9921484 -72.479721 -8.9810429 -72.995911 -0.19579011 -89.914276
9204375000 -0.87301093 124.79224 -8.9888754 -72.44014 -8.9817247 -73.00602 -0.19609438 -89.883743
9204437500 -0.87112129 124.75594 -8.9883947 -72.448456 -8.9749889 -73.046066 -0.19134761 -89.848793
9204500000 -0.87330937 124.76143 -8.9983196 -72.437927 -8.9685373 -73.001038 -0.18673544 -89.798035
9204562500 -0.87039882 124.68312 -8.9809628 -72.53936 -8.9819193 -73.083313 -0.19080086 -89.823082
9204625000 -0.86965096 124.69527 -8.9895296 -72.470253 -8.9881868 -73.019463 -0.18633147 -89.796349
9204687500 -0.8744151 124.6727 -8.9947147 -72.43811 -8.9728432 -73.008873 -0.18456393 -89.788712
9204750000 -0.87252808 124.68136 -8.9814968 -72.469757 -8.9777145 -72.927818 -0.1913259 -89.72345
9204812500 -0.879053 124.72074 -8.9915209 -72.414429 -8.9790993 -72.984413 -0.18340383 -89.721909
9204875000 -0.87800634 124.67657 -8.9880342 -72.496773 -8.9828863 -73.017471 -0.19240189 -89.770828
9204937500 -0.87663954 124.6945 -8.9905825 -72.453018 -8.985363 -73.016701 -0.19712268 -89.730804
9205000000 -0.88019544 124.65091 -8.9851542 -72.46949 -8.9768972 -72.976288 -0.19051814 -89.716812
9205062500 -0.87863326 124.6714 -8.9930954 -72.513145 -8.974823 -72.993782 -0.19321702 -89.668678
9205125000 -0.87960404 124.63194 -8.9853888 -72.407097 -8.9708309 -73.059372 -0.190752 -89.686569
9205187500 -0.88241214 124.59746 -8.9817524 -72.411537 -8.97789 -73.011612 -0.19274986 -89.661201
9205250000 -0.87998086 124.57599 -8.986165 -72.41687 -8.9732761 -73.058273 -0.18707317 -89.666275
9205312500 -0.87963647 124.52219 -8.9737844 -72.488098 -8.9780722 -73.012291 -0.1896168 -89.654297
9205375000 -0.88281471 124.53011 -8.9846401 -72.409172 -8.9762421 -73.052086 -0.18742782 -89.660561
9205437500 -0.88173544 124.50614 -8.9831295 -72.455223 -8.9754829 -73.000198 -0.18744919 -89.639099
9205500000 -0.88149017 124.49519 -8.9752798 -72.458679 -8.9769888 -72.987373 -0.19214484 -89.602509
9205562500 -0.87913162 124.48027 -8.9785566 -72.466713 -8.9814568 -72.92952 -0.19363631 -89.540642
9205625000 -0.88130087 124.46035 -8.9759865 -72.495644 -8.9807854 -73.004974 -0.19321536 -89.549805
9205687500 -0.87909561 124.46419 -8.9798603 -72.418182 -8.9796057 -72.965126 -0.19171493 -89.478355
9205750000 -0.88102198 124.44448 -8.988307 -72.490891 -8.9805117 -72.981148 -0.19454843 -89.529785
9205812500 -0.8730219 124.43661 -8.971879 -72.449265 -8.9750185 -72.934143 -0.19403003 -89.453026
9205875000 -0.87938845 124.4425 -8.9759693 -72.454201 -8.976697 -72.986389 -0.19641811 -89.50811
9205937500 -0.88012964 124.42788 -8.986393 -72.491028 -8.975276 -72.944679 -0.19469061 -89.448532
9206000000 -0.87370825 124.44067 -8.969408 -72.453926 -8.9761257 -73.00219 -0.19834425 -89.465469
9206062500 -0.87479484 124.39997 -8.9848814 -72.437569 -8.9682207 -72.933052 -0.19542128 -89.342857
9206125000 -0.87806916 124.41604 -8.9707184 -72.447166 -8.972765 -72.99752 -0.196086 -89.37542
9206187500 -0.87537366 124.39306 -8.9664097 -72.394859 -8.9671669 -72.926132 -0.19093402 -89.362267
9206250000 -0.87479019 124.37967 -8.9775152 -72.433067 -8.9584799 -72.954514 -0.18813148 -89.368546
9206312500 -0.87941474 124.37896 -8.9816151 -72.407097 -8.9560366 -73.029335 -0.19159199 -89.344681
9206375000 -0.8703599 124.40269 -8.9703951 -72.407707 -8.9610786 -73.029762 -0.1888296 -89.344139
9206437500 -0.87313336 124.37087 -8.9615526 -72.398354 -8.9552174 -72.972763 -0.1832764 -89.324547
9206500000 -0.87729812 124.33904 -8.9706926 -72.451721 -8.9531498 -73.02681 -0.18903196 -89.351631
9206562500 -0.88206583 124.35288 -8.9696884 -72.317024 -8.9445467 -72.995171 -0.18796629 -89.27227
9206625000 -0.87755364 124.29234 -8.9612684 -72.386368 -8.9565601 -72.963501 -0.1874247 -89.223961
9206687500 -0.88229471 124.30423 -8.9575682 -72.361 -8.9545259 -72.963638 -0.18101354 -89.227974
9206750000 -0.881827 124.26595 -8.9595499 -72.393684 -8.9412603 -72.943054 -0.17844711 -89.20121
9206812500 -0.87641275 124.27309 -8.9511719 -72.338142 -8.9515123 -72.91497 -0.17889629 -89.169792
9206875000 -0.88480341 124.25655 -8.9583187 -72.328659 -8.9463043 -72.916862 -0.17877483 -89.145882
9206937500 -0.8759039 124.21199 -8.9486647 -72.374893 -8.9584293 -72.995064 -0.18377416 -89.1278
9207000000 -0.87385464 124.1825 -8.9539547 -72.392334 -8.9537849 -72.91864 -0.19459254 -89.109558
9207062500 -0.87557679 124.16307 -8.968504 -72.406044 -8.959857 -72.972168 -0.20106126 -89.114716
9207125000 -0.87081105 124.17419 -8.9576445 -72.448837 -8.9519367 -72.924194 -0.20182514 -89.077583
9207187500 -0.87334543 124.15266 -8.9514084 -72.405136 -8.9552069 -72.958923 -0.19823596 -89.095787
9207250000 -0.87241602 124.13372 -8.9647589 -72.416267 -8.9539795 -72.960869 -0.19692032 -89.091644
9207312500 -0.87486333 124.09753 -8.9566631 -72.442307 -8.9514046 -72.924629 -0.19646873 -89.111549
9207375000 -0.87788808 124.07073 -8.9594316 -72.427231 -8.9491158 -72.938202 -0.19666569 -89.058372
9207437500 -0.87499517 124.06014 -8.961669 -72.464661 -8.9446344 -72.911049 -0.20120794 -89.057892
9207500000 -0.87351668 124.01165 -8.9622536 -72.506676 -8.9512796 -72.900444 -0.19937365 -89.023918
9207562500 -0.87846196 124.01224 -8.9459 -72.465721 -8.9470835 -72.968391 -0.20077111 -89.048096
9207625000 -0.88646126 124.00123 -8.9562511 -72.496483 -8.9415054 -72.933334 -0.19471231 -89.027946
9207687500 -0.88084149 123.98362 -8.9544363 -72.401573 -8.9481478 -73.010361 -0.19734639 -89.001854
9207750000 -0.88357323 123.98035 -8.9565744 -72.486145 -8.9378777 -73.032196 -0.19351558 -89.020744
9207812500 -0.8796069 123.97225 -8.9462137 -72.448273 -8.9453697 -72.951767 -0.19267075 -88.929253
9207875000 -0.87835258 123.98347 -8.951745 -72.419304 -8.9423962 -72.916222 -0.18435289 -88.952332
9207937500 -0.88510478 123.98335 -8.9545984 -72.406586 -8.9401836 -72.970467 -0.18560226 -88.888809
9208000000 -0.88550848 123.96926 -8.959857 -72.397751 -8.9452734 -72.974678 -0.18575267 -88.885277
9208062500 -0.88823354 123.96011 -8.9588614 -72.403397 -8.954917 -72.93383 -0.19718841 -88.844017
9208125000 -0.88860315 123.97321 -8.9533491 -72.427948 -8.9440536 -72.988182 -0.19894433 -88.866318
9208187500 -0.88368934 123.92742 -8.9569407 -72.396927 -8.9483795 -72.927452 -0.19958705 -88.813675
9208250000 -0.88402134 123.97243 -8.9551735 -72.338028 -8.9469728 -72.958847 -0.20045225 -88.808594
9208312500 -0.88100958 123.92886 -8.9501963 -72.396866 -8.9433784 -72.959488 -0.20470712 -88.808807
9208375000 -0.87878805 123.87656 -8.9547586 -72.455711 -8.9494076 -72.940445 -0.20748806 -88.765747
9208437500 -0.8849296 123.89932 -8.957716 -72.389862 -8.9490938 -72.870758 -0.20827758 -88.720856
9208500000 -0.87869805 123.85633 -8.9553652 -72.378571 -8.9394341 -72.943184 -0.19671467 -88.750107
9208562500 -0.87852883 123.80677 -8.943244 -72.398445 -8.929615 -72.885345 -0.19909494 -88.702621
9208625000 -0.87675893 123.81586 -8.9455776 -72.442352 -8.9307299 -72.926964 -0.19262727 -88.729912
9208687500 -0.87175846 123.77342 -8.9384069 -72.383438 -8.9396296 -72.934853 -0.19495228 -88.701195
9208750000 -0.87811643 123.78187 -8.9448442 -72.422699 -8.9357519 -72.874107 -0.19572444 -88.678123
9208812500 -0.8783834 123.78344 -8.9384327 -72.380341 -8.9338789 -72.96225 -0.19217016 -88.686035
9208875000 -0.88000983 123.75128 -8.9369659 -72.380104 -8.933589 -72.918777 -0.19495115 -88.622215
9208937500 -0.88310665 123.79721 -8.9418259 -72.376854 -8.9362764 -72.857483 -0.20100282 -88.619225
9209000000 -0.87858784 123.80229 -8.9387846 -72.364616 -8.9392271 -72.916191 -0.195931 -88.656189
9209062500 -0.87990135 123.80647 -8.9411592 -72.426758 -8.941864 -72.914322 -0.19601218 -88.606506
9209125000 -0.88060749 123.78996 -8.9453754 -72.389252 -8.9352551 -72.908424 -0.20140758 -88.619614
9209187500 -0.87940055 123.7776 -8.9322062 -72.281532 -8.938262 -72.863731 -0.19180521 -88.504677
9209250000 -0.87882203 123.74586 -8.9415121 -72.347801 -8.9431944 -72.935493 -0.2082428 -88.550224
9209312500 -0.87503403 123.73948 -8.9301033 -72.360649 -8.9404325 -72.936485 -0.20229654 -88.564301
9209375000 -0.87731284 123.72071 -8.942049 -72.355759 -8.9335718 -72.882935 -0.19792964 -88.507126
9209437500 -0.88060164 123.70078 -8.9395514 -72.371941 -8.9392958 -72.900658 -0.20214908 -88.474846
9209500000 -0.87645948 123.66816 -8.9332314 -72.336182 -8.9375124 -72.866051 -0.19899528 -88.452095
9209562500 -0.88027877 123.63779 -8.9346209 -72.370941 -8.9385166 -72.841293 -0.20225275 -88.419952
9209625000 -0.87676734 123.64488 -8.9274235 -72.383736 -8.9295273 -72.89769 -0.19489551 -88.481918
9209687500 -0.88312566 123.65925 -8.9333382 -72.386589 -8.9314404 -72.911919 -0.19888474 -88.426613
9209750000 -0.87995857 123.59042 -8.9286509 -72.353462 -8.9357138 -72.83873 -0.19731146 -88.399963
9209812500 -0.88102454 123.60975 -8.9259329 -72.403206 -8.9290895 -72.903259 -0.19375476 -88.37571
9209875000 -0.87521356 123.57279 -8.922801 -72.439423 -8.9255667 -72.827095 -0.18946424 -88.311203
9209937500 -0.87920433 123.54989 -8.9308996 -72.400223 -8.9219484 -72.829575 -0.1937682 -88.315994
9210000000 -0.88241071 123.54762 -8.9434814 -72.418922 -8.9269705 -72.880714 -0.19297871 -88.357048
9210062500 -0.88030392 123.5733 -8.9230652 -72.368683 -8.9170647 -72.855095 -0.1902433 -88.257179
9210125000 -0.87401944 123.55309 -8.9204206 -72.32798 -8.9286976 -72.802063 -0.19396141 -88.253891
9210187500 -0.87233746 123.50876 -8.9285126 -72.381653 -8.9248648 -72.827232 -0.19801874 -88.274368
9210250000 -0.87406224 123.52326 -8.918396 -72.34726 -8.9185629 -72.864975 -0.19081739 -88.215248
9210312500 -0.88220769 123.49366 -8.9276924 -72.321899 -8.9217129 -72.816956 -0.1970913 -88.182907
9210375000 -0.87891048 123.52064 -8.9385929 -72.292 -8.9255085 -72.864914 -0.207967 -88.215904
9210437500 -0.88163513 123.49504 -8.9372501 -72.342903 -8.9326096 -72.803055 -0.20380959 -88.173592
9210500000 -0.87689066 123.43317 -8.9322348 -72.366447 -8.9165525 -72.815178 -0.20229976 -88.171997
9210562500 -0.87284976 123.42738 -8.9280987 -72.280296 -8.9197531 -72.790482 -0.20631287 -88.125923
9210625000 -0.87318808 123.4067 -8.9407024 -72.326088 -8.9217634 -72.785591 -0.203504 -88.12719
9210687500 -0.87396705 123.38382 -8.9244747 -72.351143 -8.9194412 -72.816658 -0.20954032 -88.149315
9210750000 -0.87505597 123.37043 -8.9368744 -72.299011 -8.9181652 -72.848793 -0.21208836 -88.136055
9210812500 -0.87236977 123.378 -8.9233923 -72.224831 -8.9161615 -72.874207 -0.20721173 -88.06411
9210875000 -0.87836969 123.30606 -8.9336815 -72.321243 -8.91998 -72.846985 -0.21083105 -88.079994
9210937500 -0.88353825 123.32137 -8.9309864 -72.389946 -8.9156666 -72.841125 -0.20697065 -88.005722
9211000000 -0.88172579 123.26269 -8.9307461 -72.36132 -8.911005 -72.851448 -0.20693108 -88.021004
9211062500 -0.88107497 123.29899 -8.9302387 -72.328346 -8.9129858 -72.818352 -0.21098295 -87.997612
9211125000 -0.88025647 123.30416 -8.923337 -72.297882 -8.9105511 -72.907898 -0.19867139 -88.063805
9211187500 -0.8790769 123.30357 -8.9191055 -72.354912 -8.9205446 -72.857727 -0.2049913 -88.016266
9211250000 -0.88737768 123.28205 -8.9250479 -72.350143 -8.9108 -72.910324 -0.20179087 -88.062637
9211312500 -0.88536751 123.28916 -8.9160557 -72.327393 -8.9131126 -72.913116 -0.20504883 -88.085396
9211375000 -0.8918193 123.29336 -8.9222069 -72.325813 -8.9155359 -72.851479 -0.19807775 -87.955162
9211437500 -0.88425744 123.28519 -8.9283781 -72.27375 -8.9188223 -72.899231 -0.20255068 -87.940742
9211500000 -0.88479507 123.2323 -8.9183798 -72.365448 -8.910141 -72.809502 -0.19862416 -87.909927
9211562500 -0.88261288 123.22481 -8.9121161 -72.37822 -8.9066668 -72.834877 -0.19579567 -87.928574
9211625000 -0.88362306 123.18371 -8.9161682 -72.289818 -8.9141521 -72.828148 -0.20664972 -87.849258
9211687500 -0.88160312 123.17996 -8.9159594 -72.29113 -8.9116936 -72.75869 -0.21188706 -87.853783
9211750000 -0.88490045 123.20599 -8.9151869 -72.256432 -8.9099426 -72.766258 -0.20823289 -87.856422
9211812500 -0.88120306 123.13864 -8.9084492 -72.314323 -8.9231272 -72.788475 -0.2124574 -87.784645
9211875000 -0.88537174 123.14274 -8.9192104 -72.251961 -8.9164257 -72.79966 -0.21429126 -87.81002
9211937500 -0.88175368 123.11336 -8.9108305 -72.323563 -8.9123077 -72.777725 -0.21310595 -87.788673
9212000000 -0.88888305 123.08212 -8.9188738 -72.315498 -8.9068165 -72.752319 -0.20659655 -87.74337
9212062500 -0.88718992 123.07377 -8.9104919 -72.273544 -8.9125929 -72.771133 -0.21125227 -87.71109
9212125000 -0.88603878 123.0677 -8.9159088 -72.316933 -8.9135056 -72.801048 -0.21366589 -87.655739
9212187500 -0.88585114 122.99364 -8.9044666 -72.397659 -8.9079828 -72.752274 -0.21520197 -87.666313
