!Agilent Technologies,N5242A,MY51221714,A.09.90.19
!Agilent N5242A: A.09.90.19
!Date: Saturday, March 16, 2024 09:07:53
!Correction: S11(Full 2 Port(1,2)) 
!S21(Full 2 Port(1,2)) 
!S12(Full 2 Port(1,2)) 
!S22(Full 2 Port(1,2)) 
!S2P File: Measurements: S11, S21, S12, S22:
# Hz S  dB   R 50
9200000000 -0.87177664 125.78606 -9.107295 -72.570221 -9.0968599 -73.098785 -0.15164405 -91.158012
9200062500 -0.87527609 125.74101 -9.101841 -72.591644 -9.0995035 -73.124023 -0.15269494 -91.120758
9200125000 -0.86891842 125.76142 -9.1032515 -72.545296 -9.0905533 -73.095963 -0.15054972 -91.102684
9200187500 -0.87542492 125.75043 -9.1057997 -72.5765 -9.0872622 -73.113129 -0.15401022 -91.112442
9200250000 -0.87369663 125.75859 -9.1052895 -72.540077 -9.1012135 -73.13456 -0.15716951 -91.111572
9200312500 -0.87274623 125.74318 -9.1064425 -72.533318 -9.0869102 -73.12738 -0.14793174 -91.089188
9200375000 -0.86692417 125.68694 -9.0949659 -72.595749 -9.0919151 -73.113701 -0.14877905 -91.078789
9200437500 -0.86961442 125.69916 -9.1012774 -72.582687 -9.086606 -73.101898 -0.14957137 -91.069321
9200500000 -0.86725861 125.68373 -9.0889635 -72.57341 -9.08743 -73.153374 -0.15690999 -91.034172
9200562500 -0.86771691 125.67182 -9.0975742 -72.558708 -9.079237 -73.1418 -0.15867628 -91.005295
9200625000 -0.87429267 125.64243 -9.1016235 -72.580742 -9.0766449 -73.094955 -0.1554575 -90.946693
9200687500 -0.87060505 125.61864 -9.099864 -72.552094 -9.0766277 -73.126549 -0.16270024 -90.940796
9200750000 -0.87502182 125.63602 -9.1038046 -72.607903 -9.0813217 -73.124901 -0.16208526 -90.931564
9200812500 -0.87377453 125.62415 -9.1059656 -72.489662 -9.0769663 -73.110634 -0.16309486 -90.894516
9200875000 -0.87219816 125.6043 -9.0996532 -72.48967 -9.0732985 -73.075119 -0.16151026 -90.846825
9200937500 -0.86736423 125.55955 -9.0984402 -72.532692 -9.0708294 -73.054436 -0.16145688 -90.847336
9201000000 -0.86481196 125.56695 -9.0816431 -72.507233 -9.0790157 -73.104424 -0.16300412 -90.813507
9201062500 -0.86733365 125.5712 -9.0820379 -72.476181 -9.0821362 -73.081009 -0.16206463 -90.820297
9201125000 -0.86671698 125.56743 -9.0840979 -72.500526 -9.0713921 -73.106934 -0.15460813 -90.773544
9201187500 -0.86084646 125.54434 -9.0886869 -72.509926 -9.0811567 -73.07531 -0.16022377 -90.759483
9201250000 -0.8602789 125.52236 -9.081048 -72.530449 -9.0795326 -73.096909 -0.15579709 -90.771309
9201312500 -0.87170202 125.4668 -9.0846624 -72.539452 -9.0844755 -73.076797 -0.15972322 -90.778687
9201375000 -0.86839545 125.47987 -9.086791 -72.556236 -9.0760546 -73.094391 -0.15479368 -90.776627
9201437500 -0.86961448 125.46666 -9.0907421 -72.53373 -9.0756779 -73.073883 -0.15604956 -90.7677
9201500000 -0.87418973 125.45694 -9.0915279 -72.552963 -9.0751467 -73.084206 -0.15462598 -90.758766
9201562500 -0.86679322 125.47543 -9.0879202 -72.520462 -9.0847244 -73.070938 -0.16221952 -90.747665
9201625000 -0.87111169 125.41486 -9.0889854 -72.525833 -9.077136 -73.051071 -0.16254279 -90.700073
9201687500 -0.87131613 125.41727 -9.0878935 -72.553139 -9.0731668 -73.062088 -0.1612841 -90.666855
9201750000 -0.86811763 125.39322 -9.0868254 -72.58345 -9.0733929 -72.999947 -0.16272926 -90.66787
9201812500 -0.86908036 125.3987 -9.0869217 -72.55024 -9.0755205 -73.006683 -0.15999496 -90.603561
9201875000 -0.86957669 125.32873 -9.0893946 -72.560303 -9.0715456 -73.031853 -0.16277398 -90.613808
9201937500 -0.8670764 125.35216 -9.0803785 -72.506012 -9.0811043 -73.059029 -0.16963756 -90.601555
9202000000 -0.86309308 125.36755 -9.0855894 -72.48555 -9.0779209 -73.054779 -0.16321845 -90.567032
9202062500 -0.86635357 125.34311 -9.0765486 -72.462181 -9.0658035 -73.027084 -0.15627605 -90.519196
9202125000 -0.86397606 125.32436 -9.0698719 -72.472549 -9.0758743 -73.040169 -0.1575262 -90.556465
9202187500 -0.86566567 125.30682 -9.0701876 -72.493332 -9.0721598 -73.008553 -0.16027899 -90.507172
9202250000 -0.86411631 125.31725 -9.0728569 -72.456512 -9.0766544 -73.13755 -0.16316624 -90.51001
9202312500 -0.86502939 125.26204 -9.0649824 -72.533684 -9.0676727 -73.12735 -0.15902081 -90.534668
9202375000 -0.86853409 125.26653 -9.068737 -72.525497 -9.0703239 -73.076248 -0.16710226 -90.496864
9202437500 -0.86920267 125.29874 -9.0727434 -72.451027 -9.0663586 -73.064674 -0.1560702 -90.498634
9202500000 -0.87014508 125.23763 -9.0751371 -72.523308 -9.0636377 -73.107475 -0.15855139 -90.452835
9202562500 -0.87314588 125.23382 -9.0770235 -72.54261 -9.0709925 -73.027031 -0.16656339 -90.428314
9202625000 -0.87533629 125.20144 -9.0824089 -72.52919 -9.0705147 -73.012466 -0.17043908 -90.394844
9202687500 -0.87059671 125.19525 -9.0793972 -72.555443 -9.0664253 -73.049889 -0.17226009 -90.353462
9202750000 -0.87102151 125.1938 -9.0773983 -72.509727 -9.0736332 -73.00238 -0.17775071 -90.314163
9202812500 -0.86985642 125.16093 -9.071311 -72.491577 -9.0612917 -73.009857 -0.16335818 -90.31411
9202875000 -0.87636328 125.12172 -9.0843401 -72.553505 -9.0614071 -72.973206 -0.16519102 -90.28212
9202937500 -0.87422425 125.14243 -9.0788879 -72.565277 -9.0588617 -73.033951 -0.16371904 -90.321648
9203000000 -0.86759233 125.1049 -9.0706463 -72.555138 -9.0652113 -72.996422 -0.16541243 -90.268654
9203062500 -0.87124944 125.10426 -9.0794497 -72.503578 -9.0666924 -73.014397 -0.16159371 -90.246521
9203125000 -0.86894083 125.0806 -9.0759926 -72.502731 -9.0683584 -73.034752 -0.16706844 -90.25959
9203187500 -0.86730897 125.04731 -9.0583677 -72.541733 -9.0622864 -73.011383 -0.16472431 -90.232964
9203250000 -0.86814058 125.08131 -9.0656385 -72.479355 -9.0604506 -73.042595 -0.16531178 -90.215721
9203312500 -0.86644405 125.08896 -9.0702019 -72.493629 -9.0613279 -72.985252 -0.1626963 -90.209549
9203375000 -0.86608815 125.05672 -9.0633059 -72.502045 -9.0552168 -73.062508 -0.16167405 -90.161125
9203437500 -0.87503386 125.05756 -9.0663662 -72.476669 -9.056675 -73.03495 -0.16222867 -90.207138
9203500000 -0.87022829 124.994 -9.0725899 -72.511826 -9.0574541 -73.021591 -0.16231225 -90.102142
9203562500 -0.86774075 125.00274 -9.0594368 -72.483925 -9.062439 -73.007767 -0.16211478 -90.076111
9203625000 -0.8746736 125.00145 -9.0804243 -72.505768 -9.0680599 -73.028084 -0.17293523 -90.114006
9203687500 -0.86616099 124.98282 -9.0649729 -72.483429 -9.0592899 -73.016281 -0.16602804 -90.050323
9203750000 -0.87595177 124.96208 -9.0632286 -72.501068 -9.0564041 -73.032951 -0.16896175 -90.121445
9203812500 -0.86861742 124.94527 -9.0651255 -72.464752 -9.0564585 -73.028473 -0.16968511 -90.055557
9203875000 -0.87044066 124.88477 -9.0665684 -72.524109 -9.0559559 -73.014122 -0.17262024 -90.059944
9203937500 -0.86830294 124.92262 -9.0632496 -72.514244 -9.0635281 -72.986977 -0.18294583 -90.038391
9204000000 -0.8658517 124.87051 -9.064743 -72.484764 -9.0584154 -73.033318 -0.17917357 -90.016273
9204062500 -0.8705551 124.87433 -9.0706539 -72.497124 -9.0514755 -72.978096 -0.18153705 -89.988525
9204125000 -0.86676222 124.89236 -9.071579 -72.491707 -9.0457287 -72.981255 -0.17442915 -89.978958
9204187500 -0.86628318 124.87146 -9.0723972 -72.46106 -9.0518208 -72.995911 -0.18054855 -89.939102
9204250000 -0.86667418 124.85104 -9.0730953 -72.491119 -9.0407114 -72.948174 -0.17538184 -89.918526
9204312500 -0.86577588 124.84312 -9.0603952 -72.457855 -9.0390844 -72.941246 -0.17398039 -89.911293
9204375000 -0.86272109 124.8112 -9.0608883 -72.4506 -9.0451517 -72.975769 -0.16912042 -89.879494
9204437500 -0.85778946 124.78673 -9.0558214 -72.453964 -9.0446005 -72.955772 -0.17122936 -89.83783
9204500000 -0.86075133 124.80541 -9.0581865 -72.415894 -9.0447369 -73.012817 -0.17278925 -89.849197
9204562500 -0.86075932 124.77467 -9.0544548 -72.407646 -9.0480938 -73.033279 -0.16947173 -89.813751
9204625000 -0.86038715 124.72658 -9.0584555 -72.464348 -9.0512781 -72.975037 -0.16629007 -89.808662
9204687500 -0.85775286 124.74052 -9.0516815 -72.443825 -9.051158 -73.012245 -0.17114988 -89.806908
9204750000 -0.86008638 124.74871 -9.0488195 -72.362564 -9.0433998 -72.937851 -0.16967523 -89.750946
9204812500 -0.86265981 124.74897 -9.0557213 -72.401459 -9.0441618 -72.969254 -0.16882484 -89.759201
9204875000 -0.8604086 124.72581 -9.0480528 -72.401108 -9.0451088 -72.980125 -0.16360909 -89.763023
9204937500 -0.86085218 124.74017 -9.0429153 -72.421211 -9.0460262 -72.95668 -0.16779743 -89.740562
9205000000 -0.86542392 124.7286 -9.0599747 -72.377831 -9.0464287 -72.955177 -0.16925859 -89.730782
9205062500 -0.87125933 124.69934 -9.0478172 -72.467995 -9.0427094 -72.989731 -0.16803277 -89.744316
9205125000 -0.868406 124.65903 -9.0537415 -72.438232 -9.0431767 -72.957222 -0.17273755 -89.661598
9205187500 -0.87602663 124.65006 -9.0591888 -72.387688 -9.0438528 -72.948189 -0.1672 -89.699295
9205250000 -0.86999941 124.61852 -9.0430183 -72.433731 -9.0427465 -72.992096 -0.16503835 -89.659973
9205312500 -0.8712762 124.59003 -9.0477724 -72.390511 -9.0493221 -72.988831 -0.16772282 -89.653992
9205375000 -0.87020683 124.56223 -9.0321226 -72.382446 -9.0473833 -72.976044 -0.17088428 -89.628693
9205437500 -0.87490797 124.55291 -9.0480366 -72.333443 -9.037653 -72.96347 -0.16330945 -89.601219
9205500000 -0.87119913 124.53391 -9.040019 -72.430664 -9.0401573 -72.994591 -0.17050362 -89.616043
9205562500 -0.87616777 124.54577 -9.0512152 -72.369255 -9.0431519 -72.958496 -0.17504653 -89.551682
9205625000 -0.86533433 124.51238 -9.0469208 -72.419792 -9.0485706 -72.931747 -0.16591945 -89.574394
9205687500 -0.86947799 124.5445 -9.0381584 -72.409531 -9.048461 -72.932518 -0.16977191 -89.529243
9205750000 -0.86651653 124.52524 -9.049263 -72.399521 -9.0465612 -72.953964 -0.17283042 -89.539146
9205812500 -0.86496609 124.52958 -9.0359735 -72.390663 -9.0403214 -72.936508 -0.17122552 -89.518784
9205875000 -0.86629671 124.46902 -9.0472918 -72.423775 -9.0416775 -72.936844 -0.17514917 -89.498009
9205937500 -0.86608124 124.50523 -9.0434313 -72.395027 -9.0461779 -72.901619 -0.17461398 -89.437233
9206000000 -0.86393762 124.49077 -9.0511332 -72.394539 -9.0516891 -72.967468 -0.18228921 -89.442909
9206062500 -0.86702937 124.49346 -9.0359869 -72.412018 -9.0332355 -72.920616 -0.17299052 -89.453232
9206125000 -0.86523914 124.44448 -9.0452929 -72.40406 -9.0436144 -72.902138 -0.18242677 -89.35424
9206187500 -0.86187351 124.44568 -9.0389462 -72.361504 -9.0394268 -72.94146 -0.17549887 -89.387947
9206250000 -0.86252671 124.42664 -9.0447674 -72.412674 -9.0343914 -72.941032 -0.17402117 -89.40139
9206312500 -0.86519057 124.41803 -9.0344934 -72.370804 -9.0324154 -72.95768 -0.16703933 -89.349388
9206375000 -0.86277676 124.39586 -9.039587 -72.384491 -9.0302753 -72.941963 -0.17672226 -89.336739
9206437500 -0.86581743 124.381 -9.0319662 -72.381905 -9.0249586 -72.874374 -0.16677086 -89.288284
9206500000 -0.86209339 124.40781 -9.0387259 -72.381409 -9.0265188 -72.917198 -0.16736953 -89.259232
9206562500 -0.86807489 124.33817 -9.0324268 -72.41787 -9.023139 -72.958473 -0.16861407 -89.305565
9206625000 -0.87161267 124.3468 -9.0427771 -72.384773 -9.0241747 -72.907478 -0.16081625 -89.253052
9206687500 -0.87210411 124.33432 -9.0315828 -72.400604 -9.0185747 -72.910568 -0.16541402 -89.209938
9206750000 -0.87256545 124.33909 -9.0351171 -72.338921 -9.017662 -72.890953 -0.15924919 -89.173904
9206812500 -0.86909634 124.31178 -9.0230026 -72.33989 -9.0208855 -72.944633 -0.1642002 -89.196602
9206875000 -0.87626636 124.29041 -9.0242958 -72.282112 -9.0155363 -72.891113 -0.15901048 -89.147629
9206937500 -0.86907893 124.26126 -9.0266256 -72.367554 -9.0174084 -72.909248 -0.1632091 -89.144341
9207000000 -0.86757755 124.2953 -9.0208702 -72.331184 -9.0123196 -72.894081 -0.16585387 -89.117058
9207062500 -0.86670691 124.25404 -9.0309887 -72.313293 -9.0208511 -72.929184 -0.1694793 -89.130951
9207125000 -0.86210942 124.22414 -9.029954 -72.380646 -9.022109 -72.908142 -0.17117032 -89.123978
9207187500 -0.85986096 124.19502 -9.0206804 -72.401749 -9.0272551 -72.873161 -0.17589998 -89.114632
9207250000 -0.85983151 124.13725 -9.0159645 -72.399742 -9.0146589 -72.904587 -0.17129129 -89.110199
9207312500 -0.866979 124.11987 -9.0225554 -72.38813 -9.0194769 -72.912842 -0.17981684 -89.084763
9207375000 -0.86643827 124.13577 -9.0278263 -72.414757 -9.0236282 -72.866142 -0.18568029 -89.055382
9207437500 -0.86760211 124.11353 -9.0248508 -72.388397 -9.017251 -72.876312 -0.17895956 -89.047585
9207500000 -0.86285192 124.08999 -9.0229168 -72.405724 -9.017745 -72.888519 -0.18244202 -89.026031
9207562500 -0.86725771 124.04976 -9.0193033 -72.468445 -9.0159855 -72.910553 -0.17474976 -89.047493
9207625000 -0.86745054 124.02719 -9.0225382 -72.466255 -9.0081606 -72.935257 -0.17115514 -89.01062
9207687500 -0.86639738 124.05658 -9.0264654 -72.416855 -9.0110817 -72.915222 -0.17444305 -88.977623
9207750000 -0.87650287 124.05081 -9.0268497 -72.337044 -9.0157413 -72.973732 -0.17178385 -89.013748
9207812500 -0.87540233 124.02155 -9.0265474 -72.337395 -9.0180159 -72.936539 -0.16379288 -88.920975
9207875000 -0.87164205 124.01855 -9.0207033 -72.410332 -9.0163183 -72.887558 -0.17038524 -88.91024
9207937500 -0.87847471 124.0305 -9.021656 -72.344498 -9.013833 -72.980751 -0.16284902 -88.939278
9208000000 -0.87362635 124.02651 -9.0141392 -72.322548 -9.0133553 -72.967186 -0.16614926 -88.85759
9208062500 -0.86593777 124.04929 -9.0190325 -72.319908 -9.023881 -72.975769 -0.17273028 -88.890663
9208125000 -0.87293637 123.99321 -9.0223713 -72.336945 -9.0153637 -72.89669 -0.1796613 -88.817497
9208187500 -0.86723185 123.99763 -9.0190563 -72.301193 -9.0122728 -72.887291 -0.17570591 -88.860893
9208250000 -0.86527735 123.9624 -9.0171337 -72.316383 -9.0167093 -72.875359 -0.17799376 -88.776711
9208312500 -0.86606765 123.93507 -9.0127211 -72.347603 -9.0132351 -72.918739 -0.18176042 -88.782402
9208375000 -0.86813343 123.96094 -9.011342 -72.358025 -9.0160465 -72.880829 -0.18280293 -88.756477
9208437500 -0.87382913 123.96154 -9.018302 -72.306274 -9.0123205 -72.831085 -0.18162599 -88.743912
9208500000 -0.86379957 123.90272 -9.0032625 -72.299934 -9.0130644 -72.870644 -0.17873554 -88.728096
9208562500 -0.87405354 123.8765 -9.0214634 -72.401497 -9.0025816 -72.850525 -0.17474918 -88.704773
9208625000 -0.86861044 123.87128 -9.0136194 -72.325554 -9.0005569 -72.85141 -0.16923726 -88.685646
9208687500 -0.86987215 123.81371 -9.0077581 -72.329422 -9.0022726 -72.87532 -0.17561522 -88.73204
9208750000 -0.86415398 123.83833 -9.0026321 -72.355209 -8.9975615 -72.879318 -0.17680797 -88.720284
9208812500 -0.87120914 123.85742 -9.0147181 -72.369171 -9.0064564 -72.89888 -0.17742629 -88.688515
9208875000 -0.86950868 123.79939 -9.0118675 -72.363411 -9.0130386 -72.859848 -0.17902997 -88.635056
9208937500 -0.87007892 123.83932 -9.0041103 -72.365524 -8.9993811 -72.819168 -0.17044511 -88.643532
9209000000 -0.87204671 123.86606 -9.0139112 -72.347061 -9.0054903 -72.842926 -0.17874289 -88.622375
9209062500 -0.86988491 123.84383 -8.9985733 -72.343513 -9.0063066 -72.823578 -0.17834458 -88.623032
9209125000 -0.86886573 123.84531 -9.0111208 -72.292885 -9.0041742 -72.862419 -0.17074761 -88.585732
9209187500 -0.86964273 123.83131 -9.0069771 -72.342888 -9.0105486 -72.854828 -0.18106213 -88.570786
9209250000 -0.86854357 123.80819 -8.9989634 -72.308586 -9.0074186 -72.820175 -0.1798321 -88.579018
9209312500 -0.8670308 123.77959 -8.9968443 -72.351768 -9.0103922 -72.84819 -0.18285953 -88.533073
9209375000 -0.86336452 123.77985 -8.9995394 -72.329338 -9.0058117 -72.85923 -0.17926289 -88.537498
9209437500 -0.87337363 123.76801 -8.9996738 -72.286713 -8.9987907 -72.830612 -0.17669708 -88.490341
9209500000 -0.86982548 123.72052 -8.9990807 -72.339226 -9.0107908 -72.819511 -0.18696202 -88.4841
9209562500 -0.87121409 123.68732 -8.9966135 -72.302475 -9.0009613 -72.819672 -0.17436846 -88.439056
9209625000 -0.86931849 123.68816 -9.0100288 -72.359444 -9.0084095 -72.821037 -0.17934158 -88.409988
9209687500 -0.86610168 123.67922 -8.9965811 -72.396927 -8.9978533 -72.874229 -0.17544974 -88.463448
9209750000 -0.8710348 123.65577 -9.0027685 -72.30925 -8.9983587 -72.819191 -0.17765696 -88.360329
9209812500 -0.87629247 123.64682 -8.9998827 -72.325516 -8.9961367 -72.809906 -0.17497048 -88.355858
9209875000 -0.87455702 123.61667 -9.0053854 -72.350128 -8.9957237 -72.831001 -0.17521271 -88.337181
9209937500 -0.87021667 123.64767 -8.9996023 -72.29258 -8.9876661 -72.810455 -0.16918519 -88.323776
9210000000 -0.87416011 123.62879 -9.006176 -72.340317 -8.990756 -72.805977 -0.1717823 -88.309303
9210062500 -0.86731273 123.60044 -8.9918957 -72.328453 -8.9878426 -72.847649 -0.17342751 -88.319832
9210125000 -0.86698771 123.60282 -8.9943581 -72.299828 -8.9926691 -72.821495 -0.16883945 -88.306885
9210187500 -0.86737204 123.54514 -8.9971418 -72.334885 -8.9877205 -72.801758 -0.170148 -88.28331
9210250000 -0.86573356 123.55846 -8.991539 -72.263374 -8.9846582 -72.749268 -0.16962771 -88.213577
9210312500 -0.86593926 123.55166 -8.9965763 -72.281952 -8.9959745 -72.796463 -0.17532258 -88.280838
9210375000 -0.86447072 123.55081 -8.9965105 -72.258492 -8.9876928 -72.735321 -0.17598164 -88.174355
9210437500 -0.86802799 123.53661 -8.998024 -72.217194 -8.9968176 -72.813416 -0.18077447 -88.204689
9210500000 -0.86395657 123.50159 -8.991292 -72.309158 -8.992981 -72.751282 -0.17620894 -88.159431
9210562500 -0.8649537 123.47224 -8.9964848 -72.324539 -8.987093 -72.726273 -0.18496378 -88.122215
9210625000 -0.86519682 123.4573 -9.0036306 -72.307961 -8.9915485 -72.755318 -0.18772469 -88.141685
9210687500 -0.86094731 123.44685 -8.9870806 -72.296341 -8.9943314 -72.779022 -0.18826051 -88.094421
9210750000 -0.86201894 123.43777 -8.9873152 -72.232094 -8.983633 -72.815865 -0.18108712 -88.111298
9210812500 -0.86507595 123.37748 -8.9908724 -72.277451 -8.995513 -72.773239 -0.19146329 -88.088158
9210875000 -0.86477566 123.40494 -8.9977655 -72.250961 -8.9871674 -72.807167 -0.19015826 -88.086739
9210937500 -0.86654621 123.34864 -8.9966125 -72.313286 -8.9918823 -72.825699 -0.18802565 -88.082947
9211000000 -0.86202687 123.34998 -8.9910803 -72.258118 -8.9883461 -72.828224 -0.19031474 -88.062172
9211062500 -0.8668316 123.35963 -8.9879093 -72.274071 -8.9786673 -72.878876 -0.18358742 -88.095551
9211125000 -0.86977661 123.32919 -8.9895658 -72.325073 -8.9879293 -72.815353 -0.18844701 -88.07399
9211187500 -0.87325871 123.33421 -8.9917841 -72.261131 -8.9866982 -72.821861 -0.18300498 -88.046448
9211250000 -0.87051129 123.31079 -8.9794559 -72.32679 -8.9895554 -72.857941 -0.1802282 -88.108765
9211312500 -0.87815118 123.36694 -8.9935226 -72.31411 -8.9777584 -72.832939 -0.17717668 -88.037651
9211375000 -0.87484872 123.34138 -8.9796591 -72.242729 -8.9802713 -72.776924 -0.17395103 -87.920258
9211437500 -0.86971158 123.32266 -8.9814529 -72.286888 -8.9807215 -72.793961 -0.17633469 -87.966995
9211500000 -0.87339026 123.28683 -8.9869204 -72.284134 -8.979825 -72.812851 -0.18146482 -87.964935
9211562500 -0.87556398 123.26806 -8.9848099 -72.29229 -8.9816284 -72.75843 -0.18156601 -87.912415
9211625000 -0.87141371 123.29685 -8.9828758 -72.197647 -8.9808798 -72.773193 -0.18161637 -87.88485
9211687500 -0.87486488 123.2711 -8.9876261 -72.249992 -8.9847584 -72.773689 -0.1925007 -87.857376
9211750000 -0.87248296 123.22916 -8.9860401 -72.239159 -8.9842653 -72.756905 -0.19303297 -87.86869
9211812500 -0.87239778 123.17802 -8.9787254 -72.267433 -8.9790173 -72.766724 -0.18979433 -87.867844
9211875000 -0.87288058 123.19312 -8.9849043 -72.302208 -8.9779205 -72.757423 -0.18840815 -87.832771
9211937500 -0.87645829 123.14808 -8.9749899 -72.290642 -8.9846916 -72.728958 -0.1885564 -87.711128
9212000000 -0.87808996 123.14469 -8.9722538 -72.26429 -8.9700775 -72.738281 -0.18509638 -87.767044
9212062500 -0.87345779 123.11385 -8.9655275 -72.30925 -8.9789066 -72.744034 -0.18384767 -87.759399
9212125000 -0.87503719 123.10429 -8.9770527 -72.263557 -8.9665308 -72.681908 -0.18748847 -87.656219
9212187500 -0.87751377 123.08414 -8.9761553 -72.313042 -8.9780684 -72.721024 -0.19233741 -87.636391
