!Agilent Technologies,N5242A,MY51221714,A.09.90.19
!Agilent N5242A: A.09.90.19
!Date: Saturday, March 16, 2024 09:08:50
!Correction: S11(Full 2 Port(1,2)) 
!S21(Full 2 Port(1,2)) 
!S12(Full 2 Port(1,2)) 
!S22(Full 2 Port(1,2)) 
!S2P File: Measurements: S11, S21, S12, S22:
# Hz S  dB   R 50
9200000000 -0.87832803 125.85987 -9.1001129 -72.6688 -9.1008711 -73.194145 -0.16271813 -91.235779
9200062500 -0.87862641 125.87672 -9.0976667 -72.628258 -9.0853481 -73.173973 -0.15557383 -91.203407
9200125000 -0.87860119 125.87926 -9.104064 -72.595184 -9.0921125 -73.223076 -0.1607684 -91.225182
9200187500 -0.879215 125.83936 -9.100029 -72.65593 -9.0809078 -73.197418 -0.15124549 -91.163055
9200250000 -0.87854314 125.85182 -9.0998697 -72.607552 -9.0835352 -73.242508 -0.16286437 -91.164131
9200312500 -0.87147331 125.80051 -9.0987196 -72.690559 -9.0843372 -73.139053 -0.15626346 -91.114876
9200375000 -0.8717106 125.80167 -9.0953665 -72.664368 -9.0871563 -73.179398 -0.16060475 -91.115723
9200437500 -0.87326294 125.80015 -9.1000414 -72.64637 -9.0843744 -73.166161 -0.16114745 -91.135941
9200500000 -0.87310892 125.8018 -9.1000795 -72.65538 -9.0821934 -73.199608 -0.16400868 -91.106407
9200562500 -0.87275088 125.74232 -9.1031437 -72.628387 -9.0791035 -73.14901 -0.16070218 -91.042824
9200625000 -0.87658715 125.75111 -9.1025496 -72.611969 -9.0837135 -73.18029 -0.1678049 -91.058014
9200687500 -0.87647295 125.71974 -9.0880604 -72.639465 -9.0767069 -73.234406 -0.16970262 -91.018532
9200750000 -0.87652719 125.70965 -9.0996189 -72.614563 -9.0816927 -73.152458 -0.16937494 -90.967209
9200812500 -0.8735429 125.71416 -9.093049 -72.56356 -9.0775137 -73.138191 -0.16650057 -90.955772
9200875000 -0.87652361 125.70234 -9.0891428 -72.547386 -9.0771837 -73.161591 -0.16925165 -90.894211
9200937500 -0.87242156 125.68913 -9.0886621 -72.570435 -9.0692883 -73.180084 -0.16694497 -90.932549
9201000000 -0.87107772 125.67961 -9.0893173 -72.57859 -9.0715656 -73.179565 -0.17189765 -90.899796
9201062500 -0.87576669 125.64604 -9.091301 -72.629669 -9.0740309 -73.118225 -0.16817975 -90.844963
9201125000 -0.8712821 125.63719 -9.07868 -72.5289 -9.0652475 -73.154808 -0.1608748 -90.860298
9201187500 -0.87038571 125.60206 -9.0826168 -72.586914 -9.0766582 -73.117271 -0.16397485 -90.865089
9201250000 -0.86467779 125.61438 -9.0743103 -72.63279 -9.0717201 -73.222557 -0.16635078 -90.852951
9201312500 -0.87446499 125.58961 -9.0862036 -72.588867 -9.0781221 -73.07357 -0.16915922 -90.772095
9201375000 -0.87256151 125.59001 -9.0927467 -72.549706 -9.0740891 -73.115845 -0.1668604 -90.812088
9201437500 -0.87162054 125.59081 -9.0859642 -72.609894 -9.0833206 -73.163795 -0.17352115 -90.822914
9201500000 -0.87824333 125.59375 -9.0951405 -72.580559 -9.0734196 -73.153633 -0.16190137 -90.814804
9201562500 -0.86998475 125.56274 -9.0886068 -72.581375 -9.0730801 -73.075272 -0.16464773 -90.786552
9201625000 -0.88183373 125.55531 -9.0908852 -72.584869 -9.0694313 -73.13694 -0.15832679 -90.752426
9201687500 -0.87764013 125.52974 -9.0904922 -72.60096 -9.0703087 -73.138062 -0.16401181 -90.763969
9201750000 -0.87572813 125.53186 -9.0871916 -72.573174 -9.0718012 -73.106194 -0.16864811 -90.720818
9201812500 -0.87450141 125.52541 -9.0840759 -72.567245 -9.0665236 -73.114746 -0.16014563 -90.701401
9201875000 -0.8726908 125.4485 -9.0873356 -72.607567 -9.0741949 -73.105476 -0.16949528 -90.688911
9201937500 -0.87073213 125.43511 -9.0744009 -72.582893 -9.0650692 -73.100349 -0.16552804 -90.688911
9202000000 -0.87043452 125.46233 -9.0737486 -72.580147 -9.0712452 -73.158531 -0.17496046 -90.644203
9202062500 -0.87332052 125.4165 -9.0799389 -72.600571 -9.069334 -73.115677 -0.16406159 -90.601471
9202125000 -0.87423551 125.42593 -9.0783129 -72.558151 -9.0605011 -73.195671 -0.16729523 -90.627579
9202187500 -0.87357855 125.38374 -9.0697136 -72.600029 -9.072298 -73.167641 -0.16720968 -90.590935
9202250000 -0.87606514 125.38532 -9.0740595 -72.56749 -9.0770798 -73.128922 -0.17031705 -90.578224
9202312500 -0.87399578 125.37824 -9.0699606 -72.591164 -9.0622492 -73.142715 -0.16167301 -90.556625
9202375000 -0.87300646 125.35449 -9.064002 -72.572212 -9.0726967 -73.133713 -0.16726491 -90.563057
9202437500 -0.87810081 125.34434 -9.069416 -72.615623 -9.0694027 -73.176186 -0.17247602 -90.576675
9202500000 -0.87585181 125.32377 -9.0820675 -72.557541 -9.0710869 -73.160469 -0.1718417 -90.462662
9202562500 -0.88239634 125.36363 -9.085968 -72.5457 -9.0737572 -73.112831 -0.16873994 -90.468094
9202625000 -0.88041925 125.31367 -9.073101 -72.548447 -9.0620956 -73.094299 -0.17694944 -90.481102
9202687500 -0.88144815 125.3238 -9.0746393 -72.518318 -9.0675669 -73.067543 -0.17465429 -90.409943
9202750000 -0.8744548 125.3015 -9.0720167 -72.571655 -9.0593567 -73.13102 -0.17910223 -90.426659
9202812500 -0.87768722 125.26888 -9.0728512 -72.620216 -9.0629406 -73.129562 -0.1724595 -90.403763
9202875000 -0.87284809 125.25364 -9.0667143 -72.544708 -9.0539656 -73.087708 -0.16852307 -90.364494
9202937500 -0.87574863 125.24033 -9.0677299 -72.55986 -9.059474 -73.114937 -0.17035228 -90.344299
9203000000 -0.87370372 125.24749 -9.0653191 -72.56765 -9.0557241 -73.11306 -0.16874245 -90.326019
9203062500 -0.87387973 125.22427 -9.0682964 -72.523354 -9.0667295 -73.118217 -0.17528014 -90.317314
9203125000 -0.86865008 125.1785 -9.0636129 -72.579353 -9.0658245 -73.099701 -0.17672436 -90.304749
9203187500 -0.87596291 125.19279 -9.0662565 -72.507805 -9.0587835 -73.115707 -0.17177469 -90.338562
9203250000 -0.87864256 125.20786 -9.0655851 -72.497597 -9.0521755 -73.054779 -0.16685955 -90.253983
9203312500 -0.87400496 125.1745 -9.0752115 -72.598427 -9.0615501 -73.137688 -0.17070228 -90.295738
9203375000 -0.87448591 125.14491 -9.0657129 -72.555359 -9.0567436 -73.120331 -0.16714555 -90.224037
9203437500 -0.87564361 125.13152 -9.0664654 -72.554367 -9.0594378 -73.097038 -0.17245956 -90.205948
9203500000 -0.87691247 125.11227 -9.0710917 -72.530655 -9.0439939 -73.106934 -0.16168374 -90.215736
9203562500 -0.87461638 125.09988 -9.066185 -72.52739 -9.0536232 -73.042191 -0.16937736 -90.128967
9203625000 -0.87671101 125.07597 -9.0698977 -72.579453 -9.0553923 -73.088097 -0.17022029 -90.139877
9203687500 -0.87545568 125.08978 -9.0584841 -72.564911 -9.056366 -73.077087 -0.17528632 -90.156616
9203750000 -0.87836599 125.07584 -9.0549955 -72.537827 -9.0542154 -73.095566 -0.17267306 -90.146797
9203812500 -0.87256032 125.04555 -9.0658321 -72.486015 -9.0503254 -73.032646 -0.17875855 -90.079857
9203875000 -0.87544549 125.0035 -9.0604553 -72.610771 -9.0546885 -73.089874 -0.18307294 -90.110023
9203937500 -0.87163949 124.98749 -9.0581875 -72.569862 -9.063426 -73.07756 -0.18681824 -90.106674
9204000000 -0.87033802 124.99168 -9.0592661 -72.56794 -9.0479069 -73.039848 -0.18115017 -90.04071
9204062500 -0.87564886 125.00805 -9.0685349 -72.550858 -9.0492916 -73.000107 -0.18688597 -90.013031
9204125000 -0.87250537 124.98547 -9.0629721 -72.535027 -9.0504227 -73.098015 -0.18831681 -90.047981
9204187500 -0.86962962 124.97834 -9.0689917 -72.530975 -9.0445509 -73.021797 -0.18464287 -90.023773
9204250000 -0.86669338 124.95927 -9.0644064 -72.512413 -9.0472088 -73.007317 -0.18578596 -89.995079
9204312500 -0.86891991 124.95678 -9.0632315 -72.483452 -9.030345 -73.039368 -0.1717598 -89.932648
9204375000 -0.8644675 124.90837 -9.0605183 -72.523003 -9.0392313 -73.072968 -0.17835294 -89.975723
9204437500 -0.86464465 124.91172 -9.0549021 -72.538269 -9.0433741 -73.074791 -0.17854866 -89.922325
9204500000 -0.86467302 124.89199 -9.0534859 -72.530464 -9.0497675 -73.064751 -0.1758353 -89.907784
9204562500 -0.86306536 124.86419 -9.047863 -72.507095 -9.0446968 -73.024162 -0.1775707 -89.850754
9204625000 -0.86334485 124.8412 -9.0553913 -72.494026 -9.0364227 -73.036522 -0.16604641 -89.86673
9204687500 -0.8650614 124.85641 -9.0467854 -72.459084 -9.0422173 -73.072495 -0.16780838 -89.900177
9204750000 -0.86602223 124.84081 -9.0426579 -72.48172 -9.0450478 -73.050995 -0.17883454 -89.859856
9204812500 -0.87032288 124.82601 -9.0527306 -72.525955 -9.0460014 -73.029831 -0.1781797 -89.823135
9204875000 -0.87273246 124.84338 -9.0562296 -72.493095 -9.0418539 -73.105675 -0.1836345 -89.8461
9204937500 -0.86355853 124.83892 -9.0480785 -72.468147 -9.0448923 -73.023766 -0.18214807 -89.832085
9205000000 -0.87556756 124.81248 -9.0492153 -72.477669 -9.0398722 -73.064789 -0.18284044 -89.783737
9205062500 -0.87151474 124.77688 -9.0431261 -72.492416 -9.0330563 -73.025925 -0.17411414 -89.778854
9205125000 -0.87304413 124.75908 -9.0485086 -72.432289 -9.0384474 -73.071014 -0.17681782 -89.785095
9205187500 -0.86905122 124.72736 -9.044137 -72.453178 -9.0475025 -73.028603 -0.17768712 -89.690742
9205250000 -0.87677181 124.72485 -9.0514183 -72.480431 -9.0437374 -73.036049 -0.18258889 -89.718147
9205312500 -0.87945324 124.70934 -9.0480442 -72.428307 -9.0483675 -73.063873 -0.18062359 -89.706703
9205375000 -0.87904698 124.67741 -9.0391989 -72.428307 -9.0419617 -73.069847 -0.16869824 -89.681549
9205437500 -0.88016999 124.68319 -9.049222 -72.397362 -9.0439548 -73.05777 -0.17953399 -89.643723
9205500000 -0.87942302 124.62582 -9.0434341 -72.51268 -9.0366039 -73.023041 -0.17601231 -89.652008
9205562500 -0.87454629 124.63232 -9.0490627 -72.488518 -9.0387907 -73.053421 -0.17651916 -89.664467
9205625000 -0.87150759 124.62979 -9.0448284 -72.516434 -9.0415554 -73.02459 -0.1750482 -89.633057
9205687500 -0.8771739 124.65084 -9.0498571 -72.439774 -9.0387774 -73.057182 -0.17604862 -89.62748
9205750000 -0.87651491 124.61616 -9.0389099 -72.503967 -9.0415125 -73.030624 -0.18190168 -89.598885
9205812500 -0.86812389 124.60888 -9.0378466 -72.48687 -9.0471458 -73.015526 -0.18576983 -89.603836
9205875000 -0.87264627 124.6358 -9.0438595 -72.436729 -9.0413399 -72.989403 -0.1784828 -89.5541
9205937500 -0.87094027 124.57437 -9.036684 -72.458237 -9.0387764 -72.977257 -0.182014 -89.507019
9206000000 -0.86797535 124.57291 -9.0468874 -72.423256 -9.0365114 -72.973534 -0.18181841 -89.475235
9206062500 -0.87153381 124.57432 -9.0457954 -72.4571 -9.0370808 -72.96241 -0.18093665 -89.473373
9206125000 -0.87240446 124.55882 -9.0435257 -72.460472 -9.0401068 -72.975113 -0.17927015 -89.438942
9206187500 -0.86872697 124.52944 -9.037509 -72.485878 -9.0301752 -72.992851 -0.17817289 -89.465134
9206250000 -0.87215775 124.5158 -9.0413322 -72.488953 -9.0340271 -72.960739 -0.17673044 -89.437935
9206312500 -0.87054855 124.52356 -9.03899 -72.454979 -9.0365114 -73.010406 -0.17944539 -89.410995
9206375000 -0.87349105 124.50903 -9.0408335 -72.436951 -9.0315018 -73.017136 -0.18700998 -89.415977
9206437500 -0.86606485 124.52531 -9.031148 -72.408012 -9.029954 -73.010994 -0.17866537 -89.411743
9206500000 -0.87378639 124.50056 -9.0375853 -72.380249 -9.0199299 -73.004501 -0.17696546 -89.38591
9206562500 -0.86966884 124.46848 -9.0235443 -72.420624 -9.0267992 -72.997711 -0.16897555 -89.346931
9206625000 -0.87249833 124.50889 -9.0293779 -72.397156 -9.0188313 -72.997398 -0.16903645 -89.310196
9206687500 -0.87643349 124.47047 -9.0235167 -72.355392 -9.0085402 -73.022369 -0.16595757 -89.281586
9206750000 -0.87479293 124.43522 -9.0208073 -72.366829 -9.0134125 -72.975815 -0.1724394 -89.25605
9206812500 -0.87726671 124.3965 -9.0222158 -72.378426 -9.0128012 -73.002319 -0.16803017 -89.239708
9206875000 -0.87518615 124.39773 -9.0192499 -72.424835 -9.0027275 -73.006302 -0.16257416 -89.236046
9206937500 -0.87990886 124.35326 -9.0300817 -72.469521 -9.0138512 -72.998421 -0.1723005 -89.217361
9207000000 -0.86769551 124.36913 -9.0223799 -72.364021 -9.0182562 -72.966743 -0.1750835 -89.151642
9207062500 -0.87043506 124.35276 -9.0302467 -72.451279 -9.0220032 -73.004227 -0.18705678 -89.216667
9207125000 -0.86860609 124.34896 -9.026022 -72.447304 -9.0281086 -72.97422 -0.18337043 -89.191933
9207187500 -0.87324905 124.2957 -9.0307789 -72.464394 -9.0215549 -72.938904 -0.18208292 -89.128662
9207250000 -0.87284231 124.27847 -9.0285339 -72.466385 -9.0204077 -72.974312 -0.18448411 -89.132492
9207312500 -0.87088478 124.23707 -9.0305128 -72.441261 -9.0218639 -72.96888 -0.19009048 -89.144508
9207375000 -0.86819977 124.20978 -9.0248671 -72.482224 -9.0218487 -72.924103 -0.18592425 -89.106537
9207437500 -0.87064475 124.21688 -9.0200443 -72.444969 -9.0126104 -72.988068 -0.18504694 -89.127007
9207500000 -0.87170357 124.23083 -9.0173979 -72.374519 -9.0195084 -72.958931 -0.19086064 -89.067574
9207562500 -0.87710696 124.20389 -9.0247068 -72.460991 -9.0086489 -72.954803 -0.17982756 -89.07505
9207625000 -0.87224907 124.14499 -9.0209045 -72.498886 -9.0084734 -72.963631 -0.17965703 -89.073845
9207687500 -0.8801496 124.2002 -9.0239592 -72.432144 -9.0059013 -73.011101 -0.17903045 -89.064323
9207750000 -0.87213749 124.16258 -9.0190268 -72.4981 -9.0062723 -73.030968 -0.17505538 -89.085884
9207812500 -0.87889373 124.13649 -9.0172968 -72.423996 -9.0078793 -73.027878 -0.17598324 -89.036568
9207875000 -0.87985748 124.12733 -9.0189991 -72.432922 -9.0108213 -73.031578 -0.17906885 -89.058716
9207937500 -0.87516099 124.12982 -9.0146017 -72.44783 -9.0144787 -72.985886 -0.17371747 -88.969742
9208000000 -0.88084161 124.12196 -9.0184116 -72.420181 -9.0139055 -72.980965 -0.17612007 -88.942299
9208062500 -0.88076001 124.12633 -9.0241079 -72.401001 -9.0135756 -73.006363 -0.17969535 -88.946396
9208125000 -0.87819141 124.11025 -9.0228882 -72.352776 -9.0160542 -73.032143 -0.18451644 -88.907547
9208187500 -0.87486506 124.10222 -9.0219049 -72.381409 -9.0120878 -72.958458 -0.18162054 -88.89592
9208250000 -0.87659204 124.08216 -9.0245695 -72.458565 -9.0148153 -72.947441 -0.18446589 -88.894699
9208312500 -0.86904979 124.11755 -9.0107622 -72.337105 -9.0085459 -72.88607 -0.18864202 -88.786148
9208375000 -0.87348884 124.0926 -9.0195456 -72.320496 -9.0155239 -72.871964 -0.19305883 -88.808441
9208437500 -0.87395412 124.03301 -9.0104694 -72.395203 -8.9985981 -72.917526 -0.17803442 -88.778168
9208500000 -0.87507403 124.04278 -9.0111456 -72.350571 -9.0086966 -72.911461 -0.18474452 -88.786568
9208562500 -0.86895591 123.97073 -9.0019598 -72.416901 -9.0107841 -72.908737 -0.18926713 -88.78141
9208625000 -0.87766874 123.96886 -9.0148573 -72.452637 -9.0013123 -72.970451 -0.18641172 -88.77224
9208687500 -0.8782286 123.96818 -9.0118675 -72.441612 -8.9921474 -72.891655 -0.18153268 -88.731964
9208750000 -0.87287211 123.91892 -9.0122519 -72.403442 -9.007596 -72.960426 -0.18458611 -88.771751
9208812500 -0.87665629 123.94653 -9.0026302 -72.43718 -9.0054979 -72.921425 -0.18677472 -88.715729
9208875000 -0.87938255 123.91493 -9.0097971 -72.519073 -9.0030823 -72.966957 -0.18639749 -88.740417
9208937500 -0.87079543 123.94711 -9.0001106 -72.417763 -9.0037699 -72.939682 -0.1842656 -88.749184
9209000000 -0.87719256 123.93678 -9.0107079 -72.441292 -9.0148544 -72.956772 -0.19282456 -88.727493
9209062500 -0.87700558 123.9752 -9.0089989 -72.391914 -9.0060434 -72.901031 -0.18511644 -88.693298
9209125000 -0.87543237 123.97407 -9.0086184 -72.351097 -8.9982157 -72.904434 -0.18367518 -88.684052
9209187500 -0.86835676 123.90421 -8.9969683 -72.353149 -9.0065269 -72.928337 -0.19312738 -88.629959
9209250000 -0.87238944 123.87318 -8.9969368 -72.372337 -9.0051956 -72.960678 -0.18485399 -88.633888
9209312500 -0.87296999 123.90417 -9.0053205 -72.38369 -9.0086126 -72.856583 -0.18945338 -88.626465
9209375000 -0.87168711 123.85818 -8.9997911 -72.405022 -9.0112066 -72.898651 -0.19527648 -88.578781
9209437500 -0.86599284 123.87268 -8.9945545 -72.432091 -9.0041199 -72.872108 -0.18819959 -88.575012
9209500000 -0.87311357 123.84285 -9.0004425 -72.360291 -9.010004 -72.909599 -0.18785523 -88.507202
9209562500 -0.8760764 123.77974 -8.9963436 -72.380119 -9.0020828 -72.926163 -0.18621032 -88.504997
9209625000 -0.87603652 123.78614 -9.0000267 -72.40905 -8.9970407 -72.889267 -0.17842245 -88.438065
9209687500 -0.87271088 123.77257 -8.9874783 -72.387062 -8.9908657 -72.924393 -0.1781422 -88.485046
9209750000 -0.87540799 123.78704 -9.002656 -72.369263 -8.9928226 -72.950668 -0.17952709 -88.467552
9209812500 -0.88169682 123.78591 -9.0090752 -72.380661 -8.992444 -72.940834 -0.18268457 -88.448479
9209875000 -0.87774974 123.74075 -9.0008698 -72.39019 -8.9910345 -72.904739 -0.1817904 -88.418289
9209937500 -0.87441444 123.71616 -8.9941502 -72.443306 -8.9855614 -72.856094 -0.17264216 -88.362259
9210000000 -0.87407136 123.73714 -8.9967594 -72.353455 -8.9925594 -72.856339 -0.18188813 -88.326431
9210062500 -0.87149286 123.69537 -8.9830351 -72.350121 -8.9897671 -72.848351 -0.18221776 -88.341331
9210125000 -0.87400275 123.71056 -8.9909878 -72.383766 -8.9917498 -72.847839 -0.17793809 -88.34285
9210187500 -0.87184918 123.71072 -8.9943266 -72.328987 -8.9818745 -72.90892 -0.17674614 -88.365562
9210250000 -0.87555993 123.66922 -8.993926 -72.340973 -8.9808226 -72.844498 -0.17878601 -88.307167
9210312500 -0.87002224 123.6434 -8.9935007 -72.391975 -8.9873724 -72.827385 -0.18386598 -88.286087
9210375000 -0.87145627 123.66398 -8.996047 -72.36451 -8.9921618 -72.835045 -0.18485542 -88.293587
9210437500 -0.86951965 123.63129 -8.9950371 -72.333199 -8.9850225 -72.805344 -0.18616752 -88.222733
9210500000 -0.87457639 123.63543 -8.9981823 -72.333755 -8.995718 -72.807327 -0.18703495 -88.210632
9210562500 -0.87355185 123.60942 -8.9954643 -72.316322 -8.9835806 -72.865112 -0.18692473 -88.231621
9210625000 -0.86937594 123.57668 -8.9983263 -72.383919 -8.9879885 -72.795906 -0.19090891 -88.172485
9210687500 -0.86251295 123.55557 -8.99716 -72.363258 -8.9846134 -72.860611 -0.19304472 -88.233406
9210750000 -0.87090498 123.52131 -8.9986248 -72.308929 -8.9888525 -72.87368 -0.19005081 -88.157906
9210812500 -0.86649519 123.49613 -8.9888945 -72.346024 -8.9866638 -72.868233 -0.19649935 -88.214104
9210875000 -0.8726961 123.47432 -8.9972172 -72.332153 -8.9856911 -72.824348 -0.19383094 -88.098381
9210937500 -0.87845236 123.47798 -8.9967155 -72.350517 -8.9807844 -72.859215 -0.18945907 -88.134743
9211000000 -0.87266642 123.46428 -8.9844666 -72.377258 -8.9772902 -72.856186 -0.19104844 -88.10672
9211062500 -0.87408388 123.4464 -8.9996138 -72.34153 -8.9800596 -72.871552 -0.19147512 -88.115913
9211125000 -0.87633443 123.46377 -8.9947786 -72.303322 -8.9814415 -72.936035 -0.18831781 -88.121078
9211187500 -0.87719065 123.45177 -8.9841442 -72.35157 -8.9891081 -72.961685 -0.19069374 -88.170685
9211250000 -0.88089806 123.44437 -8.9945784 -72.399818 -8.9817543 -72.884232 -0.19045614 -88.125771
9211312500 -0.878968 123.43658 -8.9822531 -72.381454 -8.9840364 -72.894569 -0.18419863 -88.168556
9211375000 -0.87494135 123.43268 -8.9782572 -72.316177 -8.9836502 -72.863953 -0.18485889 -87.996613
9211437500 -0.87840146 123.45782 -8.9907188 -72.279556 -8.9796505 -72.878738 -0.18996568 -87.97403
9211500000 -0.87252724 123.3878 -8.9823446 -72.385185 -8.9817181 -72.815605 -0.18952 -87.960472
9211562500 -0.87953097 123.37359 -8.9801502 -72.345634 -8.9800634 -72.900047 -0.18580499 -87.982368
9211625000 -0.879237 123.3644 -8.9803724 -72.365791 -8.9688292 -72.861496 -0.18392949 -87.964401
9211687500 -0.87569761 123.34431 -8.976944 -72.371887 -8.9790955 -72.831314 -0.19902402 -87.943077
9211750000 -0.87267148 123.3358 -8.9853468 -72.309845 -8.9805994 -72.819305 -0.19622435 -87.940971
9211812500 -0.88129854 123.29147 -8.9812593 -72.325478 -8.976531 -72.770302 -0.19517869 -87.88076
9211875000 -0.87388521 123.30172 -8.9763222 -72.263847 -8.9743624 -72.795166 -0.19812296 -87.873871
9211937500 -0.87954712 123.2481 -8.9814978 -72.318092 -8.9860611 -72.810829 -0.19617741 -87.852592
9212000000 -0.88116908 123.26118 -8.9678192 -72.339569 -8.9738579 -72.862297 -0.19476888 -87.814323
9212062500 -0.87705058 123.21574 -8.9659061 -72.339333 -8.9768963 -72.80407 -0.19233979 -87.793892
9212125000 -0.88164812 123.21095 -8.9723196 -72.341225 -8.9796734 -72.791351 -0.19917095 -87.748711
9212187500 -0.87745047 123.1963 -8.9681349 -72.30291 -8.9645882 -72.798279 -0.18881367 -87.692665
