!Agilent Technologies,N5242A,MY51221714,A.09.90.19
!Agilent N5242A: A.09.90.19
!Date: Saturday, March 16, 2024 09:09:55
!Correction: S11(Full 2 Port(1,2)) 
!S21(Full 2 Port(1,2)) 
!S12(Full 2 Port(1,2)) 
!S22(Full 2 Port(1,2)) 
!S2P File: Measurements: S11, S21, S12, S22:
# Hz S  dB   R 50
9200000000 -0.89319676 125.53171 -9.0405226 -72.988518 -9.0214462 -73.549049 -0.17657892 -91.410995
9200062500 -0.89626116 125.55978 -9.0439777 -72.997894 -9.0330534 -73.480988 -0.18316013 -91.379395
9200125000 -0.89636797 125.51981 -9.032093 -72.961029 -9.0251923 -73.561424 -0.17859975 -91.387421
9200187500 -0.89505148 125.53496 -9.0369673 -72.945976 -9.0232353 -73.560341 -0.17734043 -91.378815
9200250000 -0.89171094 125.4934 -9.0374441 -73.002708 -9.0190096 -73.53363 -0.1808487 -91.372101
9200312500 -0.8905735 125.49022 -9.0279961 -73.003693 -9.0220547 -73.539757 -0.17924081 -91.312592
9200375000 -0.89610082 125.48531 -9.03438 -72.934631 -9.0166235 -73.557281 -0.17436321 -91.350838
9200437500 -0.8925997 125.4611 -9.037384 -73.005501 -9.013978 -73.539246 -0.18193568 -91.317024
9200500000 -0.89188159 125.43751 -9.0264215 -72.975555 -9.01266 -73.519218 -0.18113878 -91.339745
9200562500 -0.88568723 125.41021 -9.0348339 -72.972809 -9.0169029 -73.516304 -0.18548808 -91.271584
9200625000 -0.89111978 125.39763 -9.0352697 -72.982399 -9.016715 -73.58239 -0.19011801 -91.278091
9200687500 -0.89002657 125.40439 -9.0281963 -72.942696 -9.0176992 -73.552383 -0.18887894 -91.187592
9200750000 -0.89230645 125.35162 -9.0292282 -72.993416 -9.0163479 -73.536774 -0.1949199 -91.200661
9200812500 -0.8974846 125.38789 -9.0366611 -72.951622 -9.0172329 -73.524513 -0.19678387 -91.188553
9200875000 -0.89130205 125.33806 -9.0288839 -72.916 -9.0076408 -73.483757 -0.18814486 -91.123413
9200937500 -0.89193702 125.34341 -9.0349045 -72.860588 -9.0078859 -73.489754 -0.19400361 -91.105072
9201000000 -0.89260346 125.33493 -9.0312157 -72.946854 -9.0156183 -73.4907 -0.1964719 -91.093094
9201062500 -0.88805193 125.31552 -9.0257282 -72.997597 -9.0148964 -73.511787 -0.19661835 -91.077698
9201125000 -0.8943578 125.28283 -9.0323648 -72.971451 -9.0133362 -73.500374 -0.18898854 -91.082199
9201187500 -0.88660288 125.29675 -9.0209732 -72.921936 -9.0147858 -73.527283 -0.19115753 -91.061272
9201250000 -0.89048374 125.24683 -9.0207195 -72.95681 -9.0138903 -73.45562 -0.18479764 -90.998055
9201312500 -0.89046091 125.24213 -9.0217781 -72.930023 -9.0125246 -73.525002 -0.18607628 -91.052612
9201375000 -0.89313102 125.23402 -9.0227919 -72.976967 -9.0032263 -73.520088 -0.18309976 -91.044693
9201437500 -0.8920837 125.23246 -9.0201292 -72.985367 -9.0135107 -73.469322 -0.1880614 -91.028389
9201500000 -0.89472568 125.21532 -9.0213137 -72.985603 -9.0120115 -73.530266 -0.19085282 -91.029251
9201562500 -0.89771581 125.18011 -9.0241299 -72.989105 -9.017786 -73.517128 -0.19071202 -91.0308
9201625000 -0.89939207 125.21374 -9.0276699 -72.909897 -9.0139637 -73.485985 -0.18735933 -90.982018
9201687500 -0.89706135 125.18929 -9.025569 -72.902512 -9.005147 -73.491699 -0.19115748 -90.994141
9201750000 -0.89286101 125.16418 -9.0236311 -72.923218 -9.007 -73.43158 -0.18954013 -90.915985
9201812500 -0.88840032 125.13631 -9.0211449 -72.923599 -9.0070562 -73.493721 -0.18986639 -90.948288
9201875000 -0.88842869 125.12896 -9.0189142 -72.948395 -9.00243 -73.488037 -0.19114271 -90.872147
9201937500 -0.88973129 125.0931 -9.0255919 -72.979462 -9.0069418 -73.444626 -0.19514221 -90.885475
9202000000 -0.891137 125.09222 -9.0080271 -72.931679 -9.0043354 -73.467705 -0.19252326 -90.846291
9202062500 -0.89004779 125.08229 -9.0178232 -72.884789 -9.0043688 -73.451988 -0.19465284 -90.814651
9202125000 -0.89350522 125.07108 -9.0101881 -72.901299 -8.9976492 -73.446495 -0.18637802 -90.816338
9202187500 -0.8921687 125.0288 -9.0023022 -72.973068 -9.0147972 -73.464668 -0.19453916 -90.814827
9202250000 -0.88916492 125.07897 -9.0010433 -72.91494 -9.0022354 -73.485924 -0.18753943 -90.777626
9202312500 -0.89064288 125.01476 -9.0057459 -72.943718 -9.012352 -73.495949 -0.18901753 -90.787193
9202375000 -0.89741123 124.99744 -9.0130482 -72.92971 -9.014822 -73.507233 -0.19728969 -90.725471
9202437500 -0.89409262 124.99995 -9.006443 -72.923882 -8.9916515 -73.509254 -0.18614502 -90.755936
9202500000 -0.89853489 125.003 -9.0107689 -72.93441 -9.0029697 -73.491112 -0.19309498 -90.704933
9202562500 -0.89443338 124.95591 -9.0151215 -72.989334 -8.9947872 -73.462456 -0.19156308 -90.69664
9202625000 -0.89555287 124.96158 -9.0128841 -72.9645 -9.0087681 -73.486794 -0.20326519 -90.665581
9202687500 -0.89205033 124.95391 -9.0138884 -72.951111 -9.0076036 -73.47007 -0.19973548 -90.641068
9202750000 -0.89358026 124.92975 -9.0189533 -72.985275 -8.9988947 -73.488838 -0.20233674 -90.643181
9202812500 -0.89216405 124.94405 -9.0083427 -72.924629 -9.0019808 -73.477089 -0.2012033 -90.606277
9202875000 -0.89415687 124.91254 -9.0055637 -72.889069 -8.9903946 -73.451111 -0.19362043 -90.598228
9202937500 -0.89235777 124.87996 -9.0078659 -72.928307 -8.9951448 -73.426765 -0.19357575 -90.572731
9203000000 -0.89318866 124.88187 -9.0090981 -72.95575 -8.9925346 -73.523643 -0.19604246 -90.617569
9203062500 -0.89470655 124.84352 -9.0080776 -72.964951 -8.9981241 -73.447701 -0.19626006 -90.557297
9203125000 -0.89072573 124.83572 -9.0131426 -72.905518 -8.999958 -73.494827 -0.1951194 -90.544968
9203187500 -0.89455467 124.85494 -9.0056105 -72.938316 -8.9899998 -73.418694 -0.19192149 -90.499603
9203250000 -0.89143896 124.82194 -8.9991322 -72.90081 -8.9948359 -73.443214 -0.1936478 -90.467262
9203312500 -0.89456052 124.79413 -9.0093412 -72.949425 -8.996274 -73.455719 -0.19622512 -90.463585
9203375000 -0.89526391 124.80151 -9.0069313 -72.926071 -8.9986954 -73.486237 -0.1951437 -90.454964
9203437500 -0.90078211 124.79461 -9.0079536 -72.97184 -8.9911461 -73.429146 -0.19601715 -90.425652
9203500000 -0.89314485 124.76276 -9.001667 -72.951988 -8.9917154 -73.424782 -0.19417976 -90.346375
9203562500 -0.88951838 124.72938 -9.0007925 -72.986626 -8.9960756 -73.421989 -0.20486981 -90.405991
9203625000 -0.89263576 124.72426 -9.0003929 -72.92688 -8.9888287 -73.478394 -0.19859473 -90.37043
9203687500 -0.8940146 124.72025 -8.9982033 -72.947433 -8.992487 -73.430069 -0.20107502 -90.384369
9203750000 -0.89798629 124.70049 -9.0010319 -72.915199 -8.9896984 -73.492599 -0.20071727 -90.343193
9203812500 -0.89559317 124.69883 -8.9966211 -72.920288 -8.98911 -73.48259 -0.20464888 -90.339775
9203875000 -0.89146358 124.6967 -8.995101 -72.936249 -8.9890852 -73.429817 -0.20546126 -90.336517
9203937500 -0.89121747 124.65514 -9.0047216 -72.929329 -8.9843493 -73.412033 -0.20891775 -90.295349
9204000000 -0.89156061 124.63661 -9.0003376 -72.938736 -8.9855423 -73.371132 -0.21331771 -90.231781
9204062500 -0.88853461 124.62749 -8.9926558 -72.925621 -8.9776564 -73.426064 -0.20909937 -90.31221
9204125000 -0.88446355 124.62822 -8.9954462 -72.897789 -8.9798632 -73.461548 -0.21230048 -90.276917
9204187500 -0.88804275 124.61821 -8.9996958 -72.927979 -8.9797277 -73.413033 -0.21202312 -90.210991
9204250000 -0.89215034 124.5932 -9.0071926 -72.89164 -8.9780445 -73.444107 -0.20987207 -90.190155
9204312500 -0.88784039 124.60399 -8.9935045 -72.880081 -8.9789495 -73.399353 -0.20965663 -90.25042
9204375000 -0.88543016 124.57456 -8.9916573 -72.874474 -8.9776525 -73.412033 -0.20042787 -90.196404
9204437500 -0.88532132 124.56186 -8.9941187 -72.83963 -8.9772358 -73.419319 -0.20181628 -90.138557
9204500000 -0.8847484 124.5282 -8.9904184 -72.871246 -8.970335 -73.401909 -0.2020231 -90.12912
9204562500 -0.88739234 124.49306 -8.9817123 -72.839104 -8.9744501 -73.378281 -0.19603577 -90.09478
9204625000 -0.88820398 124.47643 -8.9936619 -72.874504 -8.9792595 -73.351952 -0.19309491 -90.049179
9204687500 -0.88574493 124.5095 -8.9887285 -72.825096 -8.9770117 -73.417999 -0.20161328 -90.091797
9204750000 -0.88589031 124.47685 -8.9808893 -72.848885 -8.9768438 -73.393181 -0.19852982 -90.078163
9204812500 -0.89109325 124.49569 -8.9901409 -72.847038 -8.9798574 -73.413574 -0.19977874 -90.081512
9204875000 -0.88872159 124.45895 -8.9863501 -72.827652 -8.9643469 -73.422867 -0.1919912 -90.045509
9204937500 -0.88807052 124.48767 -8.9874706 -72.803902 -8.9682093 -73.370781 -0.20300676 -90.013138
9205000000 -0.89634222 124.42852 -8.9885254 -72.876198 -8.9756546 -73.406868 -0.20253801 -90.019218
9205062500 -0.88962448 124.44781 -8.9816904 -72.82283 -8.9740801 -73.409676 -0.19864477 -90.009941
9205125000 -0.89273888 124.39202 -8.9888544 -72.857971 -8.9670534 -73.422874 -0.19917665 -89.970749
9205187500 -0.89739454 124.35492 -8.9827118 -72.835487 -8.9755468 -73.37114 -0.19758274 -89.945694
9205250000 -0.89181417 124.35414 -8.9888468 -72.819397 -8.9808893 -73.399391 -0.20783623 -89.912521
9205312500 -0.89466113 124.32495 -8.9814939 -72.823624 -8.9723463 -73.379547 -0.19510734 -89.940567
9205375000 -0.89523488 124.3122 -8.9752178 -72.786003 -8.9723406 -73.388702 -0.19866218 -89.921501
9205437500 -0.89461464 124.32118 -8.9738846 -72.797348 -8.9736252 -73.425713 -0.19964507 -89.930931
9205500000 -0.90120852 124.32249 -8.9753551 -72.799255 -8.9749537 -73.425011 -0.19801444 -89.909897
9205562500 -0.89768332 124.25768 -8.9807787 -72.862961 -8.9815741 -73.397278 -0.20390745 -89.865768
9205625000 -0.89620119 124.25279 -8.9813509 -72.827431 -8.9756651 -73.355721 -0.20128945 -89.868462
9205687500 -0.89735746 124.25552 -8.9789705 -72.901283 -8.9825315 -73.373924 -0.20568797 -89.832558
9205750000 -0.89593083 124.28695 -8.9754725 -72.846184 -8.9714785 -73.381058 -0.19968858 -89.820152
9205812500 -0.89365911 124.25863 -8.9805183 -72.857628 -8.9816074 -73.381744 -0.2050826 -89.829041
9205875000 -0.88831848 124.24166 -8.9727001 -72.866295 -8.9791756 -73.376564 -0.20952174 -89.801041
9205937500 -0.88751924 124.25267 -8.980793 -72.8125 -8.9769087 -73.365318 -0.20742503 -89.737
9206000000 -0.89305073 124.21698 -8.9832287 -72.840424 -8.9643669 -73.375984 -0.20041411 -89.725395
9206062500 -0.88623863 124.19614 -8.972641 -72.853348 -8.9715834 -73.337379 -0.20563902 -89.663078
9206125000 -0.88445032 124.16944 -8.9652891 -72.860291 -8.9711275 -73.367867 -0.20209061 -89.693695
9206187500 -0.89007378 124.18449 -8.9732809 -72.810593 -8.9759264 -73.336525 -0.21124966 -89.667915
9206250000 -0.88683254 124.16769 -8.9703808 -72.795639 -8.9679146 -73.338692 -0.20245256 -89.628677
9206312500 -0.89335734 124.17355 -8.9771318 -72.756149 -8.9566803 -73.371613 -0.19979267 -89.653801
9206375000 -0.88549608 124.18053 -8.96486 -72.861107 -8.9594259 -73.389725 -0.20518658 -89.631012
9206437500 -0.88947183 124.16737 -8.9708681 -72.773872 -8.9598885 -73.34491 -0.2049278 -89.576347
9206500000 -0.88541168 124.10887 -8.9668541 -72.798996 -8.9496565 -73.307022 -0.19943377 -89.563515
9206562500 -0.89152735 124.13934 -8.9655094 -72.732483 -8.9594126 -73.39901 -0.19748345 -89.600922
9206625000 -0.88960665 124.08181 -8.9522362 -72.815895 -8.953145 -73.344597 -0.19927688 -89.554359
9206687500 -0.89761162 124.08644 -8.9582014 -72.767044 -8.9473515 -73.378662 -0.19094972 -89.566399
9206750000 -0.8947044 124.0776 -8.9468374 -72.762398 -8.9422827 -73.316002 -0.18836065 -89.469444
9206812500 -0.9015525 124.01965 -8.9611635 -72.793228 -8.9475288 -73.324646 -0.18866311 -89.465179
9206875000 -0.89731765 124.06735 -8.9541368 -72.711151 -8.9406157 -73.362808 -0.18934333 -89.453903
9206937500 -0.89391285 124.04948 -8.9607344 -72.728767 -8.9496946 -73.379646 -0.19904706 -89.465385
9207000000 -0.8986764 123.99654 -8.9678574 -72.840912 -8.9508829 -73.333015 -0.20573597 -89.458626
9207062500 -0.88776457 123.99097 -8.961729 -72.749329 -8.9534731 -73.323814 -0.20679586 -89.395363
9207125000 -0.88679993 123.96434 -8.9545231 -72.792755 -8.9548979 -73.311356 -0.20796178 -89.391983
9207187500 -0.89041156 123.94044 -8.9511776 -72.841194 -8.9571571 -73.366745 -0.21174167 -89.386192
9207250000 -0.88970041 123.92496 -8.9677057 -72.84285 -8.9551287 -73.330055 -0.21484496 -89.373711
9207312500 -0.88715804 123.89841 -8.9575624 -72.827812 -8.9595118 -73.329277 -0.21709803 -89.377174
9207375000 -0.89020765 123.85459 -8.9596977 -72.840675 -8.9546127 -73.337517 -0.21525599 -89.387466
9207437500 -0.89360762 123.82285 -8.959033 -72.858032 -8.955883 -73.311798 -0.21411629 -89.386971
9207500000 -0.88839781 123.85265 -8.953125 -72.766853 -8.9491367 -73.314629 -0.20537227 -89.327553
9207562500 -0.89439648 123.80611 -8.9563475 -72.848328 -8.9453754 -73.361732 -0.21073182 -89.293671
9207625000 -0.89239842 123.79628 -8.9526644 -72.824097 -8.9497757 -73.330055 -0.21323311 -89.274765
9207687500 -0.89516097 123.75854 -8.9574661 -72.854691 -8.9393339 -73.364059 -0.2045431 -89.272285
9207750000 -0.8948248 123.76424 -8.9467535 -72.816048 -8.9399605 -73.336533 -0.20246704 -89.236862
9207812500 -0.89936614 123.74609 -8.9555216 -72.817612 -8.9396572 -73.394737 -0.19462825 -89.257996
9207875000 -0.89769888 123.79722 -8.9538536 -72.742279 -8.9442425 -73.367554 -0.19608 -89.243179
9207937500 -0.90146172 123.79061 -8.957756 -72.774315 -8.9388199 -73.398766 -0.19666752 -89.222145
9208000000 -0.89553446 123.73858 -8.9431629 -72.780342 -8.9402294 -73.348671 -0.19951794 -89.147263
9208062500 -0.89466655 123.76048 -8.9476109 -72.836456 -8.9340324 -73.403847 -0.19960068 -89.190674
9208125000 -0.89855969 123.74834 -8.9504614 -72.836174 -8.9416847 -73.410614 -0.20749721 -89.151207
9208187500 -0.89694268 123.74041 -8.951828 -72.765144 -8.9392004 -73.299858 -0.21080968 -89.076836
9208250000 -0.89539647 123.75172 -8.9484539 -72.746574 -8.9413166 -73.27636 -0.20952822 -89.070618
9208312500 -0.89779061 123.72367 -8.9529438 -72.770592 -8.946908 -73.309372 -0.21015728 -89.059441
9208375000 -0.89590263 123.72289 -8.958416 -72.739212 -8.9479418 -73.293816 -0.22186045 -89.058174
9208437500 -0.8950088 123.68056 -8.9488153 -72.782318 -8.9406128 -73.25663 -0.21508369 -88.98246
9208500000 -0.89211446 123.66714 -8.9398441 -72.774437 -8.9344559 -73.257668 -0.21246143 -88.995735
9208562500 -0.89060038 123.66183 -8.9433088 -72.764977 -8.9405737 -73.229721 -0.21332622 -88.990486
9208625000 -0.89448678 123.57416 -8.9489975 -72.836708 -8.9353409 -73.297523 -0.2032878 -88.985878
9208687500 -0.89580274 123.58758 -8.9466219 -72.801498 -8.9383078 -73.313683 -0.21297134 -89.03878
9208750000 -0.89356959 123.55727 -8.9427919 -72.835426 -8.9366093 -73.349861 -0.21111724 -89.022354
9208812500 -0.88647813 123.54984 -8.9316559 -72.809921 -8.9385624 -73.267822 -0.20589715 -88.944633
9208875000 -0.89352489 123.58813 -8.9339848 -72.750214 -8.9371157 -73.283073 -0.20831539 -88.928818
9208937500 -0.89292639 123.59251 -8.9463196 -72.861122 -8.9407043 -73.331284 -0.21061729 -88.956032
9209000000 -0.89136338 123.6284 -8.9484262 -72.705826 -8.9415188 -73.275063 -0.21169561 -88.931068
9209062500 -0.89199829 123.60609 -8.9375334 -72.723351 -8.940752 -73.264534 -0.21194534 -88.898117
9209125000 -0.89418948 123.60989 -8.9369888 -72.756073 -8.938611 -73.255981 -0.21544933 -88.897652
9209187500 -0.89053285 123.53854 -8.9267616 -72.745529 -8.9351902 -73.256989 -0.20925049 -88.852737
9209250000 -0.89235431 123.55344 -8.9287806 -72.772133 -8.9376497 -73.293526 -0.21045765 -88.875252
9209312500 -0.89234614 123.54852 -8.9258938 -72.717758 -8.9366188 -73.223457 -0.21100849 -88.798256
9209375000 -0.89163411 123.5237 -8.9277201 -72.764595 -8.9374037 -73.291779 -0.21499775 -88.869659
9209437500 -0.88907832 123.47876 -8.9245558 -72.757515 -8.9275351 -73.230309 -0.2106443 -88.765434
9209500000 -0.89442545 123.46986 -8.9328442 -72.775726 -8.9383345 -73.234886 -0.21361767 -88.733093
9209562500 -0.89505267 123.41756 -8.9275436 -72.807045 -8.9353018 -73.265572 -0.21271831 -88.684837
9209625000 -0.89069366 123.43521 -8.9324446 -72.77153 -8.9339828 -73.271751 -0.21304397 -88.729782
9209687500 -0.8976528 123.41391 -8.9374475 -72.789375 -8.9346838 -73.275581 -0.21254282 -88.716225
9209750000 -0.89842397 123.38966 -8.9327097 -72.817085 -8.9307346 -73.279091 -0.20794144 -88.683372
9209812500 -0.89658576 123.37047 -8.9290838 -72.75824 -8.9314346 -73.292831 -0.20317052 -88.686821
9209875000 -0.89728254 123.39402 -8.9289722 -72.802078 -8.9273214 -73.213158 -0.20244698 -88.615257
9209937500 -0.89357007 123.33903 -8.9334927 -72.86132 -8.9220142 -73.301109 -0.20679304 -88.654129
9210000000 -0.89861405 123.37251 -8.9317627 -72.76355 -8.9201813 -73.288826 -0.20493691 -88.61853
9210062500 -0.89208096 123.37375 -8.9244108 -72.684227 -8.9263945 -73.236565 -0.20486847 -88.554169
9210125000 -0.88825679 123.32583 -8.9296093 -72.768883 -8.929594 -73.208618 -0.21055949 -88.596146
9210187500 -0.89477849 123.29829 -8.9297647 -72.785835 -8.9169216 -73.204315 -0.19974712 -88.521805
9210250000 -0.89090025 123.30597 -8.9283781 -72.767265 -8.9236174 -73.280441 -0.21132416 -88.55423
9210312500 -0.8918047 123.30523 -8.9291782 -72.76506 -8.9177637 -73.204453 -0.20541018 -88.521233
9210375000 -0.88934386 123.27195 -8.922411 -72.713585 -8.9195061 -73.270897 -0.21208413 -88.54361
9210437500 -0.89010042 123.26773 -8.9249678 -72.723442 -8.9236469 -73.177261 -0.21444654 -88.488457
9210500000 -0.89146936 123.24219 -8.9240618 -72.678108 -8.9188385 -73.27861 -0.21425201 -88.489456
9210562500 -0.89178956 123.24508 -8.9283514 -72.736664 -8.9163418 -73.257057 -0.21713424 -88.481743
9210625000 -0.88878703 123.20543 -8.9227428 -72.664337 -8.9298506 -73.23204 -0.22258291 -88.440605
9210687500 -0.89168602 123.20492 -8.92805 -72.709435 -8.9200258 -73.234344 -0.22024387 -88.41069
9210750000 -0.88610494 123.15382 -8.9127846 -72.740196 -8.9117012 -73.261742 -0.21977516 -88.431358
9210812500 -0.88552541 123.1712 -8.9290972 -72.696213 -8.9141254 -73.219994 -0.22303066 -88.369553
9210875000 -0.89010632 123.15995 -8.922122 -72.674103 -8.9212551 -73.264221 -0.22447552 -88.362885
9210937500 -0.8985545 123.13247 -8.9281759 -72.649948 -8.9170666 -73.225945 -0.22304098 -88.313194
9211000000 -0.89188552 123.09518 -8.9256344 -72.71167 -8.9191971 -73.268578 -0.2231399 -88.367043
9211062500 -0.89037281 123.12993 -8.9201803 -72.728798 -8.9109364 -73.334167 -0.21459891 -88.356842
9211125000 -0.89325547 123.07272 -8.9112406 -72.706474 -8.9142427 -73.262131 -0.21542314 -88.344734
9211187500 -0.89757478 123.07957 -8.9186954 -72.731766 -8.9128675 -73.277969 -0.21536489 -88.357422
9211250000 -0.89758414 123.0686 -8.9127035 -72.754898 -8.9118757 -73.249588 -0.21577552 -88.347969
9211312500 -0.90004158 123.07027 -8.9070826 -72.799263 -8.9050922 -73.249596 -0.20697287 -88.328667
9211375000 -0.89498055 123.06866 -8.9119644 -72.683289 -8.9114733 -73.262772 -0.20541075 -88.21624
9211437500 -0.89608741 123.06577 -8.9085102 -72.716461 -8.903964 -73.239815 -0.2060001 -88.221207
9211500000 -0.89437509 123.06233 -8.9143963 -72.690895 -8.9052868 -73.265701 -0.20924386 -88.222961
9211562500 -0.8962093 123.05209 -8.9229774 -72.637306 -8.9070749 -73.218521 -0.2147665 -88.204651
9211625000 -0.89925575 122.99883 -8.9128923 -72.709366 -8.9044304 -73.199692 -0.21710862 -88.183617
9211687500 -0.89583808 122.96964 -8.9047832 -72.711975 -8.9082212 -73.221954 -0.21760316 -88.187729
9211750000 -0.89797002 122.95203 -8.9100437 -72.663429 -8.9032707 -73.185265 -0.21776308 -88.179123
9211812500 -0.89652133 122.97387 -8.9089441 -72.635208 -8.9104357 -73.16394 -0.22928624 -88.134331
9211875000 -0.89642954 122.92611 -8.9128752 -72.677147 -8.9092922 -73.179146 -0.22409259 -88.086067
9211937500 -0.89868993 122.9099 -8.9128971 -72.673286 -8.9073486 -73.276314 -0.22462903 -88.109848
9212000000 -0.8974579 122.90127 -8.9034624 -72.741829 -8.9019146 -73.161713 -0.2187174 -88.034592
9212062500 -0.90222251 122.83927 -8.9066057 -72.737823 -8.9097347 -73.146057 -0.22367468 -88.024902
9212125000 -0.89651221 122.85484 -8.9084759 -72.726349 -8.9087152 -73.213051 -0.21572636 -87.975822
9212187500 -0.90176171 122.81516 -8.905715 -72.72419 -8.9023371 -73.175896 -0.22419511 -87.975006
