!Agilent Technologies,N5242A,MY51221714,A.09.90.19
!Agilent N5242A: A.09.90.19
!Date: Saturday, March 16, 2024 09:10:53
!Correction: S11(Full 2 Port(1,2)) 
!S21(Full 2 Port(1,2)) 
!S12(Full 2 Port(1,2)) 
!S22(Full 2 Port(1,2)) 
!S2P File: Measurements: S11, S21, S12, S22:
# Hz S  dB   R 50
9200000000 -1.0154901 124.70539 -8.9257946 -74.223686 -8.9193048 -74.770668 -0.24813123 -91.805946
9200062500 -1.024655 124.6845 -8.9430256 -74.278244 -8.9196415 -74.76841 -0.2484329 -91.830864
9200125000 -1.0211167 124.67486 -8.9276505 -74.30262 -8.916728 -74.82135 -0.24402761 -91.854782
9200187500 -1.0172811 124.63288 -8.9151115 -74.321686 -8.9128695 -74.847916 -0.24640825 -91.827003
9200250000 -1.0206612 124.63226 -8.9302626 -74.219482 -8.9091206 -74.856781 -0.24324188 -91.830635
9200312500 -1.0196059 124.61765 -8.9255333 -74.223404 -8.9131021 -74.867081 -0.2472766 -91.761757
9200375000 -1.0160466 124.61337 -8.9253626 -74.294098 -8.9100885 -74.851654 -0.24722949 -91.778862
9200437500 -1.013872 124.57607 -8.9160357 -74.243141 -8.9039822 -74.803574 -0.24805996 -91.757309
9200500000 -1.019177 124.5623 -8.9240103 -74.27874 -8.9039783 -74.814133 -0.25225258 -91.709702
9200562500 -1.0124308 124.5707 -8.9174433 -74.272896 -8.8968649 -74.77829 -0.24842516 -91.690468
9200625000 -1.0154063 124.53767 -8.9191771 -74.259605 -8.9026604 -74.824951 -0.25350681 -91.677216
9200687500 -1.0179511 124.55721 -8.9243727 -74.222153 -8.9046268 -74.831352 -0.26143476 -91.633278
9200750000 -1.0096364 124.54558 -8.9174805 -74.193756 -8.9017391 -74.792229 -0.25593579 -91.619728
9200812500 -1.0195074 124.50069 -8.9231911 -74.26899 -8.9047489 -74.809494 -0.26627055 -91.582527
9200875000 -1.0199854 124.50419 -8.9162292 -74.196785 -8.8940067 -74.793007 -0.25881121 -91.553185
9200937500 -1.019805 124.49595 -8.9254169 -74.150574 -8.9053202 -74.778664 -0.26257792 -91.537926
9201000000 -1.017233 124.46927 -8.9145975 -74.19928 -8.903985 -74.797768 -0.25963113 -91.538231
9201062500 -1.0118523 124.42105 -8.9157343 -74.28759 -8.9099493 -74.787003 -0.26597494 -91.512573
9201125000 -1.0116246 124.43807 -8.9103117 -74.220108 -8.8948107 -74.819939 -0.25561658 -91.497467
9201187500 -1.0091618 124.4297 -8.9033709 -74.217758 -8.9046669 -74.775284 -0.25761399 -91.501419
9201250000 -1.0099679 124.42003 -8.9114799 -74.282257 -8.9053249 -74.799728 -0.25839379 -91.437546
9201312500 -1.0151047 124.38243 -8.9133768 -74.29348 -8.901474 -74.808434 -0.253131 -91.4804
9201375000 -1.0194546 124.39577 -8.9093084 -74.27961 -8.9026089 -74.812698 -0.25673032 -91.494362
9201437500 -1.0169544 124.37861 -8.9142942 -74.196686 -8.9007416 -74.763351 -0.26134899 -91.492859
9201500000 -1.0232856 124.37003 -8.9161415 -74.241951 -8.9057436 -74.737419 -0.25247154 -91.445946
9201562500 -1.020385 124.37301 -8.9171972 -74.263313 -8.9024496 -74.786552 -0.25657472 -91.465172
9201625000 -1.0214949 124.36209 -8.9143572 -74.195564 -8.9011364 -74.768929 -0.26139772 -91.412575
9201687500 -1.0253241 124.36473 -8.9206667 -74.204865 -8.8988743 -74.825417 -0.26353252 -91.427002
9201750000 -1.0204355 124.34011 -8.9158068 -74.185272 -8.8971748 -74.772041 -0.26348647 -91.377838
9201812500 -1.0151076 124.30019 -8.9143248 -74.22065 -8.8940315 -74.712631 -0.25886333 -91.342987
9201875000 -1.0170822 124.28409 -8.9064751 -74.210922 -8.8995199 -74.755608 -0.25892708 -91.313927
9201937500 -1.0155315 124.25626 -8.9125347 -74.233391 -8.8886814 -74.767464 -0.25898337 -91.278694
9202000000 -1.0123429 124.22272 -8.9063559 -74.248055 -8.8975782 -74.760345 -0.26255736 -91.275627
9202062500 -1.0166624 124.22827 -8.9102392 -74.211884 -8.8961086 -74.726448 -0.26127309 -91.245605
9202125000 -1.0146898 124.18146 -8.898531 -74.302689 -8.8908558 -74.75042 -0.26338491 -91.233101
9202187500 -1.0132782 124.17921 -8.9004421 -74.263786 -8.8971653 -74.756844 -0.26158178 -91.247795
9202250000 -1.0127594 124.17554 -8.8879547 -74.217369 -8.8938303 -74.772408 -0.2565034 -91.216164
9202312500 -1.020407 124.1823 -8.8876352 -74.21714 -8.8989067 -74.798325 -0.25453249 -91.232254
9202375000 -1.01588 124.19328 -8.8881168 -74.176254 -8.9064198 -74.822243 -0.26296258 -91.232002
9202437500 -1.019999 124.16309 -8.8989782 -74.183258 -8.8929539 -74.748962 -0.25789386 -91.126183
9202500000 -1.0159492 124.14892 -8.8977041 -74.215187 -8.8903961 -74.784843 -0.26524386 -91.136337
9202562500 -1.019363 124.12923 -8.9023428 -74.225922 -8.8877115 -74.807663 -0.26032269 -91.137299
9202625000 -1.016216 124.11724 -8.8917274 -74.254181 -8.8948498 -74.81916 -0.26637959 -91.128281
9202687500 -1.0187057 124.10877 -8.8961258 -74.21994 -8.8977394 -74.710922 -0.27391583 -91.048477
9202750000 -1.0251508 124.08555 -8.896225 -74.21756 -8.8865089 -74.759064 -0.27205518 -91.044655
9202812500 -1.0153462 124.08558 -8.8892756 -74.192528 -8.8911095 -74.740295 -0.26832995 -91.055206
9202875000 -1.0210817 124.07179 -8.9015722 -74.231331 -8.8834572 -74.75724 -0.26134118 -91.049751
9202937500 -1.0197917 124.0295 -8.8985968 -74.201523 -8.8875961 -74.71788 -0.26691878 -90.953461
9203000000 -1.0202494 123.98444 -8.894558 -74.265678 -8.8850393 -74.741524 -0.26379704 -90.987244
9203062500 -1.0197833 124.01356 -8.8951263 -74.226555 -8.8822527 -74.738655 -0.26557195 -90.969955
9203125000 -1.020342 123.95937 -8.8998346 -74.231697 -8.8735209 -74.776253 -0.25881529 -90.96431
9203187500 -1.0172271 123.94781 -8.8862228 -74.239334 -8.8814545 -74.744064 -0.26139086 -90.957298
9203250000 -1.0154977 123.99998 -8.8924284 -74.210747 -8.873085 -74.754959 -0.26009163 -90.941368
9203312500 -1.0169388 123.96068 -8.9013557 -74.186119 -8.8914442 -74.760773 -0.2709685 -90.918808
9203375000 -1.0211926 123.96596 -8.8996992 -74.195686 -8.8898115 -74.784927 -0.26410118 -90.92157
9203437500 -1.0171299 123.98278 -8.8808918 -74.165428 -8.8811045 -74.805336 -0.26025036 -90.920029
9203500000 -1.0148152 123.92931 -8.8855066 -74.21048 -8.8893642 -74.733398 -0.26367104 -90.83326
9203562500 -1.017432 123.95042 -8.8960857 -74.176392 -8.8865442 -74.733658 -0.26844999 -90.791428
9203625000 -1.0106881 123.90524 -8.8788729 -74.214195 -8.8802977 -74.744843 -0.26980549 -90.84063
9203687500 -1.0172925 123.88761 -8.8898983 -74.240196 -8.8822441 -74.715683 -0.26813293 -90.783676
9203750000 -1.0171643 123.82577 -8.8804035 -74.266983 -8.8775845 -74.733582 -0.26800606 -90.787941
9203812500 -1.0186442 123.86746 -8.8898668 -74.111 -8.8806734 -74.749359 -0.27296916 -90.7911
9203875000 -1.0144545 123.84805 -8.8811636 -74.211296 -8.8761358 -74.727898 -0.27194369 -90.741119
9203937500 -1.0138562 123.79829 -8.8818722 -74.228447 -8.8787937 -74.69381 -0.27420595 -90.705353
9204000000 -1.0165684 123.79943 -8.8919725 -74.199142 -8.8729677 -74.687363 -0.27575111 -90.685524
9204062500 -1.0151784 123.81219 -8.892951 -74.194588 -8.8590946 -74.695328 -0.27059779 -90.693146
9204125000 -1.0149055 123.77145 -8.8824501 -74.203178 -8.8673134 -74.70771 -0.28262994 -90.670433
9204187500 -1.0111227 123.77258 -8.8914633 -74.213875 -8.8737535 -74.731262 -0.28241277 -90.666512
9204250000 -1.0110013 123.7113 -8.8850222 -74.213684 -8.8677273 -74.716843 -0.27809399 -90.654434
9204312500 -1.0082906 123.71199 -8.8754425 -74.234161 -8.8707438 -74.735031 -0.27521926 -90.635727
9204375000 -1.011584 123.71272 -8.875555 -74.18013 -8.8625603 -74.69059 -0.27166381 -90.598869
9204437500 -1.0115498 123.70127 -8.8834629 -74.168228 -8.8727856 -74.693375 -0.26873434 -90.610817
9204500000 -1.0050662 123.67436 -8.8772039 -74.160027 -8.8662357 -74.721901 -0.27050975 -90.570389
9204562500 -1.0048937 123.63538 -8.8647308 -74.155258 -8.8707294 -74.718941 -0.271539 -90.560783
9204625000 -1.0104063 123.65231 -8.8791533 -74.134956 -8.8701534 -74.774155 -0.26771152 -90.562111
9204687500 -1.0096685 123.6152 -8.880024 -74.18248 -8.8605461 -74.713959 -0.26280484 -90.492882
9204750000 -1.0111039 123.62188 -8.8692827 -74.134399 -8.8530283 -74.712318 -0.25996593 -90.479927
9204812500 -1.0114838 123.61549 -8.8779459 -74.150185 -8.8555212 -74.653542 -0.26134145 -90.458771
9204875000 -1.0152849 123.6152 -8.8744535 -74.158958 -8.8628464 -74.659103 -0.2715472 -90.450005
9204937500 -1.0169675 123.6257 -8.8800812 -74.128242 -8.8634644 -74.675972 -0.27112731 -90.461098
9205000000 -1.0151722 123.58025 -8.8714676 -74.179535 -8.8599758 -74.717415 -0.27460042 -90.430382
9205062500 -1.014647 123.58099 -8.8747816 -74.180984 -8.8625317 -74.77317 -0.26979113 -90.448555
9205125000 -1.0137552 123.59389 -8.874218 -74.093147 -8.8629189 -74.763283 -0.27354813 -90.44577
9205187500 -1.0207212 123.56069 -8.8783855 -74.135605 -8.8670397 -74.741463 -0.26796532 -90.368004
9205250000 -1.020611 123.50661 -8.8711443 -74.164886 -8.8621559 -74.692505 -0.26996207 -90.340553
9205312500 -1.0259418 123.47478 -8.8627071 -74.135017 -8.8675928 -74.758583 -0.26943314 -90.392021
9205375000 -1.0198619 123.49466 -8.8625107 -74.083931 -8.8560581 -74.73642 -0.26631606 -90.350037
9205437500 -1.0236694 123.45115 -8.8615885 -74.122055 -8.8607187 -74.722092 -0.27217725 -90.308083
9205500000 -1.0237198 123.46519 -8.8691092 -74.108543 -8.8601255 -74.746666 -0.26514035 -90.314499
9205562500 -1.0203776 123.47314 -8.8678265 -74.150612 -8.8645811 -74.737251 -0.26807261 -90.31353
9205625000 -1.0213321 123.43501 -8.8584948 -74.132385 -8.8570824 -74.668716 -0.26373711 -90.278549
9205687500 -1.018171 123.43133 -8.865181 -74.177376 -8.8614607 -74.654182 -0.26783618 -90.276466
9205750000 -1.0160084 123.40753 -8.8618088 -74.114769 -8.862071 -74.654968 -0.27101293 -90.249954
9205812500 -1.0126747 123.41557 -8.8608894 -74.104095 -8.8729115 -74.634247 -0.27904236 -90.213608
9205875000 -1.0196561 123.38268 -8.8646393 -74.127441 -8.8651209 -74.644379 -0.27683163 -90.240845
9205937500 -1.0148342 123.37463 -8.8626852 -74.136093 -8.8652592 -74.685036 -0.27831689 -90.18087
9206000000 -1.0189902 123.3736 -8.8676662 -74.127731 -8.8619728 -74.658821 -0.274239 -90.170509
9206062500 -1.0129403 123.36244 -8.852932 -74.108452 -8.8644772 -74.692787 -0.27899218 -90.126724
9206125000 -1.0082232 123.33875 -8.8591852 -74.093781 -8.8577328 -74.634407 -0.27492011 -90.09063
9206187500 -1.0132864 123.37121 -8.8624029 -74.100937 -8.8603363 -74.663452 -0.27208182 -90.081978
9206250000 -1.0141251 123.32975 -8.8554354 -74.129875 -8.8532782 -74.679665 -0.27488205 -90.091141
9206312500 -1.0163373 123.31483 -8.8566875 -74.106499 -8.8526917 -74.669632 -0.27243978 -90.065392
9206375000 -1.0153052 123.3159 -8.8484659 -74.09301 -8.8524637 -74.685478 -0.26428214 -90.053391
9206437500 -1.0189073 123.30435 -8.859457 -74.098267 -8.8445387 -74.676918 -0.27297583 -90.06414
9206500000 -1.0135179 123.27298 -8.8514805 -74.102859 -8.8432207 -74.659966 -0.27194539 -90.005501
9206562500 -1.0196402 123.26576 -8.851038 -74.144615 -8.8433208 -74.666199 -0.26629144 -90.017349
9206625000 -1.0134169 123.24815 -8.8482628 -74.085495 -8.8434525 -74.653931 -0.26588485 -89.968506
9206687500 -1.0229034 123.23137 -8.8427067 -74.100273 -8.8384123 -74.708374 -0.25754955 -89.974907
9206750000 -1.0266411 123.23799 -8.852107 -74.124573 -8.8357134 -74.663971 -0.25859526 -89.899834
9206812500 -1.023367 123.21157 -8.8516216 -74.098976 -8.838665 -74.667824 -0.26512635 -89.9049
9206875000 -1.0223349 123.19645 -8.8430719 -74.123848 -8.8365946 -74.677681 -0.26120213 -89.886353
9206937500 -1.0178024 123.16337 -8.8384762 -74.108978 -8.8368502 -74.623405 -0.27073592 -89.873886
9207000000 -1.0181624 123.12192 -8.844348 -74.110992 -8.8477192 -74.687119 -0.27977288 -89.826431
9207062500 -1.0147527 123.10157 -8.8433924 -74.135887 -8.8401918 -74.651817 -0.27315915 -89.881027
9207125000 -1.014608 123.1131 -8.8450089 -74.088936 -8.8332272 -74.683929 -0.27436203 -89.822845
9207187500 -1.0091417 123.09397 -8.8424807 -74.091354 -8.8445597 -74.664131 -0.27514678 -89.819
9207250000 -1.0108801 123.08788 -8.8547258 -74.085114 -8.8524618 -74.60199 -0.28275716 -89.79306
9207312500 -1.0141759 123.03773 -8.8515043 -74.185699 -8.8455954 -74.621353 -0.28293923 -89.802475
9207375000 -1.0116723 123.02854 -8.8436241 -74.108452 -8.8389387 -74.585548 -0.27724612 -89.734779
9207437500 -1.0151299 123.00333 -8.8449802 -74.097534 -8.8329277 -74.671181 -0.27522409 -89.831261
9207500000 -1.0170922 122.99487 -8.8442564 -74.115707 -8.8280611 -74.632027 -0.27237394 -89.721703
9207562500 -1.0146786 122.97566 -8.843461 -74.107643 -8.8395386 -74.701019 -0.28796372 -89.744614
9207625000 -1.0163989 122.94871 -8.8400927 -74.139313 -8.8294086 -74.660385 -0.28044394 -89.764275
9207687500 -1.0181043 122.96208 -8.833128 -74.130684 -8.8355446 -74.650139 -0.27215064 -89.725319
9207750000 -1.0208099 122.95336 -8.8460913 -74.121475 -8.8367739 -74.63121 -0.2742494 -89.695534
9207812500 -1.0173278 122.92886 -8.8359432 -74.157166 -8.8304005 -74.658508 -0.26759455 -89.63179
9207875000 -1.0212531 122.90591 -8.8422527 -74.124252 -8.8373423 -74.719521 -0.27772585 -89.651489
9207937500 -1.0195401 122.90423 -8.825634 -74.140724 -8.8278751 -74.675095 -0.26760772 -89.64959
9208000000 -1.0241662 122.93295 -8.8341293 -74.056381 -8.8264704 -74.654648 -0.27136147 -89.589561
9208062500 -1.0221624 122.90609 -8.8329287 -74.09198 -8.8294373 -74.673111 -0.27692759 -89.550537
9208125000 -1.0239166 122.88676 -8.8360968 -74.10807 -8.8333111 -74.628426 -0.28010517 -89.552711
9208187500 -1.0258869 122.88844 -8.842988 -74.113541 -8.8407812 -74.671707 -0.28557152 -89.5345
9208250000 -1.0179602 122.87946 -8.8379736 -74.056061 -8.8321257 -74.608261 -0.27652028 -89.524323
9208312500 -1.019527 122.88159 -8.8371639 -74.062134 -8.8322172 -74.625778 -0.2849026 -89.492813
9208375000 -1.0189114 122.86889 -8.8421135 -74.074867 -8.8294649 -74.593765 -0.28328815 -89.487694
9208437500 -1.0140811 122.83392 -8.836482 -74.056839 -8.822217 -74.643913 -0.27924743 -89.511566
9208500000 -1.0175326 122.80642 -8.8276196 -74.048248 -8.8286591 -74.601089 -0.27874002 -89.460815
9208562500 -1.0154568 122.80749 -8.8226471 -74.072731 -8.8165627 -74.614288 -0.27127314 -89.44474
9208625000 -1.0200382 122.76794 -8.8276758 -74.104706 -8.8190784 -74.618103 -0.27338243 -89.422729
9208687500 -1.0223452 122.73833 -8.8296576 -74.120911 -8.8213301 -74.654205 -0.27405068 -89.448738
9208750000 -1.0171611 122.67716 -8.8260269 -74.123558 -8.821888 -74.626984 -0.28097227 -89.402092
9208812500 -1.0221026 122.69511 -8.8305559 -74.134224 -8.8217449 -74.591583 -0.27893659 -89.352417
9208875000 -1.0208886 122.73054 -8.8417158 -74.100067 -8.8275442 -74.614166 -0.28002355 -89.404732
9208937500 -1.0221671 122.71729 -8.8313017 -74.081886 -8.8280077 -74.606537 -0.2806012 -89.355278
9209000000 -1.0228513 122.76334 -8.8394518 -74.041428 -8.8246384 -74.595047 -0.28038129 -89.330605
9209062500 -1.0204034 122.74184 -8.8310642 -74.110794 -8.8286018 -74.586647 -0.28771609 -89.37233
9209125000 -1.0236633 122.73653 -8.8299246 -74.086761 -8.8277569 -74.606926 -0.28177875 -89.371124
9209187500 -1.0242524 122.71369 -8.8276281 -74.047516 -8.8244143 -74.562737 -0.27971393 -89.258949
9209250000 -1.0192982 122.6998 -8.8206444 -74.08606 -8.8233528 -74.606934 -0.28290161 -89.274803
9209312500 -1.0149333 122.67536 -8.8167944 -74.061783 -8.8193998 -74.62767 -0.27889279 -89.259018
9209375000 -1.0233418 122.6512 -8.8174057 -74.090195 -8.8169603 -74.570923 -0.28059953 -89.207077
9209437500 -1.0228356 122.63972 -8.8247604 -74.069023 -8.8236876 -74.653435 -0.27993155 -89.25161
9209500000 -1.0185218 122.60736 -8.8100471 -74.090897 -8.8256559 -74.587944 -0.28134832 -89.188232
9209562500 -1.0140686 122.59345 -8.8122501 -74.073486 -8.8250065 -74.596878 -0.27909005 -89.2117
9209625000 -1.0209672 122.59005 -8.8167915 -74.056587 -8.8155661 -74.618401 -0.28094816 -89.148781
9209687500 -1.0237116 122.56287 -8.8202467 -74.106407 -8.8176622 -74.615219 -0.28098974 -89.150154
9209750000 -1.0206081 122.57414 -8.8165054 -74.015091 -8.8166256 -74.55764 -0.27861717 -89.082481
9209812500 -1.0278637 122.5395 -8.8159647 -74.120712 -8.8122826 -74.601822 -0.27674592 -89.113785
9209875000 -1.0297436 122.53255 -8.8217859 -74.097557 -8.8130941 -74.633591 -0.27448812 -89.057823
9209937500 -1.0242684 122.53305 -8.8223934 -74.069153 -8.8123693 -74.598007 -0.27647364 -89.065765
9210000000 -1.0203817 122.50507 -8.817831 -74.094116 -8.7994518 -74.558479 -0.27103788 -89.025719
9210062500 -1.015715 122.52785 -8.8096666 -74.084846 -8.8092031 -74.575409 -0.27725321 -89.012024
9210125000 -1.0225163 122.49361 -8.812953 -74.088852 -8.8075314 -74.528114 -0.27267978 -88.98774
9210187500 -1.018412 122.4612 -8.8138103 -74.096909 -8.8082399 -74.584679 -0.27808291 -88.993782
9210250000 -1.0162187 122.44392 -8.8100548 -74.090004 -8.8073702 -74.512703 -0.27071431 -88.954994
9210312500 -1.0131063 122.46893 -8.8058691 -74.051781 -8.8075724 -74.476669 -0.28058678 -88.935898
9210375000 -1.0159507 122.42062 -8.8120852 -74.053062 -8.8015413 -74.5317 -0.27857018 -88.935684
9210437500 -1.0170678 122.3853 -8.812418 -74.129868 -8.8150377 -74.543968 -0.28856426 -88.895538
9210500000 -1.0159396 122.39118 -8.8101063 -74.019058 -8.8100471 -74.520386 -0.29145402 -88.879242
9210562500 -1.0160818 122.38177 -8.811512 -74.064362 -8.8065081 -74.614746 -0.2879681 -88.906082
9210625000 -1.0153 122.36149 -8.8057194 -74.014183 -8.8104305 -74.515045 -0.29229689 -88.880142
9210687500 -1.0116683 122.32442 -8.8148155 -74.05088 -8.8089619 -74.56002 -0.29747716 -88.834442
9210750000 -1.0167747 122.30054 -8.8033228 -74.044876 -8.8038483 -74.577461 -0.29209375 -88.855423
9210812500 -1.0124576 122.26383 -8.8013582 -73.967079 -8.8091059 -74.524986 -0.29317749 -88.810249
9210875000 -1.0194099 122.27875 -8.815465 -74.010086 -8.8014898 -74.54158 -0.29218531 -88.798988
9210937500 -1.0200337 122.25713 -8.8117867 -74.02401 -8.8084068 -74.578156 -0.28804773 -88.782806
9211000000 -1.0250018 122.21296 -8.8082705 -74.04409 -8.8080368 -74.586739 -0.29389048 -88.78019
9211062500 -1.0205002 122.25716 -8.8065548 -73.978035 -8.7932167 -74.585701 -0.28997138 -88.756691
9211125000 -1.0239335 122.2414 -8.8060789 -74.083145 -8.7985573 -74.618912 -0.28675219 -88.773628
9211187500 -1.0230985 122.24548 -8.8070126 -73.983978 -8.8074055 -74.57093 -0.28613222 -88.760117
9211250000 -1.0280735 122.22349 -8.8037806 -74.052277 -8.7968464 -74.635414 -0.28569162 -88.811195
9211312500 -1.0244299 122.22424 -8.7982407 -74.070198 -8.8114023 -74.601181 -0.29223853 -88.811928
9211375000 -1.0320076 122.21462 -8.8047485 -73.996765 -8.802352 -74.579376 -0.27804598 -88.652321
9211437500 -1.0195186 122.20254 -8.7971287 -74.057541 -8.8027344 -74.593735 -0.28274059 -88.618591
9211500000 -1.0228804 122.15474 -8.7986412 -74.013039 -8.7964048 -74.522514 -0.28609353 -88.64743
9211562500 -1.024033 122.18631 -8.794054 -74.02951 -8.8033552 -74.550438 -0.29276094 -88.655815
9211625000 -1.0246897 122.12422 -8.7965946 -74.068977 -8.8013077 -74.573318 -0.29122952 -88.648094
9211687500 -1.0191979 122.13074 -8.7998648 -73.99054 -8.7916412 -74.520798 -0.29139015 -88.591782
9211750000 -1.0342942 122.08023 -8.8098249 -74.023308 -8.7955618 -74.499054 -0.29319417 -88.596275
9211812500 -1.0238843 122.09723 -8.7998743 -74.02552 -8.7935591 -74.517517 -0.29497963 -88.569542
9211875000 -1.0257508 122.06146 -8.7910566 -74.030861 -8.8002958 -74.499336 -0.29248637 -88.517403
9211937500 -1.0258043 122.04086 -8.7842655 -74.004715 -8.791647 -74.554192 -0.29392791 -88.512085
9212000000 -1.0310856 122.02939 -8.7894297 -74.042625 -8.7850313 -74.467171 -0.28578565 -88.431259
9212062500 -1.0287281 121.99954 -8.7939529 -74.06958 -8.7955427 -74.483963 -0.29328153 -88.420677
9212125000 -1.0282931 121.97516 -8.7875528 -74.061203 -8.7899704 -74.499619 -0.29120925 -88.387733
9212187500 -1.0284324 121.96031 -8.7896118 -74.074936 -8.789794 -74.574295 -0.29136136 -88.430862
9212250000 -1.0266927 121.95329 -8.7979631 -74.000534 -8.7960739 -74.513832 -0.29381469 -88.36071
9212312500 -1.0337093 121.95364 -8.7998428 -74.055504 -8.7866831 -74.502686 -0.29793027 -88.358124
