!Agilent Technologies,N5242A,MY51221714,A.09.90.19
!Agilent N5242A: A.09.90.19
!Date: Saturday, March 16, 2024 09:11:52
!Correction: S11(Full 2 Port(1,2)) 
!S21(Full 2 Port(1,2)) 
!S12(Full 2 Port(1,2)) 
!S22(Full 2 Port(1,2)) 
!S2P File: Measurements: S11, S21, S12, S22:
# Hz S  dB   R 50
9200000000 -0.89872456 125.58572 -9.0375299 -72.944885 -9.0293493 -73.523132 -0.1764859 -91.534279
9200062500 -0.9050625 125.56019 -9.0420179 -73.003403 -9.0273361 -73.528511 -0.17493287 -91.520103
9200125000 -0.90403026 125.57588 -9.0361834 -72.905853 -9.026866 -73.519547 -0.1730058 -91.507996
9200187500 -0.90110028 125.54699 -9.0424166 -72.973892 -9.027113 -73.519806 -0.18576983 -91.514198
9200250000 -0.90115958 125.52891 -9.0353956 -72.961403 -9.030549 -73.526245 -0.18567421 -91.48362
9200312500 -0.89800757 125.53895 -9.0359774 -72.960976 -9.0314112 -73.556206 -0.18125357 -91.499352
9200375000 -0.89551157 125.50037 -9.0273914 -72.982834 -9.0300388 -73.539688 -0.18236539 -91.459328
9200437500 -0.90648037 125.49398 -9.041604 -73.019531 -9.0099182 -73.564056 -0.1789856 -91.471825
9200500000 -0.89436918 125.4747 -9.0273409 -72.934181 -9.0194159 -73.441956 -0.1862278 -91.363647
9200562500 -0.89651901 125.48496 -9.0314684 -72.928032 -9.014864 -73.537636 -0.18155864 -91.405968
9200625000 -0.90028727 125.45906 -9.0377083 -72.948822 -9.0134583 -73.553795 -0.18941247 -91.407532
9200687500 -0.90045702 125.43894 -9.035017 -72.945389 -9.0199852 -73.485962 -0.19024956 -91.3405
9200750000 -0.90311068 125.41797 -9.0386333 -72.96228 -9.0107164 -73.464119 -0.18744253 -91.305557
9200812500 -0.90556395 125.40912 -9.0405998 -72.872543 -9.0109959 -73.470581 -0.18900947 -91.277222
9200875000 -0.90695733 125.40057 -9.0433445 -72.934586 -9.0099211 -73.49369 -0.18465212 -91.259781
9200937500 -0.89953071 125.40074 -9.0301228 -72.904907 -9.0143862 -73.48278 -0.1885014 -91.281448
9201000000 -0.89994699 125.3633 -9.0259781 -72.912994 -9.0076399 -73.487724 -0.18809378 -91.229897
9201062500 -0.89559424 125.36475 -9.0283432 -72.88662 -9.0097322 -73.453957 -0.18622333 -91.178932
9201125000 -0.8968327 125.36495 -9.019311 -72.895569 -9.0153542 -73.479683 -0.18837231 -91.223648
9201187500 -0.89849478 125.32132 -9.0316267 -72.867691 -9.0148478 -73.463676 -0.18825893 -91.157158
9201250000 -0.88773358 125.32147 -9.010334 -72.897812 -9.0083456 -73.489548 -0.18360008 -91.170792
9201312500 -0.89563799 125.31242 -9.0210829 -72.959877 -9.0168304 -73.494583 -0.19705585 -91.174408
9201375000 -0.90578383 125.28712 -9.0228615 -72.91581 -9.0112305 -73.471619 -0.18436249 -91.163185
9201437500 -0.9020558 125.27464 -9.0195694 -72.957039 -9.0055618 -73.473663 -0.18318546 -91.195122
9201500000 -0.8993091 125.27592 -9.029048 -72.915825 -9.0114536 -73.53476 -0.18566453 -91.180679
9201562500 -0.90428317 125.25871 -9.0314865 -72.876137 -9.0079823 -73.487946 -0.18559442 -91.123863
9201625000 -0.90378845 125.26389 -9.032938 -72.871742 -9.016675 -73.489601 -0.1862468 -91.134277
9201687500 -0.89894408 125.2429 -9.0181265 -72.936462 -9.00529 -73.499527 -0.18095894 -91.103416
9201750000 -0.90666556 125.236 -9.0268145 -72.918411 -9.0105371 -73.43998 -0.18662788 -91.067383
9201812500 -0.89820838 125.19997 -9.0240202 -72.906708 -9.0074635 -73.435989 -0.19021267 -91.001167
9201875000 -0.90474451 125.18554 -9.0256891 -72.919044 -9.0086346 -73.47789 -0.19528782 -91.031822
9201937500 -0.89686292 125.17286 -9.0238829 -72.9021 -9.0009899 -73.416084 -0.19119091 -90.981758
9202000000 -0.89580041 125.10432 -9.0200472 -72.912155 -8.9964676 -73.388252 -0.1862296 -90.947067
9202062500 -0.89434224 125.09335 -9.0102129 -72.959053 -9.0001049 -73.409637 -0.19064355 -90.928162
9202125000 -0.89326161 125.12337 -9.0138512 -72.856125 -8.9996977 -73.426758 -0.18610409 -90.886055
9202187500 -0.89605826 125.11012 -8.9988804 -72.854446 -9.0056782 -73.435165 -0.18518321 -90.905228
9202250000 -0.89508814 125.12266 -9.0052824 -72.905869 -9.0161915 -73.480179 -0.1928799 -90.925194
9202312500 -0.89743769 125.08102 -9.0007248 -72.950882 -9.0091343 -73.443481 -0.19080624 -90.8927
9202375000 -0.89325929 125.07268 -9.0006342 -72.878204 -9.0034447 -73.463203 -0.18404141 -90.894066
9202437500 -0.89735883 125.05128 -9.0116491 -72.8592 -9.0070362 -73.453987 -0.19048524 -90.866898
9202500000 -0.89945328 125.06455 -9.0081863 -72.857956 -9.0032978 -73.426765 -0.19444939 -90.800087
9202562500 -0.90050209 124.99697 -9.0178604 -72.932907 -9.0042305 -73.429832 -0.20022438 -90.800568
9202625000 -0.90669674 125.03423 -9.0179329 -72.881348 -9.0026665 -73.41259 -0.19706944 -90.738823
9202687500 -0.89899057 124.98211 -9.015131 -72.925896 -8.9975624 -73.447418 -0.19046135 -90.802971
9202750000 -0.90195811 124.99875 -9.0197487 -72.844017 -9.0055885 -73.428207 -0.20365681 -90.742981
9202812500 -0.89758217 125.02055 -9.0108662 -72.777405 -8.992218 -73.425697 -0.19067922 -90.726692
9202875000 -0.90191698 124.96555 -9.0102758 -72.844543 -8.9992332 -73.362511 -0.1959794 -90.685196
9202937500 -0.89859301 124.93789 -9.0047541 -72.906227 -9.0029678 -73.420181 -0.19781213 -90.673286
9203000000 -0.90011233 124.87447 -9.00667 -72.920036 -8.9941597 -73.412865 -0.19665109 -90.672119
9203062500 -0.8947677 124.91573 -9.0013266 -72.886848 -8.9916048 -73.443375 -0.18930456 -90.662354
9203125000 -0.89810508 124.88337 -9.0083714 -72.883636 -8.9949532 -73.430969 -0.1969227 -90.625275
9203187500 -0.89694178 124.8913 -9.0031195 -72.852638 -8.9992294 -73.375992 -0.19602476 -90.590881
9203250000 -0.89750952 124.89628 -8.9975653 -72.885818 -8.9947023 -73.383331 -0.19263808 -90.545265
9203312500 -0.90128314 124.85632 -9.001647 -72.935059 -8.9931116 -73.450356 -0.1891294 -90.605591
9203375000 -0.89858872 124.86359 -8.9989901 -72.898857 -8.9972067 -73.470444 -0.19714248 -90.551094
9203437500 -0.90220982 124.82497 -9.004055 -72.878639 -8.9985266 -73.432953 -0.19570272 -90.5355
9203500000 -0.8989954 124.84482 -8.9987707 -72.903793 -8.9916573 -73.417007 -0.19001727 -90.52459
9203562500 -0.89730293 124.80294 -8.9976187 -72.863274 -9.0018196 -73.423286 -0.19344021 -90.467308
9203625000 -0.89785218 124.81063 -9.0035276 -72.904854 -8.9932785 -73.42717 -0.19515856 -90.483932
9203687500 -0.90099335 124.76517 -9.0034332 -72.966156 -9.0004387 -73.436508 -0.20212133 -90.479599
9203750000 -0.89611942 124.74934 -8.9985466 -72.921097 -8.997345 -73.372711 -0.20031941 -90.415955
9203812500 -0.89624679 124.75574 -8.9914026 -72.885147 -9.0003433 -73.359856 -0.20273603 -90.438164
9203875000 -0.89477384 124.72203 -8.9952745 -72.884682 -8.9966822 -73.361656 -0.20769271 -90.413094
9203937500 -0.89618039 124.69061 -8.9988594 -72.925354 -8.9876194 -73.425087 -0.20710407 -90.450737
9204000000 -0.8992582 124.71744 -9.0061312 -72.88475 -8.9937057 -73.3759 -0.20958139 -90.391472
9204062500 -0.89325178 124.68975 -8.9978867 -72.879494 -8.9789639 -73.393959 -0.20211597 -90.393906
9204125000 -0.8958652 124.67416 -9.010066 -72.879448 -8.9844131 -73.377144 -0.20959148 -90.360535
9204187500 -0.89663285 124.65755 -9.0027647 -72.840561 -8.9831562 -73.390823 -0.21390535 -90.351181
9204250000 -0.89275414 124.6809 -9.0085449 -72.84758 -8.9878654 -73.387512 -0.21331452 -90.293617
9204312500 -0.89405084 124.64133 -8.9939098 -72.814674 -8.97927 -73.363754 -0.20479929 -90.309715
9204375000 -0.89321858 124.61807 -8.9908886 -72.862862 -8.9797983 -73.349373 -0.19782855 -90.273804
9204437500 -0.89205652 124.60249 -8.9890289 -72.864388 -8.980114 -73.371422 -0.1978337 -90.271057
9204500000 -0.8915717 124.58852 -8.9930573 -72.864182 -8.9726019 -73.341438 -0.19303849 -90.24054
9204562500 -0.88906467 124.55726 -8.9806499 -72.819054 -8.9666424 -73.361916 -0.18992583 -90.216125
9204625000 -0.89419425 124.58154 -8.9882984 -72.863235 -8.9751587 -73.412537 -0.19655882 -90.216164
9204687500 -0.88970226 124.52339 -8.9792995 -72.865852 -8.9747133 -73.435783 -0.19391161 -90.22303
9204750000 -0.89451337 124.53706 -8.9946728 -72.828331 -8.9735842 -73.365891 -0.19956833 -90.162277
9204812500 -0.89686096 124.57079 -8.9916592 -72.857994 -8.9773159 -73.356682 -0.20034069 -90.138458
9204875000 -0.89477247 124.53452 -8.9896927 -72.832649 -8.9718819 -73.347885 -0.20198137 -90.150291
9204937500 -0.90131491 124.54812 -8.9905062 -72.82029 -8.9734488 -73.374557 -0.20125555 -90.140327
9205000000 -0.89445585 124.51511 -8.9838476 -72.82016 -8.9720507 -73.329689 -0.19565059 -90.118088
9205062500 -0.89372104 124.47778 -8.9794502 -72.832756 -8.9886208 -73.37291 -0.2090726 -90.101334
9205125000 -0.8966437 124.48665 -8.9846039 -72.81765 -8.9789982 -73.3908 -0.20063539 -90.114349
9205187500 -0.90098429 124.47616 -8.9821997 -72.742523 -8.9687805 -73.417282 -0.1926613 -90.092064
9205250000 -0.90140182 124.39883 -8.9818211 -72.799706 -8.9734335 -73.36351 -0.1984105 -90.073624
9205312500 -0.90115291 124.41344 -8.9834967 -72.830002 -8.977169 -73.330841 -0.19268022 -90.01297
9205375000 -0.90322119 124.38974 -8.9853468 -72.800888 -8.9752722 -73.407654 -0.20043102 -90.041801
9205437500 -0.90272909 124.34148 -8.9773588 -72.804291 -8.9786701 -73.412987 -0.19816808 -90.021957
9205500000 -0.90146399 124.34348 -8.9785538 -72.796875 -8.98351 -73.352455 -0.19977322 -90.002289
9205562500 -0.90216023 124.35496 -8.9900589 -72.771126 -8.9813156 -73.326324 -0.19952002 -89.951096
9205625000 -0.9000783 124.30299 -8.9846544 -72.825531 -8.9727793 -73.324585 -0.19723858 -89.946388
9205687500 -0.90173495 124.33019 -8.977375 -72.792839 -8.9678068 -73.318848 -0.19831376 -89.946434
9205750000 -0.89627647 124.30431 -8.9752932 -72.810463 -8.9736891 -73.346352 -0.20586114 -89.953957
9205812500 -0.8996408 124.28939 -8.9735832 -72.853691 -8.976758 -73.342255 -0.20176314 -89.907845
9205875000 -0.89725751 124.29986 -8.9735765 -72.830215 -8.9838343 -73.331596 -0.2044666 -89.893974
9205937500 -0.89866471 124.30218 -8.9763155 -72.828201 -8.967041 -73.286392 -0.20024553 -89.839294
9206000000 -0.89303404 124.25398 -8.9728365 -72.793541 -8.9734564 -73.315353 -0.20551755 -89.824997
9206062500 -0.89771706 124.3009 -8.9701433 -72.757591 -8.9699612 -73.366058 -0.2058223 -89.812691
9206125000 -0.89571148 124.25032 -8.981226 -72.770493 -8.9699087 -73.343781 -0.20095238 -89.794601
9206187500 -0.89505899 124.26128 -8.9752207 -72.792068 -8.9791126 -73.340561 -0.20755208 -89.786255
9206250000 -0.8933236 124.2354 -8.9703245 -72.759346 -8.9616814 -73.365494 -0.19806616 -89.753609
9206312500 -0.8929745 124.24596 -8.9632778 -72.797554 -8.963747 -73.376297 -0.2012175 -89.770966
9206375000 -0.89530385 124.2365 -8.9702473 -72.76593 -8.9532757 -73.353188 -0.19551922 -89.744614
9206437500 -0.89193964 124.25163 -8.9628868 -72.770462 -8.9562006 -73.353577 -0.19746606 -89.73407
9206500000 -0.89521503 124.17339 -8.9632664 -72.790489 -8.9613495 -73.352325 -0.20418102 -89.701874
9206562500 -0.89527386 124.18498 -8.9625177 -72.754669 -8.9602604 -73.377396 -0.20282093 -89.70784
9206625000 -0.90125078 124.16451 -8.9673262 -72.794487 -8.9534016 -73.329399 -0.19671166 -89.648232
9206687500 -0.89765275 124.12601 -8.9563274 -72.772835 -8.9483681 -73.325203 -0.18678132 -89.66584
9206750000 -0.9022339 124.14007 -8.95854 -72.767792 -8.9510918 -73.294739 -0.19597732 -89.557648
9206812500 -0.90187776 124.13789 -8.9571247 -72.723892 -8.946187 -73.332214 -0.19499634 -89.587341
9206875000 -0.9040066 124.09436 -8.9580374 -72.753548 -8.9449368 -73.273804 -0.18778887 -89.52356
9206937500 -0.89990407 124.102 -8.9573851 -72.708656 -8.9543886 -73.305504 -0.20294736 -89.53083
9207000000 -0.89499557 124.03709 -8.9584055 -72.766731 -8.9515343 -73.325439 -0.19606927 -89.555687
9207062500 -0.90109831 124.03557 -8.9604168 -72.749176 -8.9495811 -73.288307 -0.20395879 -89.534401
9207125000 -0.89581609 124.01089 -8.9647093 -72.79174 -8.9568052 -73.310944 -0.20653753 -89.498543
9207187500 -0.89389092 124.01421 -8.9602671 -72.812698 -8.961503 -73.25782 -0.21541297 -89.48175
9207250000 -0.89015347 124.00247 -8.9604959 -72.727432 -8.9465113 -73.284355 -0.20472766 -89.491829
9207312500 -0.89370584 123.95404 -8.9605484 -72.822067 -8.9583988 -73.267044 -0.21493562 -89.481186
9207375000 -0.89220071 123.93446 -8.9625158 -72.767189 -8.9554052 -73.3106 -0.21010296 -89.491135
9207437500 -0.8952927 123.8728 -8.9486933 -72.829765 -8.9430876 -73.260132 -0.20648912 -89.442062
9207500000 -0.90131092 123.89082 -8.9637909 -72.811958 -8.9458666 -73.311928 -0.2092524 -89.485794
9207562500 -0.89392889 123.86786 -8.9549723 -72.806 -8.9453535 -73.294205 -0.21512242 -89.444214
9207625000 -0.8976891 123.82479 -8.9540014 -72.765007 -8.943326 -73.328239 -0.21233781 -89.445076
9207687500 -0.89674377 123.82535 -8.9515476 -72.792702 -8.9497147 -73.280045 -0.20751464 -89.415443
9207750000 -0.8998937 123.86411 -8.9538794 -72.756203 -8.946744 -73.317413 -0.20190792 -89.399261
9207812500 -0.89862514 123.83653 -8.9459639 -72.830963 -8.9418297 -73.336449 -0.19569947 -89.396622
9207875000 -0.90761334 123.82946 -8.9555187 -72.75312 -8.9408646 -73.307518 -0.19444919 -89.351173
9207937500 -0.90450877 123.83273 -8.9511633 -72.776817 -8.9447174 -73.292534 -0.20178209 -89.362877
9208000000 -0.90386575 123.84337 -8.950963 -72.770439 -8.93571 -73.299149 -0.19447114 -89.266212
9208062500 -0.90327716 123.82682 -8.9477959 -72.716393 -8.9405146 -73.358276 -0.2033803 -89.271271
9208125000 -0.90521914 123.81525 -8.9505396 -72.713043 -8.9480047 -73.353294 -0.20346934 -89.24057
9208187500 -0.89844173 123.80254 -8.9550695 -72.720993 -8.9409485 -73.332947 -0.20859039 -89.231613
9208250000 -0.90074766 123.76617 -8.9578285 -72.715309 -8.9487848 -73.27626 -0.21310499 -89.20652
9208312500 -0.89966482 123.79276 -8.9507847 -72.706596 -8.9470873 -73.2789 -0.21017484 -89.16684
9208375000 -0.90299451 123.75163 -8.9511795 -72.709839 -8.9388981 -73.243248 -0.20878784 -89.136383
9208437500 -0.89703232 123.73367 -8.9487896 -72.757454 -8.9465322 -73.2882 -0.21693888 -89.139
9208500000 -0.9002912 123.74109 -8.9505529 -72.669609 -8.9441929 -73.206299 -0.20861134 -89.115791
9208562500 -0.89594078 123.68926 -8.9443855 -72.76474 -8.9379482 -73.284286 -0.20397328 -89.135414
9208625000 -0.89209116 123.65358 -8.9412842 -72.749161 -8.9390497 -73.266411 -0.20680025 -89.090286
9208687500 -0.90104568 123.62707 -8.9496431 -72.760948 -8.9378529 -73.245422 -0.20799764 -89.075195
9208750000 -0.89795297 123.63786 -8.9387779 -72.799065 -8.9274664 -73.298317 -0.20728543 -89.095802
9208812500 -0.89620727 123.60427 -8.9393845 -72.83905 -8.9352798 -73.272377 -0.20595096 -89.092323
9208875000 -0.89919108 123.64848 -8.928565 -72.773422 -8.9323578 -73.283371 -0.21060491 -89.099701
9208937500 -0.89462936 123.61203 -8.9397259 -72.758568 -8.937973 -73.205032 -0.21070339 -89.027267
9209000000 -0.90141547 123.63066 -8.939023 -72.747932 -8.9412909 -73.270844 -0.20385323 -89.049232
9209062500 -0.90079623 123.66801 -8.9453163 -72.687584 -8.9351025 -73.230721 -0.20827827 -89.01825
9209125000 -0.89983153 123.68034 -8.9481544 -72.686951 -8.9396381 -73.214455 -0.21055266 -89.023743
9209187500 -0.90280771 123.64469 -8.9493599 -72.725067 -8.9344063 -73.225937 -0.21322045 -88.966278
9209250000 -0.89938515 123.62814 -8.9321737 -72.710442 -8.937603 -73.214119 -0.21147905 -88.958977
9209312500 -0.89739913 123.61252 -8.9363108 -72.676865 -8.9331341 -73.237267 -0.21331128 -88.896507
9209375000 -0.89514071 123.57643 -8.9287233 -72.71917 -8.9387712 -73.240211 -0.21196437 -88.930603
9209437500 -0.90190738 123.54066 -8.9368525 -72.742355 -8.935936 -73.219742 -0.21331044 -88.891678
9209500000 -0.89496124 123.49487 -8.9311247 -72.717087 -8.9342327 -73.205284 -0.20804928 -88.832878
9209562500 -0.89740843 123.50307 -8.9244022 -72.758934 -8.9335604 -73.149261 -0.2065655 -88.803909
9209625000 -0.8977704 123.46383 -8.9269676 -72.738167 -8.925725 -73.191437 -0.20846803 -88.815071
9209687500 -0.90230632 123.4922 -8.9337778 -72.750168 -8.9297915 -73.213516 -0.20218335 -88.804626
9209750000 -0.89763045 123.42604 -8.9367819 -72.807411 -8.9289551 -73.25499 -0.20717861 -88.792084
9209812500 -0.9062655 123.48514 -8.9352913 -72.723045 -8.9236355 -73.245384 -0.20196815 -88.771568
9209875000 -0.901003 123.45243 -8.9342327 -72.745972 -8.9265184 -73.2108 -0.20957994 -88.730484
9209937500 -0.9039197 123.44623 -8.9343557 -72.741066 -8.9213095 -73.231743 -0.20529449 -88.7425
9210000000 -0.89808339 123.42346 -8.9266281 -72.772003 -8.9288101 -73.235191 -0.20138529 -88.707108
9210062500 -0.90135562 123.41988 -8.9273119 -72.684647 -8.9220524 -73.229065 -0.20566744 -88.690262
9210125000 -0.89609808 123.40865 -8.9270821 -72.728142 -8.9227781 -73.21637 -0.2040552 -88.707703
9210187500 -0.89219326 123.37656 -8.9195433 -72.698715 -8.9221735 -73.204987 -0.20744574 -88.647697
9210250000 -0.89776707 123.38387 -8.9185276 -72.665314 -8.9201393 -73.202812 -0.20732047 -88.695335
9210312500 -0.89139795 123.31921 -8.9209929 -72.703506 -8.9153996 -73.175728 -0.20096426 -88.648582
9210375000 -0.89508659 123.33848 -8.9288988 -72.64241 -8.9224052 -73.148277 -0.2078698 -88.59642
9210437500 -0.89455187 123.33266 -8.9235878 -72.63591 -8.9208059 -73.120956 -0.21386433 -88.572136
9210500000 -0.89619988 123.3288 -8.9267969 -72.648338 -8.9259052 -73.127838 -0.21690974 -88.532166
9210562500 -0.89872849 123.32484 -8.9351912 -72.699295 -8.9171371 -73.164368 -0.2168528 -88.522453
9210625000 -0.89020211 123.26875 -8.9253407 -72.634445 -8.9273748 -73.201508 -0.22109663 -88.552025
9210687500 -0.89007646 123.24332 -8.9258642 -72.660873 -8.914587 -73.181107 -0.22058429 -88.557091
9210750000 -0.89161754 123.2135 -8.9329462 -72.685715 -8.9155436 -73.16803 -0.21406758 -88.506622
9210812500 -0.89506632 123.19775 -8.9320107 -72.678345 -8.9195061 -73.203667 -0.2238486 -88.485794
9210875000 -0.8966313 123.16688 -8.9285202 -72.647102 -8.9176664 -73.173714 -0.22189154 -88.437363
9210937500 -0.89547068 123.16192 -8.9218082 -72.660072 -8.9184465 -73.218925 -0.2218733 -88.473976
9211000000 -0.89681858 123.15836 -8.9248867 -72.612442 -8.914629 -73.19751 -0.21641757 -88.475708
9211062500 -0.89608675 123.15154 -8.9142828 -72.673859 -8.9131374 -73.215431 -0.21473044 -88.467873
9211125000 -0.89747262 123.12295 -8.9235067 -72.692207 -8.9016781 -73.207863 -0.20975573 -88.466354
9211187500 -0.90124178 123.14319 -8.9254951 -72.673286 -8.9106112 -73.28096 -0.21643759 -88.497948
9211250000 -0.90389067 123.1261 -8.9170494 -72.782242 -8.9227066 -73.219917 -0.21071456 -88.441078
9211312500 -0.90432179 123.11054 -8.9183855 -72.776436 -8.9155855 -73.229347 -0.21181782 -88.491814
9211375000 -0.90015662 123.14799 -8.9156122 -72.693138 -8.9177942 -73.191132 -0.21107167 -88.357887
9211437500 -0.90409201 123.13229 -8.9202414 -72.706284 -8.9204779 -73.174789 -0.21532723 -88.335587
9211500000 -0.90202916 123.12188 -8.9129925 -72.62384 -8.9108906 -73.177284 -0.21791641 -88.311401
9211562500 -0.89844376 123.12238 -8.9084253 -72.668724 -8.9083376 -73.195007 -0.21316458 -88.308846
9211625000 -0.90292984 123.06702 -8.9171915 -72.666664 -8.9089909 -73.216675 -0.21649569 -88.301773
9211687500 -0.89961827 123.04944 -8.9155989 -72.664307 -8.9041653 -73.144318 -0.21754591 -88.297485
9211750000 -0.90292269 123.06022 -8.9154835 -72.625679 -8.9118929 -73.157799 -0.22099614 -88.285759
9211812500 -0.90715957 122.98353 -8.9166946 -72.6912 -8.9089041 -73.135506 -0.22054128 -88.229523
9211875000 -0.9046343 122.99186 -8.9164171 -72.617119 -8.9108801 -73.162254 -0.21883917 -88.207657
9211937500 -0.90725845 122.94666 -8.9130526 -72.692375 -8.9123716 -73.144432 -0.22209004 -88.141861
9212000000 -0.90744662 122.90953 -8.9056635 -72.711029 -8.8932657 -73.095589 -0.2094278 -88.147583
9212062500 -0.90864056 122.93248 -8.9113474 -72.707169 -8.8987045 -73.110329 -0.21378982 -88.137146
9212125000 -0.90921652 122.93523 -8.9032478 -72.635956 -8.9072657 -73.168724 -0.21938027 -88.049637
9212187500 -0.90476936 122.87212 -8.9025192 -72.684891 -8.9023657 -73.131195 -0.21811447 -88.059868
9212250000 -0.90967971 122.86941 -8.9088001 -72.657402 -8.8970451 -73.085533 -0.21753301 -88.080597
