!Agilent Technologies,N5242A,MY51221714,A.09.90.19
!Agilent N5242A: A.09.90.19
!Date: Saturday, March 16, 2024 09:12:51
!Correction: S11(Full 2 Port(1,2)) 
!S21(Full 2 Port(1,2)) 
!S12(Full 2 Port(1,2)) 
!S22(Full 2 Port(1,2)) 
!S2P File: Measurements: S11, S21, S12, S22:
# Hz S  dB   R 50
9200000000 -0.94553143 125.4968 -9.0825996 -73.476837 -9.0598507 -73.974678 -0.1956902 -91.711761
9200062500 -0.94723618 125.52232 -9.0802364 -73.380066 -9.0682917 -73.912033 -0.19379719 -91.693871
9200125000 -0.94967347 125.50002 -9.0815773 -73.385155 -9.0630531 -73.928558 -0.19638945 -91.68264
9200187500 -0.94624925 125.47995 -9.0741596 -73.431419 -9.0664291 -73.957878 -0.19660337 -91.694641
9200250000 -0.94121194 125.43015 -9.0710812 -73.437286 -9.0627127 -73.939369 -0.19607505 -91.667038
9200312500 -0.94116402 125.43464 -9.0704298 -73.410812 -9.0593309 -73.969704 -0.1922752 -91.650307
9200375000 -0.94281298 125.40894 -9.0678797 -73.433815 -9.0635605 -73.955452 -0.19938315 -91.633141
9200437500 -0.93678445 125.45396 -9.0682068 -73.421867 -9.0566931 -73.971268 -0.20004749 -91.611107
9200500000 -0.93961 125.40385 -9.0691805 -73.430908 -9.0562725 -73.996231 -0.20406279 -91.604195
9200562500 -0.9404735 125.40952 -9.0713634 -73.410904 -9.0633907 -73.947556 -0.20284332 -91.55397
9200625000 -0.93885136 125.42535 -9.0723886 -73.327477 -9.0588379 -73.961639 -0.2044951 -91.505058
9200687500 -0.94510889 125.36397 -9.0720549 -73.396454 -9.0537224 -73.966766 -0.20662348 -91.50325
9200750000 -0.94400257 125.36982 -9.07656 -73.341591 -9.0534773 -73.959724 -0.20857435 -91.478798
9200812500 -0.94673502 125.35695 -9.0721512 -73.314476 -9.0467262 -73.951111 -0.20819145 -91.462822
9200875000 -0.94607109 125.35567 -9.078495 -73.383713 -9.048564 -73.968491 -0.20202789 -91.465363
9200937500 -0.9446556 125.34285 -9.0787001 -73.341682 -9.0504341 -73.925285 -0.20885326 -91.386337
9201000000 -0.94132167 125.32404 -9.0703917 -73.313004 -9.0430975 -73.905212 -0.20313373 -91.374069
9201062500 -0.94372797 125.28606 -9.0714464 -73.347328 -9.0513401 -73.862549 -0.2061349 -91.318199
9201125000 -0.94182193 125.29178 -9.0663671 -73.326035 -9.0511723 -73.888268 -0.20863314 -91.362854
9201187500 -0.93861037 125.2657 -9.0623941 -73.351402 -9.0558414 -73.952438 -0.2099932 -91.384056
9201250000 -0.93610084 125.2566 -9.0542974 -73.369522 -9.0480957 -73.934296 -0.20453987 -91.334076
9201312500 -0.94340056 125.21704 -9.0642509 -73.376877 -9.055356 -73.874718 -0.20161362 -91.30954
9201375000 -0.9407497 125.20232 -9.0547667 -73.397423 -9.0456724 -73.891022 -0.20408845 -91.32238
9201437500 -0.94554299 125.21488 -9.0600824 -73.356178 -9.0538778 -73.939705 -0.20570539 -91.355812
9201500000 -0.94330776 125.16862 -9.0659952 -73.382294 -9.0491161 -73.908112 -0.20552084 -91.314095
9201562500 -0.94646513 125.1944 -9.0668812 -73.350418 -9.0424976 -73.904396 -0.201836 -91.256851
9201625000 -0.9446165 125.1904 -9.0564098 -73.328049 -9.0576401 -73.911667 -0.21378727 -91.292679
9201687500 -0.94413269 125.17154 -9.0573845 -73.362312 -9.0492191 -73.850403 -0.20143257 -91.239395
9201750000 -0.94223231 125.15849 -9.0546741 -73.342209 -9.0503397 -73.847435 -0.21268813 -91.213135
9201812500 -0.94517857 125.14362 -9.0629501 -73.344948 -9.044589 -73.84536 -0.20885807 -91.163368
9201875000 -0.9385913 125.1136 -9.0600471 -73.32489 -9.0432243 -73.906158 -0.20355034 -91.176819
9201937500 -0.94176179 125.07981 -9.0554581 -73.375832 -9.0426683 -73.887054 -0.20876011 -91.153969
9202000000 -0.94277525 125.09202 -9.0609732 -73.37252 -9.0394611 -73.890335 -0.20714405 -91.127274
9202062500 -0.94358951 125.09589 -9.0557537 -73.341797 -9.0421076 -73.848 -0.20863843 -91.095406
9202125000 -0.93747908 125.06146 -9.0518208 -73.303413 -9.0486088 -73.874924 -0.20779781 -91.026253
9202187500 -0.93966132 125.0213 -9.0459213 -73.284149 -9.0452871 -73.890289 -0.20673302 -91.097382
9202250000 -0.9435932 125.01977 -9.0445452 -73.384254 -9.0408354 -73.937881 -0.20611227 -91.106766
9202312500 -0.94143128 125.04832 -9.0379496 -73.309921 -9.0388374 -73.927788 -0.20286392 -91.048058
9202375000 -0.9424215 125.00272 -9.0400076 -73.329971 -9.0465574 -73.900635 -0.20740703 -91.02681
9202437500 -0.94382346 125.00268 -9.0435963 -73.345856 -9.0342093 -73.904472 -0.20848726 -91.034241
9202500000 -0.94344914 124.99162 -9.0533304 -73.310966 -9.0417185 -73.945427 -0.21309052 -91.028633
9202562500 -0.9433313 124.94297 -9.0553656 -73.371399 -9.0410337 -73.88559 -0.21399021 -90.999092
9202625000 -0.95204616 124.98712 -9.0585518 -73.350403 -9.0367012 -73.859123 -0.20989323 -90.975456
9202687500 -0.94607127 124.94492 -9.0449753 -73.371414 -9.0311756 -73.937355 -0.21449864 -90.958519
9202750000 -0.94615299 124.96642 -9.0554438 -73.263908 -9.0483112 -73.837791 -0.22008523 -90.880447
9202812500 -0.94691575 124.92035 -9.0556593 -73.335297 -9.0317373 -73.823441 -0.2127461 -90.903023
9202875000 -0.94594991 124.88087 -9.052331 -73.347343 -9.0404778 -73.907486 -0.21663411 -90.904663
9202937500 -0.94084269 124.89308 -9.0417624 -73.333565 -9.0406494 -73.912155 -0.21594104 -90.854164
9203000000 -0.93944281 124.8599 -9.036252 -73.397476 -9.0411053 -73.909584 -0.22062477 -90.869453
9203062500 -0.93880576 124.82641 -9.0291119 -73.371368 -9.0293846 -73.898994 -0.2168708 -90.843651
9203125000 -0.94456476 124.80123 -9.0368338 -73.30352 -9.0348005 -73.860847 -0.21294852 -90.790672
9203187500 -0.94276834 124.8205 -9.0430403 -73.313927 -9.0306606 -73.873016 -0.20792246 -90.786552
9203250000 -0.94358152 124.79617 -9.0473022 -73.37191 -9.0398455 -73.904366 -0.21439165 -90.790298
9203312500 -0.94140083 124.80704 -9.0365534 -73.299088 -9.0296078 -73.855804 -0.20788485 -90.752953
9203375000 -0.94249833 124.80061 -9.0403547 -73.278168 -9.0334148 -73.875961 -0.21487464 -90.705528
9203437500 -0.94520766 124.84189 -9.0441017 -73.299652 -9.0277624 -73.889946 -0.20473769 -90.719116
9203500000 -0.94176251 124.77882 -9.0471392 -73.30941 -9.036047 -73.883514 -0.2120508 -90.672531
9203562500 -0.94292569 124.75207 -9.032526 -73.316338 -9.0330553 -73.897369 -0.20880035 -90.67363
9203625000 -0.94919187 124.73793 -9.0407028 -73.339844 -9.0235167 -73.907501 -0.20900233 -90.646034
9203687500 -0.93904293 124.71664 -9.0289288 -73.318542 -9.0387201 -73.89563 -0.21617453 -90.65966
9203750000 -0.94630921 124.71322 -9.0359783 -73.298927 -9.0373621 -73.828903 -0.22271125 -90.641396
9203812500 -0.94088203 124.68039 -9.0292835 -73.328949 -9.0339546 -73.848816 -0.22289261 -90.597847
9203875000 -0.94218403 124.66705 -9.0329666 -73.264526 -9.0243025 -73.930679 -0.2265068 -90.649582
9203937500 -0.94027424 124.64011 -9.031661 -73.336601 -9.0255232 -73.861389 -0.22315301 -90.594406
9204000000 -0.93590695 124.66221 -9.0341816 -73.282661 -9.0219879 -73.840919 -0.22252503 -90.5532
9204062500 -0.93777156 124.62894 -9.0377998 -73.272377 -9.0282211 -73.852463 -0.23071204 -90.570129
9204125000 -0.93672109 124.61153 -9.0396185 -73.299744 -9.0150394 -73.816292 -0.22823668 -90.53125
9204187500 -0.94156826 124.61862 -9.0376663 -73.300995 -9.014329 -73.857712 -0.22535542 -90.531113
9204250000 -0.93498385 124.6306 -9.0389452 -73.275742 -9.0213146 -73.835724 -0.23205028 -90.496742
9204312500 -0.93279415 124.58517 -9.0281725 -73.284355 -9.0133247 -73.869461 -0.22387818 -90.486275
9204375000 -0.93563795 124.57504 -9.0312414 -73.26973 -9.0301189 -73.831932 -0.22582789 -90.451317
9204437500 -0.93602312 124.54333 -9.0324898 -73.286324 -9.0130997 -73.851601 -0.21531604 -90.464638
9204500000 -0.93103474 124.53763 -9.0278072 -73.301804 -9.0249043 -73.783363 -0.21996757 -90.394035
9204562500 -0.9285593 124.48566 -9.0246735 -73.296463 -9.0235043 -73.812553 -0.22098348 -90.382111
9204625000 -0.93290329 124.49821 -9.0201445 -73.264717 -9.0204697 -73.810783 -0.21361004 -90.369293
9204687500 -0.93689734 124.50092 -9.0275221 -73.262093 -9.0127687 -73.823029 -0.21697296 -90.351189
9204750000 -0.93643105 124.47141 -9.0201216 -73.311722 -9.0129414 -73.875847 -0.21804193 -90.354225
9204812500 -0.93641651 124.46968 -9.0337019 -73.239166 -9.0144215 -73.7845 -0.21960555 -90.289368
9204875000 -0.93660098 124.46407 -9.0171413 -73.298264 -9.0118828 -73.851837 -0.21922198 -90.392067
9204937500 -0.93803829 124.46842 -9.021492 -73.209839 -9.0155582 -73.849548 -0.22373837 -90.297226
9205000000 -0.93765163 124.4525 -9.0243855 -73.266273 -9.0173006 -73.811127 -0.22303373 -90.325279
9205062500 -0.93938595 124.45088 -9.0268431 -73.222839 -9.0148239 -73.796066 -0.22426486 -90.256599
9205125000 -0.94868898 124.4082 -9.0258455 -73.199226 -9.014513 -73.800148 -0.21998307 -90.24752
9205187500 -0.94413185 124.39821 -9.020834 -73.204979 -9.0236492 -73.827751 -0.2280304 -90.238503
9205250000 -0.94669771 124.3488 -9.0183115 -73.217262 -9.0095758 -73.854073 -0.21657214 -90.237434
9205312500 -0.94615489 124.33295 -9.0130644 -73.185638 -9.0071964 -73.773041 -0.21296756 -90.195061
9205375000 -0.9453997 124.30304 -9.0218897 -73.217949 -9.0167246 -73.871956 -0.21841279 -90.165352
9205437500 -0.94997883 124.29826 -9.0141315 -73.273849 -9.0099297 -73.848602 -0.21552917 -90.185257
9205500000 -0.94217968 124.30776 -9.0071363 -73.200943 -9.0089178 -73.834023 -0.20936382 -90.184067
9205562500 -0.94563144 124.31834 -9.0146341 -73.217392 -9.0111351 -73.823746 -0.21551682 -90.190887
9205625000 -0.9421472 124.30688 -9.0152359 -73.198845 -9.0141106 -73.831238 -0.22046448 -90.129883
9205687500 -0.93991524 124.26456 -9.0175762 -73.299622 -9.018445 -73.764175 -0.21970981 -90.087921
9205750000 -0.93853128 124.26897 -9.0049896 -73.223259 -9.0094995 -73.789787 -0.21928816 -90.127281
9205812500 -0.94183338 124.24337 -9.0180368 -73.259705 -9.0105 -73.763931 -0.21853593 -90.057251
9205875000 -0.94544595 124.26872 -9.0189533 -73.253601 -9.0102034 -73.818062 -0.22862193 -90.086586
9205937500 -0.94089329 124.22994 -9.0202246 -73.189621 -9.0099993 -73.81678 -0.21852301 -90.037468
9206000000 -0.94363815 124.24831 -9.022254 -73.22332 -9.0097675 -73.731056 -0.2236362 -90.030769
9206062500 -0.9366824 124.20837 -9.0128756 -73.218933 -8.9975214 -73.768761 -0.21814366 -89.99543
9206125000 -0.93833637 124.19205 -9.0110483 -73.20488 -9.0063581 -73.763809 -0.21999778 -89.93689
9206187500 -0.93854266 124.22225 -9.0100908 -73.204025 -9.0082932 -73.803444 -0.21615173 -89.913681
9206250000 -0.94302517 124.17995 -9.0168629 -73.1987 -8.9992189 -73.771324 -0.22104703 -89.919724
9206312500 -0.93064803 124.21482 -9.0138779 -73.196579 -9.0031185 -73.835999 -0.22044489 -89.947182
9206375000 -0.93719792 124.14115 -9.0019264 -73.221596 -9.0029926 -73.827843 -0.21855229 -89.929588
9206437500 -0.94427413 124.15804 -9.0160942 -73.174706 -8.9941216 -73.794075 -0.21788077 -89.881073
9206500000 -0.94249517 124.17285 -9.0055714 -73.210625 -8.9939117 -73.797874 -0.21636081 -89.864655
9206562500 -0.93818015 124.11171 -9.0009212 -73.257339 -8.9980145 -73.785538 -0.21689036 -89.820869
9206625000 -0.93771416 124.10174 -8.9992247 -73.143791 -8.9910192 -73.802498 -0.21483371 -89.841011
9206687500 -0.94573599 124.0476 -8.991785 -73.226547 -8.9830475 -73.751572 -0.20634465 -89.754601
9206750000 -0.94229364 124.09386 -8.994916 -73.161575 -8.9864826 -73.788231 -0.21229962 -89.793968
9206812500 -0.94540185 124.04305 -8.9927158 -73.226891 -8.9858179 -73.722458 -0.20921566 -89.689911
9206875000 -0.94514745 124.04707 -8.9913187 -73.187813 -8.9790459 -73.745705 -0.21117492 -89.727692
9206937500 -0.94248646 123.9905 -8.998292 -73.173843 -8.9857855 -73.736038 -0.22203639 -89.651108
9207000000 -0.93885165 124.03761 -8.9924717 -73.189659 -8.9890375 -73.710556 -0.21898016 -89.671768
9207062500 -0.93738949 123.9902 -8.9908571 -73.139717 -8.9892426 -73.766167 -0.22185516 -89.690628
9207125000 -0.93701291 123.96747 -9.0026951 -73.21035 -8.9972658 -73.736481 -0.23539262 -89.641609
9207187500 -0.93753153 123.94894 -8.9896269 -73.191292 -9.0007648 -73.724632 -0.23219754 -89.670586
9207250000 -0.93304425 123.92032 -8.9975185 -73.218216 -8.985548 -73.794731 -0.22247271 -89.67897
9207312500 -0.93691593 123.91299 -8.9884911 -73.256783 -8.9849653 -73.742935 -0.2237712 -89.644783
9207375000 -0.93864763 123.88435 -8.9970198 -73.27755 -8.9830751 -73.717995 -0.22185723 -89.635193
9207437500 -0.9403705 123.8564 -8.9938927 -73.200348 -8.9878311 -73.764214 -0.22641739 -89.624664
9207500000 -0.94179767 123.83921 -8.9954643 -73.252296 -8.9811811 -73.764709 -0.22153513 -89.579727
9207562500 -0.94428724 123.82018 -9.0018702 -73.236679 -8.9792004 -73.751617 -0.22535492 -89.589653
9207625000 -0.94244516 123.76889 -8.9961452 -73.26123 -8.9840937 -73.744545 -0.22616729 -89.562569
9207687500 -0.94172519 123.79369 -8.9877014 -73.228218 -8.9843359 -73.807495 -0.22359294 -89.568451
9207750000 -0.94264859 123.79105 -8.9924488 -73.204269 -8.9788465 -73.795349 -0.22045179 -89.548462
9207812500 -0.94627059 123.8222 -8.9826775 -73.148613 -8.9809999 -73.82148 -0.21410248 -89.554428
9207875000 -0.94019353 123.77135 -8.9773359 -73.192429 -8.9903917 -73.818207 -0.21679246 -89.52327
9207937500 -0.95217705 123.76595 -8.9952717 -73.214706 -8.9787016 -73.798065 -0.21496351 -89.512924
9208000000 -0.94882715 123.75407 -8.9911861 -73.190331 -8.977293 -73.774269 -0.21739987 -89.406395
9208062500 -0.94752502 123.75732 -8.9996862 -73.160118 -8.9835634 -73.796669 -0.21591835 -89.408768
9208125000 -0.94416976 123.75094 -8.9966278 -73.180374 -8.9867573 -73.748474 -0.22638078 -89.400879
9208187500 -0.9396289 123.74368 -8.9858627 -73.147339 -8.9829779 -73.694672 -0.22873303 -89.34967
9208250000 -0.94206482 123.73221 -8.982049 -73.145851 -8.9805422 -73.721817 -0.22844499 -89.361557
9208312500 -0.94283998 123.72564 -8.9876719 -73.153831 -8.9794998 -73.676826 -0.23222509 -89.341995
9208375000 -0.94213575 123.7037 -8.9892645 -73.1418 -8.9857569 -73.718185 -0.23476052 -89.356232
9208437500 -0.94136268 123.68798 -8.9807014 -73.19928 -8.9854908 -73.658173 -0.23095334 -89.311653
9208500000 -0.94116378 123.63973 -8.9804478 -73.232567 -8.9831038 -73.740639 -0.22830851 -89.286446
9208562500 -0.93667322 123.64983 -8.9803543 -73.178459 -8.9731884 -73.712532 -0.22774257 -89.317001
9208625000 -0.93596208 123.59171 -8.9756975 -73.264427 -8.9691391 -73.741516 -0.23212977 -89.301048
9208687500 -0.93939596 123.5861 -8.981617 -73.21563 -8.9752026 -73.704521 -0.22578585 -89.253822
9208750000 -0.94208544 123.57793 -8.9788733 -73.189857 -8.9705334 -73.688026 -0.2242059 -89.229599
9208812500 -0.93817586 123.57897 -8.9813843 -73.204445 -8.9764414 -73.742371 -0.22952369 -89.244576
9208875000 -0.94141042 123.57329 -8.9765377 -73.220818 -8.9746084 -73.759819 -0.22774182 -89.255814
9208937500 -0.94222653 123.55939 -8.9787292 -73.245422 -8.9693995 -73.68589 -0.22276402 -89.205208
9209000000 -0.94091207 123.60349 -8.9731464 -73.189964 -8.9779997 -73.732033 -0.22969253 -89.22142
9209062500 -0.94125456 123.61816 -8.9794827 -73.139168 -8.9775305 -73.790489 -0.23152395 -89.220505
9209125000 -0.9390102 123.59943 -8.969552 -73.153603 -8.9767389 -73.748123 -0.2302701 -89.203644
9209187500 -0.9396565 123.55808 -8.9783983 -73.139275 -8.9758492 -73.663185 -0.22434789 -89.137672
9209250000 -0.94093531 123.56776 -8.9661808 -73.195625 -8.9769211 -73.737251 -0.23117024 -89.163025
9209312500 -0.93729073 123.51948 -8.9725513 -73.160126 -8.9828196 -73.705856 -0.23571461 -89.081917
9209375000 -0.93789756 123.53736 -8.9677362 -73.170471 -8.9780741 -73.69281 -0.22450416 -89.053123
9209437500 -0.93056023 123.46905 -8.9620209 -73.20768 -8.9634848 -73.628555 -0.22825505 -89.031036
9209500000 -0.93650442 123.48799 -8.9635115 -73.12011 -8.9704475 -73.65802 -0.22986989 -88.995705
9209562500 -0.93970376 123.44743 -8.9676533 -73.124954 -8.9737921 -73.702217 -0.22992311 -89.024345
9209625000 -0.9419831 123.4478 -8.9615946 -73.181946 -8.9599361 -73.677582 -0.22127478 -89.035927
9209687500 -0.94039959 123.4132 -8.9527292 -73.223862 -8.9684992 -73.614899 -0.22399248 -88.921654
9209750000 -0.94829941 123.43269 -8.9702291 -73.21727 -8.9648314 -73.670197 -0.22647932 -88.95546
9209812500 -0.94459432 123.40824 -8.968298 -73.173134 -8.9688158 -73.627464 -0.23042212 -88.883636
9209875000 -0.9440254 123.40437 -8.9634686 -73.155861 -8.955945 -73.726166 -0.21875906 -88.929779
9209937500 -0.94378471 123.39165 -8.9678164 -73.201172 -8.9604959 -73.686302 -0.22482336 -88.89801
9210000000 -0.94170952 123.3944 -8.962594 -73.126152 -8.9611435 -73.647781 -0.21759285 -88.870613
9210062500 -0.93790096 123.37679 -8.9583321 -73.154686 -8.9611778 -73.702782 -0.22087248 -88.898994
9210125000 -0.94330364 123.3533 -8.9701748 -73.201408 -8.9564037 -73.64769 -0.21703787 -88.858543
9210187500 -0.94183671 123.31728 -8.9663658 -73.173149 -8.9586239 -73.629074 -0.22212785 -88.830093
9210250000 -0.94352436 123.32008 -8.9621801 -73.117737 -8.9561071 -73.665443 -0.22600429 -88.821426
9210312500 -0.93745488 123.26542 -8.9629116 -73.132286 -8.9618883 -73.583786 -0.22854519 -88.777763
9210375000 -0.93899298 123.27505 -8.9623308 -73.089333 -8.9564247 -73.580338 -0.2313403 -88.769348
9210437500 -0.93405521 123.24912 -8.9576015 -73.165794 -8.9575748 -73.645576 -0.23342824 -88.782585
9210500000 -0.93845898 123.24078 -8.9684458 -73.143173 -8.9613171 -73.618263 -0.22906896 -88.725166
9210562500 -0.93923724 123.21775 -8.9621115 -73.162392 -8.9611292 -73.608734 -0.24016772 -88.712502
9210625000 -0.9318102 123.20052 -8.9629431 -73.057411 -8.9619637 -73.599884 -0.2342173 -88.702538
9210687500 -0.93916255 123.20842 -8.964572 -73.135956 -8.9568453 -73.634125 -0.23195031 -88.734879
9210750000 -0.93015015 123.1759 -8.9453068 -73.09903 -8.9495974 -73.598579 -0.23385632 -88.641441
9210812500 -0.93642694 123.15578 -8.9650879 -73.085747 -8.9599857 -73.653496 -0.24408877 -88.687057
9210875000 -0.93701905 123.15182 -8.958848 -73.070419 -8.953969 -73.654892 -0.23439983 -88.618935
9210937500 -0.93644089 123.14359 -8.9561548 -73.085915 -8.9527264 -73.673347 -0.24021317 -88.642731
9211000000 -0.94645059 123.08908 -8.957449 -73.098885 -8.955987 -73.679955 -0.23593062 -88.591393
9211062500 -0.94197643 123.0779 -8.9490767 -73.097298 -8.9594584 -73.653755 -0.24034812 -88.604935
9211125000 -0.94684577 123.06525 -8.9537497 -73.186302 -8.9532433 -73.718674 -0.23566037 -88.623184
9211187500 -0.93997347 123.0867 -8.951808 -73.089729 -8.9510317 -73.638985 -0.23776062 -88.631599
9211250000 -0.95144969 123.09145 -8.9591637 -73.103836 -8.9466639 -73.706711 -0.22590593 -88.641403
9211312500 -0.94980609 123.06206 -8.9605408 -73.159142 -8.9433756 -73.652382 -0.22702208 -88.612419
9211375000 -0.94929391 123.075 -8.9487896 -73.133911 -8.9479446 -73.648186 -0.22153208 -88.522743
9211437500 -0.94666594 123.03899 -8.9531422 -73.169159 -8.9510546 -73.644791 -0.23236638 -88.521179
9211500000 -0.94490039 123.05473 -8.9537659 -73.108627 -8.9514942 -73.705475 -0.22629146 -88.542046
9211562500 -0.94996935 123.01016 -8.9543991 -73.133881 -8.9542112 -73.606262 -0.23456821 -88.446487
9211625000 -0.94112134 123.00622 -8.946702 -73.092949 -8.9429817 -73.624619 -0.23609102 -88.449951
9211687500 -0.94684237 122.99004 -8.9535761 -73.135162 -8.9502754 -73.646278 -0.23697267 -88.448341
9211750000 -0.94615906 122.97482 -8.9534225 -73.117645 -8.9508772 -73.610855 -0.23822175 -88.439125
9211812500 -0.94498819 122.91968 -8.9500837 -73.125122 -8.9520435 -73.619545 -0.24356772 -88.392609
9211875000 -0.94924295 122.90713 -8.9480648 -73.101654 -8.9439735 -73.610565 -0.23679049 -88.387169
9211937500 -0.94674122 122.90397 -8.9473686 -73.113907 -8.9480066 -73.626991 -0.24636914 -88.335571
9212000000 -0.93941528 122.87524 -8.9331789 -73.087791 -8.9421558 -73.624481 -0.23938636 -88.334709
9212062500 -0.95247012 122.8444 -8.945941 -73.196327 -8.9458628 -73.558159 -0.24277812 -88.234901
9212125000 -0.95021617 122.84303 -8.9450455 -73.181526 -8.9377623 -73.582344 -0.23616962 -88.246368
9212187500 -0.95460784 122.83901 -8.9545259 -73.125893 -8.939518 -73.596626 -0.23645423 -88.229332
