!Agilent Technologies,N5242A,MY51221714,A.09.90.19
!Agilent N5242A: A.09.90.19
!Date: Saturday, March 16, 2024 09:13:57
!Correction: S11(Full 2 Port(1,2)) 
!S21(Full 2 Port(1,2)) 
!S12(Full 2 Port(1,2)) 
!S22(Full 2 Port(1,2)) 
!S2P File: Measurements: S11, S21, S12, S22:
# Hz S  dB   R 50
9200000000 -0.90176666 125.83482 -9.0444717 -72.919937 -9.0396233 -73.480507 -0.17406215 -91.686691
9200062500 -0.89664221 125.81352 -9.0478525 -72.958824 -9.0449934 -73.50032 -0.17905548 -91.701111
9200125000 -0.90090698 125.81216 -9.0486631 -72.921173 -9.0300198 -73.510033 -0.17118727 -91.687202
9200187500 -0.90622836 125.76874 -9.0446987 -72.920395 -9.0261707 -73.498924 -0.16719016 -91.675735
9200250000 -0.8996641 125.8035 -9.0471954 -72.958763 -9.0306787 -73.476067 -0.17203593 -91.662117
9200312500 -0.89763999 125.77969 -9.0466642 -72.935143 -9.0300236 -73.494102 -0.17095369 -91.646027
9200375000 -0.89854062 125.7688 -9.0538206 -72.956474 -9.0363646 -73.49469 -0.1822414 -91.605194
9200437500 -0.89949024 125.71938 -9.0420132 -72.984451 -9.0220757 -73.549911 -0.17656201 -91.636803
9200500000 -0.89004594 125.74615 -9.0398645 -72.950569 -9.0247869 -73.51342 -0.17380328 -91.601547
9200562500 -0.89722753 125.72996 -9.0495472 -72.938522 -9.0255098 -73.472366 -0.18333736 -91.559975
9200625000 -0.89802277 125.70966 -9.0423203 -72.918823 -9.0211639 -73.508858 -0.18230048 -91.528847
9200687500 -0.90191823 125.67596 -9.0444975 -72.944283 -9.0281391 -73.447891 -0.18856137 -91.459167
9200750000 -0.89620996 125.67021 -9.0426083 -72.889687 -9.0206299 -73.50061 -0.19070587 -91.508713
9200812500 -0.89917338 125.67671 -9.0353546 -72.928329 -9.0228424 -73.529701 -0.1947282 -91.455475
9200875000 -0.90028417 125.64278 -9.0432796 -72.888687 -9.0170279 -73.469467 -0.19084041 -91.426216
9200937500 -0.89710295 125.64122 -9.047122 -72.860451 -9.0165644 -73.461212 -0.18640813 -91.408676
9201000000 -0.89423031 125.65723 -9.0292406 -72.85218 -9.0158138 -73.45842 -0.18355557 -91.394867
9201062500 -0.89711905 125.59009 -9.0360336 -72.919052 -9.0179043 -73.440857 -0.18151952 -91.395409
9201125000 -0.89784968 125.59672 -9.0353117 -72.835815 -9.0125065 -73.459694 -0.18106626 -91.377853
9201187500 -0.8934713 125.60461 -9.028512 -72.899048 -9.0132809 -73.41877 -0.18466909 -91.34346
9201250000 -0.89117932 125.56629 -9.0195446 -72.908707 -9.0305252 -73.432892 -0.18534885 -91.29821
9201312500 -0.89896882 125.53467 -9.0352678 -72.899078 -9.0200224 -73.474403 -0.18050858 -91.31913
9201375000 -0.89526325 125.58094 -9.031127 -72.885956 -9.0188837 -73.473694 -0.17991473 -91.355614
9201437500 -0.89838928 125.52766 -9.0367441 -72.890701 -9.0229969 -73.449951 -0.18521219 -91.331856
9201500000 -0.89822906 125.52571 -9.0326557 -72.908882 -9.0168686 -73.434525 -0.17915545 -91.301048
9201562500 -0.90121508 125.52364 -9.030407 -72.897438 -9.015996 -73.431877 -0.18165702 -91.343903
9201625000 -0.90079534 125.52903 -9.0435467 -72.870735 -9.0236864 -73.421432 -0.17796177 -91.29615
9201687500 -0.90026921 125.51797 -9.0362692 -72.824844 -9.0166798 -73.372398 -0.18666504 -91.191101
9201750000 -0.89817119 125.45837 -9.0214157 -72.88649 -9.0193853 -73.406776 -0.18978587 -91.219719
9201812500 -0.90009809 125.46551 -9.0305214 -72.827934 -9.0150194 -73.424202 -0.18490547 -91.19664
9201875000 -0.89700079 125.44125 -9.022687 -72.892258 -9.0139742 -73.414955 -0.18515801 -91.177704
9201937500 -0.89835578 125.42925 -9.0232449 -72.901794 -9.0112953 -73.429985 -0.18628247 -91.1679
9202000000 -0.89417696 125.40887 -9.0214682 -72.890152 -9.0198507 -73.429565 -0.19088452 -91.164757
9202062500 -0.89141208 125.3761 -9.0199766 -72.876266 -9.0143414 -73.411438 -0.18795677 -91.094826
9202125000 -0.8977986 125.36006 -9.0141497 -72.858795 -9.0117693 -73.392227 -0.18574566 -91.085701
9202187500 -0.89074183 125.36408 -9.0121498 -72.854073 -9.0187044 -73.430344 -0.18521063 -91.105118
9202250000 -0.8942588 125.33009 -9.0121326 -72.786301 -9.0025826 -73.397087 -0.17764096 -91.104813
9202312500 -0.89716619 125.36127 -9.0109158 -72.862305 -9.0121737 -73.469627 -0.18187322 -91.068802
9202375000 -0.89574897 125.31501 -9.0182686 -72.856628 -9.0124321 -73.441643 -0.18722306 -91.035828
9202437500 -0.89861792 125.33229 -9.0169353 -72.905167 -9.0116272 -73.405472 -0.18597732 -91.028603
9202500000 -0.89716446 125.35498 -9.0146322 -72.825455 -9.0129137 -73.464172 -0.18895359 -91.003181
9202562500 -0.90160608 125.25813 -9.0254984 -72.870262 -9.0084095 -73.436523 -0.18907604 -90.979706
9202625000 -0.89901561 125.26679 -9.0180969 -72.83445 -9.0026779 -73.397758 -0.18900914 -90.981422
9202687500 -0.89720637 125.27559 -9.0197468 -72.823502 -9.0157204 -73.426224 -0.19530603 -90.948471
9202750000 -0.89875633 125.24165 -9.0265312 -72.86821 -9.0110931 -73.427826 -0.19670783 -90.929314
9202812500 -0.89741766 125.22342 -9.0184355 -72.879601 -8.9996042 -73.391167 -0.19461428 -90.901596
9202875000 -0.89776695 125.22977 -9.020051 -72.873642 -9.008441 -73.439705 -0.19121018 -90.862114
9202937500 -0.89410901 125.20979 -9.0102644 -72.841034 -9.0099907 -73.426155 -0.19673747 -90.883835
9203000000 -0.89759618 125.17356 -9.0116577 -72.867332 -9.0040693 -73.365555 -0.19095911 -90.84816
9203062500 -0.89588451 125.17602 -9.007678 -72.838112 -9.0010433 -73.426781 -0.18533313 -90.852356
9203125000 -0.8955338 125.14178 -9.0152359 -72.864136 -8.99965 -73.395515 -0.18906675 -90.821503
9203187500 -0.90119499 125.17796 -9.0073938 -72.84774 -9.0041895 -73.395836 -0.18805054 -90.782234
9203250000 -0.89470279 125.13401 -9.0145245 -72.870079 -9.0060892 -73.441055 -0.18728192 -90.810295
9203312500 -0.90255839 125.10738 -9.0138617 -72.873222 -8.9977522 -73.396767 -0.18406539 -90.749519
9203375000 -0.89846319 125.10948 -8.9989529 -72.917969 -8.9994764 -73.429459 -0.1900667 -90.771393
9203437500 -0.90145147 125.06715 -9.0110168 -72.899727 -8.9967861 -73.364838 -0.1843598 -90.692787
9203500000 -0.89331019 125.10328 -9.0166721 -72.895294 -9.0023861 -73.416649 -0.19028656 -90.724197
9203562500 -0.89547545 125.05384 -9.0077543 -72.820923 -9.0012407 -73.389381 -0.19479962 -90.636734
9203625000 -0.89768314 125.05934 -9.0122471 -72.88842 -9.0104866 -73.405106 -0.20017713 -90.630165
9203687500 -0.898709 125.03098 -9.0132608 -72.855225 -9.0013885 -73.378914 -0.19316125 -90.663666
9203750000 -0.89709538 124.99837 -9.000639 -72.817375 -8.9988194 -73.435883 -0.19597706 -90.660629
9203812500 -0.8918792 124.9894 -8.9943037 -72.844971 -9.0007715 -73.374832 -0.19324793 -90.609375
9203875000 -0.89779526 124.96583 -9.0048418 -72.950493 -8.9981632 -73.391975 -0.19805294 -90.600471
9203937500 -0.89638102 124.96098 -9.0094051 -72.834137 -8.9867802 -73.410515 -0.20039542 -90.615051
9204000000 -0.8999657 124.93927 -9.0071554 -72.837662 -8.9964857 -73.332573 -0.20401801 -90.562019
9204062500 -0.89226484 124.94777 -9.0069828 -72.802338 -8.9914265 -73.351112 -0.20750542 -90.504478
9204125000 -0.89196986 124.93939 -9.010561 -72.820076 -8.9864693 -73.316734 -0.20475534 -90.50692
9204187500 -0.89263898 124.91 -9.0175142 -72.875298 -8.9828281 -73.326912 -0.20711477 -90.505569
9204250000 -0.89300162 124.93494 -9.0056438 -72.822342 -8.9794006 -73.407425 -0.2036823 -90.531372
9204312500 -0.89394426 124.91997 -9.007699 -72.834717 -8.9743671 -73.327965 -0.1937485 -90.493828
9204375000 -0.89200908 124.87265 -9.0031157 -72.840561 -8.9845066 -73.306702 -0.19680029 -90.457901
9204437500 -0.89266193 124.84089 -9.0067863 -72.835381 -8.9872084 -73.356178 -0.20122693 -90.436707
9204500000 -0.88965046 124.8055 -8.9880896 -72.828934 -8.9810724 -73.37162 -0.19370596 -90.434952
9204562500 -0.8838501 124.82947 -8.9890108 -72.761765 -8.9845266 -73.310799 -0.19304839 -90.356117
9204625000 -0.88711435 124.80904 -8.9956379 -72.774124 -8.983139 -73.368706 -0.18735386 -90.394867
9204687500 -0.88899624 124.81841 -8.9923038 -72.773712 -8.9766865 -73.406929 -0.18444839 -90.35154
9204750000 -0.8880955 124.8107 -8.9935713 -72.797333 -8.9802217 -73.329666 -0.19632423 -90.311066
9204812500 -0.88903785 124.78044 -8.9928617 -72.808594 -8.9853525 -73.372246 -0.19406083 -90.3536
9204875000 -0.89492071 124.78574 -8.9916782 -72.775536 -8.9785709 -73.330177 -0.19503558 -90.315277
9204937500 -0.89440519 124.84138 -8.9911203 -72.767975 -8.9904213 -73.420746 -0.19891226 -90.319077
9205000000 -0.89763397 124.74151 -8.9962454 -72.819679 -8.9834328 -73.338966 -0.1968303 -90.308723
9205062500 -0.89600652 124.75449 -8.9959269 -72.726028 -8.9824619 -73.390038 -0.19765925 -90.331139
9205125000 -0.89952779 124.76006 -8.9902191 -72.760643 -8.985918 -73.349052 -0.19942223 -90.248779
9205187500 -0.89590567 124.64385 -8.9881392 -72.820885 -8.9752417 -73.323288 -0.18807222 -90.228065
9205250000 -0.89938492 124.66837 -8.9901562 -72.731972 -8.9789925 -73.40741 -0.19097109 -90.254257
9205312500 -0.89904684 124.62725 -8.9871826 -72.740646 -8.976119 -73.371613 -0.19321997 -90.186348
9205375000 -0.90213472 124.59758 -8.9831476 -72.785469 -8.9816589 -73.357971 -0.19144934 -90.201958
9205437500 -0.90147811 124.57197 -8.9899654 -72.7845 -8.9903164 -73.37883 -0.19903415 -90.2052
9205500000 -0.89772147 124.62061 -8.9892664 -72.755363 -8.9780207 -73.344154 -0.19027574 -90.155624
9205562500 -0.89892358 124.6106 -8.9904385 -72.785812 -8.9862518 -73.372673 -0.19857772 -90.168404
9205625000 -0.90172315 124.55975 -8.9960947 -72.8228 -8.9765568 -73.330254 -0.19247422 -90.127502
9205687500 -0.89523047 124.5925 -8.9842329 -72.786736 -8.9819756 -73.332253 -0.19180094 -90.157028
9205750000 -0.89347267 124.58982 -8.9793587 -72.756226 -8.9843292 -73.258835 -0.19602758 -90.084694
9205812500 -0.89190054 124.53872 -8.9872265 -72.831696 -8.9852362 -73.298859 -0.19807868 -90.09169
9205875000 -0.89608818 124.55182 -8.9876633 -72.754112 -8.9848127 -73.258926 -0.20217876 -90.074539
9205937500 -0.89518535 124.53362 -8.9875183 -72.786613 -8.9812403 -73.292686 -0.19399294 -90.071205
9206000000 -0.88927037 124.51373 -8.9784842 -72.738396 -8.9812155 -73.259979 -0.19994211 -89.991096
9206062500 -0.89269584 124.52396 -8.9883184 -72.759644 -8.9773006 -73.33445 -0.20126258 -89.98111
9206125000 -0.89412737 124.50016 -8.9773827 -72.729103 -8.9760227 -73.293312 -0.20324022 -89.947441
9206187500 -0.89036387 124.52531 -8.980916 -72.666946 -8.9772911 -73.328613 -0.2030641 -89.97776
9206250000 -0.89460707 124.46961 -8.9847584 -72.732483 -8.9729099 -73.297371 -0.20390055 -89.955261
9206312500 -0.89041418 124.51546 -8.9777765 -72.688873 -8.9655304 -73.316765 -0.19504437 -89.944206
9206375000 -0.89589059 124.53027 -8.9756746 -72.711388 -8.9732313 -73.351944 -0.19501616 -89.901939
9206437500 -0.89434445 124.49808 -8.9738331 -72.664383 -8.9656572 -73.328423 -0.19468682 -89.914963
9206500000 -0.89526302 124.46958 -8.9681454 -72.730415 -8.9638519 -73.354607 -0.19600236 -89.90934
9206562500 -0.89345062 124.45484 -8.9679346 -72.765274 -8.9604149 -73.344521 -0.18945067 -89.856133
9206625000 -0.89681017 124.44193 -8.9671249 -72.702621 -8.9577227 -73.335541 -0.1888244 -89.862358
9206687500 -0.9004752 124.42042 -8.9690809 -72.704025 -8.9577274 -73.30677 -0.19168104 -89.7939
9206750000 -0.90315872 124.38039 -8.9660969 -72.754517 -8.9531603 -73.262238 -0.18537875 -89.791267
9206812500 -0.90172321 124.33346 -8.9622364 -72.669434 -8.9499912 -73.256767 -0.1812418 -89.711121
9206875000 -0.90059406 124.3648 -8.9698896 -72.659065 -8.9448652 -73.285538 -0.18459235 -89.740128
9206937500 -0.8988021 124.33546 -8.9726753 -72.722015 -8.9577675 -73.281647 -0.1952956 -89.701729
9207000000 -0.89456564 124.30882 -8.9674826 -72.72374 -8.9578123 -73.33683 -0.19377992 -89.759079
9207062500 -0.89372849 124.30095 -8.965354 -72.723763 -8.9565487 -73.290382 -0.19900464 -89.701935
9207125000 -0.89241177 124.26048 -8.9601269 -72.726181 -8.9633007 -73.222939 -0.20046738 -89.647789
9207187500 -0.88995844 124.2742 -8.9684353 -72.715286 -8.9594707 -73.34359 -0.19815609 -89.727959
9207250000 -0.88774145 124.26639 -8.9667187 -72.754196 -8.9602613 -73.286026 -0.20042872 -89.705414
9207312500 -0.88565379 124.21681 -8.9622211 -72.793488 -8.9648027 -73.32975 -0.20995849 -89.681366
9207375000 -0.89271492 124.1761 -8.9688864 -72.826431 -8.9689493 -73.293152 -0.21174349 -89.629608
9207437500 -0.89421827 124.13894 -8.9634762 -72.774902 -8.9523802 -73.285156 -0.19990657 -89.659042
9207500000 -0.89601034 124.14371 -8.9668131 -72.800423 -8.9574709 -73.291855 -0.21105234 -89.636787
9207562500 -0.89644808 124.14682 -8.9612236 -72.762749 -8.9550238 -73.292023 -0.20407014 -89.614456
9207625000 -0.89430147 124.1064 -8.9636602 -72.737251 -8.9451246 -73.278069 -0.19965379 -89.566422
9207687500 -0.89675093 124.07829 -8.9649744 -72.781189 -8.9509659 -73.284462 -0.1978125 -89.600548
9207750000 -0.90102798 124.09222 -8.9604912 -72.71003 -8.9523458 -73.289604 -0.19409713 -89.573357
9207812500 -0.90440661 124.11115 -8.97153 -72.728104 -8.9545956 -73.283981 -0.19210644 -89.507828
9207875000 -0.90524882 124.04485 -8.9641657 -72.745079 -8.9568539 -73.266548 -0.19541976 -89.477234
9207937500 -0.89990693 124.11153 -8.9557199 -72.67308 -8.9529963 -73.318489 -0.19533055 -89.480499
9208000000 -0.90708643 124.10371 -8.9669352 -72.644646 -8.9437685 -73.27916 -0.18911944 -89.427399
9208062500 -0.90182221 124.0552 -8.9587116 -72.695503 -8.9563761 -73.331718 -0.20079705 -89.441978
9208125000 -0.89874929 124.05978 -8.9556236 -72.710373 -8.955327 -73.309647 -0.20313403 -89.389526
9208187500 -0.89254004 124.07269 -8.9476442 -72.637077 -8.9445829 -73.294785 -0.1957923 -89.377777
9208250000 -0.90143615 124.04946 -8.9689102 -72.630646 -8.9523401 -73.268059 -0.20901889 -89.386505
9208312500 -0.89452142 124.01307 -8.9538307 -72.756348 -8.9480238 -73.271721 -0.20623516 -89.361343
9208375000 -0.89770401 124.01662 -8.9616299 -72.695007 -8.9504118 -73.179672 -0.21326512 -89.348259
9208437500 -0.89425403 123.97208 -8.9566259 -72.687706 -8.9493361 -73.296806 -0.20943701 -89.360069
9208500000 -0.89517653 123.96169 -8.9446087 -72.762466 -8.9502678 -73.237709 -0.20534134 -89.336754
9208562500 -0.89483082 123.95561 -8.9498043 -72.71801 -8.9420652 -73.224617 -0.20023778 -89.273735
9208625000 -0.89774323 123.92122 -8.9498463 -72.747307 -8.9465132 -73.230209 -0.20686288 -89.297943
9208687500 -0.89679241 123.93378 -8.9460182 -72.70385 -8.9380388 -73.262375 -0.19727428 -89.280045
9208750000 -0.89468044 123.85117 -8.9433031 -72.80201 -8.944356 -73.246033 -0.20855094 -89.239899
9208812500 -0.89757746 123.8914 -8.9450436 -72.727715 -8.9351664 -73.26841 -0.19684722 -89.279953
9208875000 -0.90111262 123.89845 -8.9554749 -72.749184 -8.9422283 -73.23143 -0.1978254 -89.239868
9208937500 -0.89622784 123.91512 -8.9511166 -72.71627 -8.9447384 -73.215431 -0.20478407 -89.252609
9209000000 -0.89785892 123.90484 -8.9432211 -72.660164 -8.9452295 -73.250214 -0.20399603 -89.237587
9209062500 -0.90211385 123.93867 -8.9540958 -72.679413 -8.9454288 -73.241585 -0.20435381 -89.208702
9209125000 -0.8996011 123.92535 -8.9528875 -72.659248 -8.9459009 -73.278236 -0.20749944 -89.199379
9209187500 -0.89235437 123.89072 -8.9449425 -72.628441 -8.9431601 -73.222 -0.21007872 -89.16993
9209250000 -0.89259714 123.87003 -8.9406891 -72.649231 -8.9373426 -73.209244 -0.19950023 -89.125374
9209312500 -0.89500934 123.83947 -8.9398975 -72.7174 -8.9456158 -73.24662 -0.20935708 -89.182213
9209375000 -0.89088064 123.82027 -8.9424391 -72.639267 -8.947607 -73.161163 -0.20913188 -89.055382
9209437500 -0.89346427 123.7502 -8.9344301 -72.671288 -8.9476833 -73.176186 -0.20780839 -89.060822
9209500000 -0.89146024 123.75594 -8.93857 -72.747139 -8.9441433 -73.223946 -0.2116085 -89.043274
9209562500 -0.89749652 123.73692 -8.9408998 -72.728317 -8.9438143 -73.180595 -0.20792693 -88.970329
9209625000 -0.90030563 123.74176 -8.9397993 -72.706306 -8.9389153 -73.151649 -0.204849 -88.946548
9209687500 -0.89670038 123.7142 -8.9359026 -72.741302 -8.9399681 -73.217926 -0.20748255 -89.017967
9209750000 -0.89484036 123.69441 -8.935915 -72.747299 -8.9419155 -73.142319 -0.1994105 -88.947243
9209812500 -0.90547204 123.69144 -8.9449949 -72.731133 -8.9387732 -73.222351 -0.20773929 -88.956635
9209875000 -0.8986724 123.70369 -8.9444609 -72.71524 -8.9415359 -73.183731 -0.20525594 -88.914246
9209937500 -0.89998239 123.67509 -8.9425316 -72.730011 -8.9328194 -73.175415 -0.20501257 -88.9067
9210000000 -0.89526248 123.6829 -8.9282236 -72.683533 -8.9318562 -73.152466 -0.20404772 -88.87439
9210062500 -0.89958799 123.66066 -8.9409952 -72.696899 -8.9261074 -73.191849 -0.19351643 -88.872856
9210125000 -0.89767504 123.66302 -8.9408035 -72.668297 -8.932003 -73.173378 -0.20430849 -88.900665
9210187500 -0.89207447 123.65237 -8.9320574 -72.62162 -8.9285116 -73.11776 -0.19755381 -88.807327
9210250000 -0.89567161 123.6205 -8.9335566 -72.671104 -8.9289293 -73.179344 -0.1998117 -88.852974
9210312500 -0.89096332 123.62582 -8.9335928 -72.629066 -8.9330196 -73.174561 -0.21268488 -88.830612
9210375000 -0.89397126 123.5929 -8.9334536 -72.652443 -8.9318008 -73.147957 -0.21202733 -88.769104
9210437500 -0.89721155 123.60709 -8.9333191 -72.577988 -8.9281483 -73.15049 -0.20555522 -88.77948
9210500000 -0.89337164 123.56629 -8.9398956 -72.621956 -8.9293966 -73.110451 -0.20917976 -88.734535
9210562500 -0.89368057 123.53116 -8.9381933 -72.686111 -8.9243345 -73.135872 -0.21223056 -88.750664
9210625000 -0.89160067 123.50932 -8.9339933 -72.624779 -8.9374704 -73.137527 -0.2160856 -88.713814
9210687500 -0.89297026 123.52389 -8.9358616 -72.65596 -8.9206581 -73.127533 -0.21341178 -88.676888
9210750000 -0.89238256 123.48417 -8.9318256 -72.549599 -8.9243832 -73.170334 -0.2214212 -88.692314
9210812500 -0.89268261 123.43195 -8.9414272 -72.622475 -8.9197893 -73.112762 -0.21259584 -88.677277
9210875000 -0.89496154 123.43033 -8.9343786 -72.658813 -8.9278069 -73.173775 -0.21725735 -88.677658
9210937500 -0.89280003 123.40893 -8.9297876 -72.630211 -8.9299383 -73.174118 -0.21712135 -88.658806
9211000000 -0.89463693 123.41797 -8.926898 -72.604164 -8.9186344 -73.13195 -0.21585283 -88.634605
9211062500 -0.89788282 123.40289 -8.933033 -72.700523 -8.9227886 -73.208252 -0.21278992 -88.633682
9211125000 -0.89655727 123.40558 -8.9198217 -72.688049 -8.9165621 -73.177261 -0.21200064 -88.652107
9211187500 -0.89799297 123.38778 -8.9202585 -72.692963 -8.9154921 -73.16021 -0.20525685 -88.653702
9211250000 -0.90387976 123.38702 -8.9310064 -72.669418 -8.9185467 -73.199997 -0.20577483 -88.633583
9211312500 -0.90435869 123.39058 -8.9214182 -72.72348 -8.9139185 -73.211891 -0.20796259 -88.639183
9211375000 -0.89900392 123.34911 -8.9208212 -72.65403 -8.9187517 -73.173637 -0.20596795 -88.5355
9211437500 -0.90087152 123.36825 -8.9198112 -72.635765 -8.9194384 -73.110046 -0.20314868 -88.463791
9211500000 -0.90207642 123.34771 -8.9299288 -72.624481 -8.9235497 -73.150055 -0.21243559 -88.478714
9211562500 -0.89639062 123.35545 -8.9217205 -72.64344 -8.9195662 -73.155495 -0.21034354 -88.500443
9211625000 -0.90148294 123.33466 -8.9254389 -72.634445 -8.9067183 -73.141769 -0.21127686 -88.505119
9211687500 -0.89828026 123.34521 -8.9237499 -72.635284 -8.9101305 -73.12915 -0.21033606 -88.437439
9211750000 -0.89883757 123.29123 -8.9230375 -72.690735 -8.9194288 -73.130516 -0.21962459 -88.470955
9211812500 -0.9036147 123.28152 -8.9316378 -72.633209 -8.9184637 -73.120209 -0.21682286 -88.417999
9211875000 -0.90479714 123.23433 -8.9250107 -72.659843 -8.9242249 -73.126358 -0.21938369 -88.392311
9211937500 -0.90434927 123.20583 -8.9221163 -72.634064 -8.9157782 -73.145164 -0.2174851 -88.380783
9212000000 -0.90526766 123.22138 -8.9206276 -72.602211 -8.918252 -73.111603 -0.22356975 -88.376892
9212062500 -0.9053731 123.17376 -8.913002 -72.662674 -8.9132013 -73.138596 -0.216841 -88.287453
9212125000 -0.90632939 123.13987 -8.9167995 -72.659584 -8.925416 -73.090485 -0.22657505 -88.239075
9212187500 -0.90583909 123.16492 -8.909831 -72.658081 -8.9166603 -73.113098 -0.22241943 -88.281395
