!Agilent Technologies,N5242A,MY51221714,A.09.90.19
!Agilent N5242A: A.09.90.19
!Date: Saturday, March 16, 2024 09:15:01
!Correction: S11(Full 2 Port(1,2)) 
!S21(Full 2 Port(1,2)) 
!S12(Full 2 Port(1,2)) 
!S22(Full 2 Port(1,2)) 
!S2P File: Measurements: S11, S21, S12, S22:
# Hz S  dB   R 50
9200000000 -0.8955552 125.85092 -9.0999441 -72.753235 -9.0809116 -73.304718 -0.16689312 -91.492851
9200062500 -0.89267749 125.81968 -9.0978394 -72.80336 -9.0831766 -73.309204 -0.1648086 -91.509834
9200125000 -0.89212662 125.84416 -9.0965157 -72.757057 -9.0852375 -73.284843 -0.16772161 -91.46843
9200187500 -0.89196688 125.81819 -9.0867805 -72.818474 -9.0857773 -73.334991 -0.16474058 -91.477776
9200250000 -0.88907439 125.81442 -9.0979662 -72.775101 -9.0763016 -73.322189 -0.1617834 -91.445549
9200312500 -0.88614386 125.79535 -9.092145 -72.762604 -9.0702486 -73.359222 -0.1661434 -91.440781
9200375000 -0.88387895 125.77172 -9.0895767 -72.803467 -9.073638 -73.303185 -0.16878846 -91.389763
9200437500 -0.88087851 125.75817 -9.091795 -72.733826 -9.0724754 -73.328499 -0.17026576 -91.389984
9200500000 -0.88415164 125.75012 -9.0910606 -72.775513 -9.0661345 -73.299194 -0.16432776 -91.374748
9200562500 -0.87887442 125.7388 -9.0844202 -72.732414 -9.0784788 -73.277214 -0.1716682 -91.330803
9200625000 -0.88612401 125.72102 -9.0911541 -72.764977 -9.0819263 -73.275276 -0.17377636 -91.324677
9200687500 -0.88769424 125.68857 -9.085535 -72.71917 -9.0690107 -73.271767 -0.17624779 -91.321472
9200750000 -0.88702226 125.66991 -9.0959454 -72.703911 -9.0737686 -73.269325 -0.17955534 -91.238846
9200812500 -0.88998252 125.69077 -9.0896416 -72.70636 -9.0675764 -73.284981 -0.17719652 -91.279068
9200875000 -0.88723481 125.71362 -9.0908289 -72.677139 -9.0579634 -73.34137 -0.16998725 -91.25737
9200937500 -0.88605559 125.65759 -9.0865326 -72.674812 -9.0630445 -73.272972 -0.1749997 -91.185249
9201000000 -0.8857711 125.64671 -9.0808325 -72.75354 -9.0640507 -73.287468 -0.17327516 -91.163017
9201062500 -0.87892175 125.64803 -9.0703173 -72.680489 -9.0664883 -73.254189 -0.17826474 -91.164627
9201125000 -0.88068742 125.60835 -9.0678082 -72.746773 -9.0677595 -73.277229 -0.1769511 -91.123161
9201187500 -0.8794719 125.57885 -9.074873 -72.676132 -9.0710564 -73.280418 -0.17695415 -91.123909
9201250000 -0.87696135 125.54903 -9.0742502 -72.72184 -9.0641842 -73.274788 -0.17904888 -91.127243
9201312500 -0.8816753 125.54047 -9.0672245 -72.775963 -9.0755301 -73.242279 -0.18053031 -91.059952
9201375000 -0.88126314 125.55806 -9.0819349 -72.707344 -9.0669432 -73.305771 -0.1767879 -91.152611
9201437500 -0.881015 125.55784 -9.0809326 -72.700462 -9.073554 -73.263786 -0.17725576 -91.113075
9201500000 -0.89012808 125.54534 -9.0826912 -72.738464 -9.0613918 -73.267059 -0.1705512 -91.100822
9201562500 -0.88437659 125.56036 -9.0699015 -72.704697 -9.0672169 -73.248306 -0.17294106 -91.056046
9201625000 -0.88919669 125.54626 -9.0752678 -72.692436 -9.0619259 -73.273201 -0.1735034 -91.041283
9201687500 -0.88945341 125.52029 -9.0798922 -72.695473 -9.0683928 -73.249275 -0.17297189 -91.043045
9201750000 -0.8872627 125.49712 -9.0861368 -72.693764 -9.064764 -73.236107 -0.17728093 -91.013
9201812500 -0.88846612 125.47231 -9.0831966 -72.724754 -9.0668287 -73.169548 -0.17637518 -90.978096
9201875000 -0.88292462 125.47741 -9.0746403 -72.714096 -9.0544538 -73.224579 -0.16986981 -90.956787
9201937500 -0.8857699 125.42368 -9.0719776 -72.699844 -9.061079 -73.183754 -0.17782988 -90.92614
9202000000 -0.88566709 125.40181 -9.0716734 -72.69693 -9.0613365 -73.21698 -0.18217644 -90.904671
9202062500 -0.88450676 125.37316 -9.0760937 -72.676048 -9.0633144 -73.200623 -0.17664963 -90.88588
9202125000 -0.88548887 125.40327 -9.0656347 -72.712929 -9.0533371 -73.22142 -0.17713954 -90.882019
9202187500 -0.88202852 125.35139 -9.0781641 -72.667191 -9.06705 -73.203041 -0.17905004 -90.816902
9202250000 -0.884902 125.3662 -9.0707865 -72.699661 -9.061471 -73.289886 -0.17977689 -90.881569
9202312500 -0.88922858 125.35101 -9.0563488 -72.683823 -9.0528259 -73.30127 -0.16520946 -90.871368
9202375000 -0.88609219 125.34795 -9.0557604 -72.699028 -9.0605583 -73.285706 -0.17667201 -90.82074
9202437500 -0.88822985 125.3587 -9.0549955 -72.672974 -9.0605125 -73.245567 -0.1783594 -90.808472
9202500000 -0.88820064 125.31605 -9.0681295 -72.702904 -9.0626488 -73.185188 -0.17720687 -90.792473
9202562500 -0.88979673 125.26885 -9.0603619 -72.709526 -9.0610228 -73.193726 -0.18588993 -90.757057
9202625000 -0.89331973 125.28314 -9.0720501 -72.71373 -9.0545769 -73.217773 -0.18136539 -90.73748
9202687500 -0.89044517 125.27956 -9.0696363 -72.709732 -9.0587025 -73.197395 -0.17861156 -90.717613
9202750000 -0.88723707 125.27612 -9.0721855 -72.645294 -9.0474482 -73.198936 -0.18496168 -90.685249
9202812500 -0.88706577 125.24435 -9.0668335 -72.66478 -9.0579424 -73.23819 -0.18872306 -90.659622
9202875000 -0.8847394 125.23064 -9.0527334 -72.643524 -9.0473528 -73.218987 -0.18408255 -90.678574
9202937500 -0.88571161 125.18316 -9.064765 -72.737106 -9.0563831 -73.211189 -0.18532087 -90.643074
9203000000 -0.88398749 125.22337 -9.0607548 -72.675362 -9.0445414 -73.152122 -0.17591515 -90.655548
9203062500 -0.88415384 125.16731 -9.0545387 -72.707077 -9.0600042 -73.247948 -0.18415247 -90.645615
9203125000 -0.8847332 125.17714 -9.064229 -72.714783 -9.0545168 -73.219719 -0.18296917 -90.578583
9203187500 -0.88465428 125.13479 -9.0576191 -72.742134 -9.0384235 -73.265785 -0.17443737 -90.587196
9203250000 -0.88882631 125.16515 -9.0562811 -72.712234 -9.0512781 -73.234009 -0.17833973 -90.566528
9203312500 -0.88541991 125.15314 -9.0641441 -72.664734 -9.0518942 -73.234123 -0.18639438 -90.521729
9203375000 -0.88959414 125.12772 -9.0604 -72.719818 -9.0430002 -73.214287 -0.17948867 -90.539856
9203437500 -0.89309925 125.14581 -9.0649376 -72.709282 -9.0392904 -73.298561 -0.17372462 -90.519485
9203500000 -0.88444602 125.06293 -9.0614071 -72.684425 -9.0529718 -73.273003 -0.17576617 -90.519623
9203562500 -0.89001054 125.09186 -9.059598 -72.611946 -9.0545864 -73.249695 -0.18642561 -90.47979
9203625000 -0.88323337 125.05085 -9.0572557 -72.620399 -9.0527239 -73.193901 -0.1862549 -90.421082
9203687500 -0.88484961 125.03254 -9.0551195 -72.667931 -9.0503387 -73.246063 -0.1892205 -90.470192
9203750000 -0.89177543 125.03515 -9.0607119 -72.697395 -9.0454187 -73.238457 -0.18649122 -90.404243
9203812500 -0.88741845 125.03333 -9.0530415 -72.596336 -9.0423594 -73.202583 -0.18148564 -90.366188
9203875000 -0.88886964 124.98937 -9.0580339 -72.701035 -9.0552368 -73.207481 -0.19492833 -90.381638
9203937500 -0.88531005 124.97611 -9.0541668 -72.673851 -9.0422955 -73.121529 -0.19693016 -90.344536
9204000000 -0.88486117 124.98391 -9.0601635 -72.6688 -9.0454998 -73.14315 -0.19277646 -90.355942
9204062500 -0.88375634 124.97485 -9.0505495 -72.648064 -9.0353613 -73.208481 -0.19478557 -90.339836
9204125000 -0.8781395 124.97546 -9.0581818 -72.619965 -9.0382309 -73.179489 -0.19771656 -90.280602
9204187500 -0.87644774 124.9173 -9.0536137 -72.605263 -9.0361023 -73.175568 -0.19816621 -90.279938
9204250000 -0.8795206 124.92781 -9.0516357 -72.597916 -9.0385828 -73.162086 -0.1917503 -90.228317
9204312500 -0.88001776 124.93329 -9.0565653 -72.636253 -9.0378742 -73.209496 -0.19544931 -90.300751
9204375000 -0.87549847 124.90147 -9.0490484 -72.656082 -9.037303 -73.201614 -0.1927112 -90.248146
9204437500 -0.8775844 124.88728 -9.0495186 -72.625702 -9.0305929 -73.148407 -0.18863815 -90.237785
9204500000 -0.8766095 124.86236 -9.0452604 -72.609703 -9.038249 -73.143448 -0.18589282 -90.184372
9204562500 -0.87261486 124.83437 -9.0415354 -72.635574 -9.0347023 -73.110245 -0.18485908 -90.106873
9204625000 -0.88119739 124.87228 -9.0412664 -72.586647 -9.0326138 -73.161224 -0.18050493 -90.160912
9204687500 -0.87993222 124.82731 -9.0399103 -72.655563 -9.0311728 -73.169022 -0.18063569 -90.144737
9204750000 -0.88254428 124.7971 -9.0439539 -72.601166 -9.0233898 -73.184349 -0.18159288 -90.140915
9204812500 -0.87702799 124.84267 -9.0408525 -72.523605 -9.0368986 -73.11882 -0.19082567 -90.088043
9204875000 -0.88247037 124.80218 -9.0468578 -72.639214 -9.0372782 -73.156128 -0.18924095 -90.116776
9204937500 -0.88571101 124.81416 -9.0441313 -72.635597 -9.0295124 -73.187347 -0.19109523 -90.109604
9205000000 -0.88268197 124.80863 -9.0470581 -72.574356 -9.0220108 -73.161552 -0.18586563 -90.061462
9205062500 -0.87838203 124.78327 -9.040206 -72.535065 -9.033987 -73.195419 -0.19161028 -90.09771
9205125000 -0.88508731 124.75259 -9.0471115 -72.545013 -9.030324 -73.207748 -0.18934722 -90.07
9205187500 -0.88596928 124.70496 -9.0418549 -72.598175 -9.026741 -73.118042 -0.18049738 -90.006004
9205250000 -0.89206272 124.71528 -9.0455875 -72.586273 -9.0307264 -73.14045 -0.18516994 -89.982201
9205312500 -0.88517308 124.65778 -9.0342293 -72.571198 -9.0283642 -73.143486 -0.18608162 -89.979393
9205375000 -0.88577384 124.63437 -9.0253935 -72.555664 -9.0253668 -73.156891 -0.18334498 -89.982025
9205437500 -0.8877638 124.61475 -9.0403099 -72.618248 -9.0335531 -73.132339 -0.18408641 -89.941124
9205500000 -0.88868678 124.65211 -9.037447 -72.548096 -9.0316467 -73.180748 -0.18997152 -89.949303
9205562500 -0.88492602 124.63037 -9.0238609 -72.60466 -9.0252047 -73.169052 -0.18591195 -89.966293
9205625000 -0.88627344 124.63062 -9.0341282 -72.549843 -9.0313444 -73.184601 -0.18702367 -89.939575
9205687500 -0.88199997 124.61079 -9.032917 -72.575409 -9.0282383 -73.153893 -0.18909729 -89.893036
9205750000 -0.88805759 124.58977 -9.0418472 -72.559364 -9.0362234 -73.114243 -0.19477206 -89.857033
9205812500 -0.88218349 124.59351 -9.031744 -72.621399 -9.0279055 -73.128662 -0.18824682 -89.890396
9205875000 -0.88108689 124.59589 -9.0408983 -72.48967 -9.0321541 -73.076508 -0.19408561 -89.791496
9205937500 -0.883582 124.55745 -9.0334969 -72.566933 -9.0294552 -73.087318 -0.18741503 -89.772606
9206000000 -0.88126445 124.54501 -9.0275145 -72.59462 -9.0251598 -73.115738 -0.18777627 -89.793671
9206062500 -0.87420827 124.55283 -9.0266848 -72.542725 -9.0337877 -73.091728 -0.19368576 -89.791222
9206125000 -0.87953967 124.52695 -9.0244093 -72.550674 -9.0277891 -73.120071 -0.19361259 -89.775337
9206187500 -0.88082403 124.52939 -9.0296516 -72.552658 -9.0273762 -73.128616 -0.19248182 -89.775246
9206250000 -0.88351721 124.53894 -9.0336809 -72.540245 -9.0144749 -73.102707 -0.18717508 -89.708916
9206312500 -0.88233751 124.51021 -9.0335007 -72.59362 -9.0153599 -73.103088 -0.18836746 -89.694733
9206375000 -0.88171721 124.4912 -9.0299053 -72.550011 -9.0219994 -73.195374 -0.19397254 -89.71344
9206437500 -0.88411355 124.50397 -9.0257702 -72.545868 -9.0183191 -73.128365 -0.18633923 -89.667191
9206500000 -0.883286 124.49835 -9.0335007 -72.477852 -9.0199003 -73.177521 -0.19638121 -89.702492
9206562500 -0.88212556 124.45238 -9.0176573 -72.566147 -9.0049238 -73.139496 -0.18259776 -89.664276
9206625000 -0.88371462 124.45348 -9.0182362 -72.479874 -9.0069065 -73.137711 -0.17934689 -89.597389
9206687500 -0.88345927 124.43927 -9.0071783 -72.506981 -9.0022001 -73.078094 -0.17797948 -89.569405
9206750000 -0.88630927 124.42033 -9.0182323 -72.546455 -9.0028276 -73.104073 -0.17382711 -89.531013
9206812500 -0.88834679 124.36826 -9.0186167 -72.498596 -9.0060835 -73.082382 -0.17782229 -89.485909
9206875000 -0.89033264 124.34863 -9.0121908 -72.525063 -9.0046616 -73.00415 -0.18042274 -89.454315
9206937500 -0.88310552 124.36022 -9.0051517 -72.50901 -9.0061932 -73.118553 -0.18262042 -89.49617
9207000000 -0.88460517 124.30465 -9.0110226 -72.55439 -9.0076857 -73.109886 -0.19087087 -89.494026
9207062500 -0.87930858 124.30469 -9.0084562 -72.49971 -9.0045605 -73.129692 -0.1904799 -89.507751
9207125000 -0.88029969 124.3009 -9.0138016 -72.535431 -9.0093288 -73.08168 -0.19405356 -89.465782
9207187500 -0.87800121 124.24693 -9.0147028 -72.58725 -9.0088663 -73.104782 -0.1933478 -89.502579
9207250000 -0.88004333 124.2667 -9.0174036 -72.57122 -9.0212917 -73.073975 -0.20367764 -89.473251
9207312500 -0.8785904 124.21581 -9.0075016 -72.581795 -9.0066719 -73.123695 -0.19833842 -89.448158
9207375000 -0.87935799 124.17903 -9.009059 -72.617851 -9.0078211 -73.074081 -0.19406544 -89.407669
9207437500 -0.87805551 124.18314 -9.0079584 -72.579163 -9.006218 -73.0784 -0.19893371 -89.404449
9207500000 -0.88408679 124.1618 -9.0087786 -72.595459 -9.0078392 -73.080925 -0.19693372 -89.369881
9207562500 -0.88637805 124.15701 -9.013999 -72.604073 -9.0010214 -73.119881 -0.19630283 -89.375877
9207625000 -0.88810313 124.12939 -9.0062094 -72.658379 -8.9974766 -73.082634 -0.19198993 -89.382988
9207687500 -0.88657933 124.1274 -9.0128469 -72.576591 -9.0025864 -73.154167 -0.18893872 -89.385452
9207750000 -0.89220005 124.12179 -9.0013599 -72.565544 -8.9989195 -73.117081 -0.19186589 -89.344208
9207812500 -0.88887298 124.08122 -9.0137711 -72.598534 -9.0063391 -73.114868 -0.19026287 -89.345818
9207875000 -0.89269787 124.14399 -9.0114918 -72.572609 -9.0019026 -73.129433 -0.1837153 -89.296707
9207937500 -0.89559644 124.11226 -9.0144138 -72.531174 -9.0042934 -73.115257 -0.1857007 -89.254738
9208000000 -0.88589942 124.11974 -9.0057821 -72.540253 -8.9968023 -73.11998 -0.18064393 -89.214844
9208062500 -0.88836432 124.08499 -9.0113049 -72.552391 -9.0001659 -73.10791 -0.18925041 -89.194992
9208125000 -0.89171571 124.09339 -9.0099125 -72.466125 -8.9984179 -73.041283 -0.19358678 -89.178886
9208187500 -0.8851546 124.07442 -9.0035629 -72.497292 -8.9957304 -73.068008 -0.19137883 -89.172371
9208250000 -0.88950312 124.03053 -9.0153847 -72.522141 -9.0047121 -73.069672 -0.19931525 -89.149719
9208312500 -0.88732123 124.0527 -9.0090675 -72.468391 -9.0013933 -73.034088 -0.20268199 -89.119522
9208375000 -0.88319272 124.03407 -9.0028877 -72.489067 -9.0021801 -73.10498 -0.20108448 -89.138741
9208437500 -0.88597333 123.99368 -9.00807 -72.551804 -9.002759 -73.094574 -0.20281263 -89.138489
9208500000 -0.88235015 123.9815 -9.0047083 -72.479759 -8.9938774 -73.079475 -0.18962671 -89.106247
9208562500 -0.88221663 123.95266 -8.9974012 -72.512604 -8.9933691 -73.067841 -0.19335288 -89.065208
9208625000 -0.88436067 123.92077 -8.9990625 -72.521515 -8.9968672 -73.083359 -0.19517934 -89.085648
9208687500 -0.88698375 123.89893 -8.9966211 -72.57663 -9.0008955 -73.062698 -0.20188791 -89.011238
9208750000 -0.88128132 123.87641 -9.0025196 -72.603127 -8.9919605 -73.090736 -0.1959803 -89.042755
9208812500 -0.88430417 123.91295 -8.9938402 -72.556618 -8.9870901 -73.015831 -0.18827364 -89.026779
9208875000 -0.88671786 123.88861 -8.9975653 -72.579277 -8.9954777 -73.050514 -0.19034497 -89.053467
9208937500 -0.88666868 123.91187 -8.9954796 -72.515472 -8.9910145 -73.018227 -0.19139175 -89.01062
9209000000 -0.88181394 123.94581 -8.9943476 -72.506996 -8.9983435 -73.066849 -0.19682953 -89.002899
9209062500 -0.8846944 123.94803 -8.9907084 -72.514114 -8.9990673 -73.05014 -0.20388764 -88.967018
9209125000 -0.88560802 123.90163 -8.9909458 -72.484032 -8.9935303 -73.024384 -0.19588321 -88.981895
9209187500 -0.89015228 123.87622 -8.9932556 -72.549713 -8.9981012 -73.032501 -0.20009339 -88.954651
9209250000 -0.8837887 123.85192 -8.988492 -72.524628 -8.9892683 -72.985893 -0.19276035 -88.88858
9209312500 -0.8817991 123.83946 -8.9901152 -72.462387 -8.9914684 -73.016991 -0.19764188 -88.854988
9209375000 -0.88241762 123.8401 -8.9912205 -72.481987 -8.9919758 -72.969078 -0.19774179 -88.863335
9209437500 -0.88044149 123.81091 -8.9829216 -72.518082 -8.9946136 -73.022026 -0.20081447 -88.861809
9209500000 -0.87908924 123.79356 -8.9855509 -72.464424 -8.9916973 -73.004425 -0.19756156 -88.795082
9209562500 -0.88333035 123.8142 -8.9805689 -72.46994 -8.9898462 -73.015099 -0.19430417 -88.80323
9209625000 -0.88129401 123.76434 -8.9870558 -72.534943 -8.9943457 -72.981842 -0.2012547 -88.771057
9209687500 -0.88800728 123.75142 -8.9878807 -72.533798 -8.990572 -72.97702 -0.20385072 -88.757057
9209750000 -0.88703167 123.73038 -8.9882355 -72.49794 -8.9891262 -72.997063 -0.19098505 -88.722069
9209812500 -0.89203966 123.69809 -8.9776306 -72.594284 -8.9817495 -73.070717 -0.18572852 -88.716293
9209875000 -0.88971317 123.72166 -8.9909592 -72.532845 -8.9871187 -73.005028 -0.19746207 -88.698624
9209937500 -0.88427651 123.70351 -8.9836979 -72.528862 -8.9850769 -72.98539 -0.19951579 -88.651657
9210000000 -0.89096463 123.65906 -8.9870958 -72.478157 -8.9790401 -72.990334 -0.1904141 -88.668022
9210062500 -0.88224077 123.67988 -8.9871845 -72.52845 -8.9824934 -73.020645 -0.19425048 -88.631546
9210125000 -0.88442618 123.66602 -8.9804182 -72.500305 -8.9710827 -72.958282 -0.18762706 -88.627945
9210187500 -0.88388866 123.67445 -8.9803295 -72.495972 -8.9817333 -72.946823 -0.19249171 -88.624344
9210250000 -0.88304657 123.65984 -8.9802132 -72.514465 -8.9764538 -72.935333 -0.18957864 -88.581848
9210312500 -0.88045567 123.64703 -8.9776325 -72.44857 -8.9785576 -72.935913 -0.20126979 -88.546402
9210375000 -0.88110906 123.59663 -8.9739552 -72.480873 -8.9825153 -72.949631 -0.20196927 -88.517838
9210437500 -0.8825838 123.62637 -8.9754543 -72.415726 -8.9726276 -73.009102 -0.19821243 -88.561592
9210500000 -0.88396889 123.57483 -8.978982 -72.479492 -8.9769173 -72.94519 -0.20298825 -88.496529
9210562500 -0.88139331 123.59193 -8.991622 -72.498184 -8.9760456 -72.971176 -0.20457093 -88.534744
9210625000 -0.87743282 123.55701 -8.9812202 -72.431557 -8.9809685 -72.984894 -0.20553692 -88.5215
9210687500 -0.8788842 123.53184 -8.9815636 -72.468681 -8.9715195 -72.926094 -0.20012394 -88.45829
9210750000 -0.87555057 123.47795 -8.9777679 -72.49868 -8.9721298 -72.96949 -0.20628363 -88.456139
9210812500 -0.88019651 123.46722 -8.9758644 -72.440697 -8.9704065 -72.965187 -0.20754048 -88.449097
9210875000 -0.88339567 123.48258 -8.9808779 -72.373878 -8.9723768 -72.98243 -0.20871571 -88.39679
9210937500 -0.88108218 123.45861 -8.980052 -72.393188 -8.9737301 -72.949066 -0.20507187 -88.446686
9211000000 -0.88377327 123.42067 -8.9739037 -72.426483 -8.9682474 -72.972488 -0.20704927 -88.390739
9211062500 -0.88493109 123.40902 -8.9805698 -72.483963 -8.9679136 -73.007446 -0.20116909 -88.442375
9211125000 -0.8873142 123.43814 -8.9792128 -72.388664 -8.9645386 -73.016136 -0.19814371 -88.413124
9211187500 -0.89018774 123.45842 -8.9798536 -72.432289 -8.9671412 -73.012505 -0.20198943 -88.400581
9211250000 -0.89261341 123.42825 -8.9712191 -72.478943 -8.9741278 -73.029602 -0.20129934 -88.443245
9211312500 -0.89644223 123.44327 -8.9726486 -72.480232 -8.964941 -73.035889 -0.19713871 -88.427216
9211375000 -0.88581824 123.41462 -8.9698448 -72.479691 -8.959815 -73.011299 -0.18429059 -88.305977
9211437500 -0.89150012 123.39085 -8.9757061 -72.445625 -8.9689026 -72.961258 -0.19771267 -88.273376
9211500000 -0.88966936 123.39729 -8.9710722 -72.492615 -8.9639339 -73.035995 -0.19513096 -88.320618
9211562500 -0.89013714 123.35573 -8.9707098 -72.501083 -8.971797 -72.993187 -0.20362473 -88.303169
9211625000 -0.89593154 123.37209 -8.9717493 -72.406631 -8.9618349 -72.958466 -0.20050219 -88.216835
9211687500 -0.89095706 123.3176 -8.9720058 -72.438133 -8.9690828 -72.987938 -0.21584074 -88.249252
9211750000 -0.88396657 123.31239 -8.9711294 -72.411682 -8.9708109 -72.930672 -0.21248277 -88.227829
9211812500 -0.89104354 123.27931 -8.9725075 -72.437546 -8.9593163 -72.898071 -0.20785086 -88.169662
9211875000 -0.89072973 123.2619 -8.9702568 -72.414482 -8.9723263 -72.931747 -0.2123681 -88.133255
9211937500 -0.89168292 123.25337 -8.9645853 -72.500877 -8.9590988 -72.964668 -0.19620404 -88.152145
9212000000 -0.88937485 123.1955 -8.9701471 -72.477951 -8.9624786 -72.904144 -0.20914391 -88.07946
9212062500 -0.88974065 123.19085 -8.9552622 -72.448944 -8.9586573 -72.852943 -0.20111291 -88.015076
9212125000 -0.89595705 123.15468 -8.971406 -72.506645 -8.9725361 -72.887123 -0.21329623 -88.019234
9212187500 -0.88737547 123.14661 -8.9559755 -72.421371 -8.9607277 -72.912666 -0.20717362 -88.012024
