!Agilent Technologies,N5242A,MY51221714,A.09.90.19
!Agilent N5242A: A.09.90.19
!Date: Saturday, March 16, 2024 09:16:25
!Correction: S11(Full 2 Port(1,2)) 
!S21(Full 2 Port(1,2)) 
!S12(Full 2 Port(1,2)) 
!S22(Full 2 Port(1,2)) 
!S2P File: Measurements: S11, S21, S12, S22:
# Hz S  dB   R 50
9200000000 -0.89855003 125.7476 -9.0461092 -72.923859 -9.0426226 -73.424614 -0.17928421 -91.575432
9200062500 -0.89378172 125.71418 -9.0418673 -72.95665 -9.0401525 -73.464417 -0.17530996 -91.575752
9200125000 -0.90227199 125.69511 -9.0494022 -72.983032 -9.0375929 -73.508591 -0.1782475 -91.609177
9200187500 -0.90338838 125.68478 -9.0532532 -72.911873 -9.0394955 -73.466461 -0.17260687 -91.571526
9200250000 -0.89583266 125.6941 -9.0400724 -72.90033 -9.0291452 -73.520882 -0.17857306 -91.566551
9200312500 -0.89451665 125.66096 -9.0377645 -72.913078 -9.0250959 -73.480942 -0.17176983 -91.507813
9200375000 -0.89507204 125.6673 -9.0374889 -72.926331 -9.0268507 -73.521927 -0.175326 -91.543053
9200437500 -0.89513081 125.65652 -9.0388222 -72.966576 -9.0248032 -73.51474 -0.17203604 -91.537048
9200500000 -0.8926602 125.6375 -9.0378304 -72.935303 -9.0304995 -73.46991 -0.18154706 -91.486778
9200562500 -0.89815134 125.61224 -9.0441446 -72.907272 -9.026 -73.458252 -0.17984244 -91.460709
9200625000 -0.89772612 125.61337 -9.0468779 -72.886086 -9.0253763 -73.47625 -0.17546768 -91.443832
9200687500 -0.89990717 125.57014 -9.0428066 -72.930618 -9.0189419 -73.431557 -0.18309875 -91.373016
9200750000 -0.90095806 125.59079 -9.0512609 -72.83358 -9.0129519 -73.479156 -0.18138936 -91.388397
9200812500 -0.90092611 125.56191 -9.0448303 -72.844391 -9.0230122 -73.429932 -0.18198511 -91.328293
9200875000 -0.89514863 125.52547 -9.0393867 -72.844025 -9.0151854 -73.434052 -0.18575615 -91.304688
9200937500 -0.89650667 125.53422 -9.040822 -72.840157 -9.0284605 -73.387695 -0.19148292 -91.306046
9201000000 -0.89819437 125.56961 -9.035902 -72.787102 -9.0218925 -73.419128 -0.18455485 -91.24057
9201062500 -0.89325899 125.52455 -9.0349226 -72.819077 -9.0242891 -73.377235 -0.1855948 -91.238815
9201125000 -0.89093733 125.46977 -9.0288048 -72.856804 -9.0223246 -73.471741 -0.17913386 -91.302254
9201187500 -0.8910591 125.48896 -9.0319099 -72.849083 -9.0173187 -73.430832 -0.18105324 -91.250381
9201250000 -0.88818878 125.49049 -9.0228901 -72.821999 -9.0163689 -73.458206 -0.17872557 -91.258148
9201312500 -0.89610392 125.41624 -9.0279131 -72.911293 -9.0224819 -73.423096 -0.18259542 -91.247437
9201375000 -0.89805996 125.44862 -9.0412331 -72.917374 -9.0256968 -73.45813 -0.18667117 -91.237442
9201437500 -0.89841259 125.41202 -9.0358105 -72.840385 -9.0167456 -73.435287 -0.17857462 -91.234032
9201500000 -0.90209758 125.42142 -9.0340767 -72.890175 -9.018775 -73.400826 -0.17902149 -91.202156
9201562500 -0.89972192 125.41871 -9.0335493 -72.917656 -9.0274534 -73.434174 -0.18335566 -91.185753
9201625000 -0.9011265 125.39526 -9.0404768 -72.833618 -9.0227709 -73.404022 -0.1776989 -91.170883
9201687500 -0.89348656 125.39188 -9.019454 -72.804817 -9.0169296 -73.406158 -0.18287465 -91.120506
9201750000 -0.89727658 125.3716 -9.0353041 -72.877701 -9.0133524 -73.358688 -0.18295527 -91.07621
9201812500 -0.89830297 125.36654 -9.0327587 -72.80101 -9.0145931 -73.415718 -0.18413183 -91.104317
9201875000 -0.8890366 125.35669 -9.0344429 -72.782005 -9.0240412 -73.398407 -0.19243743 -91.058487
9201937500 -0.89616936 125.31043 -9.021143 -72.842972 -9.0126152 -73.377182 -0.18572104 -91.048141
9202000000 -0.89377159 125.30885 -9.03335 -72.834435 -9.0109062 -73.396523 -0.18422668 -91.049309
9202062500 -0.89597338 125.27129 -9.019846 -72.839981 -9.0138264 -73.420776 -0.18463345 -91.04644
9202125000 -0.89491761 125.25391 -9.0198298 -72.915413 -9.0174179 -73.417892 -0.18777542 -91.05175
9202187500 -0.89528286 125.2821 -9.0193243 -72.850845 -9.0110312 -73.420715 -0.18332657 -91.007706
9202250000 -0.89672738 125.22933 -9.0193052 -72.88372 -9.013607 -73.435135 -0.18375005 -90.984489
9202312500 -0.8992461 125.21087 -9.0234051 -72.892014 -9.0188093 -73.429039 -0.18327622 -90.99176
9202375000 -0.8960768 125.23242 -9.013751 -72.824905 -9.0131836 -73.429886 -0.18250611 -90.950249
9202437500 -0.89266467 125.21194 -9.0202646 -72.821915 -9.0161695 -73.407547 -0.18747181 -90.943901
9202500000 -0.89188111 125.21327 -9.012886 -72.87664 -9.0117168 -73.44355 -0.19218621 -90.892471
9202562500 -0.89796627 125.22477 -9.0301342 -72.777992 -9.0149632 -73.376335 -0.18840316 -90.865616
9202625000 -0.89638889 125.18976 -9.0221786 -72.803741 -9.0112448 -73.40274 -0.19270077 -90.845024
9202687500 -0.89845902 125.16472 -9.0214062 -72.803932 -9.0114756 -73.354362 -0.19323146 -90.81797
9202750000 -0.89983404 125.1349 -9.0264339 -72.850426 -9.0111103 -73.437988 -0.19344023 -90.846031
9202812500 -0.89955628 125.14149 -9.0215673 -72.805092 -9.0078659 -73.442039 -0.19235401 -90.798538
9202875000 -0.89864582 125.14162 -9.0186501 -72.777336 -9.0057602 -73.369629 -0.19204982 -90.776863
9202937500 -0.89559603 125.07702 -9.0237741 -72.850861 -9.0047283 -73.454056 -0.18691096 -90.789085
9203000000 -0.89767736 125.07655 -9.0081673 -72.890358 -9.0015173 -73.418633 -0.19187658 -90.733765
9203062500 -0.89237183 125.07185 -9.0113544 -72.852715 -8.9991713 -73.376419 -0.18891111 -90.69838
9203125000 -0.89434427 125.05228 -9.0079908 -72.834389 -8.9976168 -73.37674 -0.18856995 -90.691986
9203187500 -0.89402843 125.02104 -9.0109797 -72.84214 -9.0019073 -73.424484 -0.1881402 -90.675964
9203250000 -0.89886522 125.03098 -9.0166187 -72.858681 -9.0083551 -73.383888 -0.18493944 -90.680573
9203312500 -0.89780217 125.03663 -9.010788 -72.796196 -9.0005846 -73.326859 -0.18509519 -90.63105
9203375000 -0.89962012 125.0563 -9.0154409 -72.844635 -9.010972 -73.40506 -0.19701415 -90.611778
9203437500 -0.90087599 125.00893 -9.0174456 -72.874031 -9.0053997 -73.36142 -0.18904039 -90.56958
9203500000 -0.89523953 125.00819 -9.0113077 -72.863358 -9.0023088 -73.419113 -0.19108111 -90.60128
9203562500 -0.89272368 124.9537 -9.0150928 -72.834869 -9.0064297 -73.461159 -0.19147579 -90.617142
9203625000 -0.89900953 124.96381 -9.0063324 -72.805992 -9.0044184 -73.399864 -0.19114967 -90.577332
9203687500 -0.89717054 124.93274 -9.0148859 -72.812469 -8.9916391 -73.354782 -0.18636106 -90.553703
9203750000 -0.89400506 124.91836 -8.9999475 -72.827614 -9.0066881 -73.362694 -0.20218216 -90.568001
9203812500 -0.89585203 124.87579 -9.0098829 -72.862915 -9.0012302 -73.397003 -0.20116587 -90.533791
9203875000 -0.89892256 124.89733 -9.0125418 -72.774933 -8.9952927 -73.349159 -0.20138371 -90.497231
9203937500 -0.8938601 124.85821 -9.0094328 -72.830597 -8.9973478 -73.371651 -0.20391272 -90.487846
9204000000 -0.89075154 124.87666 -9.0045538 -72.77935 -8.9878321 -73.346382 -0.19689246 -90.469543
9204062500 -0.89281362 124.80688 -9.0031939 -72.792809 -8.9918451 -73.285332 -0.20158565 -90.405823
9204125000 -0.89167166 124.83308 -9.0004997 -72.791122 -8.9857454 -73.313042 -0.20034723 -90.395462
9204187500 -0.8902269 124.82252 -9.0064983 -72.7509 -8.9857674 -73.307472 -0.20065203 -90.385056
9204250000 -0.89178604 124.79183 -9.0065718 -72.836433 -8.9848385 -73.366302 -0.20076206 -90.372543
9204312500 -0.88775748 124.79802 -8.9954529 -72.757912 -8.979146 -73.310211 -0.19097905 -90.34211
9204375000 -0.89493173 124.75793 -9.0014963 -72.749931 -8.9895792 -73.307037 -0.19763321 -90.338409
9204437500 -0.89219213 124.74461 -9.0027704 -72.82753 -8.9934406 -73.286194 -0.19724454 -90.320702
9204500000 -0.88934958 124.74465 -8.9956312 -72.774078 -8.9902096 -73.33593 -0.19596545 -90.312668
9204562500 -0.88643014 124.73991 -9.0032206 -72.813622 -8.98528 -73.366898 -0.19208169 -90.298164
9204625000 -0.8863923 124.71137 -8.9951706 -72.766312 -8.9848671 -73.349586 -0.19156159 -90.259132
9204687500 -0.89003682 124.73684 -9.0005913 -72.753365 -8.988204 -73.346626 -0.19521354 -90.25795
9204750000 -0.89278191 124.70599 -8.9973021 -72.78112 -8.9792042 -73.36219 -0.18924013 -90.252701
9204812500 -0.89015204 124.66541 -8.9958363 -72.809387 -8.9873772 -73.336975 -0.1960278 -90.242996
9204875000 -0.89077526 124.68236 -8.9974499 -72.733673 -8.9845467 -73.31826 -0.19937344 -90.215218
9204937500 -0.8928135 124.68543 -8.9919281 -72.755898 -8.9824867 -73.354553 -0.19720197 -90.21109
9205000000 -0.89817625 124.6704 -9.0014734 -72.707161 -8.98522 -73.324791 -0.19892603 -90.174744
9205062500 -0.89309138 124.65258 -8.9913549 -72.764824 -8.9772596 -73.365891 -0.19791436 -90.197304
9205125000 -0.89802146 124.64368 -8.9904089 -72.779037 -8.9767418 -73.361984 -0.19368064 -90.149117
9205187500 -0.8964833 124.57343 -8.9959164 -72.736717 -8.9852781 -73.356339 -0.19685897 -90.151009
9205250000 -0.89426672 124.58401 -8.9879255 -72.705811 -8.9806366 -73.354813 -0.19331606 -90.137535
9205312500 -0.90172189 124.55061 -8.9880276 -72.732025 -8.9812975 -73.333687 -0.19138364 -90.126602
9205375000 -0.90258491 124.53674 -8.99016 -72.706032 -8.9824247 -73.317413 -0.1937173 -90.054138
9205437500 -0.89730871 124.51884 -8.987689 -72.724586 -8.9904242 -73.305534 -0.19317122 -90.099762
9205500000 -0.90023273 124.5105 -8.9900951 -72.731102 -8.9854927 -73.316826 -0.19307925 -90.032433
9205562500 -0.89618927 124.52422 -8.982934 -72.769318 -8.9848938 -73.299164 -0.19670075 -90.05555
9205625000 -0.89991164 124.47923 -8.985219 -72.754135 -8.9839144 -73.284973 -0.19946322 -90.045547
9205687500 -0.8949917 124.47353 -8.9825525 -72.725159 -8.9843187 -73.284386 -0.19302525 -89.984032
9205750000 -0.89654857 124.47336 -8.9859304 -72.693062 -8.9833288 -73.354866 -0.1931991 -90.035851
9205812500 -0.89445949 124.47701 -8.9878502 -72.772774 -8.9939051 -73.303619 -0.2037966 -89.946541
9205875000 -0.89316499 124.43362 -8.987443 -72.776749 -8.9830408 -73.317154 -0.20107014 -89.9944
9205937500 -0.88728422 124.42512 -8.9810667 -72.748222 -8.987711 -73.3153 -0.19993325 -89.947258
9206000000 -0.88975364 124.43993 -8.9796953 -72.77166 -8.976676 -73.227348 -0.19898976 -89.864357
9206062500 -0.89557874 124.43134 -8.9878416 -72.69899 -8.9729652 -73.317543 -0.19984129 -89.898941
9206125000 -0.89290589 124.42596 -8.9869318 -72.675323 -8.9733629 -73.308853 -0.19532444 -89.894501
9206187500 -0.89461797 124.39791 -8.9820471 -72.684006 -8.9794512 -73.301636 -0.19765511 -89.863251
9206250000 -0.89125395 124.37578 -8.98141 -72.699471 -8.9711151 -73.292664 -0.19720496 -89.848099
9206312500 -0.89657402 124.40377 -8.972024 -72.675911 -8.9776335 -73.30793 -0.20144902 -89.79985
9206375000 -0.89343947 124.38316 -8.9758635 -72.689796 -8.9671211 -73.230553 -0.19302593 -89.775162
9206437500 -0.88997787 124.35877 -8.9666996 -72.737869 -8.970912 -73.321327 -0.19583184 -89.783073
9206500000 -0.89505363 124.35063 -8.9851007 -72.710136 -8.9675341 -73.280769 -0.19530991 -89.7967
9206562500 -0.89255053 124.32048 -8.9620361 -72.759743 -8.9638624 -73.293457 -0.19007558 -89.76609
9206625000 -0.89732909 124.31837 -8.97719 -72.684319 -8.9580297 -73.273949 -0.19091958 -89.722916
9206687500 -0.89744157 124.29269 -8.9671278 -72.706299 -8.9614782 -73.240425 -0.18575175 -89.685287
9206750000 -0.89529455 124.28249 -8.9705839 -72.752022 -8.9587221 -73.267982 -0.18341874 -89.642189
9206812500 -0.89976656 124.27156 -8.9574223 -72.679405 -8.9493532 -73.241776 -0.18032664 -89.608765
9206875000 -0.8940199 124.26651 -8.962945 -72.609406 -8.9588079 -73.259094 -0.18726461 -89.620773
9206937500 -0.89732897 124.22012 -8.964901 -72.668839 -8.959774 -73.252213 -0.19226357 -89.580147
9207000000 -0.89299369 124.21871 -8.9671392 -72.674782 -8.9584055 -73.303749 -0.19435033 -89.615921
9207062500 -0.89367819 124.18996 -8.9686298 -72.699135 -8.9641285 -73.234039 -0.19858749 -89.569733
9207125000 -0.89696991 124.16505 -8.9713755 -72.635262 -8.9559584 -73.229767 -0.19709001 -89.58284
9207187500 -0.89180744 124.17534 -8.9745302 -72.695267 -8.9621372 -73.291222 -0.19962931 -89.59845
9207250000 -0.89231879 124.13739 -8.9726429 -72.67514 -8.9733677 -73.247124 -0.20558853 -89.55127
9207312500 -0.88787889 124.09196 -8.9672642 -72.741249 -8.9604845 -73.247597 -0.20233753 -89.534378
9207375000 -0.89526963 124.09122 -8.9749641 -72.717598 -8.9603558 -73.276726 -0.20336972 -89.563065
9207437500 -0.89535803 124.07245 -8.9670744 -72.733421 -8.9532185 -73.223976 -0.20270777 -89.519394
9207500000 -0.89464092 124.05964 -8.9735785 -72.740219 -8.9588099 -73.256973 -0.2043979 -89.534584
9207562500 -0.89427447 124.01884 -8.9687815 -72.776146 -8.9607162 -73.24633 -0.21048944 -89.482391
9207625000 -0.89284956 124.01039 -8.9662323 -72.743866 -8.9486418 -73.223747 -0.19688831 -89.512138
9207687500 -0.89754921 124.0033 -8.9698811 -72.714844 -8.9636631 -73.317505 -0.20322469 -89.519135
9207750000 -0.90001887 124.02028 -8.9756994 -72.733215 -8.9591131 -73.254875 -0.20113175 -89.429428
9207812500 -0.90086162 124.02729 -8.9673033 -72.73436 -8.9462481 -73.293068 -0.19266595 -89.43515
9207875000 -0.90205801 123.99451 -8.9656258 -72.725113 -8.9610987 -73.325905 -0.19240431 -89.4347
9207937500 -0.90223116 123.99947 -8.959898 -72.697075 -8.9523211 -73.284485 -0.19512054 -89.38179
9208000000 -0.90498435 123.98625 -8.9664078 -72.694946 -8.9530125 -73.277946 -0.19333425 -89.378296
9208062500 -0.89832902 123.98888 -8.9634981 -72.655647 -8.946702 -73.275246 -0.19894116 -89.296585
9208125000 -0.90164655 123.95013 -8.9562778 -72.740585 -8.9440174 -73.214043 -0.19711399 -89.311707
9208187500 -0.89626294 123.94553 -8.9604244 -72.67746 -8.9553242 -73.265633 -0.2040287 -89.317329
9208250000 -0.90036821 123.94981 -8.9592018 -72.727592 -8.9555969 -73.303787 -0.20401543 -89.316444
9208312500 -0.89851242 123.91656 -8.9634333 -72.646141 -8.9550743 -73.184448 -0.21116242 -89.210999
9208375000 -0.89184934 123.93126 -8.960228 -72.60463 -8.952672 -73.202385 -0.20875446 -89.23275
9208437500 -0.89757532 123.88367 -8.9559679 -72.679314 -8.9543591 -73.215843 -0.20873979 -89.219627
9208500000 -0.90287471 123.89259 -8.9625511 -72.670662 -8.9446058 -73.203133 -0.2055847 -89.184464
9208562500 -0.89471352 123.84123 -8.9527769 -72.715538 -8.9367933 -73.218613 -0.19276381 -89.161888
9208625000 -0.89384019 123.84978 -8.9509773 -72.701271 -8.9365101 -73.20739 -0.19656625 -89.168854
9208687500 -0.89513218 123.8112 -8.9530268 -72.704231 -8.9343348 -73.218239 -0.19605379 -89.168701
9208750000 -0.89829242 123.77629 -8.941987 -72.74585 -8.9428329 -73.210411 -0.19869627 -89.195351
9208812500 -0.89984423 123.78268 -8.9479046 -72.732635 -8.9405289 -73.182739 -0.19973426 -89.14241
9208875000 -0.89263779 123.77627 -8.9413052 -72.712006 -8.9378176 -73.27935 -0.19873059 -89.208595
9208937500 -0.89706242 123.8151 -8.9485216 -72.672745 -8.9444513 -73.239761 -0.19868405 -89.146088
9209000000 -0.89144349 123.81674 -8.9386454 -72.688599 -8.9380007 -73.214294 -0.19949028 -89.159279
9209062500 -0.8983478 123.83974 -8.9410238 -72.690056 -8.9520493 -73.24292 -0.20535386 -89.138947
9209125000 -0.89962643 123.80558 -8.9485989 -72.680336 -8.9491196 -73.236946 -0.20687205 -89.129089
9209187500 -0.89765215 123.793 -8.9529324 -72.605721 -8.952199 -73.204979 -0.21162789 -89.044228
9209250000 -0.89560205 123.80241 -8.9399233 -72.632103 -8.9438229 -73.210739 -0.20285437 -89.020912
9209312500 -0.89141852 123.75875 -8.9395247 -72.6549 -8.9450445 -73.205482 -0.2025903 -88.985107
9209375000 -0.89297026 123.70324 -8.9322958 -72.647903 -8.946559 -73.161713 -0.20493482 -88.997383
9209437500 -0.89355785 123.69217 -8.9394369 -72.657715 -8.9407415 -73.216873 -0.20908454 -88.976112
9209500000 -0.90126932 123.6879 -8.9356823 -72.669037 -8.9415016 -73.190002 -0.20218207 -88.952431
9209562500 -0.89959651 123.68053 -8.9483805 -72.628342 -8.9398365 -73.169662 -0.20293435 -88.93882
9209625000 -0.89497703 123.658 -8.9419193 -72.657394 -8.9405642 -73.222412 -0.20748229 -88.916016
9209687500 -0.89825749 123.62152 -8.9436731 -72.684624 -8.9391651 -73.190842 -0.20388681 -88.905701
9209750000 -0.90257037 123.58905 -8.9442492 -72.670052 -8.9384251 -73.223602 -0.20656815 -88.874153
9209812500 -0.89837021 123.60408 -8.9369535 -72.681183 -8.9343262 -73.177475 -0.20316216 -88.828255
9209875000 -0.89869726 123.60699 -8.9339142 -72.713089 -8.9350357 -73.166557 -0.19965979 -88.776825
9209937500 -0.90302151 123.60239 -8.9389343 -72.674583 -8.9387197 -73.190399 -0.20492928 -88.780876
9210000000 -0.90157068 123.59306 -8.941493 -72.642433 -8.9334564 -73.131081 -0.19166243 -88.794662
9210062500 -0.89825588 123.57483 -8.9322767 -72.588547 -8.9294891 -73.21273 -0.1971197 -88.781181
9210125000 -0.89954686 123.55511 -8.938138 -72.657074 -8.9255962 -73.132179 -0.2006792 -88.738266
9210187500 -0.89662212 123.54397 -8.9326 -72.683525 -8.9261045 -73.127556 -0.1957662 -88.698853
9210250000 -0.89516068 123.51846 -8.9345455 -72.640694 -8.9214315 -73.176933 -0.19623075 -88.745377
9210312500 -0.89648283 123.53484 -8.9333401 -72.623383 -8.926157 -73.15004 -0.19903316 -88.717598
9210375000 -0.88966364 123.48346 -8.9229527 -72.657875 -8.9319534 -73.09063 -0.20805851 -88.63813
9210437500 -0.89075571 123.48142 -8.9361048 -72.602783 -8.9223795 -73.085747 -0.20735396 -88.64798
9210500000 -0.8934949 123.44389 -8.9411974 -72.64196 -8.9272299 -73.15274 -0.21178347 -88.719353
9210562500 -0.89386612 123.4807 -8.9401913 -72.557541 -8.9351339 -73.152191 -0.21253455 -88.626183
9210625000 -0.88822341 123.40623 -8.9379025 -72.634941 -8.9291916 -73.173668 -0.20975189 -88.647911
9210687500 -0.88946718 123.41909 -8.9355946 -72.642654 -8.9334507 -73.180267 -0.21700694 -88.633545
9210750000 -0.88954848 123.35443 -8.9308767 -72.617805 -8.9216719 -73.129616 -0.21395357 -88.553322
9210812500 -0.89076692 123.37689 -8.9302292 -72.634613 -8.9224834 -73.103989 -0.2137121 -88.545311
9210875000 -0.89265281 123.37214 -8.934967 -72.55584 -8.9253902 -73.187904 -0.21236376 -88.55674
9210937500 -0.89172393 123.32275 -8.9277191 -72.597519 -8.9212217 -73.194344 -0.21209756 -88.566406
9211000000 -0.8980813 123.32826 -8.9429131 -72.624992 -8.92801 -73.154327 -0.21578141 -88.533104
9211062500 -0.89830512 123.32523 -8.9333963 -72.621651 -8.9219532 -73.157387 -0.21447054 -88.521484
9211125000 -0.89869988 123.31848 -8.9297771 -72.613281 -8.9163389 -73.149673 -0.21020241 -88.524979
9211187500 -0.90238446 123.31769 -8.9243364 -72.572762 -8.9217196 -73.126556 -0.20583278 -88.523796
9211250000 -0.89491981 123.31634 -8.9110069 -72.632996 -8.9248953 -73.199463 -0.20373261 -88.528046
9211312500 -0.90303689 123.28456 -8.9195948 -72.689636 -8.9172258 -73.193199 -0.20679343 -88.565155
9211375000 -0.90081501 123.29258 -8.919528 -72.679413 -8.9170408 -73.169357 -0.19957131 -88.45858
9211437500 -0.90150911 123.25657 -8.9225721 -72.674919 -8.9145298 -73.137665 -0.20805395 -88.401611
9211500000 -0.90624785 123.27034 -8.93433 -72.617882 -8.9196053 -73.14901 -0.20951542 -88.448174
9211562500 -0.90068507 123.23766 -8.9284525 -72.564507 -8.9098072 -73.118668 -0.20761926 -88.341011
9211625000 -0.90230411 123.21962 -8.9257278 -72.619888 -8.9135189 -73.105003 -0.20511971 -88.360367
9211687500 -0.90095896 123.195 -8.929389 -72.604225 -8.9142418 -73.11042 -0.21388769 -88.334686
9211750000 -0.89983958 123.17303 -8.926897 -72.576141 -8.9212198 -73.092712 -0.21580741 -88.317177
9211812500 -0.90086091 123.18201 -8.9160357 -72.577019 -8.9162912 -73.084999 -0.21636719 -88.285667
9211875000 -0.904046 123.11172 -8.9163475 -72.649895 -8.9148598 -73.055977 -0.21303162 -88.256233
9211937500 -0.9045366 123.10189 -8.9232264 -72.614815 -8.9151039 -73.100105 -0.21061227 -88.236755
9212000000 -0.90438789 123.07856 -8.9165115 -72.668373 -8.9119129 -73.073715 -0.21193103 -88.222244
9212062500 -0.90233976 123.04971 -8.915308 -72.639984 -8.9198236 -73.131607 -0.21452077 -88.180367
9212125000 -0.90361595 123.07983 -8.9214029 -72.595268 -8.9178591 -73.08799 -0.21383193 -88.143005
9212187500 -0.89859837 123.06015 -8.9231625 -72.632584 -8.9180079 -73.058128 -0.21988454 -88.124466
9212250000 -0.90476286 123.00854 -8.9156208 -72.632057 -8.9105444 -73.138718 -0.21348414 -88.162758
