!Agilent Technologies,N5242A,MY51221714,A.09.90.19
!Agilent N5242A: A.09.90.19
!Date: Saturday, March 16, 2024 09:17:24
!Correction: S11(Full 2 Port(1,2)) 
!S21(Full 2 Port(1,2)) 
!S12(Full 2 Port(1,2)) 
!S22(Full 2 Port(1,2)) 
!S2P File: Measurements: S11, S21, S12, S22:
# Hz S  dB   R 50
9200000000 -0.89143568 125.84024 -9.0646877 -72.861992 -9.0499058 -73.420952 -0.17951593 -91.511856
9200062500 -0.89217341 125.82666 -9.0764799 -72.89975 -9.0583153 -73.362144 -0.17937109 -91.491768
9200125000 -0.90117365 125.84937 -9.0699568 -72.775627 -9.0573492 -73.385834 -0.17815576 -91.504547
9200187500 -0.89478838 125.80859 -9.0569487 -72.84153 -9.0539293 -73.434296 -0.17655644 -91.471893
9200250000 -0.89303195 125.81052 -9.0613317 -72.824059 -9.0502605 -73.373878 -0.18210053 -91.446648
9200312500 -0.88974643 125.77782 -9.056076 -72.829597 -9.0461226 -73.393631 -0.17834961 -91.443329
9200375000 -0.89004999 125.78375 -9.0625353 -72.81591 -9.0457869 -73.414093 -0.1745699 -91.454987
9200437500 -0.89187682 125.77264 -9.0556059 -72.82962 -9.0408554 -73.422676 -0.17427227 -91.401917
9200500000 -0.89278752 125.77248 -9.0556116 -72.78714 -9.0422926 -73.394882 -0.17897828 -91.378166
9200562500 -0.88980895 125.72775 -9.0600948 -72.908638 -9.0411196 -73.379776 -0.18264358 -91.374268
9200625000 -0.88939542 125.73463 -9.0515795 -72.803093 -9.0429258 -73.374786 -0.18655679 -91.338974
9200687500 -0.89036542 125.73003 -9.056963 -72.806 -9.0371952 -73.363968 -0.18714038 -91.298187
9200750000 -0.89207119 125.69888 -9.0586529 -72.768181 -9.0354786 -73.333588 -0.18720065 -91.24778
9200812500 -0.88975573 125.6708 -9.0589943 -72.76506 -9.0350246 -73.347382 -0.19355422 -91.245491
9200875000 -0.89623296 125.6935 -9.0638342 -72.757874 -9.0413036 -73.350761 -0.19248191 -91.221024
9200937500 -0.8940025 125.70078 -9.0590878 -72.740562 -9.0329418 -73.310844 -0.18650551 -91.209015
9201000000 -0.89020276 125.64979 -9.0554857 -72.724991 -9.041069 -73.309296 -0.18828468 -91.16256
9201062500 -0.88685554 125.64597 -9.0566435 -72.785912 -9.0344534 -73.357597 -0.18833238 -91.169739
9201125000 -0.88508326 125.62855 -9.0479879 -72.746628 -9.0390787 -73.362274 -0.1900658 -91.140938
9201187500 -0.88972616 125.61393 -9.0515795 -72.785194 -9.0372238 -73.340195 -0.18491079 -91.100746
9201250000 -0.89095664 125.58632 -9.041482 -72.753929 -9.0373697 -73.324554 -0.1871749 -91.094955
9201312500 -0.89311433 125.62622 -9.043602 -72.751213 -9.0419521 -73.343147 -0.18651487 -91.109024
9201375000 -0.88869971 125.53817 -9.0425415 -72.761162 -9.0445719 -73.31221 -0.19311832 -91.073669
9201437500 -0.89747912 125.55468 -9.0516243 -72.776031 -9.0387411 -73.342865 -0.18357049 -91.104919
9201500000 -0.89568353 125.57154 -9.0511751 -72.79097 -9.0376377 -73.316368 -0.18916754 -91.105553
9201562500 -0.89382809 125.5449 -9.0515175 -72.814476 -9.0415649 -73.336266 -0.1854635 -91.092201
9201625000 -0.88969737 125.5169 -9.051796 -72.786232 -9.03792 -73.340546 -0.18704745 -91.12484
9201687500 -0.89511281 125.49172 -9.0530252 -72.817764 -9.0371418 -73.291267 -0.18933544 -91.073189
9201750000 -0.88943166 125.50064 -9.0491581 -72.759888 -9.0348539 -73.296745 -0.1891277 -91.02565
9201812500 -0.89319235 125.4548 -9.0528984 -72.814445 -9.0315151 -73.236946 -0.18589111 -91.013329
9201875000 -0.89067453 125.46048 -9.0476151 -72.737587 -9.0290909 -73.265724 -0.19225597 -90.919022
9201937500 -0.89114857 125.4128 -9.0451422 -72.77906 -9.0338125 -73.32724 -0.18903738 -90.94416
9202000000 -0.89189988 125.41819 -9.0455284 -72.761368 -9.0313377 -73.332108 -0.19011863 -90.96447
9202062500 -0.89073312 125.39448 -9.0430002 -72.784859 -9.0273466 -73.371819 -0.18444668 -90.950996
9202125000 -0.88756406 125.35706 -9.0409632 -72.788086 -9.0350199 -73.308098 -0.19436803 -90.891777
9202187500 -0.89802623 125.39188 -9.0359879 -72.788322 -9.0271196 -73.365875 -0.18300563 -90.893532
9202250000 -0.89768744 125.34988 -9.0400229 -72.778908 -9.0226765 -73.364822 -0.18231377 -90.914398
9202312500 -0.88920122 125.35046 -9.0274429 -72.730202 -9.0361328 -73.318832 -0.18612678 -90.836159
9202375000 -0.90122712 125.35927 -9.0363169 -72.778778 -9.0371447 -73.33638 -0.19367148 -90.826225
9202437500 -0.89375514 125.33377 -9.0310574 -72.75119 -9.0307522 -73.318718 -0.19215257 -90.833237
9202500000 -0.89348602 125.29594 -9.0314837 -72.734512 -9.030035 -73.308441 -0.1881026 -90.771057
9202562500 -0.89008969 125.28496 -9.0318537 -72.738914 -9.0297432 -73.294868 -0.1913953 -90.743851
9202625000 -0.89283693 125.27889 -9.0420856 -72.788292 -9.0292845 -73.350212 -0.19732429 -90.7817
9202687500 -0.88715506 125.29093 -9.0375509 -72.749466 -9.0408726 -73.333565 -0.20196617 -90.744301
9202750000 -0.88916075 125.29523 -9.0363894 -72.688324 -9.0277252 -73.297455 -0.19952057 -90.723427
9202812500 -0.89160407 125.25397 -9.0341816 -72.731544 -9.0222759 -73.335945 -0.19100074 -90.731499
9202875000 -0.89213681 125.20644 -9.0378675 -72.829796 -9.0332947 -73.291176 -0.19768022 -90.700684
9202937500 -0.89538944 125.20315 -9.0340004 -72.759315 -9.0255222 -73.296211 -0.19265361 -90.632774
9203000000 -0.89408797 125.21777 -9.0296192 -72.758171 -9.0222807 -73.323586 -0.19343598 -90.639114
9203062500 -0.89319032 125.1776 -9.029191 -72.786987 -9.0216465 -73.32724 -0.18834369 -90.646446
9203125000 -0.88900751 125.15677 -9.0283346 -72.749901 -9.0288305 -73.285255 -0.19983906 -90.584358
9203187500 -0.88979036 125.15699 -9.0262623 -72.760582 -9.0206795 -73.272987 -0.1907488 -90.558464
9203250000 -0.88888836 125.13715 -9.0303755 -72.734413 -9.0204906 -73.272217 -0.19319133 -90.565041
9203312500 -0.89173734 125.14674 -9.037178 -72.727203 -9.0246897 -73.335518 -0.18856642 -90.5513
9203375000 -0.88897192 125.13033 -9.029067 -72.703964 -9.0254517 -73.299011 -0.19205999 -90.528152
9203437500 -0.89213413 125.10482 -9.0230265 -72.75415 -9.0222874 -73.327499 -0.19020034 -90.545906
9203500000 -0.89115363 125.08109 -9.0341072 -72.78521 -9.0166302 -73.318222 -0.1910951 -90.521294
9203562500 -0.89461607 125.06953 -9.0332947 -72.747353 -9.0126371 -73.315475 -0.19557868 -90.502022
9203625000 -0.88977557 125.02995 -9.0176888 -72.802177 -9.0260439 -73.2761 -0.20240034 -90.481064
9203687500 -0.89384162 125.04406 -9.0264311 -72.754158 -9.0163975 -73.286377 -0.19912253 -90.426987
9203750000 -0.89016831 125.0475 -9.0260315 -72.732254 -9.024312 -73.278526 -0.20124024 -90.425034
9203812500 -0.89309525 124.99042 -9.0237341 -72.753471 -9.0237818 -73.290512 -0.20523763 -90.421547
9203875000 -0.89276969 124.9876 -9.0248575 -72.793777 -9.0179863 -73.284225 -0.20424804 -90.38987
9203937500 -0.89318866 125.02299 -9.0301647 -72.723045 -9.0185652 -73.282471 -0.2076405 -90.395988
9204000000 -0.89167136 124.94389 -9.0314989 -72.785843 -9.008585 -73.252922 -0.20881192 -90.350327
9204062500 -0.88528687 124.98689 -9.0237942 -72.728455 -9.0125074 -73.19799 -0.21156631 -90.335152
9204125000 -0.88763481 124.94737 -9.0347109 -72.739922 -9.0071898 -73.252602 -0.20730069 -90.293594
9204187500 -0.88994706 124.93592 -9.0322161 -72.700203 -9.0066833 -73.227348 -0.2053635 -90.295578
9204250000 -0.88710719 124.93061 -9.0246353 -72.735054 -8.9961033 -73.22821 -0.20246698 -90.262466
9204312500 -0.88672721 124.918 -9.0241041 -72.71714 -9.0057955 -73.292778 -0.20686418 -90.314865
9204375000 -0.88327622 124.86393 -9.0246325 -72.721321 -9.0048895 -73.283836 -0.19951144 -90.266357
9204437500 -0.88305515 124.86263 -9.0198383 -72.771667 -9.0043068 -73.220757 -0.1994973 -90.217232
9204500000 -0.88194042 124.85171 -9.0142221 -72.634552 -9.0040379 -73.22921 -0.19706611 -90.176514
9204562500 -0.88218153 124.85426 -9.0108681 -72.643768 -8.9989853 -73.214363 -0.19345477 -90.134575
9204625000 -0.88246995 124.77949 -9.0227861 -72.812408 -9.0077848 -73.249573 -0.19697042 -90.190346
9204687500 -0.88216132 124.80631 -9.0078678 -72.682671 -9.0094595 -73.225899 -0.1978104 -90.133484
9204750000 -0.88345844 124.83298 -9.0148659 -72.669693 -9.0085983 -73.253349 -0.19662324 -90.163864
9204812500 -0.88721585 124.79406 -9.0089102 -72.729004 -8.9949131 -73.254387 -0.19431536 -90.127579
9204875000 -0.88321918 124.76313 -9.0066738 -72.706398 -8.9963255 -73.22049 -0.19763948 -90.120407
9204937500 -0.89704871 124.78046 -9.024334 -72.660683 -9.0051813 -73.277893 -0.20883942 -90.117287
9205000000 -0.88658512 124.79691 -9.0090303 -72.669334 -9.000227 -73.217224 -0.20256498 -90.102104
9205062500 -0.88679612 124.73555 -9.0080109 -72.693413 -8.9979057 -73.23027 -0.19730873 -90.084213
9205125000 -0.88805771 124.7558 -9.0123978 -72.699066 -9.0051289 -73.28611 -0.19931643 -90.098595
9205187500 -0.89390945 124.70072 -9.0109053 -72.61557 -9.0040112 -73.219604 -0.20528869 -90.007759
9205250000 -0.89753693 124.7122 -9.0056038 -72.652733 -8.9989605 -73.271248 -0.19272442 -90.039726
9205312500 -0.89295769 124.63866 -9.0157461 -72.629517 -9.005538 -73.226273 -0.20151681 -90.005905
9205375000 -0.90270269 124.65436 -9.0155478 -72.629219 -9.0086222 -73.278259 -0.19813798 -90.003563
9205437500 -0.89368767 124.63459 -9.0045471 -72.641396 -8.9990721 -73.208282 -0.18956383 -89.972488
9205500000 -0.8960678 124.63266 -9.0018196 -72.642723 -9.0022507 -73.265884 -0.19436325 -89.991043
9205562500 -0.89627838 124.61755 -9.0022392 -72.6828 -8.9933033 -73.243599 -0.19367248 -89.96534
9205625000 -0.88986921 124.6303 -9.0055389 -72.643669 -9.0015125 -73.195274 -0.20178996 -89.948669
9205687500 -0.89411962 124.58852 -9.0056572 -72.658417 -9.0003996 -73.239746 -0.19867045 -89.934296
9205750000 -0.88962185 124.59601 -9.0027781 -72.698013 -9.0023479 -73.211662 -0.19829127 -89.911392
9205812500 -0.89288825 124.55247 -9.0123625 -72.681709 -9.008811 -73.205429 -0.20743419 -89.886215
9205875000 -0.89101511 124.53846 -9.0098152 -72.66494 -9.0008202 -73.188828 -0.2024785 -89.851234
9205937500 -0.88428807 124.55733 -8.9949541 -72.690521 -9.0021963 -73.17572 -0.20556673 -89.841576
9206000000 -0.88926035 124.55349 -8.999629 -72.651207 -8.9962234 -73.164246 -0.19688286 -89.813545
9206062500 -0.88335717 124.55427 -8.9978848 -72.620712 -8.9981747 -73.211388 -0.20175575 -89.798721
9206125000 -0.88380194 124.50991 -9.0040064 -72.659073 -8.9962349 -73.131844 -0.20242718 -89.738991
9206187500 -0.88738459 124.50796 -8.9975548 -72.618484 -9.0025148 -73.215721 -0.20611779 -89.762993
9206250000 -0.88535142 124.52301 -9.0050888 -72.650032 -8.9905453 -73.200249 -0.20116778 -89.752617
9206312500 -0.88580936 124.51169 -8.9897242 -72.669281 -8.9834642 -73.202286 -0.19452079 -89.747223
9206375000 -0.88676757 124.49406 -8.9985113 -72.656891 -8.9932442 -73.209511 -0.20061076 -89.701065
9206437500 -0.88974434 124.45023 -8.9857807 -72.672226 -8.9847212 -73.234955 -0.19657682 -89.71582
9206500000 -0.88443327 124.48907 -8.9916639 -72.587624 -8.9903383 -73.257919 -0.2010034 -89.698456
9206562500 -0.89397925 124.42941 -8.9903917 -72.6278 -8.9737406 -73.204315 -0.19428821 -89.62738
9206625000 -0.88916343 124.42624 -8.9944935 -72.622124 -8.9810181 -73.201157 -0.19572249 -89.605881
9206687500 -0.89464909 124.41151 -8.981864 -72.605011 -8.9789896 -73.210159 -0.19218366 -89.604202
9206750000 -0.89108354 124.41309 -8.980113 -72.559196 -8.9726315 -73.201759 -0.19145747 -89.589798
9206812500 -0.89498192 124.38665 -8.9853926 -72.589569 -8.9755621 -73.186569 -0.19028869 -89.549629
9206875000 -0.89505476 124.33801 -8.9816608 -72.602654 -8.9700813 -73.199799 -0.19552901 -89.521744
9206937500 -0.89157951 124.32164 -8.9773302 -72.664078 -8.970746 -73.215073 -0.19206806 -89.572884
9207000000 -0.88248098 124.32256 -8.9896641 -72.651672 -8.9777765 -73.171417 -0.20659997 -89.498848
9207062500 -0.887308 124.30624 -8.9931803 -72.646858 -8.9849262 -73.169235 -0.20720312 -89.488373
9207125000 -0.88932365 124.28375 -8.9940987 -72.641388 -8.9801731 -73.172859 -0.20177148 -89.512863
9207187500 -0.88382524 124.26782 -8.9780712 -72.67009 -8.9849167 -73.185707 -0.2075561 -89.510674
9207250000 -0.88158506 124.2586 -8.9840765 -72.626259 -8.9849091 -73.147636 -0.21133277 -89.485413
9207312500 -0.88536364 124.22497 -8.9898243 -72.662148 -8.9834747 -73.201294 -0.20740207 -89.448128
9207375000 -0.88724357 124.2254 -8.9975567 -72.599548 -8.9814625 -73.147949 -0.20979764 -89.392502
9207437500 -0.88805038 124.20131 -8.9792738 -72.640869 -8.9842253 -73.184799 -0.20862493 -89.452141
9207500000 -0.8899374 124.13457 -8.977335 -72.702225 -8.9736366 -73.181236 -0.20822656 -89.445526
9207562500 -0.88964897 124.15376 -8.9852791 -72.646858 -8.9741659 -73.166924 -0.2149097 -89.38176
9207625000 -0.8894015 124.11726 -8.9893389 -72.67276 -8.9710217 -73.160118 -0.20832615 -89.392006
9207687500 -0.88698179 124.12054 -8.9771576 -72.700859 -8.9708166 -73.278412 -0.20649324 -89.425697
9207750000 -0.89170283 124.13818 -8.9756403 -72.649277 -8.9714594 -73.167931 -0.19450609 -89.35379
9207812500 -0.89368498 124.09087 -8.9773254 -72.653061 -8.9742393 -73.185623 -0.19592603 -89.340164
9207875000 -0.89888591 124.08316 -8.9763823 -72.641846 -8.9676037 -73.212509 -0.19544195 -89.316879
9207937500 -0.89594799 124.11235 -8.9792013 -72.650482 -8.9724808 -73.204216 -0.19736378 -89.282822
9208000000 -0.89574718 124.1141 -8.9772453 -72.598129 -8.974432 -73.200264 -0.19852309 -89.267807
9208062500 -0.89146537 124.07357 -8.9785671 -72.634804 -8.9687653 -73.176384 -0.19223061 -89.214058
9208125000 -0.89195889 124.10248 -8.9796686 -72.602943 -8.9731979 -73.1791 -0.20520079 -89.22448
9208187500 -0.89175504 124.07189 -8.9786549 -72.574982 -8.9706583 -73.182961 -0.20945829 -89.191544
9208250000 -0.88768619 124.06832 -8.975914 -72.589935 -8.9741945 -73.212044 -0.20910731 -89.194832
9208312500 -0.89289171 124.05632 -8.9744473 -72.579086 -8.9749908 -73.161339 -0.21314657 -89.129013
9208375000 -0.89425856 124.04729 -8.9841642 -72.560669 -8.9644871 -73.088814 -0.2143607 -89.08168
9208437500 -0.88710856 124.02267 -8.9714212 -72.552261 -8.9701519 -73.072899 -0.20506471 -89.100845
9208500000 -0.89401853 123.97913 -8.9746475 -72.663391 -8.965848 -73.173653 -0.2039361 -89.105095
9208562500 -0.88979608 123.97752 -8.9732275 -72.637093 -8.9623146 -73.142212 -0.20211792 -89.075508
9208625000 -0.8903594 123.94329 -8.9707518 -72.646088 -8.9612427 -73.140289 -0.20181084 -89.076935
9208687500 -0.89177942 123.89667 -8.9640646 -72.656471 -8.9586239 -73.18779 -0.20103201 -89.082664
9208750000 -0.89302468 123.88673 -8.9680529 -72.617561 -8.9622889 -73.085571 -0.20041147 -89.059586
9208812500 -0.89331293 123.90085 -8.9678268 -72.650917 -8.9644222 -73.144478 -0.20784366 -89.033379
9208875000 -0.89324456 123.88402 -8.9676886 -72.576202 -8.9621716 -73.131775 -0.20402668 -89.045914
9208937500 -0.89502078 123.90849 -8.9751139 -72.600105 -8.9692822 -73.130524 -0.20958799 -89.006134
9209000000 -0.89090431 123.93607 -8.9618053 -72.609833 -8.9620705 -73.173737 -0.20703818 -89.044662
9209062500 -0.88752764 123.93693 -8.964262 -72.544693 -8.9627895 -73.108475 -0.20841832 -89.025642
9209125000 -0.8899768 123.96967 -8.9676895 -72.514526 -8.9711208 -73.154694 -0.21030396 -89.002251
9209187500 -0.89159197 123.90415 -8.9609938 -72.56826 -8.957859 -73.129745 -0.20589037 -88.925858
9209250000 -0.88994288 123.89648 -8.9695711 -72.586388 -8.9677715 -73.114403 -0.21266624 -88.918808
9209312500 -0.88599652 123.83722 -8.9575138 -72.610893 -8.9655809 -73.123512 -0.20749925 -88.907913
9209375000 -0.89146292 123.84367 -8.9614029 -72.56739 -8.9725065 -73.093773 -0.21017487 -88.878639
9209437500 -0.88550413 123.81263 -8.952899 -72.609009 -8.9674702 -73.080818 -0.21279868 -88.836014
9209500000 -0.89263892 123.78613 -8.9615498 -72.531807 -8.9617491 -73.111694 -0.21218058 -88.814377
9209562500 -0.89234 123.77356 -8.9617624 -72.579208 -8.9600506 -73.031822 -0.20761399 -88.798233
9209625000 -0.89171803 123.77827 -8.9571867 -72.607094 -8.9615631 -73.040199 -0.20572069 -88.782455
9209687500 -0.89694583 123.77356 -8.9596262 -72.56308 -8.9489212 -73.112854 -0.20245633 -88.769615
9209750000 -0.89572245 123.74213 -8.9642467 -72.585648 -8.9534988 -73.075035 -0.2043626 -88.721542
9209812500 -0.88996643 123.67264 -8.9573889 -72.698479 -8.9518433 -73.071007 -0.20880328 -88.760185
9209875000 -0.8922798 123.72353 -8.9557076 -72.638 -8.9508734 -73.15892 -0.19820584 -88.755066
9209937500 -0.89722788 123.73191 -8.9663401 -72.557358 -8.9428043 -73.13147 -0.20486295 -88.725899
9210000000 -0.89138657 123.69175 -8.9590015 -72.544273 -8.9524021 -73.053398 -0.19993971 -88.690834
9210062500 -0.88776886 123.69592 -8.9519444 -72.581612 -8.955019 -73.087166 -0.20314316 -88.684288
9210125000 -0.89319849 123.69666 -8.9576674 -72.49646 -8.9535723 -73.067162 -0.20717418 -88.679482
9210187500 -0.88616389 123.69918 -8.9566593 -72.533203 -8.9492903 -73.139603 -0.20338887 -88.685898
9210250000 -0.88370019 123.65135 -8.9462461 -72.578896 -8.9444675 -73.085815 -0.20163995 -88.623596
9210312500 -0.88389277 123.61015 -8.9514112 -72.576904 -8.9508944 -73.044647 -0.20894572 -88.599899
9210375000 -0.88992447 123.60932 -8.9529285 -72.497307 -8.9450254 -73.016029 -0.20879868 -88.565216
9210437500 -0.88719559 123.58488 -8.9593916 -72.561378 -8.9461851 -73.038818 -0.20895129 -88.54644
9210500000 -0.88221771 123.57288 -8.9538202 -72.493599 -8.9554367 -73.034477 -0.21588986 -88.529312
9210562500 -0.8855024 123.56474 -8.95753 -72.54509 -8.9497147 -73.051247 -0.21965416 -88.5196
9210625000 -0.88594335 123.51447 -8.9554901 -72.544075 -8.9515457 -73.035118 -0.21607003 -88.513893
9210687500 -0.88510603 123.52531 -8.9523668 -72.542076 -8.9459515 -73.065262 -0.21967465 -88.510887
9210750000 -0.88555682 123.5131 -8.9545851 -72.487633 -8.9476995 -73.087967 -0.21599311 -88.478951
9210812500 -0.88764447 123.49593 -8.9594698 -72.537445 -8.9454746 -73.065422 -0.21805164 -88.440094
9210875000 -0.88431913 123.44855 -8.9461622 -72.556046 -8.946085 -73.084015 -0.21695954 -88.45359
9210937500 -0.88563985 123.4723 -8.9541216 -72.493416 -8.9388294 -73.070076 -0.21312967 -88.432327
9211000000 -0.89344692 123.43423 -8.9528713 -72.587135 -8.9534798 -73.095596 -0.22213547 -88.449493
9211062500 -0.88608104 123.41368 -8.9435749 -72.484764 -8.9406204 -73.048645 -0.21003604 -88.392105
9211125000 -0.89366686 123.42635 -8.9480934 -72.570251 -8.9354076 -73.164719 -0.21195391 -88.480087
9211187500 -0.89466923 123.41553 -8.9452963 -72.523834 -8.9425526 -73.075645 -0.20672733 -88.423836
9211250000 -0.8901608 123.4545 -8.9429169 -72.520416 -8.9428158 -73.043762 -0.21025014 -88.444008
9211312500 -0.89602524 123.44709 -8.9432793 -72.521355 -8.9378309 -73.062408 -0.2043449 -88.424026
9211375000 -0.89763772 123.39803 -8.9444742 -72.574791 -8.9408913 -73.083565 -0.20794095 -88.29789
9211437500 -0.89182127 123.38989 -8.9417009 -72.572136 -8.9455395 -73.069168 -0.20451583 -88.308189
9211500000 -0.89617926 123.36856 -8.9457817 -72.541634 -8.9405851 -73.017059 -0.21391135 -88.299713
9211562500 -0.89465433 123.37067 -8.9332104 -72.565849 -8.9457569 -73.021248 -0.2162955 -88.265762
9211625000 -0.89726669 123.31632 -8.9476328 -72.557343 -8.9348927 -73.057426 -0.22089894 -88.267952
9211687500 -0.89552307 123.32925 -8.9452496 -72.47644 -8.9316626 -73.032997 -0.21033186 -88.226952
9211750000 -0.89215165 123.29061 -8.9505014 -72.534462 -8.9450836 -72.98056 -0.22283836 -88.219124
9211812500 -0.89665216 123.27486 -8.9410191 -72.512451 -8.9363499 -73.019768 -0.21787588 -88.192101
9211875000 -0.8945542 123.24789 -8.9341822 -72.531265 -8.9365664 -73.024391 -0.21222754 -88.170387
9211937500 -0.89480567 123.19717 -8.9348974 -72.529442 -8.9365101 -73.036392 -0.21716496 -88.17569
9212000000 -0.8931163 123.22102 -8.9372749 -72.52037 -8.9316845 -73.04641 -0.20878203 -88.134422
9212062500 -0.9007498 123.17334 -8.9329519 -72.589279 -8.9312534 -73.046364 -0.21809658 -88.094978
9212125000 -0.9002291 123.16194 -8.9404631 -72.491241 -8.933547 -72.973335 -0.21659617 -87.99292
9212187500 -0.89754087 123.15558 -8.9398289 -72.589088 -8.9241934 -73.025139 -0.21616115 -88.05526
