!Agilent Technologies,N5242A,MY51221714,A.09.90.19
!Agilent N5242A: A.09.90.19
!Date: Saturday, March 16, 2024 09:18:51
!Correction: S11(Full 2 Port(1,2)) 
!S21(Full 2 Port(1,2)) 
!S12(Full 2 Port(1,2)) 
!S22(Full 2 Port(1,2)) 
!S2P File: Measurements: S11, S21, S12, S22:
# Hz S  dB   R 50
9200000000 -0.83064371 127.71471 -9.1785164 -69.702118 -9.156394 -70.323997 -0.090360492 -88.385536
9200062500 -0.83629644 127.70161 -9.1782436 -69.697647 -9.1612844 -70.29071 -0.095802523 -88.376297
9200125000 -0.83467257 127.71349 -9.1708403 -69.695351 -9.1596193 -70.304916 -0.095426641 -88.368782
9200187500 -0.82708907 127.68361 -9.1724873 -69.696335 -9.1631575 -70.329842 -0.094460368 -88.352203
9200250000 -0.82664543 127.68917 -9.1727962 -69.710274 -9.1579447 -70.327209 -0.1004141 -88.307152
9200312500 -0.82955641 127.67577 -9.1693535 -69.741928 -9.1554823 -70.281242 -0.10287171 -88.288284
9200375000 -0.82747883 127.66834 -9.1721077 -69.676834 -9.1512356 -70.2836 -0.090683714 -88.270638
9200437500 -0.82731014 127.67006 -9.1607485 -69.706665 -9.1555481 -70.284546 -0.097903334 -88.263466
9200500000 -0.82795805 127.67831 -9.1728945 -69.712593 -9.1543474 -70.254303 -0.10168869 -88.198631
9200562500 -0.8239913 127.59171 -9.1626434 -69.670555 -9.152421 -70.347008 -0.098134056 -88.268311
9200625000 -0.82974982 127.55566 -9.1729851 -69.74279 -9.1545811 -70.28759 -0.10582159 -88.196236
9200687500 -0.82924205 127.59026 -9.1762877 -69.653564 -9.1561756 -70.208893 -0.10894317 -88.175308
9200750000 -0.82924145 127.56079 -9.1738834 -69.727364 -9.1559505 -70.25869 -0.11254795 -88.100891
9200812500 -0.83191776 127.57877 -9.1640358 -69.656944 -9.1428204 -70.259506 -0.1094413 -88.135841
9200875000 -0.83001095 127.53309 -9.1695385 -69.658508 -9.1432753 -70.264244 -0.10893057 -88.077568
9200937500 -0.82623118 127.54327 -9.1620665 -69.60083 -9.1449509 -70.291832 -0.10608034 -88.063553
9201000000 -0.82602465 127.5442 -9.1633244 -69.644653 -9.1411924 -70.238693 -0.10695342 -88.042274
9201062500 -0.82266945 127.51809 -9.1616468 -69.682663 -9.1477566 -70.275894 -0.10917842 -88.062637
9201125000 -0.83038306 127.50955 -9.1610327 -69.628227 -9.1508493 -70.2183 -0.10420311 -87.984528
9201187500 -0.82092887 127.46483 -9.1514454 -69.613091 -9.1517668 -70.235451 -0.10896575 -87.999283
9201250000 -0.82338274 127.45782 -9.155097 -69.670113 -9.1468163 -70.250916 -0.10260375 -87.991539
9201312500 -0.82791263 127.42968 -9.1535263 -69.697495 -9.1504021 -70.275322 -0.10776474 -87.991013
9201375000 -0.82402551 127.44741 -9.1536779 -69.658195 -9.1509132 -70.280205 -0.10227003 -88.004631
9201437500 -0.83154088 127.39766 -9.1507711 -69.716942 -9.1437674 -70.250023 -0.10328675 -87.96051
9201500000 -0.8300873 127.4011 -9.1684694 -69.701279 -9.1471729 -70.21006 -0.10191639 -87.941742
9201562500 -0.82895857 127.39258 -9.1618147 -69.657616 -9.1454821 -70.225243 -0.10739235 -87.940842
9201625000 -0.83432966 127.42206 -9.1669636 -69.651184 -9.1548166 -70.225204 -0.1056775 -87.918663
9201687500 -0.83107042 127.38107 -9.1640921 -69.65126 -9.142766 -70.206795 -0.10203814 -87.879128
9201750000 -0.82840055 127.38551 -9.1610603 -69.631233 -9.148798 -70.186859 -0.10559434 -87.877602
9201812500 -0.82497269 127.34247 -9.1581573 -69.691521 -9.147191 -70.188011 -0.10371231 -87.868553
9201875000 -0.83134192 127.36256 -9.1656923 -69.63385 -9.1440763 -70.192177 -0.10814551 -87.836189
9201937500 -0.82669824 127.31284 -9.1555233 -69.65033 -9.1450901 -70.160698 -0.11009069 -87.743256
9202000000 -0.83242643 127.28193 -9.1574192 -69.643959 -9.1369352 -70.230919 -0.1082539 -87.80262
9202062500 -0.82958603 127.27023 -9.1494999 -69.66407 -9.1452446 -70.207169 -0.10923781 -87.76767
9202125000 -0.82281137 127.26349 -9.1450787 -69.651604 -9.1476793 -70.192581 -0.10867311 -87.753128
9202187500 -0.82549691 127.30393 -9.1424789 -69.577888 -9.1471548 -70.16758 -0.10385437 -87.704521
9202250000 -0.8253637 127.25036 -9.1440153 -69.618538 -9.1477194 -70.246773 -0.10415621 -87.732269
9202312500 -0.82665008 127.24035 -9.1455183 -69.620293 -9.1405945 -70.227661 -0.10270043 -87.739929
9202375000 -0.82556516 127.24566 -9.1517992 -69.628098 -9.1482239 -70.204674 -0.10424121 -87.699242
9202437500 -0.8303383 127.19759 -9.1454182 -69.647949 -9.1424456 -70.225739 -0.1069634 -87.687836
9202500000 -0.83057934 127.2064 -9.1575546 -69.591942 -9.139925 -70.250465 -0.11346639 -87.680588
9202562500 -0.83040869 127.17738 -9.1556883 -69.630272 -9.1441603 -70.208542 -0.11580698 -87.647736
9202625000 -0.83184344 127.19138 -9.1625023 -69.610023 -9.1439171 -70.208817 -0.11389344 -87.582748
9202687500 -0.82735837 127.16575 -9.1544237 -69.601578 -9.1408873 -70.189384 -0.12113672 -87.564049
9202750000 -0.83222413 127.16774 -9.1595888 -69.620209 -9.1500654 -70.187576 -0.12319666 -87.548439
9202812500 -0.82831693 127.08942 -9.1508265 -69.673569 -9.1315594 -70.184921 -0.11187168 -87.578056
9202875000 -0.82655132 127.10174 -9.1415482 -69.653824 -9.1440239 -70.178421 -0.11179353 -87.516548
9202937500 -0.82865345 127.07518 -9.1408806 -69.579994 -9.1405392 -70.185265 -0.10863142 -87.537621
9203000000 -0.83477938 127.08799 -9.1516514 -69.676613 -9.1402493 -70.124565 -0.1113178 -87.462189
9203062500 -0.82690138 127.06879 -9.1476536 -69.614914 -9.1327028 -70.18058 -0.11292677 -87.529335
9203125000 -0.8288278 127.05663 -9.1424742 -69.610275 -9.1338482 -70.166443 -0.10810097 -87.42379
9203187500 -0.82896912 127.03674 -9.1446638 -69.63092 -9.1399803 -70.159668 -0.11521164 -87.457542
9203250000 -0.82414901 127.06967 -9.1507311 -69.609451 -9.1340704 -70.171112 -0.10607661 -87.434631
9203312500 -0.8274557 127.03248 -9.138854 -69.56424 -9.1288919 -70.125008 -0.11204304 -87.416016
9203375000 -0.82692248 127.00716 -9.139616 -69.605415 -9.1379404 -70.206039 -0.11252218 -87.388283
9203437500 -0.83432347 127.02495 -9.1476974 -69.542061 -9.1266422 -70.178955 -0.10388279 -87.35215
9203500000 -0.82676077 126.99054 -9.1348419 -69.644226 -9.1377687 -70.15657 -0.10936623 -87.336784
9203562500 -0.8245514 127.00386 -9.1398964 -69.625916 -9.1332846 -70.196823 -0.11278025 -87.353851
9203625000 -0.82945985 126.95726 -9.1450214 -69.62043 -9.1278858 -70.17141 -0.10740072 -87.328133
9203687500 -0.83065546 126.93935 -9.1456747 -69.596832 -9.1439381 -70.132004 -0.12222881 -87.240662
9203750000 -0.82742363 126.91235 -9.1380606 -69.566238 -9.136507 -70.170883 -0.1159447 -87.288231
9203812500 -0.82719642 126.90198 -9.1416321 -69.623634 -9.1294003 -70.162277 -0.12035117 -87.273048
9203875000 -0.82636279 126.92306 -9.1395988 -69.536316 -9.1403313 -70.148346 -0.12506202 -87.223145
9203937500 -0.82486629 126.8661 -9.1460581 -69.614525 -9.1251335 -70.153313 -0.11890126 -87.252953
9204000000 -0.82664776 126.86314 -9.1434355 -69.662903 -9.1237097 -70.152519 -0.125999 -87.236458
9204062500 -0.82249099 126.85426 -9.1361599 -69.625504 -9.1220541 -70.16555 -0.12397347 -87.257233
9204125000 -0.81947464 126.83598 -9.1377745 -69.575287 -9.1260099 -70.13253 -0.12076574 -87.17347
9204187500 -0.81505835 126.83674 -9.1340647 -69.568336 -9.1243372 -70.166367 -0.11926591 -87.158424
9204250000 -0.82155305 126.8157 -9.1340666 -69.577499 -9.1266689 -70.107613 -0.12726113 -87.149414
9204312500 -0.81701636 126.78584 -9.1383715 -69.605232 -9.1303062 -70.12059 -0.12937585 -87.108978
9204375000 -0.82416385 126.77319 -9.13694 -69.530418 -9.1195097 -70.128128 -0.11968439 -87.159981
9204437500 -0.82182783 126.73881 -9.1391888 -69.584351 -9.1178799 -70.097572 -0.1094263 -87.087112
9204500000 -0.81798649 126.75675 -9.1326399 -69.565926 -9.1221428 -70.128899 -0.11981906 -87.033394
9204562500 -0.81750029 126.73725 -9.1350622 -69.552238 -9.1207914 -70.089752 -0.11169486 -87.012222
9204625000 -0.81438309 126.71856 -9.1271925 -69.575188 -9.1151609 -70.097343 -0.10969429 -86.996208
9204687500 -0.81648928 126.71178 -9.1396379 -69.545959 -9.119688 -70.118843 -0.11402173 -87.01252
9204750000 -0.81549829 126.71572 -9.136611 -69.513359 -9.1242085 -70.160027 -0.11899512 -86.974991
9204812500 -0.8220005 126.68847 -9.1305523 -69.583786 -9.117301 -70.145393 -0.11831372 -86.996552
9204875000 -0.82132739 126.70592 -9.1241188 -69.533318 -9.1142988 -70.156868 -0.11090649 -87.01619
9204937500 -0.82441127 126.71939 -9.132906 -69.542343 -9.1175671 -70.127655 -0.11501782 -86.937706
9205000000 -0.83155006 126.64915 -9.1329021 -69.581673 -9.117053 -70.11837 -0.11460601 -86.942261
9205062500 -0.82274818 126.64478 -9.1254406 -69.536659 -9.119133 -70.092842 -0.11614447 -86.931061
9205125000 -0.82762557 126.64207 -9.1278868 -69.51403 -9.1148577 -70.092041 -0.11487791 -86.907516
9205187500 -0.82708997 126.61468 -9.1284742 -69.480232 -9.1155977 -70.069366 -0.11623397 -86.882149
9205250000 -0.82932991 126.59662 -9.1232882 -69.57016 -9.1158504 -70.131516 -0.11402562 -86.895973
9205312500 -0.83169854 126.56669 -9.1312551 -69.501785 -9.1188278 -70.110504 -0.11127969 -86.826553
9205375000 -0.8299455 126.55185 -9.1239624 -69.479134 -9.1246872 -70.117973 -0.11513254 -86.85067
9205437500 -0.83089536 126.53348 -9.1291866 -69.470596 -9.109024 -70.108467 -0.106299 -86.821434
9205500000 -0.82811761 126.52828 -9.130249 -69.450554 -9.1233377 -70.129128 -0.1183632 -86.805725
9205562500 -0.82448864 126.51311 -9.1164179 -69.503845 -9.1243696 -70.12545 -0.11428087 -86.810303
9205625000 -0.82359111 126.50004 -9.1255589 -69.492455 -9.1198406 -70.062103 -0.11546648 -86.770836
9205687500 -0.82615072 126.52438 -9.1257019 -69.523331 -9.1189966 -70.065544 -0.1165223 -86.744766
9205750000 -0.82880241 126.50699 -9.132638 -69.530075 -9.1206646 -70.07164 -0.11762962 -86.744026
9205812500 -0.8231259 126.49091 -9.1183939 -69.520798 -9.1099815 -70.051773 -0.11426113 -86.734428
9205875000 -0.82392585 126.47241 -9.1241703 -69.556107 -9.1159687 -70.140823 -0.11832365 -86.741432
9205937500 -0.82158375 126.4406 -9.1225834 -69.477043 -9.1076937 -70.060234 -0.10963675 -86.710922
9206000000 -0.82466424 126.45642 -9.1261358 -69.52005 -9.1151676 -70.088127 -0.11326474 -86.651039
9206062500 -0.82383519 126.45089 -9.123394 -69.481277 -9.1125412 -70.104019 -0.1151383 -86.651543
9206125000 -0.82067245 126.48675 -9.1227846 -69.396042 -9.1145563 -70.051529 -0.1180478 -86.566879
9206187500 -0.81860411 126.405 -9.1107273 -69.502663 -9.1162519 -70.030205 -0.11546914 -86.569221
9206250000 -0.8268531 126.40264 -9.1312656 -69.480972 -9.1115198 -70.060852 -0.12446277 -86.57296
9206312500 -0.82471853 126.3966 -9.116271 -69.504082 -9.1093597 -70.065536 -0.11788163 -86.540436
9206375000 -0.81887269 126.37965 -9.1162586 -69.46331 -9.1129465 -70.068329 -0.11829486 -86.562881
9206437500 -0.82359922 126.40051 -9.1192818 -69.478477 -9.1075888 -70.087891 -0.12111252 -86.515053
9206500000 -0.82487929 126.37802 -9.1227188 -69.449883 -9.1025181 -70.088509 -0.11612273 -86.506378
9206562500 -0.82781303 126.34274 -9.1108284 -69.458244 -9.0989361 -70.088173 -0.11154328 -86.531158
9206625000 -0.82883042 126.3578 -9.1106834 -69.442131 -9.1031342 -70.039856 -0.10935277 -86.455452
9206687500 -0.82843763 126.2954 -9.103117 -69.427231 -9.1004353 -70.044891 -0.10381493 -86.401634
9206750000 -0.82922405 126.30367 -9.1108503 -69.398994 -9.0881691 -70.035439 -0.10352773 -86.405098
9206812500 -0.83051562 126.28296 -9.1031818 -69.440453 -9.090292 -69.983475 -0.10151231 -86.348801
9206875000 -0.82164782 126.29308 -9.0976658 -69.399567 -9.0948925 -70.020699 -0.10428455 -86.347878
9206937500 -0.82883602 126.22698 -9.1071758 -69.484016 -9.0887508 -70.047913 -0.10965031 -86.360306
9207000000 -0.82292295 126.21482 -9.1018696 -69.428207 -9.0948143 -70.035378 -0.11416631 -86.340454
9207062500 -0.8195315 126.19243 -9.1011562 -69.507782 -9.0995789 -70.101547 -0.11635465 -86.362679
9207125000 -0.8189801 126.20276 -9.1136656 -69.476776 -9.0994616 -70.06736 -0.11958373 -86.34285
9207187500 -0.82288438 126.15855 -9.1101513 -69.522461 -9.1048689 -70.042183 -0.12362685 -86.329308
9207250000 -0.81559974 126.14667 -9.1108046 -69.485985 -9.1109676 -70.054337 -0.12633167 -86.324402
9207312500 -0.81973636 126.14309 -9.1066942 -69.444122 -9.1024828 -70.077942 -0.12765045 -86.316689
9207375000 -0.81711596 126.08411 -9.0995789 -69.494125 -9.0953264 -70.046974 -0.12372062 -86.27758
9207437500 -0.81940496 126.1021 -9.1101389 -69.469612 -9.0989265 -70.061295 -0.13007244 -86.260338
9207500000 -0.82259434 126.03657 -9.1092691 -69.504311 -9.0970783 -70.070313 -0.12512076 -86.265236
9207562500 -0.82567692 126.04291 -9.1112118 -69.501572 -9.0962896 -70.028534 -0.11706133 -86.22007
9207625000 -0.82407022 126.05106 -9.1056147 -69.45813 -9.0836973 -70.076447 -0.11387914 -86.233208
9207687500 -0.82040429 126.03574 -9.1040297 -69.475327 -9.1017036 -70.038216 -0.12331679 -86.167465
9207750000 -0.82718492 126.02349 -9.1041412 -69.467125 -9.095252 -70.074966 -0.11384599 -86.212349
9207812500 -0.82653546 126.04011 -9.1020651 -69.453094 -9.091094 -70.074936 -0.11156233 -86.176872
9207875000 -0.82833678 126.01142 -9.1003389 -69.399033 -9.0906229 -70.048897 -0.11375356 -86.147644
9207937500 -0.82724452 126.02254 -9.0993214 -69.471573 -9.0940294 -70.056862 -0.10818537 -86.143188
9208000000 -0.83280087 125.96997 -9.0984554 -69.484573 -9.0940819 -70.04744 -0.11009932 -86.126892
9208062500 -0.82556707 125.99572 -9.0933027 -69.455673 -9.0928478 -70.008377 -0.1140742 -86.081566
9208125000 -0.83053923 126.00997 -9.1028023 -69.388168 -9.0935698 -70.025627 -0.11386999 -86.054245
9208187500 -0.82672977 125.97455 -9.1090231 -69.415413 -9.0936308 -70.046867 -0.12150869 -86.036438
9208250000 -0.82612962 125.98273 -9.1010494 -69.412292 -9.0931368 -69.99572 -0.1251817 -85.996437
9208312500 -0.82188952 125.97339 -9.0998497 -69.373161 -9.0988035 -70.011528 -0.12677737 -85.993271
9208375000 -0.81998062 125.94914 -9.1029158 -69.391281 -9.1028128 -69.984169 -0.13717856 -85.952812
9208437500 -0.82582909 125.89625 -9.1045866 -69.430687 -9.100563 -69.984268 -0.1291299 -85.962463
9208500000 -0.82669675 125.88693 -9.0986137 -69.378769 -9.0941973 -69.961151 -0.12785704 -85.886429
9208562500 -0.8208378 125.85735 -9.0884752 -69.45015 -9.0843039 -69.936768 -0.11828035 -85.874733
9208625000 -0.82319742 125.82807 -9.0920906 -69.40448 -9.0776711 -69.969437 -0.1184429 -85.914337
9208687500 -0.83157641 125.82346 -9.0976715 -69.478424 -9.0825109 -69.973236 -0.11845485 -85.894196
9208750000 -0.82032382 125.83502 -9.0891438 -69.468575 -9.0814409 -70.005905 -0.11742397 -85.906197
9208812500 -0.82386494 125.81136 -9.0922365 -69.46534 -9.0845757 -70.058434 -0.12082099 -85.922066
9208875000 -0.82594877 125.80563 -9.0886717 -69.450806 -9.0885315 -69.979187 -0.12472015 -85.897591
9208937500 -0.82552451 125.8269 -9.0870895 -69.4711 -9.0838146 -69.983681 -0.11969907 -85.852844
9209000000 -0.82897997 125.83715 -9.0980873 -69.430695 -9.0924501 -69.997971 -0.12391814 -85.806107
9209062500 -0.82285684 125.8471 -9.0914173 -69.382629 -9.089427 -70.008301 -0.12258535 -85.831215
9209125000 -0.82301903 125.81408 -9.0858164 -69.401031 -9.0793562 -69.896858 -0.11337853 -85.764122
9209187500 -0.83020407 125.83893 -9.087575 -69.410667 -9.0838852 -69.999779 -0.11849812 -85.829498
9209250000 -0.82678717 125.79813 -9.0901489 -69.332397 -9.0821142 -69.943115 -0.12373799 -85.762276
9209312500 -0.82361335 125.77848 -9.083168 -69.377419 -9.0950603 -69.981323 -0.13035235 -85.740608
9209375000 -0.82785171 125.76262 -9.0906258 -69.372841 -9.0887585 -69.960548 -0.12719311 -85.699387
9209437500 -0.81600547 125.70331 -9.0744925 -69.427185 -9.0968952 -69.976448 -0.12593624 -85.688133
9209500000 -0.82402438 125.69959 -9.0787678 -69.427017 -9.0866413 -69.92514 -0.12572305 -85.656555
9209562500 -0.82595688 125.6617 -9.0776167 -69.430443 -9.0881319 -69.959419 -0.1244623 -85.677208
9209625000 -0.82488352 125.69593 -9.0871763 -69.393822 -9.0850391 -69.938835 -0.12117832 -85.593559
9209687500 -0.82646799 125.62715 -9.0882292 -69.400757 -9.0810261 -69.93885 -0.11746211 -85.573051
9209750000 -0.82761925 125.6538 -9.0814304 -69.437103 -9.0765247 -69.933197 -0.11541254 -85.600555
9209812500 -0.82674992 125.61118 -9.0847321 -69.445778 -9.0780077 -69.957428 -0.12018641 -85.564011
9209875000 -0.8221696 125.60415 -9.0731783 -69.518547 -9.0759373 -69.979843 -0.11399496 -85.578682
9209937500 -0.82336301 125.60162 -9.0755806 -69.421394 -9.0718288 -69.924149 -0.1110718 -85.505074
9210000000 -0.82852972 125.59748 -9.0841255 -69.413063 -9.075078 -69.949081 -0.11707841 -85.544266
9210062500 -0.82331282 125.59615 -9.0781994 -69.398331 -9.0759878 -69.905388 -0.12046243 -85.485069
9210125000 -0.8227976 125.57986 -9.0832367 -69.398293 -9.0746393 -69.95015 -0.11937774 -85.504684
9210187500 -0.82285219 125.57841 -9.0674162 -69.396767 -9.0685749 -69.87291 -0.11318306 -85.456352
9210250000 -0.81655645 125.54555 -9.0737267 -69.372643 -9.0676193 -69.889091 -0.11383455 -85.446014
9210312500 -0.82515001 125.50821 -9.0849838 -69.394554 -9.0744724 -69.946388 -0.11697284 -85.420273
9210375000 -0.81810051 125.52219 -9.0711784 -69.373322 -9.0743551 -69.885284 -0.11682005 -85.417145
9210437500 -0.82323259 125.49652 -9.0836411 -69.381729 -9.0747566 -69.905014 -0.12890413 -85.405563
9210500000 -0.82003665 125.50055 -9.0809383 -69.360245 -9.0768633 -69.894318 -0.12861313 -85.388237
9210562500 -0.8203916 125.45662 -9.0818596 -69.361404 -9.0792284 -69.883934 -0.13020377 -85.366386
9210625000 -0.81139731 125.42025 -9.0809612 -69.363403 -9.0777769 -69.868996 -0.12887532 -85.34201
9210687500 -0.81510228 125.41658 -9.0746508 -69.377991 -9.0735979 -69.843842 -0.12470733 -85.3004
9210750000 -0.81779665 125.41804 -9.0815954 -69.31115 -9.0710783 -69.931236 -0.13018334 -85.283928
9210812500 -0.81720239 125.36225 -9.078907 -69.365395 -9.0720577 -69.896858 -0.13314812 -85.297333
9210875000 -0.8205198 125.41095 -9.0844393 -69.243843 -9.0692482 -69.878372 -0.13097174 -85.205139
9210937500 -0.81576115 125.35366 -9.0832138 -69.307625 -9.0647726 -69.934769 -0.13127309 -85.271568
9211000000 -0.82087845 125.30659 -9.0789375 -69.324387 -9.0590162 -69.8871 -0.12313142 -85.232956
9211062500 -0.83057636 125.35133 -9.0810871 -69.332428 -9.0664482 -69.999672 -0.12813593 -85.261932
9211125000 -0.82415706 125.32315 -9.0736904 -69.375328 -9.0639067 -69.944107 -0.12878661 -85.279633
9211187500 -0.82551086 125.31918 -9.0795288 -69.414299 -9.0731945 -69.982292 -0.12662095 -85.26387
9211250000 -0.82520747 125.32465 -9.0710506 -69.393005 -9.0665436 -69.904961 -0.12336554 -85.234718
9211312500 -0.82826388 125.33588 -9.0718222 -69.3591 -9.0714159 -69.935432 -0.12515523 -85.2388
9211375000 -0.83029389 125.32358 -9.0720778 -69.340637 -9.0619011 -69.914322 -0.1173223 -85.080032
9211437500 -0.83192366 125.30739 -9.06985 -69.372063 -9.0679512 -69.916382 -0.12192111 -85.139717
9211500000 -0.82745117 125.31886 -9.0792198 -69.369705 -9.0656443 -69.898941 -0.12507503 -85.136665
9211562500 -0.8257851 125.30777 -9.0742006 -69.310455 -9.0669298 -69.924606 -0.126386 -85.112442
9211625000 -0.82823253 125.27072 -9.0668154 -69.328438 -9.0633669 -69.826027 -0.12834679 -85.06031
9211687500 -0.83131737 125.24039 -9.0795116 -69.404945 -9.0625143 -69.91095 -0.12773219 -85.078842
9211750000 -0.82692349 125.22623 -9.0617619 -69.316849 -9.0568542 -69.873062 -0.12708277 -85.05954
9211812500 -0.82537723 125.17944 -9.0663099 -69.323685 -9.0621452 -69.892487 -0.1277799 -85.07151
9211875000 -0.82567197 125.18649 -9.0604935 -69.336929 -9.0658312 -69.848961 -0.13304046 -84.997139
9211937500 -0.82729387 125.12571 -9.0588465 -69.364426 -9.0571957 -69.844536 -0.12382101 -84.936661
9212000000 -0.83094037 125.14557 -9.0681181 -69.309654 -9.0631666 -69.853455 -0.13126756 -84.923332
9212062500 -0.82893819 125.10721 -9.0578165 -69.389503 -9.0632238 -69.825165 -0.12553003 -84.883217
9212125000 -0.82743496 125.07629 -9.0594854 -69.348969 -9.0713129 -69.851631 -0.136952 -84.87912
9212187500 -0.83048666 125.04311 -9.0600586 -69.406731 -9.0621595 -69.855072 -0.13336879 -84.861923
