!Agilent Technologies,N5242A,MY51221714,A.09.90.19
!Agilent N5242A: A.09.90.19
!Date: Saturday, December 30, 2023 10:53:22
!Correction: S11(Full 2 Port(1,2)) 
!S21(Full 2 Port(1,2)) 
!S12(Full 2 Port(1,2)) 
!S22(Full 2 Port(1,2)) 
!S2P File: Measurements: S11, S21, S12, S22:
# Hz S  dB   R 50
9200000000 -1.0702015 125.30009 -8.6418371 -73.200073 -8.6080523 -74.000648 -0.24493514 -92.935066
9200062500 -1.0725243 125.28559 -8.6364889 -73.220284 -8.6177597 -73.949493 -0.25403389 -92.873459
9200125000 -1.0708745 125.25881 -8.636281 -73.226212 -8.6126499 -73.941521 -0.25326818 -92.868584
9200187500 -1.0722693 125.26331 -8.6348104 -73.212875 -8.6138992 -74 -0.25311458 -92.878952
9200250000 -1.0727528 125.23239 -8.6403055 -73.199974 -8.6171913 -73.978416 -0.26025119 -92.856842
9200312500 -1.0806663 125.20158 -8.6429653 -73.269928 -8.6126223 -74.001907 -0.25195867 -92.876221
9200375000 -1.0765672 125.14526 -8.6375771 -73.292862 -8.6209774 -74.01474 -0.25562727 -92.859749
9200437500 -1.0783136 125.20062 -8.6364174 -73.2257 -8.6069269 -74.006424 -0.25273129 -92.850548
9200500000 -1.0777998 125.17234 -8.639739 -73.236229 -8.6119385 -74.034477 -0.25745744 -92.856224
9200562500 -1.0787712 125.14267 -8.6298943 -73.237259 -8.6033211 -73.963242 -0.25296959 -92.792725
9200625000 -1.0767164 125.13972 -8.6277428 -73.237473 -8.6030569 -73.937347 -0.24258037 -92.772675
9200687500 -1.073342 125.09869 -8.6233282 -73.266357 -8.6041908 -73.968552 -0.24975218 -92.755852
9200750000 -1.0724549 125.08287 -8.6270704 -73.242935 -8.5958748 -74.002083 -0.24571946 -92.760345
9200812500 -1.0727807 125.08826 -8.6278486 -73.248993 -8.5952005 -73.944344 -0.24801484 -92.720329
9200875000 -1.0688547 125.07399 -8.6278172 -73.267342 -8.5988903 -73.958687 -0.25282508 -92.693306
9200937500 -1.0685593 125.06908 -8.622632 -73.200241 -8.6074972 -73.967781 -0.25908118 -92.688728
9201000000 -1.0752935 125.04453 -8.6244736 -73.265289 -8.6029377 -74.017715 -0.25445688 -92.71286
9201062500 -1.074739 125.07265 -8.6332741 -73.283813 -8.6032429 -73.93573 -0.25600255 -92.664207
9201125000 -1.0693249 125.07161 -8.6319561 -73.209267 -8.6190348 -73.956757 -0.26167893 -92.650482
9201187500 -1.0717781 125.08086 -8.6339092 -73.25544 -8.6144571 -73.980263 -0.25659359 -92.654182
9201250000 -1.0714575 125.05908 -8.6337404 -73.259834 -8.6144419 -73.936447 -0.26486826 -92.644836
9201312500 -1.0755194 125.07133 -8.6289349 -73.229904 -8.6074543 -73.949181 -0.26151457 -92.635803
9201375000 -1.0779799 125.05671 -8.6214085 -73.186989 -8.6029625 -73.957939 -0.25180519 -92.57164
9201437500 -1.0761427 125.01102 -8.6238508 -73.200462 -8.6046772 -73.991051 -0.25509951 -92.557106
9201500000 -1.0826206 125.01845 -8.6110868 -73.1465 -8.6004601 -73.915466 -0.25388974 -92.475243
9201562500 -1.0810291 124.99655 -8.6151228 -73.208847 -8.5959911 -73.968521 -0.25294036 -92.478851
9201625000 -1.0800153 124.97539 -8.6124001 -73.16584 -8.5979576 -73.963242 -0.25195584 -92.487007
9201687500 -1.0795407 124.97193 -8.6185513 -73.150909 -8.5969973 -73.937141 -0.2557002 -92.460152
9201750000 -1.0801202 124.96925 -8.6268091 -73.147575 -8.5927973 -73.926849 -0.25557032 -92.425858
9201812500 -1.0748258 124.91676 -8.6179857 -73.184944 -8.5909529 -73.925438 -0.25745872 -92.408989
9201875000 -1.0756977 124.90756 -8.6138096 -73.180367 -8.5909929 -73.908737 -0.2508457 -92.42392
9201937500 -1.0783889 124.94307 -8.6192331 -73.167152 -8.5945177 -73.921318 -0.26349676 -92.429985
9202000000 -1.0790452 124.88377 -8.6256371 -73.183144 -8.5958052 -73.929062 -0.26137501 -92.434448
9202062500 -1.0757102 124.8961 -8.6113319 -73.164673 -8.5920172 -73.930626 -0.25912517 -92.41954
9202125000 -1.0734698 124.87314 -8.6102295 -73.16732 -8.6036139 -73.930374 -0.26566219 -92.401123
9202187500 -1.0806739 124.8125 -8.6242208 -73.188026 -8.6010323 -73.937561 -0.2642588 -92.379005
9202250000 -1.0753323 124.83631 -8.6108742 -73.2024 -8.597333 -73.963745 -0.25954419 -92.383354
9202312500 -1.0714569 124.78324 -8.606082 -73.253738 -8.5900316 -73.974648 -0.25699756 -92.369255
9202375000 -1.074762 124.74801 -8.6135454 -73.259445 -8.6027155 -73.962524 -0.27050227 -92.35598
9202437500 -1.0693868 124.74211 -8.6067104 -73.242546 -8.5862637 -73.979958 -0.26071772 -92.312584
9202500000 -1.0759113 124.76207 -8.6146765 -73.192436 -8.5898199 -74.000488 -0.26172289 -92.318901
9202562500 -1.0705988 124.74982 -8.6068583 -73.191574 -8.5947142 -74.023933 -0.25911495 -92.303764
9202625000 -1.0746223 124.69962 -8.6095324 -73.232475 -8.5925274 -74.017349 -0.26249748 -92.277863
9202687500 -1.0729359 124.72689 -8.6025143 -73.142471 -8.5904665 -73.954048 -0.26284361 -92.220726
9202750000 -1.0698284 124.74263 -8.5986948 -73.148865 -8.5891123 -74.020813 -0.25554797 -92.272339
9202812500 -1.0768423 124.66367 -8.600976 -73.177383 -8.5837898 -73.98394 -0.26324439 -92.199043
9202875000 -1.0731857 124.67885 -8.6108475 -73.154274 -8.5903683 -73.968147 -0.26455209 -92.246925
9202937500 -1.0703276 124.66347 -8.5974092 -73.096123 -8.5803032 -73.968254 -0.25876176 -92.18782
9203000000 -1.067443 124.62891 -8.6002159 -73.204681 -8.5794649 -73.946404 -0.26462749 -92.179352
9203062500 -1.0666649 124.62907 -8.6005735 -73.168579 -8.5844765 -73.921997 -0.25908327 -92.141869
9203125000 -1.0664932 124.62086 -8.6036425 -73.141823 -8.5852165 -73.950745 -0.26368648 -92.177391
9203187500 -1.0680931 124.58531 -8.5936995 -73.173676 -8.579833 -73.852402 -0.25559047 -92.111252
9203250000 -1.0655439 124.58842 -8.5883389 -73.169716 -8.5849915 -73.95327 -0.26260966 -92.102203
9203312500 -1.0717812 124.61868 -8.5925331 -73.1847 -8.5821867 -73.947411 -0.25840899 -92.048256
9203375000 -1.0690111 124.60751 -8.5841732 -73.106133 -8.5777168 -73.911667 -0.25553587 -92.041985
9203437500 -1.0702665 124.6114 -8.583909 -73.098221 -8.5795593 -73.890739 -0.25874808 -91.973114
9203500000 -1.0632319 124.55947 -8.5735846 -73.113197 -8.5773067 -73.928467 -0.25066668 -91.982231
9203562500 -1.0742072 124.54324 -8.5825653 -73.176102 -8.5846186 -73.955338 -0.25615802 -92.023529
9203625000 -1.0684624 124.546 -8.5894604 -73.108391 -8.57903 -73.842758 -0.2608656 -91.951309
9203687500 -1.0730311 124.51164 -8.5930281 -73.101944 -8.5738592 -73.886757 -0.26035976 -91.940376
9203750000 -1.0754492 124.4931 -8.5906992 -73.136055 -8.5751944 -73.946159 -0.26111194 -91.947212
9203812500 -1.0731393 124.45426 -8.590168 -73.161919 -8.5785465 -73.873566 -0.26389056 -91.924789
9203875000 -1.0698229 124.4546 -8.5897436 -73.133545 -8.5711479 -73.883835 -0.25911832 -91.924934
9203937500 -1.0785129 124.40369 -8.5994062 -73.18235 -8.578228 -73.921539 -0.26371345 -91.926224
9204000000 -1.0746961 124.44199 -8.5809231 -73.159279 -8.580452 -73.882248 -0.2640247 -91.903687
9204062500 -1.0809165 124.40044 -8.5930586 -73.172119 -8.576438 -73.853378 -0.25812936 -91.892632
9204125000 -1.0716119 124.41236 -8.585247 -73.148956 -8.5813541 -73.873627 -0.25435585 -91.851944
9204187500 -1.0752479 124.38313 -8.5835724 -73.177979 -8.5805082 -73.876427 -0.2606248 -91.856842
9204250000 -1.0705247 124.37975 -8.5742111 -73.143326 -8.5741243 -73.87603 -0.25409326 -91.819923
9204312500 -1.0688397 124.36622 -8.5748224 -73.069252 -8.5631294 -73.859787 -0.25334615 -91.815804
9204375000 -1.0703948 124.38044 -8.5698414 -73.129494 -8.5692453 -73.88298 -0.25831681 -91.792137
9204437500 -1.0636154 124.36489 -8.5655832 -73.077766 -8.5659218 -73.898758 -0.25741169 -91.749489
9204500000 -1.0666147 124.32884 -8.574358 -73.06356 -8.557085 -73.871368 -0.25959396 -91.738312
9204562500 -1.0648303 124.31249 -8.5731897 -73.035156 -8.565197 -73.845352 -0.26310238 -91.730545
9204625000 -1.0627182 124.27647 -8.5737753 -73.039711 -8.5680265 -73.90757 -0.26678401 -91.699181
9204687500 -1.0690631 124.27215 -8.5752134 -73.11615 -8.5686255 -73.868721 -0.26594552 -91.703217
9204750000 -1.0717137 124.26694 -8.5735111 -73.116249 -8.5629368 -73.81839 -0.26556811 -91.655968
9204812500 -1.0688183 124.21926 -8.5750513 -73.108025 -8.5554686 -73.878235 -0.2638804 -91.708572
9204875000 -1.0732545 124.20473 -8.5699024 -73.206192 -8.5578346 -73.818802 -0.26179388 -91.654526
9204937500 -1.0717183 124.22649 -8.5756903 -73.148987 -8.5623817 -73.870987 -0.26458973 -91.630585
9205000000 -1.0728706 124.20546 -8.5774412 -73.151443 -8.5616207 -73.875481 -0.26744139 -91.596077
9205062500 -1.0750756 124.14776 -8.5706463 -73.146805 -8.5551367 -73.874771 -0.25877646 -91.627602
9205125000 -1.0689766 124.161 -8.5672302 -73.152374 -8.5678549 -73.846268 -0.26173329 -91.546867
9205187500 -1.0729495 124.19804 -8.5721416 -73.119774 -8.5604906 -73.916344 -0.26262721 -91.540367
9205250000 -1.0754477 124.19509 -8.5756607 -73.110443 -8.5627136 -73.893761 -0.25806972 -91.514099
9205312500 -1.0746773 124.17487 -8.5714674 -73.06572 -8.5625467 -73.938957 -0.25906953 -91.512512
9205375000 -1.0735729 124.184 -8.5758963 -73.055176 -8.5661287 -73.97184 -0.26224369 -91.468445
9205437500 -1.0702186 124.15314 -8.56563 -73.061455 -8.5660048 -73.921761 -0.26254645 -91.44194
9205500000 -1.0741675 124.11786 -8.5678997 -73.081947 -8.5618134 -73.887939 -0.26351938 -91.432877
9205562500 -1.0736831 124.14214 -8.5670681 -73.066521 -8.5590105 -73.899147 -0.26879275 -91.394707
9205625000 -1.0691504 124.08326 -8.56915 -73.09655 -8.5605869 -73.86145 -0.26708138 -91.415283
9205687500 -1.0710162 124.07755 -8.5743685 -72.989685 -8.5496483 -73.856651 -0.26801822 -91.291489
9205750000 -1.0768961 124.01943 -8.5707903 -72.99749 -8.5524864 -73.821991 -0.2695348 -91.324463
9205812500 -1.0698974 124.02344 -8.5681934 -73.032104 -8.5571184 -73.85582 -0.27240962 -91.297066
9205875000 -1.078782 124.00759 -8.5739622 -73.083847 -8.5465612 -73.832291 -0.27509743 -91.293587
9205937500 -1.076805 123.96441 -8.5699129 -73.043327 -8.5533495 -73.863487 -0.2717348 -91.269516
9206000000 -1.0758632 123.97066 -8.5698376 -73.012581 -8.5529747 -73.795868 -0.26943016 -91.187172
9206062500 -1.071098 123.95917 -8.5622225 -73.108223 -8.5539551 -73.797302 -0.27290592 -91.250809
9206125000 -1.0735981 123.96094 -8.5655632 -73.044235 -8.5478268 -73.86425 -0.27005962 -91.223122
9206187500 -1.0786191 123.91608 -8.5590639 -73.069794 -8.5572844 -73.846367 -0.27172115 -91.212837
9206250000 -1.0763457 123.8935 -8.5573626 -73.114929 -8.5451746 -73.829422 -0.27553147 -91.219315
9206312500 -1.076389 123.87029 -8.5598602 -73.043266 -8.537818 -73.852898 -0.2717447 -91.208313
9206375000 -1.0701597 123.85072 -8.5487127 -73.046478 -8.548399 -73.798271 -0.2759929 -91.152328
9206437500 -1.0753441 123.85376 -8.5526009 -73.088898 -8.5381451 -73.80619 -0.2728394 -91.115021
9206500000 -1.0720456 123.83086 -8.5479527 -73.083321 -8.5461998 -73.77639 -0.27093038 -91.11882
9206562500 -1.0761476 123.80354 -8.5561533 -73.13121 -8.5398455 -73.788795 -0.26614216 -91.096489
9206625000 -1.0761396 123.83189 -8.5589991 -73.101196 -8.5418053 -73.82769 -0.26907882 -91.109627
9206687500 -1.0751183 123.83223 -8.5541315 -73.091103 -8.5436058 -73.806984 -0.2726219 -91.105927
9206750000 -1.0790285 123.86176 -8.560051 -73.042793 -8.5383854 -73.792732 -0.26706949 -91.086739
9206812500 -1.0715736 123.85935 -8.5468721 -73.090469 -8.54076 -73.782112 -0.26468006 -91.059738
9206875000 -1.0665957 123.86561 -8.5505562 -73.09404 -8.5372658 -73.833153 -0.2613405 -91.070358
9206937500 -1.0680828 123.79961 -8.5474234 -73.107544 -8.5311499 -73.832466 -0.26442489 -91.056694
9207000000 -1.071424 123.8081 -8.5600443 -73.066971 -8.5335712 -73.809929 -0.26268479 -91.026497
9207062500 -1.0678959 123.76302 -8.550499 -73.085022 -8.5333395 -73.813179 -0.26080647 -91.018181
9207125000 -1.0728647 123.75199 -8.5511084 -73.019318 -8.5300713 -73.797714 -0.26393127 -90.986748
9207187500 -1.0729319 123.70245 -8.5464211 -73.051582 -8.5339079 -73.84185 -0.26514784 -90.997925
9207250000 -1.0710486 123.66954 -8.5509882 -73.087662 -8.5300274 -73.816528 -0.27263981 -90.923988
9207312500 -1.0716523 123.6847 -8.5408192 -73.094162 -8.5343599 -73.769714 -0.26900041 -90.895363
9207375000 -1.0681686 123.6401 -8.5417404 -73.09874 -8.528451 -73.854584 -0.26917061 -90.95224
9207437500 -1.0698541 123.65636 -8.5502291 -73.058907 -8.5338802 -73.794563 -0.28124574 -90.886238
9207500000 -1.0668923 123.63972 -8.5438814 -73.069588 -8.5402355 -73.784935 -0.27988842 -90.883522
9207562500 -1.0761416 123.59793 -8.5466452 -73.07428 -8.5372925 -73.788361 -0.28091222 -90.892296
9207625000 -1.0756706 123.55698 -8.5395927 -73.153008 -8.5289888 -73.85675 -0.27409777 -90.897499
9207687500 -1.0729481 123.57986 -8.5375299 -73.070114 -8.5355654 -73.821342 -0.2748467 -90.899643
9207750000 -1.0799209 123.55113 -8.5401173 -73.084846 -8.529685 -73.790573 -0.26862308 -90.845406
9207812500 -1.0766354 123.58321 -8.5344515 -73.117546 -8.5323343 -73.757698 -0.26490209 -90.848289
9207875000 -1.079636 123.56057 -8.5349922 -73.070908 -8.538744 -73.78524 -0.26428568 -90.805794
9207937500 -1.0838931 123.57721 -8.537118 -73.111633 -8.5296211 -73.850883 -0.26097459 -90.842133
9208000000 -1.0824965 123.5618 -8.5343761 -73.056274 -8.5260448 -73.827492 -0.25807312 -90.779938
9208062500 -1.0781497 123.51567 -8.5299587 -73.102028 -8.5348597 -73.842667 -0.26636681 -90.790512
9208125000 -1.0795672 123.53088 -8.5347366 -73.151115 -8.5364275 -73.814751 -0.27192524 -90.708405
9208187500 -1.078035 123.50932 -8.5388126 -73.079254 -8.5317745 -73.823936 -0.27169424 -90.724007
9208250000 -1.0697204 123.4976 -8.5316954 -73.057121 -8.5294809 -73.800941 -0.27204365 -90.649628
9208312500 -1.0727693 123.48723 -8.5331116 -73.007652 -8.5338278 -73.77787 -0.27530923 -90.602005
9208375000 -1.0713362 123.46832 -8.5289564 -72.990074 -8.5270586 -73.818665 -0.27292559 -90.614555
9208437500 -1.0687741 123.43896 -8.5259132 -72.98584 -8.5267735 -73.774742 -0.27312997 -90.584053
9208500000 -1.0743824 123.42708 -8.5297775 -73.001053 -8.528574 -73.837166 -0.2784757 -90.622467
9208562500 -1.0749227 123.43342 -8.5303707 -72.988136 -8.5202179 -73.805832 -0.27346787 -90.575203
9208625000 -1.0703228 123.41961 -8.5292826 -73.008255 -8.5332775 -73.765724 -0.28052378 -90.591011
9208687500 -1.0707538 123.39658 -8.5152874 -72.997131 -8.5243044 -73.817078 -0.26872665 -90.588051
9208750000 -1.0678892 123.38555 -8.5132866 -72.983711 -8.5282412 -73.797234 -0.27309778 -90.572266
9208812500 -1.0714227 123.39041 -8.5275431 -73.034744 -8.5183144 -73.810158 -0.27708629 -90.595627
9208875000 -1.0682236 123.40544 -8.5341368 -73.0168 -8.5234823 -73.748703 -0.27599889 -90.509521
9208937500 -1.0707238 123.37917 -8.5266495 -72.968658 -8.5141611 -73.797142 -0.27556303 -90.563919
9209000000 -1.0683409 123.36538 -8.527585 -72.973236 -8.5127554 -73.701218 -0.28415328 -90.467209
9209062500 -1.0692931 123.35419 -8.5297594 -73.032555 -8.5108852 -73.673729 -0.28402272 -90.401604
9209125000 -1.0692006 123.30606 -8.5281181 -73.025871 -8.5158024 -73.791313 -0.28452507 -90.452705
9209187500 -1.0667243 123.30663 -8.5243902 -73.02813 -8.513793 -73.727982 -0.28229398 -90.445969
9209250000 -1.0729773 123.28316 -8.5259714 -72.997055 -8.510211 -73.718742 -0.27874759 -90.398643
9209312500 -1.0661919 123.26426 -8.5226994 -72.98967 -8.521203 -73.783287 -0.28849006 -90.425125
9209375000 -1.0691251 123.25933 -8.5253839 -73.017532 -8.5137691 -73.726273 -0.28038514 -90.340866
9209437500 -1.0612967 123.22432 -8.5141697 -72.991478 -8.5165138 -73.737099 -0.27887198 -90.370445
9209500000 -1.0641631 123.22682 -8.524478 -72.957214 -8.5154905 -73.789467 -0.28408608 -90.36277
9209562500 -1.0716782 123.18323 -8.5273275 -72.979805 -8.5160789 -73.724518 -0.28182533 -90.297707
9209625000 -1.0722895 123.20545 -8.5148811 -72.954109 -8.5197535 -73.77005 -0.27372739 -90.312309
9209687500 -1.0678958 123.15402 -8.5138206 -73.059334 -8.5120745 -73.774017 -0.27205947 -90.311005
9209750000 -1.071363 123.17825 -8.5095005 -73.006348 -8.5130634 -73.780136 -0.27562913 -90.273018
9209812500 -1.076234 123.11424 -8.5143976 -73.043495 -8.5041904 -73.759834 -0.26823729 -90.304794
9209875000 -1.0798823 123.1262 -8.5173464 -73.069885 -8.5178585 -73.723038 -0.27547392 -90.235199
9209937500 -1.0715882 123.12288 -8.5102739 -73.02346 -8.5111246 -73.797104 -0.2751534 -90.262627
9210000000 -1.0795331 123.10176 -8.5220556 -73.019989 -8.50387 -73.789009 -0.27184132 -90.235123
9210062500 -1.0763659 123.11808 -8.5138597 -73.011749 -8.5034933 -73.693794 -0.27635789 -90.144867
9210125000 -1.076995 123.09203 -8.5189705 -73.015549 -8.5001841 -73.742439 -0.27312744 -90.180222
9210187500 -1.0748246 123.07418 -8.5104198 -72.987488 -8.4951696 -73.722343 -0.27020046 -90.16436
9210250000 -1.0779229 123.07299 -8.5146475 -72.972649 -8.4992208 -73.727127 -0.2786251 -90.145523
9210312500 -1.0756247 123.05953 -8.5064507 -72.968948 -8.501358 -73.745155 -0.27407193 -90.140198
9210375000 -1.0829768 123.06699 -8.5159826 -72.977592 -8.5021715 -73.777046 -0.28397971 -90.132263
9210437500 -1.0753989 123.04481 -8.5062551 -72.922997 -8.5030699 -73.805458 -0.28483051 -90.120468
9210500000 -1.0756407 122.96419 -8.5020046 -72.977974 -8.4932137 -73.728012 -0.27018315 -90.083626
9210562500 -1.0736128 122.97176 -8.5066595 -73.003815 -8.5060463 -73.740814 -0.29270151 -90.084785
9210625000 -1.0761811 122.91588 -8.5065765 -72.969864 -8.5003109 -73.742447 -0.27944085 -90.05883
9210687500 -1.0720556 122.89872 -8.502408 -72.941811 -8.5019512 -73.751137 -0.28330952 -90.050156
9210750000 -1.0720136 122.84698 -8.4979515 -72.968513 -8.4985943 -73.676315 -0.2882036 -90.003128
9210812500 -1.0746275 122.88378 -8.5033226 -73.021332 -8.4974842 -73.758881 -0.28506777 -90.030945
9210875000 -1.0691034 122.86599 -8.4945116 -72.973999 -8.4990149 -73.65313 -0.27709332 -89.936707
9210937500 -1.0759106 122.8883 -8.4989357 -72.985153 -8.4880819 -73.705971 -0.27422762 -89.924118
9211000000 -1.0712841 122.87067 -8.5004864 -72.976929 -8.4914694 -73.654335 -0.27985731 -89.904388
9211062500 -1.0734886 122.83507 -8.4923878 -72.980247 -8.4859886 -73.65406 -0.28495362 -89.844582
9211125000 -1.0790154 122.82153 -8.5007906 -72.950165 -8.4934034 -73.661911 -0.28342104 -89.848579
9211187500 -1.0733329 122.82108 -8.4988585 -72.991608 -8.4867697 -73.687515 -0.28349441 -89.852837
9211250000 -1.073679 122.8279 -8.4996328 -72.93969 -8.4889088 -73.716537 -0.28996757 -89.818573
9211312500 -1.072307 122.79109 -8.4935007 -72.978302 -8.4914846 -73.703712 -0.29535171 -89.790733
9211375000 -1.0724422 122.80142 -8.4967718 -72.987328 -8.4837303 -73.682045 -0.2876856 -89.819122
9211437500 -1.0744734 122.76977 -8.5033827 -73.013489 -8.4817953 -73.739052 -0.28190124 -89.815437
9211500000 -1.0711086 122.78558 -8.4968023 -72.948059 -8.4920645 -73.730255 -0.28550139 -89.829514
9211562500 -1.0668598 122.78651 -8.4908886 -72.986649 -8.484251 -73.704979 -0.28362429 -89.840744
9211625000 -1.0667093 122.77488 -8.4862957 -72.971756 -8.4842758 -73.705223 -0.28311881 -89.840691
9211687500 -1.0680186 122.77943 -8.4843912 -72.941719 -8.4912281 -73.698715 -0.28432614 -89.835777
9211750000 -1.0658578 122.7751 -8.4963083 -72.943306 -8.4865437 -73.677673 -0.28589293 -89.796844
9211812500 -1.0642555 122.71703 -8.4827728 -72.960358 -8.4874201 -73.589806 -0.2808688 -89.737144
9211875000 -1.0662017 122.70553 -8.4811554 -72.989326 -8.4856939 -73.708473 -0.28600949 -89.791756
9211937500 -1.0634122 122.66293 -8.4831715 -72.980186 -8.4922628 -73.618629 -0.29329145 -89.683105
9212000000 -1.0663674 122.67377 -8.4894028 -72.903488 -8.4847784 -73.688049 -0.28840715 -89.665436
9212062500 -1.0679058 122.63262 -8.4859581 -72.891953 -8.477272 -73.685486 -0.28384393 -89.652809
9212125000 -1.0689762 122.61189 -8.4818907 -72.91333 -8.4754543 -73.676277 -0.28494376 -89.607887
9212187500 -1.0654228 122.59911 -8.4818277 -72.867043 -8.4790506 -73.667557 -0.28361875 -89.575302
9212250000 -1.0713186 122.54432 -8.4832983 -72.953781 -8.4705124 -73.699036 -0.27784041 -89.59684
9212312500 -1.0708596 122.50163 -8.4745312 -72.979782 -8.4755039 -73.680573 -0.28168803 -89.584068
