!Agilent Technologies,N5242A,MY51221714,A.09.90.19
!Agilent N5242A: A.09.90.19
!Date: Saturday, December 30, 2023 10:45:27
!Correction: S11(Full 2 Port(1,2)) 
!S21(Full 2 Port(1,2)) 
!S12(Full 2 Port(1,2)) 
!S22(Full 2 Port(1,2)) 
!S2P File: Measurements: S11, S21, S12, S22:
# Hz S  dB   R 50
9200000000 -1.0672426 125.24184 -8.6805706 -73.835838 -8.6624794 -74.567024 -0.26091605 -93.310547
9200062500 -1.0683821 125.25354 -8.6732292 -73.829445 -8.6506424 -74.567924 -0.26123679 -93.300285
9200125000 -1.0758463 125.21578 -8.6774883 -73.814804 -8.6480255 -74.582108 -0.26130465 -93.264633
9200187500 -1.0712459 125.23023 -8.676053 -73.761765 -8.6526661 -74.545403 -0.26080066 -93.249344
9200250000 -1.0704428 125.18459 -8.687912 -73.824883 -8.6528244 -74.572647 -0.26111156 -93.252396
9200312500 -1.0793185 125.16373 -8.6788597 -73.812935 -8.6525774 -74.560387 -0.2611064 -93.226402
9200375000 -1.0719743 125.13693 -8.6772766 -73.813072 -8.6536446 -74.600716 -0.26368493 -93.23835
9200437500 -1.0795977 125.14162 -8.6839848 -73.846512 -8.6616325 -74.594658 -0.27040935 -93.215744
9200500000 -1.0761577 125.07411 -8.6793985 -73.851364 -8.6542473 -74.575928 -0.26773876 -93.257729
9200562500 -1.0732846 125.09663 -8.6801615 -73.817551 -8.6459236 -74.574738 -0.26024956 -93.190475
9200625000 -1.0733145 125.07231 -8.6808281 -73.851509 -8.6467056 -74.539124 -0.25659689 -93.161514
9200687500 -1.0675771 125.06416 -8.6649933 -73.863266 -8.6452761 -74.554878 -0.25916877 -93.14917
9200750000 -1.0764613 125.05058 -8.6733227 -73.801125 -8.6343832 -74.622864 -0.25965822 -93.136261
9200812500 -1.0737572 125.04643 -8.6684227 -73.775909 -8.6376123 -74.566681 -0.25875676 -93.110138
9200875000 -1.0723944 125.04698 -8.6723223 -73.820541 -8.6448441 -74.563629 -0.26659685 -93.093361
9200937500 -1.0723078 125.02811 -8.6752977 -73.820747 -8.6411276 -74.560173 -0.26564813 -93.116615
9201000000 -1.0704966 125.01385 -8.6638613 -73.856941 -8.6511497 -74.582718 -0.27125654 -93.09269
9201062500 -1.0722816 125.03777 -8.6766644 -73.816338 -8.6469469 -74.524307 -0.26893625 -93.087341
9201125000 -1.0766269 125.01418 -8.6754751 -73.8256 -8.6486616 -74.53231 -0.26531532 -93.068092
9201187500 -1.0721956 125.06828 -8.6767416 -73.754585 -8.648675 -74.522705 -0.27060351 -93.031265
9201250000 -1.0654925 125.0172 -8.6675596 -73.789757 -8.6587868 -74.563148 -0.2731953 -93.041641
9201312500 -1.0701897 125.07138 -8.6676035 -73.793365 -8.6491423 -74.574898 -0.27289391 -93.023087
9201375000 -1.0755703 124.99987 -8.6664114 -73.770134 -8.6496344 -74.578758 -0.26921251 -92.98333
9201437500 -1.0742667 125.00817 -8.6631832 -73.775436 -8.6511049 -74.530251 -0.27013654 -92.939484
9201500000 -1.0747049 124.96929 -8.6619873 -73.709885 -8.6431866 -74.615829 -0.26235962 -92.948181
9201562500 -1.076753 124.9364 -8.6651096 -73.758614 -8.642766 -74.551353 -0.26796538 -92.884468
9201625000 -1.0779196 124.94136 -8.6510296 -73.742813 -8.6445436 -74.572983 -0.26306778 -92.86647
9201687500 -1.0721225 124.92897 -8.651763 -73.740356 -8.6421356 -74.62175 -0.2687211 -92.885834
9201750000 -1.0717912 124.91907 -8.6537733 -73.718567 -8.6408167 -74.604378 -0.26927096 -92.868332
9201812500 -1.0777075 124.89725 -8.6676435 -73.780281 -8.642045 -74.541832 -0.274342 -92.856522
9201875000 -1.0738413 124.88993 -8.6587286 -73.761604 -8.6359015 -74.512184 -0.27058771 -92.837791
9201937500 -1.0740894 124.88867 -8.662056 -73.756477 -8.6447306 -74.54081 -0.27160844 -92.840805
9202000000 -1.0741668 124.87362 -8.6551409 -73.789619 -8.6404257 -74.553246 -0.27809456 -92.839653
9202062500 -1.0713234 124.88824 -8.6489182 -73.788177 -8.6429243 -74.589081 -0.28087875 -92.834442
9202125000 -1.0687095 124.84993 -8.6511793 -73.758118 -8.6314135 -74.564674 -0.27316371 -92.823273
9202187500 -1.0689001 124.79176 -8.6524429 -73.780197 -8.6391544 -74.505272 -0.27745742 -92.808487
9202250000 -1.0701879 124.78037 -8.6532831 -73.782944 -8.6365128 -74.56221 -0.27425539 -92.802399
9202312500 -1.0679909 124.73871 -8.6465693 -73.820236 -8.639205 -74.554291 -0.2696833 -92.748024
9202375000 -1.0678136 124.73051 -8.6452913 -73.817406 -8.6440344 -74.56369 -0.27746713 -92.761314
9202437500 -1.0698723 124.71853 -8.6526947 -73.808037 -8.6433687 -74.602737 -0.28102839 -92.717514
9202500000 -1.0698968 124.70821 -8.6480894 -73.761147 -8.6314583 -74.57019 -0.27384889 -92.684494
9202562500 -1.0664696 124.6916 -8.6494131 -73.756874 -8.6390114 -74.547897 -0.27113312 -92.693062
9202625000 -1.0714912 124.70382 -8.6522636 -73.738136 -8.6329336 -74.55088 -0.27073523 -92.618546
9202687500 -1.0714892 124.68427 -8.6502228 -73.778732 -8.6294632 -74.588531 -0.27620944 -92.702156
9202750000 -1.0699148 124.65319 -8.6438522 -73.695709 -8.6318674 -74.56321 -0.26617184 -92.642052
9202812500 -1.0676413 124.65082 -8.648634 -73.745049 -8.6267557 -74.553261 -0.26890585 -92.623314
9202875000 -1.0722202 124.66341 -8.6481009 -73.7033 -8.6204729 -74.582138 -0.2717624 -92.57296
9202937500 -1.0687215 124.6156 -8.6487942 -73.760818 -8.6324949 -74.517296 -0.2782506 -92.554161
9203000000 -1.0684661 124.60611 -8.6428995 -73.752861 -8.621666 -74.540825 -0.27435589 -92.606308
9203062500 -1.0633597 124.60821 -8.6411963 -73.706444 -8.6253357 -74.507767 -0.26978496 -92.531944
9203125000 -1.0646259 124.55604 -8.641387 -73.767838 -8.6242828 -74.519157 -0.27202821 -92.548973
9203187500 -1.064751 124.5844 -8.6359005 -73.779961 -8.6250534 -74.51223 -0.27543142 -92.491966
9203250000 -1.0645567 124.55985 -8.6332092 -73.709015 -8.6303797 -74.537491 -0.27106214 -92.482002
9203312500 -1.066282 124.60164 -8.6265812 -73.744202 -8.6230774 -74.52076 -0.27598885 -92.463669
9203375000 -1.0695236 124.56894 -8.6324062 -73.719513 -8.6289959 -74.552193 -0.26728028 -92.446152
9203437500 -1.0737214 124.53163 -8.6327648 -73.734665 -8.6286631 -74.480698 -0.2694363 -92.37207
9203500000 -1.068969 124.52845 -8.6226721 -73.759689 -8.6280098 -74.50856 -0.2712017 -92.376602
9203562500 -1.0660858 124.51575 -8.614501 -73.778198 -8.6226158 -74.448761 -0.268181 -92.363853
9203625000 -1.0668222 124.5331 -8.6244307 -73.741455 -8.6250362 -74.521576 -0.28085169 -92.371841
9203687500 -1.06567 124.49461 -8.6301346 -73.695198 -8.617815 -74.547256 -0.26758131 -92.398628
9203750000 -1.0642523 124.45229 -8.631669 -73.759964 -8.6169014 -74.51123 -0.27396634 -92.389778
9203812500 -1.0725155 124.43795 -8.6329823 -73.780418 -8.6169739 -74.522064 -0.27864259 -92.366142
9203875000 -1.0653526 124.39841 -8.6352119 -73.775238 -8.6143961 -74.476997 -0.27576905 -92.344917
9203937500 -1.0733236 124.40875 -8.6327972 -73.729706 -8.6184273 -74.497993 -0.27332494 -92.327034
9204000000 -1.0696145 124.40234 -8.6299067 -73.81218 -8.6207838 -74.481911 -0.26734585 -92.327095
9204062500 -1.0775719 124.37317 -8.6317329 -73.720901 -8.6123056 -74.499069 -0.26808122 -92.311768
9204125000 -1.0667433 124.40205 -8.621356 -73.749596 -8.6064348 -74.538513 -0.26575744 -92.309685
9204187500 -1.0680069 124.35995 -8.624589 -73.744926 -8.6153107 -74.512848 -0.26795796 -92.241966
9204250000 -1.0698922 124.34673 -8.623558 -73.735458 -8.619113 -74.465378 -0.27121195 -92.249832
9204312500 -1.0679098 124.33436 -8.6232147 -73.7071 -8.6101599 -74.452484 -0.26421028 -92.192467
9204375000 -1.0651612 124.32893 -8.6229944 -73.733208 -8.6075678 -74.475227 -0.27055851 -92.196106
9204437500 -1.063934 124.3073 -8.6182899 -73.656998 -8.6065817 -74.443924 -0.2775414 -92.150429
9204500000 -1.0657582 124.32977 -8.6185427 -73.661514 -8.6064892 -74.515633 -0.28080162 -92.156258
9204562500 -1.0605648 124.3064 -8.6167145 -73.637383 -8.6061697 -74.502373 -0.27301061 -92.117531
9204625000 -1.0619318 124.24114 -8.6135798 -73.649727 -8.6027622 -74.551491 -0.27666885 -92.165901
9204687500 -1.0639538 124.22493 -8.6087503 -73.66581 -8.603014 -74.465691 -0.27767861 -92.096329
9204750000 -1.0649329 124.22815 -8.6206961 -73.664436 -8.6087112 -74.468018 -0.27891144 -92.061844
9204812500 -1.0666814 124.23537 -8.6079721 -73.708031 -8.6029329 -74.5056 -0.27641031 -92.093552
9204875000 -1.0706309 124.18847 -8.6187658 -73.739098 -8.6005907 -74.380478 -0.27562431 -92.048958
9204937500 -1.0710934 124.17459 -8.6247749 -73.751831 -8.6042948 -74.424812 -0.28538334 -92.023788
9205000000 -1.0776602 124.15501 -8.6352987 -73.730293 -8.6103096 -74.399956 -0.28016892 -91.973648
9205062500 -1.074268 124.11102 -8.6162195 -73.752098 -8.6090641 -74.49823 -0.2744785 -91.988091
9205125000 -1.071794 124.13362 -8.6125965 -73.765808 -8.6025915 -74.497208 -0.26518098 -91.986351
9205187500 -1.0705709 124.15493 -8.6207991 -73.706482 -8.6050205 -74.486351 -0.27494588 -91.950432
9205250000 -1.0677119 124.184 -8.6050968 -73.717773 -8.6043501 -74.541862 -0.26875672 -91.967598
9205312500 -1.0678964 124.14425 -8.6052933 -73.711655 -8.6107874 -74.496902 -0.27115235 -91.911163
9205375000 -1.0719342 124.13078 -8.6158781 -73.677292 -8.610136 -74.53109 -0.27066579 -91.905922
9205437500 -1.0707924 124.09084 -8.6095448 -73.667717 -8.6058674 -74.520645 -0.27399567 -91.868912
9205500000 -1.0701383 124.08945 -8.6162052 -73.612473 -8.5890236 -74.46347 -0.27111912 -91.805359
9205562500 -1.0676849 124.07664 -8.6154461 -73.588211 -8.5971842 -74.454529 -0.27244937 -91.801315
9205625000 -1.0683402 124.0201 -8.6152668 -73.602051 -8.595788 -74.4543 -0.28137863 -91.767807
9205687500 -1.0722798 124.00082 -8.6143265 -73.645294 -8.5882187 -74.416985 -0.27939594 -91.732155
9205750000 -1.0709716 124.01666 -8.6230135 -73.651291 -8.5964727 -74.44175 -0.28738406 -91.714142
9205812500 -1.0760498 124.00576 -8.6168604 -73.613922 -8.5942497 -74.473312 -0.28621936 -91.703575
9205875000 -1.0715504 123.944 -8.6040277 -73.650696 -8.5928097 -74.438499 -0.28514984 -91.687477
9205937500 -1.0720568 123.93941 -8.6052675 -73.629204 -8.5948019 -74.424599 -0.2842097 -91.719017
9206000000 -1.0722055 123.90907 -8.6122732 -73.687019 -8.5979214 -74.454285 -0.28790963 -91.682983
9206062500 -1.0715307 123.91125 -8.6095257 -73.689659 -8.5951862 -74.441696 -0.28613621 -91.648712
9206125000 -1.0733134 123.93624 -8.6021061 -73.652527 -8.5930729 -74.471474 -0.28665757 -91.628838
9206187500 -1.0724601 123.90023 -8.5989122 -73.642532 -8.5926819 -74.412773 -0.28879809 -91.582832
9206250000 -1.0734376 123.85178 -8.6055746 -73.644753 -8.5843544 -74.425858 -0.28308591 -91.587547
9206312500 -1.0722094 123.85165 -8.6011505 -73.682114 -8.5862494 -74.514938 -0.28596416 -91.620926
9206375000 -1.0678346 123.83805 -8.5997705 -73.670883 -8.601326 -74.427643 -0.29703733 -91.565613
9206437500 -1.072075 123.77273 -8.5982885 -73.714142 -8.5891933 -74.393478 -0.29121953 -91.537849
9206500000 -1.0713366 123.7654 -8.603159 -73.688812 -8.5880489 -74.375053 -0.28998941 -91.499619
9206562500 -1.0714899 123.77058 -8.5983171 -73.760307 -8.5869913 -74.402916 -0.28103456 -91.520592
9206625000 -1.0702202 123.77781 -8.5865231 -73.732483 -8.5910225 -74.426941 -0.28936386 -91.518562
9206687500 -1.0745984 123.78144 -8.5904922 -73.643204 -8.5738344 -74.432182 -0.27826935 -91.537254
9206750000 -1.0753145 123.78416 -8.5976315 -73.68367 -8.5795774 -74.356529 -0.27105257 -91.469681
9206812500 -1.0769129 123.8327 -8.6062984 -73.720886 -8.5794458 -74.41201 -0.27822453 -91.516724
9206875000 -1.0699037 123.80798 -8.5938034 -73.709099 -8.5717907 -74.363899 -0.27640259 -91.458099
9206937500 -1.0697781 123.79251 -8.5920429 -73.74192 -8.5783854 -74.35791 -0.27358535 -91.448837
9207000000 -1.071129 123.75711 -8.5888901 -73.688324 -8.5759001 -74.382805 -0.26970357 -91.368988
9207062500 -1.0666627 123.73773 -8.5949411 -73.662979 -8.5749378 -74.413918 -0.27232367 -91.412827
9207125000 -1.0635537 123.69066 -8.5859041 -73.681541 -8.5777254 -74.392395 -0.28121108 -91.349304
9207187500 -1.0754583 123.68407 -8.6038046 -73.66275 -8.5729589 -74.425163 -0.27676424 -91.339607
9207250000 -1.0702884 123.67757 -8.5913229 -73.628654 -8.5718174 -74.418083 -0.2786223 -91.35788
9207312500 -1.0705149 123.63654 -8.5903425 -73.623703 -8.5747204 -74.432968 -0.28127447 -91.333405
9207375000 -1.0738897 123.61549 -8.5948725 -73.632462 -8.5683937 -74.394882 -0.28286353 -91.279961
9207437500 -1.0643977 123.60098 -8.5752964 -73.674057 -8.578721 -74.408974 -0.28445649 -91.315132
9207500000 -1.0682579 123.60533 -8.5878334 -73.702171 -8.5759983 -74.402359 -0.29005203 -91.304054
9207562500 -1.0707642 123.56506 -8.5840549 -73.659164 -8.5724306 -74.383385 -0.28919828 -91.254646
9207625000 -1.0701805 123.52724 -8.5862741 -73.673386 -8.5683737 -74.393883 -0.28740588 -91.247581
9207687500 -1.069877 123.52173 -8.5831995 -73.700974 -8.5752335 -74.424194 -0.28947684 -91.266632
9207750000 -1.0772125 123.52713 -8.5794659 -73.653442 -8.5804338 -74.410622 -0.28548622 -91.200279
9207812500 -1.0821551 123.50833 -8.5895338 -73.710205 -8.5774593 -74.434662 -0.27948087 -91.268227
9207875000 -1.0833447 123.5322 -8.5830059 -73.676605 -8.5755186 -74.405014 -0.27552608 -91.215843
9207937500 -1.0766028 123.49504 -8.5727625 -73.727921 -8.5703821 -74.380974 -0.2717168 -91.184555
9208000000 -1.0790021 123.51276 -8.5803041 -73.682404 -8.5738134 -74.424454 -0.27757555 -91.176361
9208062500 -1.078166 123.50654 -8.5805798 -73.663795 -8.5758104 -74.402527 -0.28100485 -91.14415
9208125000 -1.075312 123.47951 -8.5793066 -73.693695 -8.5788212 -74.427132 -0.28697026 -91.113579
9208187500 -1.0765636 123.45594 -8.5737514 -73.651115 -8.5742702 -74.389442 -0.28316298 -91.082123
9208250000 -1.0721637 123.48399 -8.5722294 -73.595856 -8.5689278 -74.459236 -0.28265229 -91.075127
9208312500 -1.0727799 123.43928 -8.5653419 -73.644012 -8.5637264 -74.436478 -0.27947974 -91.020691
9208375000 -1.0720276 123.46783 -8.5609283 -73.551689 -8.5627489 -74.425789 -0.2836574 -91.019562
9208437500 -1.0708117 123.4454 -8.5708218 -73.586754 -8.5645657 -74.454216 -0.28151089 -91.03933
9208500000 -1.0741538 123.44401 -8.5690708 -73.577812 -8.5603523 -74.417847 -0.28172737 -90.992645
9208562500 -1.0740371 123.39494 -8.5603628 -73.579666 -8.5691357 -74.443268 -0.28977138 -91.025261
9208625000 -1.0711287 123.38097 -8.5596561 -73.582703 -8.5665426 -74.411285 -0.28656879 -91.002548
9208687500 -1.069345 123.34114 -8.5723467 -73.625618 -8.5619822 -74.382881 -0.28567311 -90.964668
9208750000 -1.0668637 123.37157 -8.5632515 -73.583 -8.5650673 -74.423988 -0.28528014 -91.028656
9208812500 -1.0687634 123.37969 -8.572197 -73.552299 -8.5609999 -74.354507 -0.28957576 -90.940117
9208875000 -1.0650957 123.35645 -8.5692816 -73.556381 -8.5673151 -74.374825 -0.28592533 -90.930878
9208937500 -1.0620372 123.35569 -8.5634041 -73.524826 -8.5598116 -74.289253 -0.29478782 -90.904099
9209000000 -1.0686785 123.32939 -8.5705166 -73.601135 -8.5523624 -74.350922 -0.2884059 -90.889557
9209062500 -1.0607492 123.2953 -8.557127 -73.604774 -8.554038 -74.325386 -0.29024762 -90.81517
9209125000 -1.06577 123.3299 -8.5690603 -73.581009 -8.5556612 -74.349709 -0.29584023 -90.883575
9209187500 -1.0735017 123.26393 -8.5707312 -73.624191 -8.5510817 -74.315269 -0.29088402 -90.841156
9209250000 -1.0690029 123.24713 -8.5699005 -73.615456 -8.5619507 -74.359047 -0.29862434 -90.817612
9209312500 -1.0664049 123.2471 -8.560317 -73.564857 -8.5604763 -74.344582 -0.29576683 -90.769432
9209375000 -1.0671277 123.21561 -8.553442 -73.595169 -8.5480604 -74.325089 -0.29298303 -90.801239
9209437500 -1.066421 123.19902 -8.5616999 -73.578506 -8.5510883 -74.362503 -0.28773823 -90.76577
9209500000 -1.0641962 123.16696 -8.5580292 -73.580353 -8.5570879 -74.322098 -0.29184556 -90.733788
9209562500 -1.0671272 123.19197 -8.5664167 -73.568207 -8.5538092 -74.351219 -0.28906345 -90.739441
9209625000 -1.0644362 123.15636 -8.5574846 -73.598015 -8.5566807 -74.397659 -0.28869909 -90.724152
9209687500 -1.0698766 123.11018 -8.5508308 -73.604477 -8.5561647 -74.304314 -0.2886323 -90.661011
9209750000 -1.0671829 123.1318 -8.5570087 -73.583878 -8.5568247 -74.341599 -0.29008287 -90.665916
9209812500 -1.0714624 123.14193 -8.5511246 -73.586205 -8.5529213 -74.350143 -0.27975082 -90.708725
9209875000 -1.0740831 123.11912 -8.5544538 -73.562012 -8.5465088 -74.325142 -0.27807215 -90.648811
9209937500 -1.0743847 123.07607 -8.5499191 -73.648521 -8.55723 -74.348526 -0.29057235 -90.638527
9210000000 -1.0754329 123.11982 -8.5590305 -73.611572 -8.5445766 -74.383965 -0.27734551 -90.651382
9210062500 -1.0774117 123.09351 -8.5584774 -73.5877 -8.5440321 -74.358765 -0.28546563 -90.610214
9210125000 -1.0747089 123.0502 -8.5559177 -73.601715 -8.543726 -74.376617 -0.29410276 -90.649208
9210187500 -1.0730127 123.02212 -8.5525656 -73.58728 -8.5416059 -74.296783 -0.28386056 -90.570183
9210250000 -1.0737859 123.03809 -8.5467949 -73.615417 -8.5394087 -74.340172 -0.2841351 -90.571892
9210312500 -1.0756623 123.02768 -8.5563669 -73.59346 -8.5450659 -74.346619 -0.29090485 -90.588379
9210375000 -1.0763741 123.02124 -8.5524569 -73.588005 -8.544095 -74.323708 -0.29126883 -90.537758
9210437500 -1.074188 123.00223 -8.5547943 -73.557686 -8.5440598 -74.360008 -0.29042846 -90.528152
9210500000 -1.0783576 122.96799 -8.5536165 -73.607193 -8.5412216 -74.389297 -0.2971577 -90.540276
9210562500 -1.0726043 122.93435 -8.5461655 -73.564514 -8.5463533 -74.358238 -0.29817525 -90.493195
9210625000 -1.0737281 122.8533 -8.5452566 -73.55114 -8.5483751 -74.321831 -0.29899698 -90.462875
9210687500 -1.0693905 122.85226 -8.5348988 -73.58989 -8.5462914 -74.352699 -0.30196595 -90.454269
9210750000 -1.0755795 122.8547 -8.5393124 -73.58567 -8.5434847 -74.297615 -0.29623744 -90.427643
9210812500 -1.0721259 122.82194 -8.5368185 -73.567726 -8.5351543 -74.289391 -0.28573069 -90.395782
9210875000 -1.073511 122.84348 -8.535429 -73.564499 -8.5318832 -74.305428 -0.29642931 -90.377769
9210937500 -1.0719037 122.81721 -8.5398445 -73.607307 -8.5414867 -74.247803 -0.29549208 -90.289589
9211000000 -1.0735904 122.82519 -8.5337563 -73.573982 -8.5321198 -74.284927 -0.29233956 -90.317307
9211062500 -1.0728824 122.81865 -8.5407429 -73.577026 -8.528141 -74.301239 -0.28959924 -90.260284
9211125000 -1.074868 122.77744 -8.5326414 -73.569977 -8.5341711 -74.207642 -0.29762018 -90.252625
9211187500 -1.0766782 122.7971 -8.5465708 -73.519524 -8.5281973 -74.246651 -0.29518601 -90.220894
9211250000 -1.0767237 122.75876 -8.5407829 -73.567123 -8.5364704 -74.284485 -0.30637291 -90.237312
9211312500 -1.0746177 122.75959 -8.5382261 -73.555374 -8.5337801 -74.280907 -0.3075124 -90.196655
9211375000 -1.0751977 122.77735 -8.5359383 -73.567291 -8.5357561 -74.35096 -0.31241152 -90.236794
9211437500 -1.0704327 122.74402 -8.5369263 -73.583023 -8.5309896 -74.311829 -0.29595932 -90.231903
9211500000 -1.0717125 122.77151 -8.5447559 -73.520401 -8.528142 -74.305153 -0.29451391 -90.257202
9211562500 -1.0743387 122.75178 -8.5392742 -73.576996 -8.527113 -74.271355 -0.29591385 -90.20787
9211625000 -1.0686417 122.71915 -8.5385418 -73.532555 -8.5372381 -74.269447 -0.29780596 -90.220268
9211687500 -1.0681294 122.73701 -8.5349655 -73.567207 -8.5317326 -74.315819 -0.29315639 -90.240013
9211750000 -1.0647347 122.74614 -8.5367374 -73.559326 -8.5212879 -74.258743 -0.28533709 -90.170609
9211812500 -1.0653385 122.70391 -8.5276146 -73.602478 -8.5308723 -74.277504 -0.29577398 -90.208931
9211875000 -1.0716633 122.66296 -8.5319548 -73.528351 -8.5264921 -74.279686 -0.29615068 -90.113121
9211937500 -1.0672889 122.65711 -8.5323334 -73.518616 -8.5258894 -74.278732 -0.30083573 -90.106346
9212000000 -1.0664313 122.60926 -8.5366182 -73.55188 -8.5280304 -74.25312 -0.30183968 -90.069283
9212062500 -1.0700427 122.59832 -8.5262775 -73.506783 -8.5236111 -74.292374 -0.29546562 -90.024551
9212125000 -1.0694683 122.57878 -8.5271139 -73.502846 -8.5182877 -74.313789 -0.2987231 -90.04084
9212187500 -1.0739264 122.56458 -8.5341902 -73.513382 -8.5207205 -74.252663 -0.2965036 -89.973289
9212250000 -1.066272 122.55082 -8.5237856 -73.483612 -8.5158377 -74.32196 -0.29186895 -89.983421
9212312500 -1.069364 122.48838 -8.5165625 -73.569595 -8.5234528 -74.312073 -0.29833472 -90.01963
