!Agilent Technologies,N5242A,MY51221714,A.09.90.19
!Agilent N5242A: A.09.90.19
!Date: Saturday, December 30, 2023 10:46:39
!Correction: S11(Full 2 Port(1,2)) 
!S21(Full 2 Port(1,2)) 
!S12(Full 2 Port(1,2)) 
!S22(Full 2 Port(1,2)) 
!S2P File: Measurements: S11, S21, S12, S22:
# Hz S  dB   R 50
9200000000 -1.0637709 125.30273 -8.6522608 -73.744514 -8.6173906 -74.592354 -0.24062566 -93.409981
9200062500 -1.063154 125.27631 -8.6416874 -73.73777 -8.619669 -74.562057 -0.24130102 -93.343781
9200125000 -1.0638076 125.2299 -8.6408319 -73.806229 -8.6253424 -74.562752 -0.25154662 -93.338806
9200187500 -1.0629431 125.18858 -8.6496487 -73.799583 -8.6282244 -74.536858 -0.2503916 -93.320572
9200250000 -1.0628263 125.19099 -8.6388302 -73.775307 -8.6203718 -74.557793 -0.24172668 -93.295677
9200312500 -1.0658551 125.17103 -8.6495228 -73.780151 -8.623745 -74.519836 -0.24804598 -93.314201
9200375000 -1.0695214 125.1544 -8.644516 -73.872559 -8.627017 -74.568657 -0.25562829 -93.296867
9200437500 -1.0630978 125.11471 -8.6459866 -73.794716 -8.6255074 -74.496674 -0.24822514 -93.267509
9200500000 -1.0613372 125.11341 -8.640008 -73.778374 -8.6210241 -74.537582 -0.2492213 -93.278481
9200562500 -1.0678577 125.11527 -8.6427174 -73.819939 -8.6133871 -74.555573 -0.24558072 -93.288376
9200625000 -1.0634171 125.09022 -8.6462345 -73.839371 -8.6128731 -74.564926 -0.24716851 -93.255051
9200687500 -1.0682635 125.08631 -8.6408119 -73.826202 -8.6116695 -74.545349 -0.23871191 -93.200333
9200750000 -1.0609342 125.05241 -8.6360216 -73.843216 -8.6131001 -74.570236 -0.24801974 -93.190903
9200812500 -1.0600097 125.05267 -8.6298161 -73.832718 -8.6109953 -74.547203 -0.24150297 -93.178627
9200875000 -1.0604135 125.03958 -8.634387 -73.779373 -8.6000814 -74.563904 -0.23687929 -93.159386
9200937500 -1.0555505 125.03465 -8.6330729 -73.776291 -8.6075029 -74.509972 -0.24159272 -93.134857
9201000000 -1.0616585 125.01823 -8.6372423 -73.845055 -8.6101913 -74.581093 -0.24849701 -93.184616
9201062500 -1.0603659 125.03674 -8.6415176 -73.768921 -8.6187897 -74.501015 -0.25338006 -93.126282
9201125000 -1.0579468 125.07246 -8.638854 -73.769249 -8.6243696 -74.441444 -0.25466082 -93.101494
9201187500 -1.0638021 125.03888 -8.6447716 -73.791313 -8.6193333 -74.493973 -0.25705749 -93.123177
9201250000 -1.0592363 125.04667 -8.6407843 -73.745895 -8.6202936 -74.511398 -0.25958383 -93.089821
9201312500 -1.0633117 125.01406 -8.6403313 -73.750214 -8.6167002 -74.497757 -0.25372174 -93.037659
9201375000 -1.0700206 125.01645 -8.6358347 -73.757591 -8.6177263 -74.541405 -0.25124541 -93.046181
9201437500 -1.0632254 124.97588 -8.6256571 -73.770775 -8.6196852 -74.483887 -0.25020769 -92.971558
9201500000 -1.0630451 124.98304 -8.6218519 -73.73365 -8.6196661 -74.541451 -0.25400385 -92.960335
9201562500 -1.0636514 124.95036 -8.6273565 -73.688721 -8.6122932 -74.498039 -0.25335899 -92.87706
9201625000 -1.0660005 124.90501 -8.6198807 -73.75856 -8.6048365 -74.565674 -0.24359936 -92.953278
9201687500 -1.0646415 124.93295 -8.6215925 -73.705963 -8.6020899 -74.528748 -0.25065008 -92.922119
9201750000 -1.0645627 124.91456 -8.6225519 -73.719749 -8.6081009 -74.592064 -0.25092545 -92.930725
9201812500 -1.0678988 124.91309 -8.6324539 -73.715591 -8.605237 -74.516968 -0.25357345 -92.923569
9201875000 -1.0648838 124.91337 -8.6264362 -73.725906 -8.5974827 -74.470772 -0.2510744 -92.879936
9201937500 -1.0629076 124.90961 -8.6265631 -73.722717 -8.6112881 -74.449127 -0.25790212 -92.862938
9202000000 -1.0670583 124.87865 -8.625411 -73.676323 -8.6025257 -74.506752 -0.25579968 -92.900208
9202062500 -1.0617838 124.84704 -8.6177883 -73.741798 -8.6023216 -74.487152 -0.25715503 -92.871452
9202125000 -1.0642705 124.84284 -8.6262493 -73.764397 -8.6018238 -74.551544 -0.25640994 -92.878433
9202187500 -1.0599455 124.81554 -8.6249762 -73.744415 -8.6082201 -74.478943 -0.25676155 -92.802589
9202250000 -1.0666674 124.7679 -8.6242743 -73.771957 -8.6115847 -74.546333 -0.25901818 -92.825577
9202312500 -1.0655302 124.78239 -8.6119061 -73.742241 -8.6000729 -74.543953 -0.25531861 -92.842232
9202375000 -1.056899 124.71016 -8.6135092 -73.821823 -8.6037178 -74.532349 -0.25612387 -92.768242
9202437500 -1.0549941 124.75274 -8.6127119 -73.759293 -8.603096 -74.54554 -0.26180834 -92.784164
9202500000 -1.0632066 124.73091 -8.6142244 -73.760147 -8.6093521 -74.5466 -0.25815168 -92.768669
9202562500 -1.0603639 124.74025 -8.6149521 -73.685112 -8.6017437 -74.509964 -0.2543529 -92.714554
9202625000 -1.0642048 124.70228 -8.6194916 -73.707397 -8.6018562 -74.562187 -0.25638232 -92.712242
9202687500 -1.0578289 124.69285 -8.61306 -73.733208 -8.5939569 -74.521309 -0.25362065 -92.710472
9202750000 -1.0649729 124.67104 -8.6152992 -73.710548 -8.6053324 -74.522858 -0.25920957 -92.660721
9202812500 -1.0603955 124.7075 -8.616046 -73.671371 -8.5976934 -74.545639 -0.25449666 -92.649826
9202875000 -1.0615889 124.63646 -8.6165018 -73.731773 -8.5938787 -74.494225 -0.25459355 -92.639725
9202937500 -1.0632089 124.65567 -8.6133757 -73.670288 -8.5921812 -74.52906 -0.25750661 -92.635094
9203000000 -1.061445 124.60575 -8.6168928 -73.747101 -8.586565 -74.551491 -0.25079891 -92.626694
9203062500 -1.0575368 124.59846 -8.604147 -73.715157 -8.5907068 -74.529808 -0.25678954 -92.633354
9203125000 -1.0521046 124.57233 -8.6068792 -73.742416 -8.5926266 -74.508133 -0.25278726 -92.600342
9203187500 -1.0564132 124.60891 -8.6001711 -73.725731 -8.5854216 -74.507164 -0.2560631 -92.577171
9203250000 -1.0549798 124.55688 -8.5919609 -73.713234 -8.5850515 -74.486961 -0.25192735 -92.54747
9203312500 -1.0577987 124.5658 -8.5908833 -73.68203 -8.5891476 -74.494301 -0.25386965 -92.482933
9203375000 -1.0605035 124.5799 -8.5976038 -73.691315 -8.597331 -74.478661 -0.25478584 -92.454445
9203437500 -1.0570319 124.55965 -8.5914459 -73.719643 -8.5938263 -74.511726 -0.25669831 -92.458916
9203500000 -1.0603187 124.55239 -8.5967703 -73.66172 -8.5939255 -74.470711 -0.2547538 -92.417297
9203562500 -1.0658518 124.52151 -8.5928354 -73.71933 -8.5827217 -74.512695 -0.25370002 -92.441185
9203625000 -1.0598042 124.51414 -8.5994549 -73.70417 -8.5835218 -74.473305 -0.25826636 -92.418015
9203687500 -1.0627215 124.50076 -8.5999184 -73.676414 -8.5827074 -74.449181 -0.25715566 -92.440987
9203750000 -1.0678499 124.47513 -8.6057005 -73.739151 -8.592638 -74.466606 -0.26356763 -92.460297
9203812500 -1.061946 124.44209 -8.5975122 -73.769478 -8.5801506 -74.520035 -0.25946388 -92.45295
9203875000 -1.06206 124.40052 -8.6077089 -73.749657 -8.5745049 -74.486816 -0.25598937 -92.429741
9203937500 -1.0663936 124.3884 -8.601656 -73.774933 -8.5902672 -74.440895 -0.26125658 -92.375381
9204000000 -1.0643778 124.42648 -8.5957022 -73.663666 -8.5805264 -74.47477 -0.25806996 -92.376198
9204062500 -1.0643557 124.37649 -8.6002693 -73.745667 -8.5920191 -74.482315 -0.26103529 -92.343353
9204125000 -1.0593779 124.38258 -8.5924206 -73.733101 -8.5776424 -74.443748 -0.25584251 -92.322182
9204187500 -1.0643865 124.37025 -8.5911446 -73.695648 -8.5795803 -74.425659 -0.24985601 -92.299706
9204250000 -1.0583323 124.36869 -8.5834837 -73.717758 -8.5868177 -74.482285 -0.25077763 -92.293297
9204312500 -1.0578358 124.35596 -8.5887003 -73.677116 -8.5758963 -74.47599 -0.25148001 -92.253143
9204375000 -1.0561619 124.32812 -8.580616 -73.717957 -8.5778561 -74.389626 -0.25422826 -92.223427
9204437500 -1.0578182 124.3168 -8.5827284 -73.676842 -8.5758066 -74.445305 -0.25580281 -92.185471
9204500000 -1.0519406 124.28524 -8.5790377 -73.633057 -8.5811739 -74.411583 -0.2552039 -92.160751
9204562500 -1.0559312 124.28343 -8.5763693 -73.66716 -8.5617695 -74.413902 -0.25012594 -92.161987
9204625000 -1.0550956 124.28132 -8.5889835 -73.642517 -8.5683594 -74.480873 -0.25892231 -92.146149
9204687500 -1.0568336 124.20878 -8.5864401 -73.661423 -8.5754042 -74.421638 -0.26445282 -92.116127
9204750000 -1.0566397 124.20506 -8.5827198 -73.64756 -8.5732508 -74.395683 -0.26525143 -92.095505
9204812500 -1.0625486 124.21729 -8.5799723 -73.609314 -8.5680914 -74.395004 -0.26088727 -92.078369
9204875000 -1.0655251 124.17746 -8.5834217 -73.723122 -8.5647688 -74.412544 -0.26200268 -92.088898
9204937500 -1.0624526 124.17786 -8.5888863 -73.744225 -8.5660877 -74.429077 -0.26138994 -92.051849
9205000000 -1.0641631 124.17477 -8.5830212 -73.685944 -8.5720072 -74.407204 -0.26545531 -92.084724
9205062500 -1.0625771 124.17306 -8.5820551 -73.720001 -8.5641737 -74.426178 -0.25620148 -92.036201
9205125000 -1.0617087 124.15852 -8.5758963 -73.689491 -8.5826807 -74.484589 -0.26030377 -92.063179
9205187500 -1.0619982 124.15963 -8.5735788 -73.706589 -8.5745888 -74.462578 -0.25880754 -91.982147
9205250000 -1.060541 124.13744 -8.5829697 -73.674126 -8.5746355 -74.36219 -0.25551304 -91.899811
9205312500 -1.0628135 124.14331 -8.5709906 -73.748383 -8.5749998 -74.468681 -0.25807044 -91.956879
9205375000 -1.0629681 124.14351 -8.5771322 -73.636353 -8.5780478 -74.446587 -0.25467682 -91.887856
9205437500 -1.0637416 124.10558 -8.5736284 -73.649971 -8.5631943 -74.40773 -0.25606784 -91.920921
9205500000 -1.0622655 124.09204 -8.5785704 -73.616066 -8.5642452 -74.462433 -0.25603059 -91.890121
9205562500 -1.0661803 124.07563 -8.5841141 -73.68821 -8.561368 -74.483917 -0.261112 -91.882004
9205625000 -1.0635813 124.05087 -8.5824509 -73.592934 -8.5595942 -74.487755 -0.26350412 -91.831413
9205687500 -1.0605785 124.01849 -8.5731258 -73.558334 -8.5656271 -74.367653 -0.26781398 -91.772522
9205750000 -1.0639755 123.98251 -8.5830669 -73.611069 -8.5667171 -74.377365 -0.26528943 -91.746796
9205812500 -1.0662855 123.9687 -8.5781927 -73.614471 -8.5546188 -74.331894 -0.26619872 -91.709351
9205875000 -1.0639986 123.99847 -8.5738163 -73.557938 -8.5599184 -74.410843 -0.26621321 -91.730461
9205937500 -1.0644188 123.92769 -8.5681677 -73.658905 -8.5624475 -74.442123 -0.26514047 -91.752434
9206000000 -1.0686455 123.95642 -8.5720797 -73.630836 -8.5614061 -74.438004 -0.26904377 -91.756386
9206062500 -1.0632687 123.92186 -8.5779057 -73.616547 -8.5602093 -74.39222 -0.26777577 -91.697311
9206125000 -1.0663431 123.90865 -8.5718489 -73.612312 -8.5578117 -74.414795 -0.27028033 -91.683807
9206187500 -1.0643255 123.88849 -8.564579 -73.619125 -8.5562525 -74.409737 -0.27051619 -91.674385
9206250000 -1.0660334 123.88721 -8.5710287 -73.549469 -8.5624437 -74.358658 -0.27299961 -91.617432
9206312500 -1.0665872 123.88656 -8.5714874 -73.612656 -8.5501318 -74.351898 -0.26780871 -91.624695
9206375000 -1.0626224 123.81977 -8.5708838 -73.673225 -8.5498896 -74.460716 -0.26521814 -91.664642
9206437500 -1.0645388 123.79972 -8.5666218 -73.645561 -8.5603809 -74.422295 -0.27135402 -91.617714
9206500000 -1.0612576 123.75624 -8.5577869 -73.714531 -8.5589581 -74.407234 -0.27113956 -91.597282
9206562500 -1.0658082 123.81107 -8.5672493 -73.649811 -8.5558701 -74.384155 -0.26988995 -91.577034
9206625000 -1.0619203 123.81821 -8.5617952 -73.692329 -8.5496264 -74.353806 -0.26317081 -91.561142
9206687500 -1.0640266 123.83248 -8.5620365 -73.641785 -8.5437479 -74.419075 -0.26193422 -91.57267
9206750000 -1.0683771 123.85574 -8.5680399 -73.630768 -8.5471563 -74.325874 -0.26540235 -91.55407
9206812500 -1.0646338 123.85969 -8.5633221 -73.673431 -8.5468302 -74.432915 -0.26400301 -91.545967
9206875000 -1.0606936 123.78496 -8.5520926 -73.650986 -8.546443 -74.357643 -0.25779763 -91.521408
9206937500 -1.0653969 123.77587 -8.5594912 -73.644333 -8.5399446 -74.347176 -0.25166568 -91.488579
9207000000 -1.0578562 123.77516 -8.5540581 -73.66954 -8.5349026 -74.381866 -0.25482765 -91.475662
9207062500 -1.0606765 123.7456 -8.563921 -73.644272 -8.5461426 -74.381065 -0.26044938 -91.464447
9207125000 -1.0607892 123.73348 -8.5629034 -73.650711 -8.5403433 -74.402328 -0.25960103 -91.437462
9207187500 -1.0595601 123.7053 -8.5654078 -73.6567 -8.5451803 -74.416016 -0.26635379 -91.441063
9207250000 -1.0649893 123.67646 -8.5593138 -73.564224 -8.5294342 -74.426056 -0.25769094 -91.43029
9207312500 -1.0568056 123.67326 -8.5503941 -73.598221 -8.5321808 -74.416237 -0.25924599 -91.411469
9207375000 -1.0563357 123.64575 -8.5471668 -73.582672 -8.5370913 -74.40963 -0.26536995 -91.378143
9207437500 -1.0617162 123.6134 -8.5458488 -73.660522 -8.5424356 -74.376297 -0.26944652 -91.368721
9207500000 -1.0601856 123.6091 -8.553813 -73.615639 -8.5446749 -74.3666 -0.27910298 -91.35537
9207562500 -1.0623348 123.59702 -8.5472698 -73.628868 -8.5442276 -74.366028 -0.2721715 -91.341995
9207625000 -1.0626285 123.54931 -8.5471382 -73.661758 -8.5384636 -74.374596 -0.27000386 -91.335075
9207687500 -1.0687414 123.51554 -8.5413914 -73.685387 -8.5452404 -74.357712 -0.26523378 -91.32547
9207750000 -1.0679545 123.55618 -8.5422182 -73.625725 -8.5487804 -74.393265 -0.27098581 -91.293434
9207812500 -1.0721363 123.50971 -8.5472355 -73.68055 -8.5458279 -74.412605 -0.26792863 -91.300949
9207875000 -1.0728704 123.55447 -8.5430822 -73.629021 -8.5410538 -74.361801 -0.26148656 -91.25045
9207937500 -1.0717344 123.56174 -8.5509968 -73.621597 -8.5452881 -74.381729 -0.26115647 -91.229889
9208000000 -1.0675372 123.49489 -8.5431843 -73.686172 -8.5406647 -74.357658 -0.26311964 -91.252899
9208062500 -1.0724089 123.49145 -8.5420208 -73.670471 -8.5368423 -74.395691 -0.25819942 -91.241829
9208125000 -1.0670499 123.50705 -8.5391483 -73.60331 -8.5382757 -74.392418 -0.26255077 -91.179733
9208187500 -1.0677557 123.48 -8.5354548 -73.635063 -8.530304 -74.322624 -0.26585081 -91.133171
9208250000 -1.0587547 123.50052 -8.5207243 -73.545563 -8.5389004 -74.398857 -0.26701999 -91.128059
9208312500 -1.0682507 123.46668 -8.5417919 -73.588615 -8.5303793 -74.437164 -0.26989484 -91.1446
9208375000 -1.0653851 123.4606 -8.5387363 -73.542229 -8.5421362 -74.401337 -0.27663961 -91.09095
9208437500 -1.0647907 123.42536 -8.5371208 -73.566238 -8.5341997 -74.402184 -0.26176941 -91.041565
9208500000 -1.0661705 123.43472 -8.5390511 -73.525856 -8.5319471 -74.325966 -0.26874331 -91.050613
9208562500 -1.063911 123.43612 -8.5381165 -73.516418 -8.5430021 -74.354683 -0.27623156 -91.011063
9208625000 -1.0660081 123.41569 -8.5332222 -73.547058 -8.5292616 -74.397636 -0.27050042 -91.054512
9208687500 -1.0623798 123.39476 -8.5384455 -73.500046 -8.5274248 -74.358711 -0.27081755 -91.067894
9208750000 -1.058202 123.3578 -8.5295687 -73.589195 -8.5289679 -74.344162 -0.26913923 -91.051132
9208812500 -1.0610403 123.33689 -8.5401258 -73.553215 -8.525651 -74.329895 -0.27732095 -90.996178
9208875000 -1.0604106 123.32903 -8.5277414 -73.575195 -8.525979 -74.338776 -0.27356997 -91.011665
9208937500 -1.0609139 123.32372 -8.5365973 -73.54966 -8.5184793 -74.296272 -0.27533862 -90.950851
9209000000 -1.054871 123.35146 -8.5254021 -73.524887 -8.5221682 -74.336029 -0.27375853 -90.949501
9209062500 -1.0548508 123.30515 -8.5365086 -73.585709 -8.5278044 -74.32769 -0.27639663 -90.94735
9209125000 -1.0582514 123.2952 -8.5367451 -73.549393 -8.5233288 -74.310806 -0.28063253 -90.90287
9209187500 -1.0623066 123.27755 -8.5364389 -73.62133 -8.522007 -74.266159 -0.28031385 -90.863739
9209250000 -1.0619023 123.2537 -8.535306 -73.550072 -8.5267525 -74.285149 -0.27395684 -90.837128
9209312500 -1.0572436 123.26839 -8.5287733 -73.560226 -8.5236187 -74.258141 -0.27855623 -90.824249
9209375000 -1.0590081 123.21815 -8.5365038 -73.547516 -8.5174379 -74.298653 -0.27966192 -90.834976
9209437500 -1.0626931 123.20735 -8.5327845 -73.529831 -8.5257101 -74.279739 -0.27251387 -90.817497
9209500000 -1.0580159 123.17313 -8.5349541 -73.587502 -8.5250072 -74.309059 -0.2790378 -90.810982
9209562500 -1.0595483 123.17835 -8.5269375 -73.579483 -8.5244732 -74.343857 -0.277556 -90.790192
9209625000 -1.0657585 123.15289 -8.5332899 -73.606628 -8.52423 -74.314362 -0.27142525 -90.810722
9209687500 -1.0656427 123.08747 -8.5218868 -73.640221 -8.5220327 -74.326126 -0.27265602 -90.733086
9209750000 -1.066534 123.11381 -8.5217667 -73.559219 -8.5205402 -74.281303 -0.26999187 -90.721786
9209812500 -1.0733908 123.13026 -8.5257788 -73.577377 -8.5261488 -74.34156 -0.27285302 -90.744911
9209875000 -1.0720081 123.08623 -8.5174046 -73.585609 -8.5115623 -74.326027 -0.26385358 -90.708717
9209937500 -1.0698318 123.11362 -8.5254164 -73.627838 -8.5213051 -74.331421 -0.26938725 -90.684494
9210000000 -1.0720552 123.09983 -8.5277481 -73.558357 -8.5105 -74.335167 -0.2720612 -90.693871
9210062500 -1.0746598 123.12817 -8.5277958 -73.530457 -8.5116062 -74.302826 -0.27531144 -90.675034
9210125000 -1.0704907 123.11355 -8.5272293 -73.504677 -8.5045557 -74.349709 -0.26798961 -90.686905
9210187500 -1.069117 123.08001 -8.5185776 -73.491959 -8.5145597 -74.27594 -0.2762796 -90.623215
9210250000 -1.0700538 123.04678 -8.5318289 -73.497818 -8.5023928 -74.264107 -0.27255559 -90.585457
9210312500 -1.0668311 123.06548 -8.5238552 -73.54734 -8.5048122 -74.344749 -0.27611583 -90.616837
9210375000 -1.0687065 123.03311 -8.5224257 -73.529449 -8.5064497 -74.310074 -0.27898136 -90.581238
9210437500 -1.0646782 122.98166 -8.5177698 -73.558998 -8.507658 -74.345634 -0.28105831 -90.598961
9210500000 -1.0720448 122.96809 -8.5192623 -73.560501 -8.5038595 -74.329056 -0.28048587 -90.586494
9210562500 -1.0693982 122.97294 -8.5183048 -73.512497 -8.5134583 -74.301338 -0.28153229 -90.577896
9210625000 -1.0635141 122.86673 -8.5051174 -73.589943 -8.5047636 -74.321266 -0.28099301 -90.546791
9210687500 -1.0649649 122.86417 -8.5049915 -73.559517 -8.4974918 -74.260956 -0.27557024 -90.498329
9210750000 -1.0630052 122.85445 -8.5006189 -73.53363 -8.5007706 -74.311554 -0.27629277 -90.499161
9210812500 -1.0636599 122.85941 -8.5088015 -73.552574 -8.4972439 -74.281357 -0.27159464 -90.465523
9210875000 -1.0625521 122.8546 -8.5074263 -73.562317 -8.4954367 -74.272484 -0.27172631 -90.420166
9210937500 -1.0662328 122.8034 -8.5050402 -73.538338 -8.5017347 -74.210121 -0.28126803 -90.336044
9211000000 -1.0678384 122.84016 -8.5180874 -73.537842 -8.5003996 -74.240692 -0.27740327 -90.35907
9211062500 -1.0677481 122.77583 -8.500145 -73.516846 -8.4880524 -74.200798 -0.27544424 -90.310417
9211125000 -1.0627383 122.79481 -8.5028105 -73.551201 -8.4995136 -74.186752 -0.28342709 -90.275261
9211187500 -1.0699034 122.76802 -8.5049744 -73.529999 -8.4942932 -74.224915 -0.28012767 -90.284981
9211250000 -1.0679377 122.77391 -8.5056067 -73.565422 -8.4939232 -74.248962 -0.27942446 -90.282303
9211312500 -1.0665694 122.76749 -8.5041037 -73.589775 -8.4965782 -74.277382 -0.27751437 -90.271362
9211375000 -1.0707551 122.76332 -8.5106478 -73.543053 -8.4899616 -74.287979 -0.2841318 -90.319199
9211437500 -1.0649734 122.76596 -8.5102987 -73.515472 -8.4914255 -74.273476 -0.28015783 -90.245865
9211500000 -1.062307 122.72243 -8.4984579 -73.540009 -8.4932985 -74.242996 -0.28055888 -90.2491
9211562500 -1.0621228 122.72705 -8.501914 -73.605171 -8.4973669 -74.267204 -0.28113338 -90.338318
9211625000 -1.0652821 122.76368 -8.493474 -73.579567 -8.4945202 -74.2855 -0.28010082 -90.297646
9211687500 -1.0575689 122.74075 -8.4890051 -73.517586 -8.4929409 -74.234558 -0.27683732 -90.254974
9211750000 -1.0555514 122.71165 -8.4940548 -73.53167 -8.4974318 -74.267616 -0.28088039 -90.258461
9211812500 -1.0561007 122.73906 -8.4908609 -73.512772 -8.496295 -74.229805 -0.2736204 -90.247566
9211875000 -1.0575101 122.71169 -8.4930706 -73.479652 -8.4873943 -74.280434 -0.28058299 -90.242424
9211937500 -1.0622883 122.67445 -8.497508 -73.495819 -8.4893999 -74.264473 -0.28736725 -90.178497
9212000000 -1.0642055 122.64368 -8.4984913 -73.484001 -8.4894171 -74.269043 -0.28414544 -90.152405
9212062500 -1.0599223 122.62659 -8.495841 -73.461021 -8.4902477 -74.188927 -0.28897518 -90.076271
9212125000 -1.0613137 122.56413 -8.4982758 -73.484192 -8.4846048 -74.259346 -0.28756058 -90.099579
9212187500 -1.0663086 122.56564 -8.4950247 -73.466148 -8.4837036 -74.241188 -0.27884728 -90.033569
9212250000 -1.0662082 122.53143 -8.4881992 -73.459305 -8.477993 -74.226707 -0.27635735 -90.060081
9212312500 -1.0600525 122.52291 -8.4869642 -73.499229 -8.485754 -74.243553 -0.28419116 -89.99881
