!Agilent Technologies,N5242A,MY51221714,A.09.90.19
!Agilent N5242A: A.09.90.19
!Date: Saturday, December 30, 2023 10:48:06
!Correction: S11(Full 2 Port(1,2)) 
!S21(Full 2 Port(1,2)) 
!S12(Full 2 Port(1,2)) 
!S22(Full 2 Port(1,2)) 
!S2P File: Measurements: S11, S21, S12, S22:
# Hz S  dB   R 50
9200000000 -1.1483101 124.62854 -8.6752176 -74.99646 -8.6594772 -75.746269 -0.32323119 -93.958466
9200062500 -1.1533155 124.59941 -8.6765461 -75.019447 -8.6499748 -75.830284 -0.31746843 -93.918983
9200125000 -1.1459341 124.5578 -8.6665239 -75.032608 -8.6505508 -75.832893 -0.32293925 -93.919304
9200187500 -1.152487 124.56379 -8.679039 -75.055374 -8.6473398 -75.757591 -0.32224339 -93.868317
9200250000 -1.1558865 124.53726 -8.6802521 -75.036209 -8.651475 -75.795975 -0.32173449 -93.873779
9200312500 -1.1513513 124.5029 -8.671176 -75.04467 -8.6510286 -75.792618 -0.32465136 -93.932526
9200375000 -1.1527174 124.50744 -8.6721697 -75.013329 -8.6518879 -75.800529 -0.32015556 -93.868866
9200437500 -1.1541071 124.5039 -8.6837044 -75.057442 -8.662775 -75.846756 -0.32951862 -93.88871
9200500000 -1.1506927 124.48457 -8.6829815 -75.005669 -8.6525412 -75.797165 -0.32575893 -93.862534
9200562500 -1.1514809 124.45177 -8.6725979 -75.057983 -8.6512432 -75.76236 -0.32841063 -93.824471
9200625000 -1.1507952 124.41288 -8.6661892 -75.047226 -8.64639 -75.778694 -0.32081896 -93.787971
9200687500 -1.1490763 124.43053 -8.6670141 -75.053131 -8.6411505 -75.797356 -0.32001278 -93.778877
9200750000 -1.1486473 124.39957 -8.6588383 -75.08194 -8.6358414 -75.850662 -0.31761265 -93.830826
9200812500 -1.149633 124.40688 -8.6711845 -75.063858 -8.6359959 -75.805367 -0.32183391 -93.717796
9200875000 -1.1504604 124.36036 -8.6649857 -75.047859 -8.6387625 -75.805618 -0.31941247 -93.731544
9200937500 -1.1511893 124.36559 -8.66642 -75.005592 -8.6428156 -75.736816 -0.32213029 -93.661377
9201000000 -1.1521391 124.34466 -8.6667442 -75.091103 -8.6465006 -75.791397 -0.33411241 -93.746544
9201062500 -1.1479126 124.4045 -8.6661434 -75.07708 -8.6406908 -75.782799 -0.32418588 -93.717972
9201125000 -1.1529002 124.40045 -8.6733313 -74.980972 -8.6457176 -75.791092 -0.32862318 -93.726845
9201187500 -1.1573119 124.40959 -8.6723671 -75.05275 -8.6528912 -75.772499 -0.33136365 -93.672729
9201250000 -1.1534001 124.39246 -8.6718693 -75.023712 -8.6516504 -75.76355 -0.33489215 -93.65493
9201312500 -1.1517731 124.38142 -8.6688919 -74.968765 -8.6545534 -75.766769 -0.3301571 -93.604019
9201375000 -1.1470048 124.38041 -8.6625614 -74.98597 -8.6534595 -75.754448 -0.33396482 -93.566513
9201437500 -1.1553932 124.32559 -8.6640835 -75.010529 -8.6469336 -75.803421 -0.32679743 -93.584641
9201500000 -1.150985 124.33 -8.6589947 -74.981483 -8.6484833 -75.774132 -0.32746452 -93.525414
9201562500 -1.1556578 124.29469 -8.6556368 -74.99485 -8.637558 -75.814987 -0.32557777 -93.525604
9201625000 -1.1559629 124.27197 -8.6489973 -75.007332 -8.6427946 -75.768967 -0.32150224 -93.489571
9201687500 -1.1547108 124.26077 -8.6534719 -74.992897 -8.6390057 -75.743828 -0.32703993 -93.467163
9201750000 -1.1569179 124.25255 -8.6580248 -74.960747 -8.6358728 -75.771118 -0.32885712 -93.465714
9201812500 -1.1547886 124.24719 -8.651967 -75.003067 -8.6378593 -75.780838 -0.32881063 -93.464378
9201875000 -1.1529704 124.2211 -8.6523046 -74.963638 -8.6355677 -75.778809 -0.33143881 -93.4925
9201937500 -1.1521851 124.20493 -8.6511574 -75.056091 -8.641531 -75.760208 -0.33225223 -93.476006
9202000000 -1.1563649 124.20468 -8.6629038 -74.990189 -8.6393223 -75.739815 -0.33786979 -93.500877
9202062500 -1.1558893 124.19817 -8.6551104 -75.00518 -8.6392984 -75.765129 -0.333103 -93.46788
9202125000 -1.1541883 124.14929 -8.6543989 -75.012627 -8.6371527 -75.74485 -0.3358579 -93.417648
9202187500 -1.1493878 124.18093 -8.6531725 -75.008858 -8.6397419 -75.740829 -0.33679315 -93.396576
9202250000 -1.1545793 124.12637 -8.6540203 -74.973763 -8.6357212 -75.775177 -0.33378127 -93.415833
9202312500 -1.149579 124.13177 -8.6560421 -75.005386 -8.6399698 -75.765518 -0.34223545 -93.354195
9202375000 -1.1495217 124.09045 -8.6456413 -75.008965 -8.6393414 -75.775269 -0.33391845 -93.353706
9202437500 -1.151248 124.06225 -8.6495476 -74.994415 -8.6343346 -75.784019 -0.33546412 -93.345589
9202500000 -1.1531911 124.0901 -8.649744 -74.953026 -8.6380472 -75.765396 -0.34047538 -93.319176
9202562500 -1.1493793 124.02562 -8.652421 -75.009415 -8.6323633 -75.824883 -0.33355001 -93.31163
9202625000 -1.1501232 124.02138 -8.644866 -74.939941 -8.6306229 -75.812897 -0.32963037 -93.286186
9202687500 -1.1507428 124.00639 -8.6498127 -75.006546 -8.6249332 -75.787811 -0.33219898 -93.314407
9202750000 -1.1501573 123.99662 -8.6391001 -74.973106 -8.6291599 -75.797089 -0.33398581 -93.283516
9202812500 -1.1523911 123.99874 -8.6408958 -74.932953 -8.6187944 -75.721237 -0.33181512 -93.22435
9202875000 -1.1558149 123.98885 -8.6513844 -75.007111 -8.6262569 -75.818802 -0.33300355 -93.255188
9202937500 -1.1550535 123.95371 -8.6505356 -74.974022 -8.6233387 -75.820419 -0.33793753 -93.236794
9203000000 -1.1504003 123.95454 -8.6477089 -75.008507 -8.6226025 -75.764526 -0.33644328 -93.228477
9203062500 -1.146699 123.98132 -8.6462145 -74.959511 -8.615798 -75.764038 -0.33716995 -93.144028
9203125000 -1.1448833 123.90675 -8.6390991 -74.986008 -8.6260633 -75.737244 -0.33685741 -93.183128
9203187500 -1.1464198 123.92764 -8.6343918 -74.968643 -8.6294689 -75.728333 -0.3373692 -93.124443
9203250000 -1.1472631 123.9407 -8.6267643 -74.970604 -8.6267185 -75.779137 -0.33339417 -93.126472
9203312500 -1.1539452 123.90152 -8.6320047 -74.980125 -8.6275816 -75.754845 -0.33505097 -93.150925
9203375000 -1.1472845 123.89387 -8.6223812 -75.009819 -8.61728 -75.760918 -0.33020967 -93.062241
9203437500 -1.1512163 123.88809 -8.6173182 -74.954079 -8.6287794 -75.746597 -0.33492377 -93.044121
9203500000 -1.1526691 123.90556 -8.6228943 -74.955917 -8.6227522 -75.736168 -0.33080825 -92.965179
9203562500 -1.1490772 123.87593 -8.6229115 -74.970451 -8.6200733 -75.73027 -0.33229655 -93.035721
9203625000 -1.1515493 123.82018 -8.635602 -75.042931 -8.6260958 -75.747665 -0.33938584 -93.010986
9203687500 -1.1485068 123.83144 -8.6286058 -75.016556 -8.6235962 -75.719345 -0.33855775 -92.980217
9203750000 -1.1561537 123.80655 -8.6297483 -74.988251 -8.62047 -75.730293 -0.34151825 -92.995186
9203812500 -1.1515354 123.80315 -8.6317425 -74.963905 -8.6185751 -75.774872 -0.33922428 -93.022842
9203875000 -1.1481854 123.75776 -8.6335192 -74.932152 -8.6117754 -75.756615 -0.33571965 -92.984589
9203937500 -1.1501849 123.76357 -8.6282358 -74.979782 -8.6180058 -75.714493 -0.3342936 -92.985725
9204000000 -1.1563241 123.75216 -8.6342592 -74.963593 -8.609971 -75.755669 -0.33102921 -92.928246
9204062500 -1.1494917 123.73881 -8.6204195 -74.949631 -8.6075792 -75.731995 -0.3250927 -92.939407
9204125000 -1.1525877 123.71468 -8.6239195 -75.004021 -8.6169329 -75.71283 -0.33412609 -92.906029
9204187500 -1.1549406 123.73459 -8.6250391 -74.922592 -8.6089935 -75.753632 -0.32950196 -92.898384
9204250000 -1.1529939 123.69168 -8.6174774 -74.943291 -8.6086493 -75.730972 -0.32983488 -92.865128
9204312500 -1.1463282 123.66296 -8.615633 -74.95343 -8.6145067 -75.736832 -0.33156985 -92.856102
9204375000 -1.1480621 123.69173 -8.6174822 -74.931854 -8.6064405 -75.722961 -0.33647597 -92.823242
9204437500 -1.1449612 123.63604 -8.6156349 -74.946831 -8.6109982 -75.742516 -0.33768052 -92.834877
9204500000 -1.1450688 123.64307 -8.6130877 -74.907257 -8.6001024 -75.701553 -0.33245739 -92.758591
9204562500 -1.1505432 123.62469 -8.6140909 -74.901604 -8.6030226 -75.721428 -0.33315188 -92.740204
9204625000 -1.1434021 123.60027 -8.612752 -74.833359 -8.6056185 -75.649185 -0.33935297 -92.702835
9204687500 -1.1430589 123.58479 -8.6069889 -74.885765 -8.6061192 -75.701591 -0.34270447 -92.738724
9204750000 -1.1511859 123.60161 -8.6198177 -74.884743 -8.6004276 -75.674194 -0.33968568 -92.73716
9204812500 -1.1475691 123.51438 -8.6194859 -74.946838 -8.600028 -75.685402 -0.33899435 -92.665024
9204875000 -1.1498301 123.52448 -8.6116867 -75.028725 -8.5986309 -75.696068 -0.34155801 -92.673828
9204937500 -1.1559269 123.50021 -8.6224117 -74.956276 -8.6061449 -75.689468 -0.34255055 -92.659164
9205000000 -1.155479 123.46318 -8.6148911 -75.019325 -8.6112185 -75.706245 -0.34450644 -92.640381
9205062500 -1.1587173 123.50104 -8.6194134 -74.978394 -8.5935631 -75.67701 -0.34081858 -92.604073
9205125000 -1.1543925 123.4971 -8.6119881 -74.97171 -8.6035595 -75.762047 -0.33402094 -92.641281
9205187500 -1.1514646 123.47705 -8.6092243 -74.997719 -8.6013823 -75.675018 -0.3322615 -92.590439
9205250000 -1.1481556 123.49964 -8.6076164 -74.945587 -8.604495 -75.77771 -0.33148137 -92.567329
9205312500 -1.1518852 123.46821 -8.6085434 -74.963753 -8.6028728 -75.755356 -0.32896227 -92.550377
9205375000 -1.1486287 123.50147 -8.6048393 -74.930565 -8.6058035 -75.729576 -0.33744684 -92.497246
9205437500 -1.1519628 123.46302 -8.6067324 -74.915962 -8.6026764 -75.715431 -0.33460763 -92.485893
9205500000 -1.1545513 123.43005 -8.6081219 -74.942451 -8.5997028 -75.752678 -0.34493899 -92.481056
9205562500 -1.1530105 123.38731 -8.6055546 -74.845367 -8.6006165 -75.686203 -0.34444788 -92.397728
9205625000 -1.1468885 123.41268 -8.6086912 -74.852119 -8.5895977 -75.655396 -0.33684903 -92.40448
9205687500 -1.1500012 123.34541 -8.6125917 -74.892632 -8.5954647 -75.6698 -0.34885934 -92.363029
9205750000 -1.1510701 123.3166 -8.6139641 -74.873634 -8.5895824 -75.633835 -0.34128353 -92.312447
9205812500 -1.1600559 123.27639 -8.6167402 -74.862938 -8.5938025 -75.660255 -0.34483004 -92.304192
9205875000 -1.1551301 123.30637 -8.6109953 -74.815155 -8.5926399 -75.650764 -0.34986115 -92.30098
9205937500 -1.1601762 123.28963 -8.6083899 -74.841667 -8.5938339 -75.726967 -0.34612375 -92.319122
9206000000 -1.1530393 123.26614 -8.603611 -74.911858 -8.5876284 -75.668793 -0.34701094 -92.297302
9206062500 -1.1562496 123.26451 -8.5979624 -74.898331 -8.5895252 -75.676826 -0.33863282 -92.268867
9206125000 -1.1592721 123.25015 -8.6066723 -74.870209 -8.594574 -75.648392 -0.35432017 -92.250267
9206187500 -1.1574038 123.22149 -8.5996037 -74.91143 -8.5895243 -75.647522 -0.35067919 -92.230415
9206250000 -1.1550756 123.20984 -8.604291 -74.906029 -8.5951385 -75.604256 -0.35419488 -92.209045
9206312500 -1.1532279 123.18084 -8.5960426 -74.96405 -8.5882435 -75.649025 -0.35353658 -92.219803
9206375000 -1.1594635 123.16422 -8.5998793 -74.982094 -8.5937424 -75.669724 -0.35795221 -92.171539
9206437500 -1.149621 123.153 -8.5891743 -74.932198 -8.5841322 -75.683678 -0.34796068 -92.184097
9206500000 -1.1639178 123.12883 -8.5913591 -74.963982 -8.5811768 -75.661407 -0.34598497 -92.166412
9206562500 -1.1550517 123.1289 -8.5935907 -74.922043 -8.5778065 -75.656593 -0.3436929 -92.151306
9206625000 -1.1557556 123.13344 -8.5880003 -74.945236 -8.5796146 -75.697121 -0.34511617 -92.156097
9206687500 -1.1566222 123.12423 -8.6043253 -74.950874 -8.5836153 -75.658318 -0.34379917 -92.145798
9206750000 -1.1572009 123.16337 -8.5887938 -74.93573 -8.5734053 -75.697227 -0.33491313 -92.155022
9206812500 -1.1575339 123.14423 -8.5942144 -74.921661 -8.5811014 -75.62175 -0.34156647 -92.071838
9206875000 -1.1541512 123.12734 -8.592 -74.933029 -8.5789614 -75.630302 -0.3453078 -92.084785
9206937500 -1.1539422 123.10213 -8.5893536 -74.951675 -8.5698891 -75.610252 -0.33804429 -92.020523
9207000000 -1.1571323 123.0723 -8.5870705 -74.929085 -8.5764523 -75.644218 -0.33928555 -92.054138
9207062500 -1.1497741 123.0547 -8.5919561 -74.912979 -8.5682859 -75.63073 -0.3364915 -92.074104
9207125000 -1.1557156 123.03385 -8.5956478 -74.906624 -8.5728817 -75.614388 -0.3409515 -91.966835
9207187500 -1.155093 123.0334 -8.5882215 -74.882294 -8.5751219 -75.679527 -0.34539482 -92.002228
9207250000 -1.1514835 123.01922 -8.5875578 -74.902618 -8.5691051 -75.710335 -0.34248403 -91.998032
9207312500 -1.1558189 122.95724 -8.5848083 -74.944611 -8.5620565 -75.694031 -0.3431313 -91.960777
9207375000 -1.1590062 122.97276 -8.5882912 -74.898994 -8.5738716 -75.637466 -0.35179949 -91.93483
9207437500 -1.1569898 122.88264 -8.5834856 -74.985176 -8.5628777 -75.613258 -0.35129941 -91.920036
9207500000 -1.1532447 122.9329 -8.5836802 -74.893646 -8.5658188 -75.636681 -0.34876868 -91.904533
9207562500 -1.1577104 122.90208 -8.5854998 -74.934029 -8.5694914 -75.624428 -0.34978557 -91.933342
9207625000 -1.1589116 122.85596 -8.5868893 -74.938408 -8.5664272 -75.634903 -0.35202628 -91.930565
9207687500 -1.1602476 122.84186 -8.5776186 -74.954994 -8.5748758 -75.675789 -0.3534708 -91.93998
9207750000 -1.16303 122.86994 -8.5732203 -74.981522 -8.5701866 -75.627373 -0.34562644 -91.874069
9207812500 -1.1650914 122.90909 -8.5836449 -74.91243 -8.5730877 -75.652817 -0.34918779 -91.844849
9207875000 -1.1674174 122.88717 -8.5859728 -74.92733 -8.5707111 -75.667313 -0.3393423 -91.861931
9207937500 -1.1681194 122.86739 -8.5773535 -74.944267 -8.5754385 -75.660011 -0.34103078 -91.856735
9208000000 -1.1629803 122.87081 -8.5749779 -74.926712 -8.5731564 -75.646973 -0.3394779 -91.784492
9208062500 -1.1649153 122.81699 -8.5780602 -74.951126 -8.5756216 -75.661728 -0.34197274 -91.823174
9208125000 -1.1607533 122.81689 -8.5721369 -74.923035 -8.5735989 -75.622368 -0.34469652 -91.761757
9208187500 -1.1586585 122.82054 -8.5609217 -74.882721 -8.5640945 -75.615288 -0.34104663 -91.701553
9208250000 -1.154758 122.79056 -8.5647078 -74.898705 -8.5607452 -75.636078 -0.33975869 -91.664688
9208312500 -1.156656 122.82185 -8.5683298 -74.844353 -8.563427 -75.679016 -0.34405866 -91.671074
9208375000 -1.1559607 122.7852 -8.5673313 -74.824623 -8.5662575 -75.632591 -0.35345563 -91.643791
9208437500 -1.1529542 122.7459 -8.5699711 -74.838867 -8.5655375 -75.676949 -0.35288981 -91.669731
9208500000 -1.1537051 122.74006 -8.5630236 -74.827827 -8.5645647 -75.632751 -0.34827754 -91.647972
9208562500 -1.1558818 122.73933 -8.5711403 -74.814972 -8.566247 -75.654305 -0.34773743 -91.639397
9208625000 -1.1510561 122.7394 -8.5592422 -74.803795 -8.56007 -75.679146 -0.35401046 -91.626274
9208687500 -1.1537381 122.71727 -8.5635223 -74.885025 -8.5597572 -75.670341 -0.34982485 -91.625092
9208750000 -1.1510911 122.69778 -8.5518665 -74.850578 -8.5594864 -75.666489 -0.35181534 -91.651947
9208812500 -1.1569279 122.70693 -8.5711126 -74.790031 -8.5588188 -75.618988 -0.35026854 -91.631371
9208875000 -1.1533996 122.72179 -8.564539 -74.829521 -8.5518665 -75.651939 -0.35364455 -91.585571
9208937500 -1.1549046 122.68616 -8.561121 -74.852905 -8.5494223 -75.582733 -0.35167772 -91.543159
9209000000 -1.1531012 122.68915 -8.5696239 -74.781662 -8.5486612 -75.575493 -0.35117832 -91.511002
9209062500 -1.1481909 122.64247 -8.55653 -74.775055 -8.5487928 -75.600548 -0.35743818 -91.515602
9209125000 -1.1493556 122.62851 -8.5573854 -74.827126 -8.5458403 -75.536842 -0.35420543 -91.455429
9209187500 -1.1537554 122.59207 -8.570796 -74.808807 -8.5435009 -75.611603 -0.35554832 -91.439774
9209250000 -1.1489916 122.5771 -8.5595541 -74.862579 -8.5556927 -75.608086 -0.35965586 -91.491051
9209312500 -1.1491007 122.55315 -8.5659552 -74.866226 -8.5501213 -75.602371 -0.35609373 -91.426117
9209375000 -1.1543192 122.50475 -8.5603008 -74.863319 -8.5479774 -75.600182 -0.35558867 -91.4217
9209437500 -1.1544175 122.52633 -8.5638638 -74.876534 -8.5468073 -75.58374 -0.36077306 -91.401993
9209500000 -1.1467389 122.50464 -8.5555639 -74.834564 -8.5521479 -75.564331 -0.35107189 -91.362869
9209562500 -1.1506552 122.49615 -8.5573807 -74.854767 -8.5554037 -75.657295 -0.35689893 -91.393539
9209625000 -1.1549201 122.46324 -8.5685549 -74.91246 -8.5513735 -75.642029 -0.35617238 -91.369568
9209687500 -1.1534089 122.45247 -8.5486403 -74.889793 -8.5459595 -75.548027 -0.34634823 -91.326599
9209750000 -1.1587039 122.44819 -8.5520258 -74.922569 -8.5503025 -75.631813 -0.34909579 -91.352837
9209812500 -1.155038 122.46047 -8.5563297 -74.876266 -8.5514793 -75.596504 -0.34506822 -91.31601
9209875000 -1.1600217 122.44643 -8.5524225 -74.819679 -8.5552969 -75.630577 -0.34368128 -91.325279
9209937500 -1.1624169 122.42945 -8.5487547 -74.794746 -8.5401306 -75.64814 -0.34581491 -91.310783
9210000000 -1.1652982 122.44658 -8.5590982 -74.85611 -8.5386744 -75.616776 -0.34270447 -91.228699
9210062500 -1.1647722 122.41184 -8.5565653 -74.837219 -8.5453978 -75.595894 -0.35290167 -91.21772
9210125000 -1.1610931 122.43308 -8.5530033 -74.834526 -8.5385418 -75.580994 -0.35342538 -91.205093
9210187500 -1.1631939 122.43472 -8.5553799 -74.800507 -8.5402756 -75.584251 -0.35283431 -91.186501
9210250000 -1.1587167 122.37309 -8.5464745 -74.805786 -8.5376663 -75.63446 -0.355694 -91.205643
9210312500 -1.1613528 122.3721 -8.5444651 -74.8451 -8.5355082 -75.623161 -0.35458618 -91.160088
9210375000 -1.1566199 122.3493 -8.5391445 -74.841873 -8.5451641 -75.617363 -0.36083138 -91.186882
9210437500 -1.1613954 122.33365 -8.5431585 -74.841324 -8.5427532 -75.611084 -0.3593218 -91.183929
9210500000 -1.1611686 122.28794 -8.5429049 -74.84597 -8.5396681 -75.572609 -0.35686973 -91.150215
9210562500 -1.1615552 122.27043 -8.5422649 -74.872047 -8.5447121 -75.606018 -0.35892373 -91.140511
9210625000 -1.1590755 122.20475 -8.5486603 -74.840446 -8.5416727 -75.63826 -0.36194104 -91.161591
9210687500 -1.1593422 122.18441 -8.5366564 -74.836754 -8.5383415 -75.613129 -0.35921079 -91.098076
9210750000 -1.1598256 122.17536 -8.5440331 -74.908745 -8.5306683 -75.557899 -0.35797745 -91.053627
9210812500 -1.1525654 122.15965 -8.5346384 -74.872238 -8.5249519 -75.579308 -0.35656649 -91.040398
9210875000 -1.1553929 122.15427 -8.5265236 -74.802612 -8.5249519 -75.541489 -0.35919958 -90.991447
9210937500 -1.1542051 122.18204 -8.5279608 -74.81694 -8.52777 -75.497131 -0.35451406 -90.957069
9211000000 -1.1582704 122.15266 -8.5306263 -74.903084 -8.5219593 -75.596703 -0.35335281 -90.950912
9211062500 -1.1622647 122.17085 -8.534935 -74.799225 -8.5235777 -75.517143 -0.35885108 -90.874687
9211125000 -1.1618856 122.12209 -8.5373697 -74.871002 -8.5226631 -75.511909 -0.35798115 -90.889992
9211187500 -1.1591619 122.13831 -8.5311356 -74.823189 -8.5173283 -75.553619 -0.36077598 -90.919754
9211250000 -1.1637527 122.11559 -8.5501127 -74.839088 -8.5290136 -75.545372 -0.36534387 -90.910431
9211312500 -1.1536205 122.1001 -8.5299397 -74.874908 -8.5229263 -75.579353 -0.36436921 -90.885193
9211375000 -1.159155 122.10606 -8.5324793 -74.793243 -8.525775 -75.530975 -0.36782709 -90.837898
9211437500 -1.1598809 122.12514 -8.5419493 -74.815018 -8.5238361 -75.583031 -0.36415708 -90.873558
9211500000 -1.1578625 122.1021 -8.5283041 -74.802689 -8.5285368 -75.612328 -0.36451507 -90.882156
9211562500 -1.1576718 122.08897 -8.5285692 -74.792458 -8.5220165 -75.547523 -0.36118841 -90.864159
9211625000 -1.1507092 122.09522 -8.5251637 -74.830635 -8.5278893 -75.537262 -0.35730693 -90.83725
9211687500 -1.1501062 122.10654 -8.5255098 -74.799896 -8.5300999 -75.563263 -0.36138886 -90.861473
9211750000 -1.1539193 122.07603 -8.5183783 -74.800797 -8.5225983 -75.554817 -0.35427213 -90.851006
9211812500 -1.153944 122.02328 -8.521841 -74.856331 -8.5228739 -75.557068 -0.361388 -90.843201
9211875000 -1.1501753 122.02592 -8.5211515 -74.846031 -8.5210619 -75.582291 -0.36061993 -90.792053
9211937500 -1.1498723 121.96922 -8.5233688 -74.826653 -8.5148888 -75.534515 -0.36639464 -90.771446
9212000000 -1.1585391 121.97514 -8.5287437 -74.806862 -8.5174818 -75.532143 -0.36304057 -90.699768
9212062500 -1.1535224 121.93919 -8.5282106 -74.774048 -8.5179844 -75.53363 -0.3587006 -90.704453
9212125000 -1.1517314 121.89983 -8.5203562 -74.784309 -8.5073586 -75.515327 -0.35812044 -90.632858
9212187500 -1.1574236 121.8929 -8.5138807 -74.733612 -8.5108042 -75.528511 -0.35724267 -90.634453
9212250000 -1.1569165 121.86011 -8.5164404 -74.771935 -8.5071869 -75.548485 -0.3582775 -90.635719
9212312500 -1.1568589 121.80164 -8.5167732 -74.800453 -8.5148516 -75.551971 -0.36512655 -90.65567
