!Agilent Technologies,N5242A,MY51221714,A.09.90.19
!Agilent N5242A: A.09.90.19
!Date: Saturday, December 30, 2023 10:37:28
!Correction: S11(Full 2 Port(1,2)) 
!S21(Full 2 Port(1,2)) 
!S12(Full 2 Port(1,2)) 
!S22(Full 2 Port(1,2)) 
!S2P File: Measurements: S11, S21, S12, S22:
# Hz S  dB   R 50
9200000000 -1.0534382 125.67499 -8.6785927 -73.312309 -8.6540785 -74.11895 -0.24418569 -93.139793
9200062500 -1.0513954 125.64883 -8.6718426 -73.380119 -8.650609 -74.08654 -0.23760685 -93.104431
9200125000 -1.049294 125.62789 -8.6746912 -73.336449 -8.6582556 -74.157356 -0.2488995 -93.099899
9200187500 -1.0548532 125.57037 -8.6687422 -73.353806 -8.6598806 -74.141235 -0.24341516 -93.100433
9200250000 -1.05287 125.55292 -8.6677971 -73.366425 -8.6497192 -74.120216 -0.2431003 -93.059418
9200312500 -1.0600576 125.5674 -8.6766596 -73.330704 -8.6556082 -74.104675 -0.24301349 -93.039337
9200375000 -1.0557747 125.51732 -8.6762419 -73.371765 -8.6533279 -74.11747 -0.2436679 -93.028427
9200437500 -1.0591567 125.52485 -8.691556 -73.379715 -8.6531096 -74.094437 -0.24519111 -93.026062
9200500000 -1.0546663 125.52675 -8.67834 -73.317604 -8.6496124 -74.101181 -0.24555898 -93.037369
9200562500 -1.0479957 125.51645 -8.6739321 -73.321777 -8.6532488 -74.055939 -0.25159141 -92.984474
9200625000 -1.0554614 125.47425 -8.6743984 -73.341866 -8.6493883 -74.13575 -0.23991892 -93.006195
9200687500 -1.0523692 125.44358 -8.6715508 -73.391724 -8.6376934 -74.100815 -0.23936881 -92.948288
9200750000 -1.049632 125.41095 -8.6687326 -73.388039 -8.6416569 -74.089668 -0.23978999 -92.949219
9200812500 -1.0507199 125.42785 -8.6662264 -73.2957 -8.6343603 -74.119431 -0.23987466 -92.923042
9200875000 -1.0530633 125.40699 -8.6601925 -73.376091 -8.6299381 -74.097755 -0.23339424 -92.88517
9200937500 -1.0543047 125.41826 -8.6741114 -73.384048 -8.639389 -74.091728 -0.24118894 -92.941505
9201000000 -1.044933 125.40452 -8.667347 -73.358879 -8.6396303 -74.105331 -0.24273007 -92.91951
9201062500 -1.0490692 125.42136 -8.6703749 -73.349838 -8.6541986 -74.135086 -0.24708056 -92.912743
9201125000 -1.0484611 125.422 -8.6640368 -73.323799 -8.6470852 -74.076439 -0.25028774 -92.856224
9201187500 -1.0513202 125.44655 -8.6683359 -73.324997 -8.6492929 -74.038689 -0.25048727 -92.85376
9201250000 -1.0550612 125.39729 -8.6664085 -73.352539 -8.6517429 -74.040703 -0.2568081 -92.846123
9201312500 -1.0551174 125.41931 -8.6655731 -73.323082 -8.6495924 -74.068718 -0.25088897 -92.805634
9201375000 -1.0528288 125.39879 -8.6650286 -73.285721 -8.6450996 -74.06913 -0.2531167 -92.775955
9201437500 -1.0557475 125.37433 -8.6620865 -73.303459 -8.6450014 -74.056656 -0.24517491 -92.755844
9201500000 -1.0558023 125.35289 -8.6583843 -73.342369 -8.6393814 -74.081436 -0.24854 -92.69828
9201562500 -1.0594301 125.32743 -8.6546955 -73.311211 -8.6399755 -74.083641 -0.24503396 -92.689537
9201625000 -1.0547832 125.31013 -8.6465864 -73.269524 -8.6423922 -74.075706 -0.24432229 -92.666679
9201687500 -1.0606799 125.33096 -8.6598654 -73.212296 -8.6350212 -74.091873 -0.24851443 -92.620255
9201750000 -1.0560832 125.31896 -8.653019 -73.261543 -8.6289339 -74.098846 -0.24105307 -92.679779
9201812500 -1.0558498 125.2899 -8.6533766 -73.282196 -8.6382103 -74.059601 -0.24551304 -92.640305
9201875000 -1.0534776 125.28243 -8.6492891 -73.293274 -8.6368208 -74.120041 -0.25247762 -92.671379
9201937500 -1.0520027 125.2871 -8.6517811 -73.255562 -8.6409521 -74.053337 -0.25456136 -92.674637
9202000000 -1.0536636 125.25233 -8.6544952 -73.296646 -8.6320152 -74.053772 -0.25340942 -92.634445
9202062500 -1.0531623 125.25299 -8.6505709 -73.32618 -8.6319027 -74.130943 -0.25427613 -92.65538
9202125000 -1.0488175 125.17771 -8.6469774 -73.342117 -8.6390142 -74.079369 -0.25534746 -92.626282
9202187500 -1.0519224 125.17194 -8.6541109 -73.324181 -8.6340027 -74.034012 -0.25372523 -92.605766
9202250000 -1.0489142 125.1639 -8.6422491 -73.306 -8.6360912 -74.057007 -0.2529068 -92.561287
9202312500 -1.0510848 125.15409 -8.6407719 -73.330879 -8.6299105 -74.08741 -0.24884719 -92.589874
9202375000 -1.0499889 125.11856 -8.6411219 -73.309143 -8.6366663 -74.08474 -0.25385183 -92.529129
9202437500 -1.0490597 125.09377 -8.6448851 -73.32267 -8.6305122 -74.100533 -0.25269738 -92.526321
9202500000 -1.0515602 125.07655 -8.6564703 -73.326187 -8.6310377 -74.084686 -0.24968609 -92.516106
9202562500 -1.052709 125.089 -8.6493883 -73.361092 -8.6279697 -74.072289 -0.24635251 -92.484421
9202625000 -1.0469018 125.08392 -8.6338253 -73.26004 -8.634882 -74.105766 -0.24835174 -92.479988
9202687500 -1.0508749 125.05217 -8.639926 -73.296196 -8.6322289 -74.064041 -0.25493124 -92.445763
9202750000 -1.0522101 125.05317 -8.6437998 -73.280273 -8.6290569 -74.084389 -0.25673136 -92.445267
9202812500 -1.0539755 125.05059 -8.6422014 -73.230377 -8.6258221 -74.097473 -0.25514472 -92.4104
9202875000 -1.05573 124.98738 -8.651351 -73.290482 -8.6223469 -74.036209 -0.25693753 -92.407524
9202937500 -1.0478965 124.98885 -8.6389542 -73.274864 -8.622077 -74.117874 -0.2542133 -92.420044
9203000000 -1.0501645 125.00808 -8.6450663 -73.248169 -8.6184053 -74.067909 -0.25617406 -92.388229
9203062500 -1.0532626 124.97637 -8.6459045 -73.319473 -8.6177549 -74.094284 -0.25519782 -92.387672
9203125000 -1.0455703 124.97855 -8.6384907 -73.27092 -8.6196995 -74.053398 -0.25451198 -92.352661
9203187500 -1.0473398 124.96374 -8.6325464 -73.228279 -8.6225128 -74.014671 -0.25598818 -92.265945
9203250000 -1.0486701 124.96239 -8.623312 -73.242409 -8.625494 -74.039101 -0.24882917 -92.264557
9203312500 -1.047099 124.95506 -8.6196804 -73.253654 -8.6214485 -74.052422 -0.25006709 -92.251122
9203375000 -1.0427209 124.94563 -8.6126623 -73.278908 -8.622056 -73.987617 -0.24393663 -92.225708
9203437500 -1.0492262 124.93042 -8.612072 -73.272484 -8.6289082 -74.041016 -0.25159255 -92.203781
9203500000 -1.0485076 124.94233 -8.6178646 -73.321098 -8.6187677 -74.030449 -0.24715397 -92.182899
9203562500 -1.0514231 124.86958 -8.6268635 -73.272209 -8.6285086 -74.015732 -0.25792816 -92.165108
9203625000 -1.0505444 124.89254 -8.6304836 -73.273994 -8.6199446 -74.050354 -0.25559664 -92.187996
9203687500 -1.0478156 124.83021 -8.6235695 -73.368614 -8.6136255 -74.006798 -0.24933644 -92.164009
9203750000 -1.0553914 124.83688 -8.6290007 -73.306053 -8.6246119 -74.075035 -0.26049542 -92.141731
9203812500 -1.0524796 124.79567 -8.6288137 -73.320007 -8.604517 -74.047356 -0.25149903 -92.159393
9203875000 -1.0535648 124.80721 -8.6312838 -73.266983 -8.6136961 -74.086357 -0.26018459 -92.16172
9203937500 -1.050316 124.81896 -8.6327267 -73.187286 -8.618515 -74.027077 -0.25253543 -92.113731
9204000000 -1.0527683 124.77512 -8.6276274 -73.274452 -8.6067905 -74.040833 -0.245194 -92.133018
9204062500 -1.053501 124.78638 -8.6216688 -73.265251 -8.6094666 -74.071571 -0.24119294 -92.111748
9204125000 -1.0535207 124.74467 -8.6219196 -73.262505 -8.60534 -74.100754 -0.24681716 -92.104736
9204187500 -1.0507181 124.7145 -8.6163235 -73.301323 -8.6144171 -74.009109 -0.25262585 -92.025574
9204250000 -1.048928 124.73126 -8.615036 -73.236351 -8.613884 -74.029137 -0.2468455 -92.046814
9204312500 -1.0456494 124.72179 -8.6188192 -73.308899 -8.6108198 -74.024811 -0.25074762 -92.015312
9204375000 -1.04345 124.71513 -8.6192207 -73.246178 -8.611948 -74.00119 -0.25200564 -91.975204
9204437500 -1.0459621 124.70277 -8.6133757 -73.215858 -8.6037159 -73.989906 -0.25100535 -91.957886
9204500000 -1.0458016 124.6582 -8.6079922 -73.20459 -8.6087532 -74.00029 -0.25742903 -91.938454
9204562500 -1.0420221 124.6862 -8.6112518 -73.20845 -8.6043987 -73.999672 -0.25265768 -91.919159
9204625000 -1.044495 124.6524 -8.6105719 -73.174782 -8.5973883 -73.984993 -0.25414777 -91.894981
9204687500 -1.0439452 124.61373 -8.6109314 -73.223717 -8.6058817 -73.989311 -0.25561124 -91.884361
9204750000 -1.0506041 124.56804 -8.6143045 -73.222725 -8.5942411 -73.972656 -0.25296125 -91.879135
9204812500 -1.0545598 124.57529 -8.6187725 -73.248634 -8.5995235 -74.002174 -0.25703007 -91.869286
9204875000 -1.051129 124.58949 -8.6159382 -73.222214 -8.59622 -73.992149 -0.25456887 -91.852219
9204937500 -1.0527372 124.56445 -8.6203661 -73.293663 -8.5986595 -74.036369 -0.25983346 -91.859947
9205000000 -1.06108 124.53898 -8.6193113 -73.344193 -8.5997458 -74.017632 -0.26033849 -91.841507
9205062500 -1.0530052 124.53204 -8.6117687 -73.295151 -8.6012878 -74.00766 -0.25672996 -91.847969
9205125000 -1.0523695 124.53136 -8.6110992 -73.264191 -8.5991192 -74.027603 -0.24792483 -91.803627
9205187500 -1.0502813 124.5031 -8.5994577 -73.244125 -8.6022444 -73.978607 -0.2516354 -91.716347
9205250000 -1.054329 124.54335 -8.609128 -73.223434 -8.6034193 -74.023216 -0.24982035 -91.744926
9205312500 -1.0464424 124.52455 -8.5984001 -73.240837 -8.607234 -74.00914 -0.24892184 -91.679008
9205375000 -1.0509187 124.51843 -8.6070442 -73.181595 -8.5967207 -74.039932 -0.24347013 -91.668495
9205437500 -1.0505375 124.49821 -8.6029539 -73.218086 -8.5997086 -74.031898 -0.24970807 -91.641884
9205500000 -1.0515009 124.49918 -8.6081028 -73.136986 -8.6043882 -74.005638 -0.25563991 -91.625778
9205562500 -1.0473605 124.44128 -8.6036577 -73.134254 -8.5989342 -73.986809 -0.25535092 -91.606682
9205625000 -1.0483406 124.43232 -8.6119223 -73.152969 -8.5932455 -73.974304 -0.26317063 -91.575333
9205687500 -1.0549786 124.37384 -8.6118641 -73.211029 -8.5963936 -73.979317 -0.26528743 -91.562126
9205750000 -1.0505512 124.3141 -8.6128407 -73.207703 -8.5993996 -73.931725 -0.27085739 -91.514778
9205812500 -1.0525552 124.32794 -8.6083622 -73.182159 -8.5865879 -73.953156 -0.26293138 -91.528435
9205875000 -1.0544533 124.33712 -8.6079836 -73.228348 -8.5936394 -73.962128 -0.26431903 -91.516609
9205937500 -1.0551986 124.34634 -8.6048708 -73.200439 -8.5917702 -73.955673 -0.26531208 -91.492218
9206000000 -1.0587589 124.29584 -8.611784 -73.181038 -8.5891666 -73.955551 -0.26057589 -91.504646
9206062500 -1.055227 124.32249 -8.602437 -73.133316 -8.5893021 -73.971222 -0.26373804 -91.479057
9206125000 -1.0558655 124.28942 -8.6052456 -73.256294 -8.594883 -73.976433 -0.26796439 -91.433792
9206187500 -1.0526855 124.26245 -8.5959435 -73.210823 -8.5904064 -73.900513 -0.26894346 -91.372955
9206250000 -1.0549091 124.27919 -8.5967417 -73.150887 -8.5828743 -73.958153 -0.26325411 -91.379791
9206312500 -1.0491561 124.25122 -8.5916967 -73.227783 -8.5897131 -73.919258 -0.27098703 -91.38549
9206375000 -1.0537338 124.19284 -8.5950413 -73.229485 -8.5840826 -73.93325 -0.26456928 -91.329056
9206437500 -1.0494043 124.18638 -8.5956812 -73.163635 -8.5802956 -73.89682 -0.26262534 -91.351425
9206500000 -1.0496601 124.14252 -8.5962029 -73.229492 -8.5881958 -73.919228 -0.26377201 -91.293289
9206562500 -1.0555035 124.1608 -8.595911 -73.202248 -8.5850782 -73.916092 -0.26120973 -91.296646
9206625000 -1.0551454 124.18616 -8.5966854 -73.223923 -8.5842905 -73.932152 -0.26859254 -91.305901
9206687500 -1.0518939 124.2124 -8.5853844 -73.171333 -8.5843792 -73.920593 -0.25712875 -91.311012
9206750000 -1.051653 124.18875 -8.5879765 -73.271446 -8.5793781 -73.913239 -0.25669861 -91.292961
9206812500 -1.0507644 124.17039 -8.5886326 -73.304932 -8.5756264 -73.916405 -0.26071724 -91.298332
9206875000 -1.0492477 124.18301 -8.5899467 -73.250778 -8.5799599 -73.941971 -0.25297421 -91.26223
9206937500 -1.0502142 124.16274 -8.5848532 -73.195045 -8.5735531 -73.918503 -0.25513607 -91.244148
9207000000 -1.0500883 124.14067 -8.5874605 -73.205101 -8.570425 -73.965515 -0.25975451 -91.276756
9207062500 -1.0476164 124.11693 -8.5923901 -73.194794 -8.574585 -73.979485 -0.25555587 -91.21611
9207125000 -1.0540755 124.09764 -8.5886431 -73.220299 -8.5706348 -73.963882 -0.25682336 -91.206703
9207187500 -1.0475669 124.06004 -8.5868378 -73.235001 -8.5730457 -73.958817 -0.2640115 -91.195251
9207250000 -1.0487285 124.03619 -8.5855598 -73.193733 -8.5719261 -73.937904 -0.26343083 -91.151917
9207312500 -1.04756 124.02712 -8.5837593 -73.156898 -8.5712986 -73.944473 -0.26293814 -91.171547
9207375000 -1.0518754 124.02003 -8.5822124 -73.19397 -8.5667973 -73.915642 -0.2668843 -91.113312
9207437500 -1.0491523 123.98849 -8.5784941 -73.193077 -8.5713596 -73.952156 -0.26648512 -91.088852
9207500000 -1.0542908 123.97438 -8.5890303 -73.186653 -8.5698309 -73.898567 -0.26748142 -91.090004
9207562500 -1.0485744 123.92839 -8.5722628 -73.173103 -8.5769129 -73.968948 -0.26770049 -91.137611
9207625000 -1.0518562 123.88374 -8.5772619 -73.238152 -8.5725317 -73.899101 -0.26773101 -91.046867
9207687500 -1.0539024 123.90537 -8.5843611 -73.184982 -8.5734682 -73.916435 -0.2664887 -91.112015
9207750000 -1.0597795 123.9054 -8.577424 -73.192116 -8.5677309 -73.965668 -0.25945196 -91.018326
9207812500 -1.0574665 123.92216 -8.575983 -73.218773 -8.5750704 -73.984543 -0.2662833 -91.053627
9207875000 -1.0615544 123.9116 -8.5742149 -73.193596 -8.5729284 -73.935036 -0.26172781 -91.008698
9207937500 -1.0619873 123.92461 -8.5774784 -73.163162 -8.5712471 -73.954338 -0.25167188 -91.031204
9208000000 -1.0626131 123.90831 -8.5823231 -73.237061 -8.5720091 -73.945709 -0.25909787 -90.997864
9208062500 -1.0549968 123.90705 -8.5759153 -73.178513 -8.5699539 -73.956459 -0.25743142 -90.943047
9208125000 -1.0567095 123.86012 -8.5700064 -73.217758 -8.5666609 -73.906525 -0.25895736 -90.93689
9208187500 -1.0518041 123.84341 -8.571847 -73.201416 -8.5692034 -73.900391 -0.26381889 -90.913185
9208250000 -1.05094 123.86309 -8.5609865 -73.189682 -8.5612478 -73.908203 -0.26187825 -90.883369
9208312500 -1.0537626 123.82272 -8.56639 -73.159843 -8.565136 -73.914017 -0.26152429 -90.824661
9208375000 -1.058732 123.84002 -8.5703106 -73.119324 -8.5697231 -73.926857 -0.27018946 -90.801323
9208437500 -1.0529832 123.83777 -8.5679026 -73.129494 -8.5622435 -73.996391 -0.26453397 -90.824081
9208500000 -1.0540076 123.77426 -8.5596056 -73.173683 -8.5576782 -73.91465 -0.26140866 -90.794434
9208562500 -1.0544548 123.7935 -8.5640745 -73.129761 -8.5649672 -73.936966 -0.26958552 -90.759354
9208625000 -1.05363 123.7907 -8.559701 -73.13401 -8.5638676 -73.886971 -0.2686975 -90.791061
9208687500 -1.0517694 123.72609 -8.5628557 -73.124344 -8.5586586 -73.922592 -0.26267055 -90.809853
9208750000 -1.0466422 123.76174 -8.560813 -73.091995 -8.5685511 -73.915314 -0.27111447 -90.775009
9208812500 -1.0474559 123.75154 -8.5584621 -73.084724 -8.560463 -73.913528 -0.27399248 -90.74585
9208875000 -1.0519484 123.72445 -8.56007 -73.085251 -8.5519867 -73.868484 -0.26607716 -90.728767
9208937500 -1.0468178 123.72049 -8.5639067 -73.127708 -8.5536003 -73.92128 -0.26467913 -90.723175
9209000000 -1.0517982 123.70312 -8.5687237 -73.144196 -8.5549898 -73.87294 -0.26738206 -90.682716
9209062500 -1.0428009 123.71198 -8.5625687 -73.08567 -8.5525799 -73.8778 -0.2715809 -90.653725
9209125000 -1.0459638 123.62759 -8.5639277 -73.132011 -8.5514479 -73.875069 -0.27665037 -90.670174
9209187500 -1.0500015 123.65656 -8.5559826 -73.120697 -8.5508747 -73.846214 -0.26699424 -90.619614
9209250000 -1.0484248 123.63017 -8.5683689 -73.083702 -8.547039 -73.843437 -0.26614878 -90.59285
9209312500 -1.0535764 123.5904 -8.5630045 -73.148598 -8.5545588 -73.859673 -0.27192783 -90.599464
9209375000 -1.0469985 123.58707 -8.5587091 -73.115578 -8.563714 -73.841255 -0.28189752 -90.561623
9209437500 -1.043203 123.58651 -8.5554285 -73.094551 -8.5451984 -73.836334 -0.26796722 -90.575264
9209500000 -1.0453376 123.56871 -8.5704851 -73.091812 -8.5615911 -73.834763 -0.27700081 -90.552315
9209562500 -1.0475864 123.52512 -8.5497465 -73.132401 -8.5537233 -73.854561 -0.27256522 -90.552094
9209625000 -1.0555727 123.5158 -8.5556784 -73.171532 -8.5504808 -73.899979 -0.27159506 -90.535011
9209687500 -1.0556325 123.49135 -8.5607386 -73.147514 -8.5535126 -73.861015 -0.27138701 -90.487
9209750000 -1.0524074 123.49612 -8.5434246 -73.163696 -8.5523148 -73.876991 -0.2641615 -90.526894
9209812500 -1.0562631 123.48531 -8.5542097 -73.155968 -8.5561781 -73.890846 -0.2670137 -90.501373
9209875000 -1.0583905 123.48254 -8.5590162 -73.148521 -8.5534754 -73.930176 -0.26470059 -90.470657
9209937500 -1.0572704 123.43433 -8.5543547 -73.131523 -8.5445194 -73.880417 -0.26311475 -90.463486
9210000000 -1.0517116 123.46243 -8.5498447 -73.153854 -8.545228 -73.865173 -0.2674388 -90.454414
9210062500 -1.0507435 123.44458 -8.5502148 -73.111816 -8.537756 -73.886406 -0.26296395 -90.420395
9210125000 -1.0537771 123.42934 -8.5580311 -73.177055 -8.5436354 -73.85997 -0.26819178 -90.374985
9210187500 -1.0577271 123.42867 -8.5518198 -73.054924 -8.5353117 -73.856438 -0.26609811 -90.339088
9210250000 -1.0504296 123.44247 -8.5473204 -73.065132 -8.5269785 -73.848869 -0.26049185 -90.333237
9210312500 -1.0572624 123.40204 -8.5552816 -73.150665 -8.5374126 -73.8563 -0.26728845 -90.36396
9210375000 -1.0515336 123.3886 -8.55089 -73.125732 -8.5481596 -73.865646 -0.27130213 -90.320427
9210437500 -1.0566441 123.38652 -8.5536079 -73.080269 -8.5388832 -73.882919 -0.27734372 -90.320038
9210500000 -1.0570657 123.3584 -8.5472403 -73.105476 -8.5378046 -73.882866 -0.27752388 -90.299797
9210562500 -1.0538123 123.2897 -8.5368948 -73.147125 -8.5389252 -73.856743 -0.27200979 -90.279518
9210625000 -1.0511228 123.25316 -8.5444241 -73.106285 -8.5365849 -73.908173 -0.27843803 -90.307693
9210687500 -1.0509239 123.2121 -8.5356436 -73.1082 -8.5338545 -73.838821 -0.27194837 -90.227806
9210750000 -1.0556109 123.22794 -8.5410748 -73.123856 -8.5329056 -73.826424 -0.26948994 -90.216728
9210812500 -1.0486935 123.20417 -8.5305519 -73.154625 -8.5331411 -73.830849 -0.27089277 -90.206596
9210875000 -1.0489395 123.20002 -8.5266876 -73.095596 -8.5256157 -73.763138 -0.27052176 -90.133789
9210937500 -1.0570077 123.18606 -8.5393991 -73.11113 -8.5306435 -73.776451 -0.27219003 -90.102631
9211000000 -1.0534784 123.16316 -8.5299215 -73.115898 -8.5251894 -73.808846 -0.27083269 -90.104805
9211062500 -1.0524316 123.18946 -8.5312786 -73.117622 -8.5293951 -73.844757 -0.27314049 -90.106262
9211125000 -1.0539515 123.15831 -8.5331392 -73.12838 -8.5188332 -73.733398 -0.27439389 -90.045479
9211187500 -1.0538241 123.1811 -8.5361223 -73.132332 -8.5307112 -73.834534 -0.28159189 -90.077179
9211250000 -1.0548948 123.15215 -8.5350952 -73.082291 -8.5231743 -73.78714 -0.28100458 -89.997887
9211312500 -1.0572511 123.16615 -8.5398998 -73.049171 -8.5269403 -73.814674 -0.28433916 -90.023407
9211375000 -1.0536406 123.13844 -8.5347166 -73.090683 -8.5314102 -73.770271 -0.28257713 -89.985855
9211437500 -1.0490218 123.15872 -8.5347071 -73.055336 -8.5258379 -73.818024 -0.28403673 -90.016815
9211500000 -1.0511553 123.12926 -8.5328274 -73.063744 -8.5220375 -73.785751 -0.27403265 -89.991959
9211562500 -1.0488782 123.12432 -8.5314245 -73.130302 -8.5212746 -73.851883 -0.27253297 -90.070038
9211625000 -1.047497 123.11941 -8.5273886 -73.069298 -8.5303421 -73.789474 -0.27850243 -90.018684
9211687500 -1.0466611 123.10213 -8.5289516 -73.133072 -8.5220671 -73.804749 -0.27136511 -90.050858
9211750000 -1.0416948 123.11983 -8.5230341 -73.058975 -8.5250044 -73.79705 -0.27164248 -90.021347
9211812500 -1.0434811 123.09406 -8.5154591 -73.039398 -8.5262804 -73.771011 -0.27577344 -89.968323
9211875000 -1.0471172 123.06174 -8.5224848 -73.048805 -8.5262861 -73.839584 -0.2779943 -89.987854
9211937500 -1.0482651 123.02803 -8.5286999 -73.094604 -8.5167084 -73.815926 -0.27346617 -89.945259
9212000000 -1.0472637 123.01869 -8.5338545 -73.065811 -8.5233812 -73.79422 -0.28624544 -89.872398
9212062500 -1.0509696 122.98438 -8.5296621 -73.048393 -8.5183268 -73.785248 -0.27721515 -89.859276
9212125000 -1.0473191 122.96604 -8.5286188 -73.036636 -8.5109663 -73.819664 -0.27634376 -89.832642
9212187500 -1.0507734 122.91527 -8.5294504 -73.083397 -8.5105267 -73.827492 -0.27614576 -89.80426
9212250000 -1.0507632 122.90478 -8.5189419 -73.044716 -8.5146217 -73.827881 -0.27549836 -89.799767
9212312500 -1.0524127 122.8576 -8.5193052 -73.087639 -8.5092573 -73.830048 -0.27358788 -89.767731
