!Agilent Technologies,N5242A,MY51221714,A.09.90.19
!Agilent N5242A: A.09.90.19
!Date: Saturday, December 30, 2023 10:41:54
!Correction: S11(Full 2 Port(1,2)) 
!S21(Full 2 Port(1,2)) 
!S12(Full 2 Port(1,2)) 
!S22(Full 2 Port(1,2)) 
!S2P File: Measurements: S11, S21, S12, S22:
# Hz S  dB   R 50
9200000000 -1.0609498 125.38463 -8.6993561 -73.534515 -8.6798086 -74.351021 -0.2277943 -93.234749
9200062500 -1.0596657 125.3512 -8.6967325 -73.53717 -8.6757011 -74.280983 -0.22874875 -93.139786
9200125000 -1.0641119 125.36646 -8.7030468 -73.509933 -8.677597 -74.348068 -0.23210871 -93.135849
9200187500 -1.0637325 125.29909 -8.7026987 -73.538818 -8.6833878 -74.31337 -0.23408893 -93.128906
9200250000 -1.064814 125.32114 -8.707653 -73.490791 -8.6835957 -74.268867 -0.23220159 -93.088326
9200312500 -1.0654658 125.25966 -8.7096777 -73.547928 -8.6824694 -74.268898 -0.23294394 -93.086052
9200375000 -1.0698818 125.25761 -8.7045326 -73.491219 -8.6863918 -74.291496 -0.2337738 -93.084412
9200437500 -1.0669279 125.25115 -8.7005606 -73.565468 -8.6778488 -74.33522 -0.23651402 -93.080231
9200500000 -1.0652021 125.20599 -8.7096567 -73.556122 -8.6790161 -74.272301 -0.2383296 -93.045517
9200562500 -1.0613227 125.21737 -8.6948729 -73.551163 -8.6651745 -74.286125 -0.22586 -93.062126
9200625000 -1.0624989 125.21858 -8.6972399 -73.494461 -8.6774502 -74.27034 -0.23231442 -93.015205
9200687500 -1.0645722 125.1785 -8.6950922 -73.546715 -8.6670847 -74.267334 -0.22545131 -93.017517
9200750000 -1.0577747 125.15108 -8.6879196 -73.504517 -8.668972 -74.240402 -0.22538845 -92.955437
9200812500 -1.0614429 125.12502 -8.6966019 -73.534348 -8.6785631 -74.290726 -0.22842032 -92.980247
9200875000 -1.0604537 125.12395 -8.6881208 -73.536888 -8.6676884 -74.27739 -0.2309071 -92.932747
9200937500 -1.0639118 125.11697 -8.6935539 -73.495377 -8.6651182 -74.226288 -0.23413825 -92.888084
9201000000 -1.0623484 125.14526 -8.7061319 -73.505196 -8.6661987 -74.26828 -0.23249009 -92.913536
9201062500 -1.0568265 125.14442 -8.6888189 -73.543762 -8.6803455 -74.243744 -0.24183434 -92.916573
9201125000 -1.0602429 125.14177 -8.6973763 -73.606155 -8.6812553 -74.254158 -0.24356453 -92.91114
9201187500 -1.0626485 125.14787 -8.7040348 -73.455383 -8.6712151 -74.280518 -0.23615079 -92.921623
9201250000 -1.0623816 125.14599 -8.7018957 -73.527016 -8.6716595 -74.210052 -0.23715812 -92.871193
9201312500 -1.0662605 125.1249 -8.6934071 -73.550827 -8.6831636 -74.232056 -0.2441473 -92.849617
9201375000 -1.0663482 125.13133 -8.6907892 -73.444557 -8.6691217 -74.235352 -0.23471284 -92.784637
9201437500 -1.0661963 125.08731 -8.6879892 -73.443771 -8.6703224 -74.259148 -0.23278311 -92.757294
9201500000 -1.0678649 125.05058 -8.6819954 -73.480965 -8.6662989 -74.2733 -0.23716635 -92.750793
9201562500 -1.0667051 125.05559 -8.6801233 -73.421234 -8.66154 -74.289207 -0.22773147 -92.719887
9201625000 -1.0675302 125.0373 -8.6746788 -73.44915 -8.6606178 -74.265831 -0.22912785 -92.718391
9201687500 -1.0650575 125.07027 -8.6807566 -73.391617 -8.6610165 -74.326736 -0.23348802 -92.694748
9201750000 -1.0618111 125.01403 -8.678896 -73.447098 -8.657052 -74.299896 -0.23209402 -92.668686
9201812500 -1.0662608 125.01871 -8.6801128 -73.465965 -8.6621914 -74.237495 -0.23785052 -92.68264
9201875000 -1.0652323 124.98553 -8.6872692 -73.525566 -8.6651173 -74.245163 -0.23917532 -92.655586
9201937500 -1.0656855 124.98502 -8.6814194 -73.417038 -8.6692448 -74.18441 -0.24314012 -92.650314
9202000000 -1.0667015 124.97058 -8.6842623 -73.472 -8.6619215 -74.222595 -0.24363175 -92.656502
9202062500 -1.0662072 124.96899 -8.6882668 -73.454193 -8.6629467 -74.202896 -0.23966481 -92.652039
9202125000 -1.0631303 124.9059 -8.6894464 -73.553802 -8.665535 -74.278419 -0.24051836 -92.674026
9202187500 -1.0600159 124.91695 -8.6757326 -73.514648 -8.6689081 -74.224884 -0.24586502 -92.641281
9202250000 -1.0649304 124.88493 -8.6787329 -73.495888 -8.6673489 -74.235268 -0.24159341 -92.609856
9202312500 -1.0625316 124.87587 -8.6844454 -73.498611 -8.6675873 -74.257309 -0.24418367 -92.589073
9202375000 -1.063783 124.84814 -8.6759596 -73.474052 -8.6670933 -74.278496 -0.24486691 -92.541138
9202437500 -1.0627536 124.8163 -8.6758919 -73.531998 -8.6579256 -74.247147 -0.24118067 -92.548882
9202500000 -1.0650426 124.84454 -8.6768932 -73.42067 -8.6634531 -74.236061 -0.24678974 -92.553406
9202562500 -1.0637079 124.78927 -8.6752405 -73.512978 -8.6558266 -74.313248 -0.23633686 -92.527122
9202625000 -1.0611291 124.80127 -8.6756897 -73.478447 -8.6566887 -74.281197 -0.24325593 -92.523293
9202687500 -1.0650029 124.80235 -8.6812534 -73.459648 -8.6596146 -74.297249 -0.24797198 -92.462158
9202750000 -1.0624487 124.79164 -8.6739368 -73.431046 -8.6590195 -74.280716 -0.23984639 -92.481628
9202812500 -1.0650982 124.75492 -8.6693068 -73.473625 -8.6486683 -74.237679 -0.24535334 -92.463943
9202875000 -1.0622941 124.72876 -8.6762753 -73.429718 -8.647893 -74.273605 -0.23560835 -92.454216
9202937500 -1.0630786 124.72729 -8.6688328 -73.417175 -8.6508741 -74.217918 -0.24065819 -92.43383
9203000000 -1.0569159 124.71394 -8.6655359 -73.404213 -8.6484547 -74.280434 -0.24830933 -92.461853
9203062500 -1.0532752 124.72233 -8.6629953 -73.468933 -8.644434 -74.219635 -0.23497629 -92.445518
9203125000 -1.0544355 124.68021 -8.6664124 -73.474945 -8.6427488 -74.210205 -0.24101637 -92.360855
9203187500 -1.0566431 124.66199 -8.6615992 -73.45887 -8.636775 -74.246941 -0.23576525 -92.342979
9203250000 -1.0571042 124.66119 -8.663229 -73.452156 -8.6469097 -74.28138 -0.23966248 -92.317993
9203312500 -1.0597923 124.66295 -8.6568127 -73.437263 -8.6498203 -74.249741 -0.23873803 -92.307526
9203375000 -1.0592766 124.66286 -8.6546431 -73.460045 -8.6535254 -74.23101 -0.24061701 -92.272408
9203437500 -1.058352 124.63531 -8.6527252 -73.464134 -8.64781 -74.254372 -0.23581967 -92.258957
9203500000 -1.0587342 124.64539 -8.6455221 -73.468102 -8.649148 -74.230736 -0.23402174 -92.194626
9203562500 -1.0594664 124.61298 -8.6434631 -73.445694 -8.6412125 -74.242516 -0.23729853 -92.218475
9203625000 -1.0605943 124.58821 -8.6456184 -73.459419 -8.6439714 -74.189362 -0.23992832 -92.219727
9203687500 -1.0626683 124.5798 -8.6537952 -73.457054 -8.641923 -74.185463 -0.24419458 -92.186562
9203750000 -1.063022 124.55816 -8.6644878 -73.406364 -8.6505089 -74.181107 -0.24717362 -92.162987
9203812500 -1.0653787 124.53791 -8.6654997 -73.462158 -8.6445894 -74.233055 -0.2469465 -92.205864
9203875000 -1.0649059 124.52272 -8.6546993 -73.463074 -8.6394672 -74.207443 -0.24234352 -92.171425
9203937500 -1.0602634 124.51924 -8.6617212 -73.435356 -8.6441479 -74.207298 -0.24418613 -92.146317
9204000000 -1.0582391 124.48695 -8.654274 -73.488068 -8.646265 -74.233727 -0.24005367 -92.140228
9204062500 -1.064153 124.49882 -8.6558437 -73.515488 -8.6410236 -74.233604 -0.23628703 -92.152664
9204125000 -1.0610861 124.48855 -8.6439142 -73.413017 -8.6365271 -74.212944 -0.23594382 -92.105316
9204187500 -1.0640131 124.45152 -8.6479893 -73.423767 -8.6422024 -74.175766 -0.23345144 -92.062935
9204250000 -1.061738 124.45667 -8.6518726 -73.442444 -8.6470032 -74.089073 -0.23156485 -92.007774
9204312500 -1.0564083 124.45478 -8.6465044 -73.431709 -8.6474781 -74.165924 -0.24223073 -92.014572
9204375000 -1.0575522 124.43166 -8.6436739 -73.41494 -8.6337585 -74.146667 -0.23879158 -92.001396
9204437500 -1.0527209 124.3838 -8.6370001 -73.383293 -8.630249 -74.141373 -0.23914672 -92.007225
9204500000 -1.0520248 124.41985 -8.6374016 -73.311348 -8.625495 -74.152718 -0.23971698 -91.947609
9204562500 -1.0589267 124.38882 -8.6361961 -73.355774 -8.6220446 -74.165047 -0.23888664 -91.952087
9204625000 -1.05182 124.37702 -8.6348867 -73.326141 -8.6340723 -74.166161 -0.24523675 -91.949242
9204687500 -1.0527458 124.33589 -8.638526 -73.362572 -8.6240225 -74.154221 -0.24868341 -91.914009
9204750000 -1.0569839 124.33498 -8.6493406 -73.325684 -8.6317787 -74.166267 -0.24384306 -91.880478
9204812500 -1.0655625 124.29003 -8.6537018 -73.402443 -8.624157 -74.144508 -0.24468489 -91.904503
9204875000 -1.0621994 124.31339 -8.6452856 -73.370354 -8.6240053 -74.184196 -0.24143039 -91.866226
9204937500 -1.0675342 124.26278 -8.6456442 -73.453896 -8.6243505 -74.132561 -0.24066871 -91.846962
9205000000 -1.0643812 124.26409 -8.6430569 -73.458786 -8.630311 -74.21949 -0.24769376 -91.899078
9205062500 -1.066936 124.24271 -8.6411419 -73.432709 -8.6314516 -74.106049 -0.24409921 -91.840355
9205125000 -1.0643184 124.24393 -8.6403933 -73.439919 -8.6358299 -74.212875 -0.24903642 -91.811707
9205187500 -1.0609419 124.23532 -8.632823 -73.437332 -8.6328163 -74.164459 -0.24060115 -91.782524
9205250000 -1.0662451 124.2429 -8.6360741 -73.426422 -8.6352978 -74.212372 -0.23798919 -91.769012
9205312500 -1.0626779 124.25156 -8.6330471 -73.377525 -8.62218 -74.18174 -0.23549391 -91.728989
9205375000 -1.0638872 124.24826 -8.6327333 -73.34655 -8.6249475 -74.194221 -0.23114331 -91.711464
9205437500 -1.0589517 124.22765 -8.6363897 -73.37101 -8.6265049 -74.217529 -0.23865728 -91.678345
9205500000 -1.0639386 124.19183 -8.6403036 -73.298195 -8.621623 -74.184013 -0.24231125 -91.621857
9205562500 -1.0573428 124.15408 -8.6370001 -73.32074 -8.62292 -74.153275 -0.24739495 -91.626488
9205625000 -1.0604728 124.14779 -8.6382837 -73.331917 -8.6321812 -74.154938 -0.25453407 -91.597313
9205687500 -1.0591341 124.10149 -8.6338091 -73.34568 -8.6239815 -74.140541 -0.24948494 -91.552429
9205750000 -1.0564709 124.08586 -8.6322689 -73.335732 -8.6154633 -74.130936 -0.25412863 -91.563942
9205812500 -1.0608157 124.06723 -8.6296396 -73.386002 -8.6164951 -74.105942 -0.24511115 -91.574066
9205875000 -1.0607674 124.08929 -8.6305752 -73.293015 -8.6177807 -74.140205 -0.24641192 -91.52832
9205937500 -1.0637436 124.04791 -8.6332378 -73.383591 -8.6216679 -74.141273 -0.25269139 -91.512238
9206000000 -1.0673472 124.02422 -8.6362057 -73.404419 -8.6154823 -74.113983 -0.25452521 -91.475815
9206062500 -1.0658429 124.0396 -8.6308212 -73.34848 -8.628211 -74.130005 -0.25729957 -91.510712
9206125000 -1.0636851 124.01642 -8.6263466 -73.298264 -8.6236439 -74.153015 -0.25289118 -91.490669
9206187500 -1.0660541 124.00655 -8.6283932 -73.337456 -8.621212 -74.110237 -0.25257945 -91.452148
9206250000 -1.0621003 123.96776 -8.6244183 -73.397552 -8.6107578 -74.145416 -0.25173527 -91.428993
9206312500 -1.0652015 123.94927 -8.6216803 -73.378769 -8.6078386 -74.077477 -0.24815124 -91.374588
9206375000 -1.0649215 123.95563 -8.62393 -73.342957 -8.6098499 -74.175682 -0.2556791 -91.400345
9206437500 -1.0601474 123.90048 -8.6161213 -73.352592 -8.621089 -74.168701 -0.26165557 -91.412277
9206500000 -1.0617301 123.85661 -8.616416 -73.419113 -8.6136723 -74.114639 -0.26051587 -91.370033
9206562500 -1.0643468 123.89103 -8.6175976 -73.367851 -8.6107407 -74.102814 -0.2557292 -91.359459
9206625000 -1.0665817 123.8645 -8.6241932 -73.403854 -8.6156979 -74.109451 -0.25306529 -91.327751
9206687500 -1.0679965 123.94056 -8.629529 -73.372429 -8.6106596 -74.112625 -0.24918664 -91.334465
9206750000 -1.0710956 123.91222 -8.6201982 -73.426842 -8.5996618 -74.057716 -0.24694563 -91.306648
9206812500 -1.0643299 123.92783 -8.6210012 -73.357529 -8.6004486 -74.118576 -0.24345832 -91.313057
9206875000 -1.0619011 123.87888 -8.6210737 -73.377014 -8.5975609 -74.094742 -0.23932046 -91.298325
9206937500 -1.0625784 123.91175 -8.6257162 -73.357895 -8.6070671 -74.068825 -0.24565743 -91.295052
9207000000 -1.0580074 123.86765 -8.6220894 -73.424278 -8.6074915 -74.161079 -0.24405643 -91.304443
9207062500 -1.058954 123.82336 -8.6178379 -73.371597 -8.5940447 -74.123367 -0.23778814 -91.243874
9207125000 -1.0593593 123.82393 -8.6207523 -73.37252 -8.601203 -74.135109 -0.25212744 -91.215775
9207187500 -1.0632242 123.76042 -8.6121016 -73.347931 -8.5928602 -74.095703 -0.24529639 -91.170593
9207250000 -1.0581896 123.76135 -8.6147833 -73.341164 -8.5933247 -74.103722 -0.24472177 -91.142891
9207312500 -1.0634679 123.75694 -8.6205044 -73.347572 -8.5950651 -74.103455 -0.25503647 -91.163254
9207375000 -1.0620251 123.71877 -8.6181164 -73.375595 -8.5932903 -74.113663 -0.24966292 -91.152649
9207437500 -1.0595049 123.71966 -8.605896 -73.339798 -8.5939875 -74.082397 -0.25049818 -91.093597
9207500000 -1.0618129 123.70901 -8.6093769 -73.316917 -8.5969095 -74.149918 -0.25500166 -91.14637
9207562500 -1.0614496 123.66552 -8.6097069 -73.395332 -8.5990095 -74.081596 -0.26106921 -91.128036
9207625000 -1.0586258 123.66251 -8.6055279 -73.317444 -8.5918064 -74.107666 -0.25386709 -91.118408
9207687500 -1.0645909 123.62527 -8.6090651 -73.385078 -8.6017542 -74.13736 -0.25534362 -91.097107
9207750000 -1.0715866 123.63453 -8.6037493 -73.360313 -8.5888891 -74.101341 -0.24297732 -91.057961
9207812500 -1.0719879 123.64687 -8.61096 -73.409538 -8.6020842 -74.109596 -0.25337249 -91.064247
9207875000 -1.0710756 123.63891 -8.609623 -73.346298 -8.6003923 -74.14679 -0.24554135 -91.05674
9207937500 -1.0749574 123.61017 -8.6016636 -73.438553 -8.5987825 -74.128723 -0.2463553 -91.083267
9208000000 -1.0701566 123.6108 -8.6096401 -73.395493 -8.6044769 -74.082397 -0.24819779 -90.994019
9208062500 -1.0677314 123.59144 -8.6006975 -73.314735 -8.5994778 -74.066315 -0.24677214 -90.941376
9208125000 -1.0684566 123.59167 -8.6030855 -73.382072 -8.5980482 -74.089706 -0.25061485 -90.942894
9208187500 -1.0646279 123.59214 -8.5975399 -73.354309 -8.5953531 -74.123734 -0.25209689 -90.925735
9208250000 -1.0661414 123.57687 -8.6027431 -73.284218 -8.5907803 -74.097755 -0.25051913 -90.8993
9208312500 -1.0658268 123.57314 -8.6001081 -73.301811 -8.5927963 -74.043884 -0.25068897 -90.828979
9208375000 -1.0622865 123.55758 -8.5908442 -73.262451 -8.5964174 -74.129616 -0.25248152 -90.834023
9208437500 -1.061358 123.51507 -8.5976105 -73.319916 -8.59377 -74.119728 -0.25833973 -90.82811
9208500000 -1.0656664 123.51042 -8.5979633 -73.301575 -8.5850849 -74.063499 -0.2495448 -90.810822
9208562500 -1.059831 123.50094 -8.5921316 -73.305588 -8.5909157 -74.113571 -0.2563538 -90.802284
9208625000 -1.0619458 123.4779 -8.5938377 -73.26136 -8.5878277 -73.98391 -0.25315952 -90.79039
9208687500 -1.0579176 123.48385 -8.5884743 -73.297989 -8.5905466 -74.102104 -0.25869781 -90.828041
9208750000 -1.0572095 123.4743 -8.5910053 -73.266068 -8.589572 -74.058189 -0.25830129 -90.81414
9208812500 -1.0612835 123.43468 -8.5900402 -73.276024 -8.5800791 -74.069557 -0.25023797 -90.782303
9208875000 -1.0610762 123.44854 -8.6003637 -73.322296 -8.5846539 -74.100296 -0.25922659 -90.783432
9208937500 -1.0616473 123.43806 -8.598093 -73.304062 -8.5787773 -74.101707 -0.25779435 -90.775696
9209000000 -1.0575384 123.43705 -8.587244 -73.256691 -8.5752697 -74.038361 -0.25375795 -90.713341
9209062500 -1.0540773 123.43032 -8.5913391 -73.257843 -8.5747032 -74.025047 -0.26088482 -90.688004
9209125000 -1.059359 123.39632 -8.5883656 -73.294464 -8.5751562 -74.002296 -0.266408 -90.647964
9209187500 -1.0559151 123.34869 -8.5884495 -73.337769 -8.5773888 -74.077469 -0.26379189 -90.677757
9209250000 -1.0591791 123.33509 -8.5909443 -73.26165 -8.5756893 -73.978828 -0.25908014 -90.589806
9209312500 -1.0589849 123.34734 -8.5994072 -73.281731 -8.5746841 -74.042496 -0.26634392 -90.651695
9209375000 -1.0615634 123.33714 -8.5896635 -73.293098 -8.5790558 -74.010422 -0.26067781 -90.552803
9209437500 -1.0602198 123.27357 -8.5914164 -73.331039 -8.5850315 -74.009995 -0.25955996 -90.623871
9209500000 -1.0554852 123.28833 -8.586627 -73.215546 -8.5877113 -74.023285 -0.26083791 -90.545792
9209562500 -1.0616063 123.25999 -8.5945559 -73.265022 -8.5832968 -74.041824 -0.25759917 -90.584854
9209625000 -1.0630943 123.21428 -8.5919476 -73.298027 -8.5719042 -74.048073 -0.25161031 -90.575851
9209687500 -1.0653955 123.22993 -8.5839052 -73.290466 -8.5841751 -74.05378 -0.25549659 -90.571899
9209750000 -1.0646697 123.2384 -8.5797529 -73.326996 -8.572567 -74.035774 -0.24780938 -90.528549
9209812500 -1.0658779 123.18321 -8.5792713 -73.386398 -8.5752172 -74.04866 -0.25082386 -90.531731
9209875000 -1.0701808 123.19827 -8.5893631 -73.282387 -8.5822344 -74.03643 -0.2611092 -90.457138
9209937500 -1.0710037 123.19864 -8.5821514 -73.275497 -8.574564 -74.05603 -0.25521672 -90.486176
9210000000 -1.0691168 123.21421 -8.5808487 -73.294266 -8.5646458 -74.063789 -0.25276116 -90.474075
9210062500 -1.0686327 123.16019 -8.5837727 -73.365005 -8.5680866 -74.019524 -0.25623435 -90.431961
9210125000 -1.0654761 123.17258 -8.5708828 -73.305534 -8.5680904 -74.037018 -0.26266238 -90.413666
9210187500 -1.0670557 123.15894 -8.5745163 -73.274017 -8.5569878 -74.106361 -0.25920379 -90.449898
9210250000 -1.0657687 123.16149 -8.5816708 -73.269989 -8.5586786 -74.04892 -0.25038943 -90.398468
9210312500 -1.068447 123.13026 -8.5723686 -73.304672 -8.5619402 -74.037506 -0.25602362 -90.36422
9210375000 -1.0590233 123.11075 -8.5693054 -73.284409 -8.572422 -74.021751 -0.26263189 -90.387047
9210437500 -1.0616883 123.11291 -8.5703487 -73.263313 -8.5597267 -74.07547 -0.25618061 -90.380753
9210500000 -1.0662057 123.05106 -8.5762348 -73.224556 -8.5696306 -74.035194 -0.26472592 -90.365784
9210562500 -1.0672771 123.06062 -8.5756807 -73.250732 -8.5667667 -74.027313 -0.26544115 -90.294952
9210625000 -1.065573 122.95541 -8.5658073 -73.261627 -8.5781059 -74.052963 -0.26594093 -90.318481
9210687500 -1.0653647 122.95875 -8.5663214 -73.265289 -8.5625305 -74.018829 -0.25966021 -90.259758
9210750000 -1.063753 122.95498 -8.5703745 -73.273804 -8.5655098 -74.046883 -0.26457202 -90.261856
9210812500 -1.064306 122.93629 -8.5627985 -73.273544 -8.5618801 -74.004906 -0.26105917 -90.222694
9210875000 -1.0565922 122.94402 -8.5549517 -73.294701 -8.5580759 -73.930153 -0.26232934 -90.178925
9210937500 -1.0641642 122.92298 -8.5591402 -73.244789 -8.5583687 -73.97361 -0.25796434 -90.147316
9211000000 -1.0619329 122.90159 -8.5624828 -73.304237 -8.5589905 -73.946686 -0.25963706 -90.111351
9211062500 -1.0627856 122.90559 -8.5670586 -73.279259 -8.5585222 -73.94342 -0.26397923 -90.07946
9211125000 -1.0706159 122.89648 -8.5697851 -73.301987 -8.5523796 -73.988342 -0.26218605 -90.08268
9211187500 -1.0643581 122.90098 -8.5587931 -73.284256 -8.5549297 -74.007813 -0.26774287 -90.075462
9211250000 -1.0637455 122.89455 -8.5710106 -73.29985 -8.5502892 -74.019173 -0.26739052 -90.078033
9211312500 -1.0645424 122.8463 -8.5636415 -73.265152 -8.5502272 -74.038849 -0.27032873 -90.077209
9211375000 -1.0647616 122.86871 -8.5713539 -73.260101 -8.5501184 -74.005714 -0.26526713 -90.084366
9211437500 -1.0607754 122.8846 -8.566268 -73.233986 -8.5582056 -74.01886 -0.27053982 -90.084099
9211500000 -1.0612735 122.83334 -8.5603323 -73.281303 -8.5526581 -74.009666 -0.26380166 -90.054398
9211562500 -1.0589428 122.8421 -8.5469418 -73.28614 -8.5532627 -73.960991 -0.26270616 -90.064087
9211625000 -1.0564688 122.83054 -8.5542164 -73.293808 -8.5589695 -73.991539 -0.266469 -90.045731
9211687500 -1.055541 122.83788 -8.5526857 -73.28936 -8.5465631 -74.019165 -0.25552198 -90.077568
9211750000 -1.0620201 122.85235 -8.5572996 -73.248222 -8.5495491 -73.99231 -0.25886011 -90.054329
9211812500 -1.0580016 122.8144 -8.5588169 -73.240799 -8.5627337 -73.971397 -0.26841605 -90.012718
9211875000 -1.0584139 122.81015 -8.5536175 -73.278481 -8.5498047 -73.93586 -0.26830056 -89.952141
9211937500 -1.0617844 122.75499 -8.5536489 -73.229996 -8.547966 -73.921745 -0.26900867 -89.944733
9212000000 -1.0586706 122.69581 -8.550848 -73.235886 -8.5489302 -73.977699 -0.26859909 -89.885277
9212062500 -1.0611767 122.68832 -8.5500956 -73.293877 -8.5420265 -73.981918 -0.25857818 -89.922516
9212125000 -1.0591098 122.67662 -8.5494995 -73.191734 -8.543108 -73.99942 -0.26400223 -89.865974
9212187500 -1.0612822 122.66241 -8.5501966 -73.214249 -8.5415087 -73.97187 -0.26277462 -89.856689
9212250000 -1.0597827 122.61652 -8.5507345 -73.253441 -8.5416088 -73.993958 -0.26489559 -89.859756
9212312500 -1.0616641 122.59103 -8.5451498 -73.266296 -8.5342693 -74.006859 -0.26004672 -89.835899
