!Agilent Technologies,N5242A,MY51221714,A.09.90.19
!Agilent N5242A: A.09.90.19
!Date: Saturday, December 30, 2023 10:44:04
!Correction: S11(Full 2 Port(1,2)) 
!S21(Full 2 Port(1,2)) 
!S12(Full 2 Port(1,2)) 
!S22(Full 2 Port(1,2)) 
!S2P File: Measurements: S11, S21, S12, S22:
# Hz S  dB   R 50
9200000000 -1.0464506 125.43632 -8.7295685 -73.336647 -8.6975288 -74.139099 -0.21253073 -93.044701
9200062500 -1.048118 125.43896 -8.7283487 -73.377579 -8.7081861 -74.129272 -0.21733768 -93.009415
9200125000 -1.0504525 125.40822 -8.7262239 -73.357079 -8.7053022 -74.120506 -0.21691829 -92.960129
9200187500 -1.0507801 125.37542 -8.7254047 -73.36525 -8.7073278 -74.103378 -0.2200446 -92.959396
9200250000 -1.0497609 125.35427 -8.7189474 -73.404892 -8.7089291 -74.145592 -0.22158262 -92.957062
9200312500 -1.048923 125.33286 -8.7293205 -73.339005 -8.7115297 -74.131081 -0.22485238 -92.971344
9200375000 -1.0507064 125.32668 -8.7335253 -73.419716 -8.705822 -74.137665 -0.22506674 -92.936661
9200437500 -1.052251 125.29385 -8.7295084 -73.417496 -8.7022772 -74.137314 -0.22282049 -92.945457
9200500000 -1.0483583 125.28814 -8.7180567 -73.40316 -8.6988535 -74.156113 -0.21967557 -92.964958
9200562500 -1.0527257 125.24875 -8.7299795 -73.380814 -8.6931314 -74.129776 -0.22332685 -92.883507
9200625000 -1.045821 125.25696 -8.7215052 -73.370155 -8.6960611 -74.126038 -0.21133661 -92.892586
9200687500 -1.0421938 125.26047 -8.7164726 -73.375694 -8.693182 -74.167664 -0.22005546 -92.87764
9200750000 -1.0487359 125.24603 -8.7128658 -73.331734 -8.6898232 -74.095604 -0.21296477 -92.833374
9200812500 -1.052274 125.19563 -8.7228518 -73.405891 -8.6862535 -74.106094 -0.22410415 -92.838966
9200875000 -1.0443822 125.19622 -8.7117519 -73.403297 -8.6850958 -74.140465 -0.21615241 -92.819778
9200937500 -1.0477099 125.19117 -8.7184496 -73.370041 -8.6939812 -74.136139 -0.22014508 -92.788445
9201000000 -1.0476832 125.1914 -8.7134771 -73.412857 -8.6889668 -74.157097 -0.22195527 -92.825035
9201062500 -1.0471307 125.20506 -8.716897 -73.338608 -8.6932459 -74.120476 -0.22663817 -92.796585
9201125000 -1.046384 125.21806 -8.7193718 -73.385437 -8.7079344 -74.149712 -0.23176195 -92.797691
9201187500 -1.0481591 125.25851 -8.7246656 -73.33049 -8.6949301 -74.116638 -0.22872315 -92.782875
9201250000 -1.047402 125.21758 -8.7202902 -73.344017 -8.7039213 -74.090706 -0.23105887 -92.739876
9201312500 -1.0499288 125.17677 -8.7186108 -73.300293 -8.699029 -74.061424 -0.22904076 -92.680923
9201375000 -1.046735 125.20419 -8.710392 -73.337837 -8.7024546 -74.079498 -0.22934029 -92.682953
9201437500 -1.0551367 125.16618 -8.7139292 -73.343307 -8.6958008 -74.086784 -0.22459026 -92.649391
9201500000 -1.0515938 125.13878 -8.7092094 -73.278214 -8.692935 -74.132286 -0.22121206 -92.605682
9201562500 -1.0527879 125.1679 -8.713068 -73.284004 -8.6898336 -74.08123 -0.22040093 -92.589439
9201625000 -1.0540507 125.11674 -8.706316 -73.29216 -8.6917696 -74.079178 -0.22071804 -92.548676
9201687500 -1.054212 125.11545 -8.706521 -73.328476 -8.6860142 -74.098824 -0.22069988 -92.519775
9201750000 -1.0510693 125.092 -8.709507 -73.328659 -8.6891594 -74.066032 -0.22591756 -92.568344
9201812500 -1.0556879 125.08085 -8.7097464 -73.280243 -8.6869164 -74.057632 -0.2260102 -92.497185
9201875000 -1.0519913 125.05811 -8.703784 -73.324677 -8.6955471 -74.070023 -0.23429112 -92.523384
9201937500 -1.0501492 125.08727 -8.7151327 -73.256325 -8.6856403 -74.053596 -0.22860274 -92.530861
9202000000 -1.0502871 125.03157 -8.7027912 -73.325562 -8.6864338 -74.036011 -0.22677192 -92.546486
9202062500 -1.0502908 125.0179 -8.7030172 -73.348907 -8.6898069 -74.037842 -0.23603378 -92.477699
9202125000 -1.0474983 124.99702 -8.7002687 -73.332581 -8.6880016 -74.107819 -0.23842414 -92.502785
9202187500 -1.0489464 124.98626 -8.701004 -73.336105 -8.6910057 -74.080513 -0.23567843 -92.463074
9202250000 -1.0483238 124.95811 -8.7059956 -73.346916 -8.6865215 -74.112701 -0.23322892 -92.495926
9202312500 -1.0457443 124.91941 -8.7023764 -73.366859 -8.6840219 -74.098213 -0.23296647 -92.427902
9202375000 -1.0407907 124.89216 -8.6982584 -73.375153 -8.6984816 -74.093224 -0.24139443 -92.414246
9202437500 -1.0470482 124.89494 -8.7036028 -73.330261 -8.683568 -74.09684 -0.22867863 -92.420753
9202500000 -1.0460833 124.85375 -8.6967201 -73.36525 -8.6842775 -74.07637 -0.23014644 -92.389854
9202562500 -1.044724 124.88972 -8.7032938 -73.309189 -8.684042 -74.137207 -0.2349225 -92.37925
9202625000 -1.0486834 124.8466 -8.6922779 -73.315689 -8.68151 -74.078407 -0.2290175 -92.342278
9202687500 -1.0469328 124.85368 -8.7026463 -73.292465 -8.6755524 -74.116676 -0.22827138 -92.326233
9202750000 -1.0530616 124.83247 -8.701767 -73.339928 -8.6794262 -74.125 -0.22551855 -92.351723
9202812500 -1.0516827 124.81712 -8.6971798 -73.365158 -8.6771822 -74.118423 -0.2314357 -92.314407
9202875000 -1.0452131 124.79935 -8.6968508 -73.248085 -8.6824007 -74.102066 -0.23411322 -92.305534
9202937500 -1.0460454 124.79876 -8.7006474 -73.342453 -8.6784744 -74.112099 -0.23679325 -92.287308
9203000000 -1.0444713 124.79057 -8.6969309 -73.299522 -8.6771526 -74.164017 -0.23595259 -92.30648
9203062500 -1.0393714 124.7962 -8.6843634 -73.309792 -8.6712084 -74.062302 -0.22941333 -92.27578
9203125000 -1.0415006 124.74158 -8.6887302 -73.301201 -8.6729298 -74.072563 -0.23484264 -92.221016
9203187500 -1.0423813 124.74316 -8.6800013 -73.337997 -8.6720018 -74.093208 -0.22808672 -92.220627
9203250000 -1.0406866 124.74004 -8.6762924 -73.313072 -8.6765223 -74.002518 -0.23232986 -92.164467
9203312500 -1.0434189 124.72558 -8.6716747 -73.292839 -8.6712589 -74.064041 -0.22520036 -92.156708
9203375000 -1.0456271 124.71733 -8.6772442 -73.25354 -8.6816483 -74.040474 -0.22672312 -92.083771
9203437500 -1.0473746 124.74442 -8.6792793 -73.251411 -8.6758776 -74.091164 -0.22905196 -92.13324
9203500000 -1.0423174 124.69934 -8.6728525 -73.311417 -8.6808043 -74.048622 -0.22462039 -92.074959
9203562500 -1.0414184 124.66138 -8.6679888 -73.350037 -8.6694651 -74.040298 -0.22989902 -92.091927
9203625000 -1.0452963 124.68208 -8.683959 -73.279327 -8.6695986 -74.042412 -0.2266857 -92.049889
9203687500 -1.0464427 124.64515 -8.6780367 -73.280548 -8.6700096 -74.048553 -0.23182321 -92.049721
9203750000 -1.0494852 124.62403 -8.6854267 -73.257851 -8.664156 -74.064606 -0.23105766 -92.062035
9203812500 -1.0471876 124.59351 -8.6863365 -73.333855 -8.670785 -74.012787 -0.23527782 -92.047707
9203875000 -1.0501146 124.5806 -8.6817188 -73.337891 -8.6606646 -74.027237 -0.22572803 -92.039284
9203937500 -1.046966 124.56466 -8.6853304 -73.283531 -8.6680508 -74.093651 -0.22881003 -92.040405
9204000000 -1.0457983 124.54371 -8.6854982 -73.332237 -8.6729698 -74.057793 -0.22803485 -92.012497
9204062500 -1.0461348 124.54592 -8.683363 -73.290092 -8.6689949 -74.06427 -0.2315626 -92.016586
9204125000 -1.0462121 124.55638 -8.6703081 -73.278305 -8.6644802 -74.03524 -0.22763208 -91.961273
9204187500 -1.0416298 124.51495 -8.6678524 -73.314423 -8.6719618 -74.007759 -0.22681111 -91.924973
9204250000 -1.0465617 124.51289 -8.6713285 -73.296562 -8.667448 -74.097076 -0.23027036 -91.973068
9204312500 -1.0450686 124.504 -8.6747341 -73.259399 -8.6603251 -74.033592 -0.2249504 -91.926727
9204375000 -1.0404948 124.50639 -8.6645184 -73.233765 -8.6545277 -73.993507 -0.22451705 -91.913361
9204437500 -1.0384418 124.48421 -8.6664629 -73.217377 -8.6552792 -74.049194 -0.2280142 -91.868996
9204500000 -1.0363783 124.46997 -8.6649303 -73.200287 -8.6617031 -74.03064 -0.23237686 -91.829544
9204562500 -1.0385563 124.47232 -8.6686296 -73.174812 -8.6581583 -74.024582 -0.23711625 -91.812019
9204625000 -1.0373716 124.40968 -8.6642637 -73.209824 -8.6594944 -74.009666 -0.23395172 -91.814117
9204687500 -1.0466243 124.37966 -8.672328 -73.238747 -8.6604176 -73.978027 -0.2428374 -91.753174
9204750000 -1.0460117 124.40694 -8.6691551 -73.207085 -8.6477823 -73.996056 -0.23291667 -91.773354
9204812500 -1.0488421 124.37137 -8.6652002 -73.237389 -8.6588192 -73.996078 -0.24102665 -91.740143
9204875000 -1.0471582 124.37172 -8.6723671 -73.26207 -8.6552305 -74.018517 -0.23561169 -91.751831
9204937500 -1.051986 124.35281 -8.6694546 -73.249794 -8.6461506 -74.014267 -0.23336785 -91.733345
9205000000 -1.0491821 124.29879 -8.6586542 -73.311516 -8.656971 -74.069191 -0.23418988 -91.7323
9205062500 -1.0452363 124.36102 -8.6662598 -73.226181 -8.6557302 -74.008492 -0.23733103 -91.659958
9205125000 -1.0497743 124.31928 -8.6664381 -73.256058 -8.6531019 -74.042488 -0.22689159 -91.641136
9205187500 -1.050127 124.29803 -8.6638851 -73.273773 -8.6571751 -74.036537 -0.22746401 -91.65361
9205250000 -1.045379 124.30782 -8.6558905 -73.282394 -8.6553202 -74.037117 -0.2299975 -91.622162
9205312500 -1.0485179 124.32137 -8.6659746 -73.243652 -8.6648903 -74.01403 -0.22456083 -91.583809
9205375000 -1.0472604 124.3333 -8.6624441 -73.179237 -8.6576872 -74.143585 -0.23207492 -91.620087
9205437500 -1.0466115 124.3297 -8.6596308 -73.227951 -8.65518 -74.084953 -0.23498845 -91.560768
9205500000 -1.0473186 124.24339 -8.6713457 -73.258209 -8.6426783 -74.03569 -0.23237252 -91.526115
9205562500 -1.0476645 124.25552 -8.6637707 -73.206924 -8.6460991 -74.036362 -0.23533404 -91.485329
9205625000 -1.0459782 124.21835 -8.6555395 -73.153534 -8.6471214 -73.988846 -0.23976389 -91.463387
9205687500 -1.0484906 124.1664 -8.6684341 -73.174545 -8.6466103 -73.959 -0.24069935 -91.446648
9205750000 -1.046779 124.14947 -8.6674147 -73.121414 -8.6434727 -73.967651 -0.24542461 -91.391418
9205812500 -1.0487355 124.17442 -8.6649971 -73.155045 -8.640789 -73.992844 -0.24489 -91.414886
9205875000 -1.0522859 124.15965 -8.6717596 -73.175163 -8.6348124 -74.045151 -0.24599771 -91.428146
9205937500 -1.0522144 124.08186 -8.6649847 -73.209961 -8.6505547 -73.968277 -0.23976932 -91.369774
9206000000 -1.0481018 124.15163 -8.6618233 -73.136864 -8.6422949 -73.982956 -0.23851797 -91.329651
9206062500 -1.0452514 124.10846 -8.6590881 -73.152512 -8.6440029 -73.960464 -0.23881696 -91.332108
9206125000 -1.0486611 124.10855 -8.6539373 -73.177696 -8.6456747 -73.995918 -0.24237765 -91.337242
9206187500 -1.0485054 124.07939 -8.6496239 -73.159721 -8.6426382 -73.959442 -0.24747042 -91.326691
9206250000 -1.0539901 124.00788 -8.6521749 -73.245277 -8.6406364 -73.967026 -0.24532706 -91.30545
9206312500 -1.0475703 124.00658 -8.6529217 -73.236473 -8.6448555 -73.984421 -0.25348708 -91.248436
9206375000 -1.0497953 123.99075 -8.6582947 -73.229439 -8.6373119 -73.946663 -0.24554922 -91.270432
9206437500 -1.0483888 123.94332 -8.6437588 -73.296684 -8.6415272 -73.966011 -0.24802954 -91.275726
9206500000 -1.0485951 123.96133 -8.6436415 -73.188049 -8.6381931 -73.9561 -0.23995876 -91.225624
9206562500 -1.0485234 123.98303 -8.6467953 -73.236168 -8.6389923 -73.934273 -0.24628441 -91.174576
9206625000 -1.0453904 124.01297 -8.6479721 -73.201477 -8.6398182 -73.985062 -0.23888656 -91.232704
9206687500 -1.0507878 124.03483 -8.6557808 -73.179749 -8.6396923 -73.907707 -0.24052995 -91.152901
9206750000 -1.0495149 124.01582 -8.641201 -73.159409 -8.6267939 -73.942596 -0.22490358 -91.199203
9206812500 -1.051282 123.98352 -8.6466103 -73.23613 -8.6331406 -73.946495 -0.23452689 -91.166443
9206875000 -1.0491724 123.9708 -8.6464853 -73.207275 -8.6344891 -73.961784 -0.23048 -91.172409
9206937500 -1.0456285 123.97903 -8.6487303 -73.210884 -8.628828 -73.94532 -0.23585239 -91.131729
9207000000 -1.0482736 123.95779 -8.6466246 -73.258728 -8.6244946 -73.952866 -0.22942436 -91.115028
9207062500 -1.0469865 123.90064 -8.6481457 -73.210434 -8.6233311 -73.955132 -0.23453324 -91.070656
9207125000 -1.0468332 123.8698 -8.6424665 -73.247215 -8.6241398 -73.95034 -0.23069789 -91.061447
9207187500 -1.0442586 123.85877 -8.6439486 -73.219955 -8.6251411 -73.90715 -0.23174597 -91.021729
9207250000 -1.0484923 123.80159 -8.6437635 -73.224174 -8.6201172 -73.893661 -0.23853517 -90.975105
9207312500 -1.0440496 123.82181 -8.6358061 -73.176033 -8.6278477 -73.948463 -0.24356486 -91.009422
9207375000 -1.0441674 123.77243 -8.644722 -73.194252 -8.6148529 -73.966873 -0.24133728 -91.016685
9207437500 -1.0476279 123.77549 -8.6459455 -73.163795 -8.6244307 -73.917473 -0.24605331 -91.003166
9207500000 -1.0473391 123.74908 -8.6383896 -73.196487 -8.6274357 -73.98201 -0.2447229 -91.003731
9207562500 -1.0506214 123.7384 -8.6313038 -73.204788 -8.6278505 -73.9468 -0.24940798 -91.021561
9207625000 -1.0512691 123.70618 -8.6294737 -73.159851 -8.6188812 -73.918877 -0.24705245 -90.961861
9207687500 -1.0538418 123.69781 -8.640275 -73.277313 -8.6358747 -73.943962 -0.24349692 -90.994667
9207750000 -1.0548828 123.68781 -8.6305456 -73.288963 -8.6238136 -73.951019 -0.23551834 -90.928093
9207812500 -1.0566646 123.68337 -8.6342802 -73.265259 -8.6249275 -73.958595 -0.23526092 -90.956856
9207875000 -1.0522457 123.74434 -8.6278114 -73.198296 -8.6204109 -73.95372 -0.23026323 -90.900986
9207937500 -1.0595152 123.70399 -8.6329117 -73.263336 -8.625699 -73.977104 -0.23982343 -90.916313
9208000000 -1.0582591 123.64599 -8.6335115 -73.252983 -8.6249294 -73.944847 -0.23371072 -90.902168
9208062500 -1.0537369 123.69254 -8.6232338 -73.220337 -8.619031 -73.971619 -0.22812739 -90.853714
9208125000 -1.050977 123.64516 -8.6215744 -73.239288 -8.6256437 -73.912117 -0.23688471 -90.809074
9208187500 -1.0478666 123.65885 -8.6252193 -73.152321 -8.6234865 -73.980598 -0.23519154 -90.807693
9208250000 -1.0484272 123.61701 -8.6251698 -73.240913 -8.6196575 -73.929405 -0.23488003 -90.734581
9208312500 -1.0512725 123.63365 -8.6296005 -73.158508 -8.6254883 -73.923988 -0.24144743 -90.74353
9208375000 -1.0510135 123.63649 -8.6153021 -73.162941 -8.6195993 -73.950424 -0.2409029 -90.691345
9208437500 -1.0486971 123.59294 -8.6200676 -73.145432 -8.6144409 -73.934036 -0.24047123 -90.693657
9208500000 -1.0525877 123.58508 -8.6214485 -73.179886 -8.6145067 -73.972733 -0.24427138 -90.751404
9208562500 -1.0449722 123.58138 -8.616807 -73.153656 -8.6201611 -73.915512 -0.24566852 -90.683403
9208625000 -1.0459621 123.58968 -8.6162701 -73.123703 -8.6136866 -73.868591 -0.236937 -90.653656
9208687500 -1.0412364 123.54213 -8.6104879 -73.135513 -8.6128149 -73.928902 -0.24659204 -90.695412
9208750000 -1.0421557 123.53927 -8.6180964 -73.094688 -8.6229782 -73.919807 -0.24732077 -90.665527
9208812500 -1.0448402 123.55031 -8.6156464 -73.109344 -8.606102 -73.94812 -0.24371482 -90.680618
9208875000 -1.042152 123.51557 -8.6190586 -73.124084 -8.6019096 -73.874359 -0.24225956 -90.601921
9208937500 -1.0475017 123.49202 -8.6141911 -73.08419 -8.6066952 -73.880966 -0.2485521 -90.548317
9209000000 -1.0425266 123.48692 -8.6137257 -73.141182 -8.6058598 -73.850372 -0.25128296 -90.546135
9209062500 -1.0410306 123.50201 -8.6216888 -73.107956 -8.6151142 -73.889275 -0.25948274 -90.546257
9209125000 -1.0460696 123.44698 -8.6142769 -73.125412 -8.6042519 -73.879738 -0.24773245 -90.529465
9209187500 -1.0450313 123.45958 -8.6134691 -73.101288 -8.5987158 -73.863678 -0.2490029 -90.492958
9209250000 -1.0418694 123.38863 -8.6110935 -73.190338 -8.6082506 -73.826393 -0.24739282 -90.449486
9209312500 -1.0466032 123.40703 -8.6192503 -73.168121 -8.6080036 -73.868759 -0.25268927 -90.477829
9209375000 -1.040482 123.38792 -8.616744 -73.119492 -8.6029711 -73.856712 -0.25045571 -90.487
9209437500 -1.0508115 123.38416 -8.6227999 -73.110847 -8.6081285 -73.860115 -0.24830972 -90.451202
9209500000 -1.0429404 123.33943 -8.6161127 -73.166061 -8.6067104 -73.875259 -0.2512916 -90.408958
9209562500 -1.0446738 123.32834 -8.6107874 -73.140717 -8.6084738 -73.870758 -0.24561401 -90.38147
9209625000 -1.0496104 123.31874 -8.6153784 -73.108559 -8.609272 -73.862541 -0.24628446 -90.378929
9209687500 -1.046147 123.28157 -8.608079 -73.163521 -8.6139812 -73.898079 -0.24725722 -90.403488
9209750000 -1.0507493 123.28722 -8.6089268 -73.171432 -8.6067076 -73.865982 -0.24498968 -90.35881
9209812500 -1.0469561 123.27181 -8.6014032 -73.182098 -8.6057215 -73.867989 -0.24990615 -90.391808
9209875000 -1.0540595 123.26294 -8.6057186 -73.185776 -8.6016779 -73.849838 -0.24112231 -90.30468
9209937500 -1.059338 123.26073 -8.608736 -73.131027 -8.5899963 -73.891441 -0.24292023 -90.319313
9210000000 -1.0575477 123.27362 -8.6074438 -73.169083 -8.5956697 -73.923248 -0.24138702 -90.347664
9210062500 -1.0534235 123.26016 -8.6084261 -73.13369 -8.6004171 -73.907722 -0.24403845 -90.313499
9210125000 -1.0524966 123.22775 -8.6043367 -73.13591 -8.5915747 -73.880028 -0.24021812 -90.27536
9210187500 -1.0524853 123.21801 -8.6092014 -73.119591 -8.5930099 -73.898224 -0.24683499 -90.249023
9210250000 -1.0542018 123.19984 -8.6074162 -73.102638 -8.5915899 -73.858421 -0.25101894 -90.191269
9210312500 -1.0512716 123.24788 -8.6072216 -73.049408 -8.5927429 -73.891167 -0.25128865 -90.25602
9210375000 -1.0486568 123.19652 -8.5962934 -73.127411 -8.5953741 -73.905937 -0.2488845 -90.22316
9210437500 -1.048157 123.186 -8.5983744 -73.054626 -8.5870409 -73.897316 -0.25045645 -90.227417
9210500000 -1.0479345 123.18193 -8.5878744 -73.08313 -8.5965786 -73.901802 -0.24808098 -90.202583
9210562500 -1.0517118 123.12183 -8.5979586 -73.105865 -8.5880871 -73.919296 -0.25295955 -90.213959
9210625000 -1.0486051 123.02678 -8.5966129 -73.134827 -8.5917149 -73.82811 -0.25234434 -90.123558
9210687500 -1.0523739 123.01891 -8.5948553 -73.143509 -8.5934668 -73.827995 -0.25334069 -90.114563
9210750000 -1.0484524 123.00973 -8.5902729 -73.128929 -8.5943041 -73.860252 -0.25010467 -90.118004
9210812500 -1.0480889 122.99459 -8.5991611 -73.176132 -8.588583 -73.858322 -0.24859683 -90.088913
9210875000 -1.0449572 123.02552 -8.5897532 -73.090118 -8.5847244 -73.823418 -0.24783085 -90.070847
9210937500 -1.0481485 123.02456 -8.5940981 -73.06942 -8.5890255 -73.823036 -0.25652733 -90.013954
9211000000 -1.0472945 122.96787 -8.5835276 -73.129433 -8.5835552 -73.833199 -0.25024885 -90.00164
9211062500 -1.0466359 122.95268 -8.5810127 -73.129654 -8.5862741 -73.769112 -0.26007247 -89.968315
9211125000 -1.0516073 122.97742 -8.5920105 -73.100609 -8.5748835 -73.782463 -0.25139949 -89.940567
9211187500 -1.0512205 122.99834 -8.5898867 -73.049126 -8.5759668 -73.755661 -0.25111169 -89.896072
9211250000 -1.051747 122.94606 -8.5914412 -73.069061 -8.5844784 -73.876266 -0.25443491 -89.951012
9211312500 -1.0484352 122.91562 -8.5923014 -73.061508 -8.5824118 -73.832764 -0.2573328 -89.924896
9211375000 -1.0471104 122.93219 -8.5847073 -73.099968 -8.5824099 -73.859528 -0.259422 -89.895897
9211437500 -1.0477276 122.92332 -8.5902538 -73.117188 -8.5814562 -73.812233 -0.25681081 -89.927971
9211500000 -1.0467616 122.92519 -8.5917101 -73.170685 -8.5752201 -73.835663 -0.24826574 -89.936203
9211562500 -1.0429289 122.91946 -8.586668 -73.065422 -8.5731888 -73.795601 -0.24554466 -89.906548
9211625000 -1.0426679 122.89775 -8.5774927 -73.147148 -8.5866137 -73.821777 -0.24808221 -89.920654
9211687500 -1.0432324 122.91221 -8.5824099 -73.106712 -8.5855551 -73.845634 -0.25784302 -89.916412
9211750000 -1.0398895 122.90133 -8.5786524 -73.146568 -8.5836658 -73.836151 -0.2584818 -89.944649
9211812500 -1.0448381 122.8584 -8.5857401 -73.137367 -8.5735188 -73.864441 -0.24451049 -89.915634
9211875000 -1.0443146 122.86867 -8.5793905 -73.090942 -8.5778723 -73.819244 -0.25896397 -89.872108
9211937500 -1.0408946 122.87518 -8.5802784 -73.019501 -8.5796185 -73.843742 -0.25916976 -89.798393
9212000000 -1.040946 122.81561 -8.5810795 -73.054092 -8.5686646 -73.823456 -0.25375724 -89.803139
9212062500 -1.0436958 122.77522 -8.5821943 -73.038399 -8.5726957 -73.810646 -0.25562736 -89.745842
9212125000 -1.0465364 122.74767 -8.5816193 -73.040466 -8.5674267 -73.839478 -0.25596789 -89.674637
9212187500 -1.0480229 122.7201 -8.576849 -73.071899 -8.5701027 -73.844284 -0.25071517 -89.713417
9212250000 -1.0440649 122.7048 -8.578433 -73.010216 -8.5604277 -73.797562 -0.25432882 -89.651169
9212312500 -1.0510983 122.66223 -8.5788689 -73.120789 -8.5633097 -73.843239 -0.2484888 -89.696724
