!Agilent Technologies,N5242A,MY51221714,A.09.90.19
!Agilent N5242A: A.09.90.19
!Date: Saturday, December 30, 2023 10:51:22
!Correction: S11(Full 2 Port(1,2)) 
!S21(Full 2 Port(1,2)) 
!S12(Full 2 Port(1,2)) 
!S22(Full 2 Port(1,2)) 
!S2P File: Measurements: S11, S21, S12, S22:
# Hz S  dB   R 50
9200000000 -1.2964184 123.95699 -8.5724239 -77.085045 -8.5456352 -77.902267 -0.45661801 -94.615204
9200062500 -1.2989054 123.9512 -8.5705738 -77.101006 -8.5576754 -77.875366 -0.46560922 -94.571671
9200125000 -1.29881 123.90482 -8.5615568 -77.103897 -8.545805 -77.932732 -0.46784726 -94.616409
9200187500 -1.3020521 123.88106 -8.5637016 -77.116676 -8.5561152 -77.93119 -0.46413979 -94.585564
9200250000 -1.3045974 123.86484 -8.5767698 -77.098167 -8.5636396 -77.868286 -0.46961197 -94.542038
9200312500 -1.3069645 123.83705 -8.579092 -77.155006 -8.550355 -77.872215 -0.46321425 -94.558693
9200375000 -1.3030239 123.81721 -8.5680561 -77.130379 -8.5553637 -77.915199 -0.46734479 -94.523125
9200437500 -1.3000025 123.80647 -8.5728636 -77.158798 -8.5507879 -77.931404 -0.46604055 -94.572334
9200500000 -1.3064973 123.79165 -8.5785418 -77.137222 -8.5477324 -77.884735 -0.46772459 -94.501404
9200562500 -1.3001177 123.77641 -8.5669861 -77.176147 -8.5401964 -77.867851 -0.4602505 -94.497154
9200625000 -1.3029939 123.73055 -8.5651197 -77.135735 -8.5420895 -77.912979 -0.45840505 -94.484085
9200687500 -1.3016416 123.72832 -8.5681448 -77.194351 -8.5384045 -77.863396 -0.46260732 -94.478584
9200750000 -1.3030893 123.72124 -8.5623064 -77.163345 -8.5339661 -77.903519 -0.45682454 -94.438141
9200812500 -1.3002189 123.73654 -8.55937 -77.138176 -8.5394011 -77.896355 -0.46491545 -94.41864
9200875000 -1.3067759 123.69018 -8.5647831 -77.148727 -8.5316677 -77.913406 -0.46183854 -94.419418
9200937500 -1.2995147 123.68269 -8.5641775 -77.15506 -8.5373907 -77.936546 -0.46453828 -94.417168
9201000000 -1.3018113 123.67313 -8.5647497 -77.12722 -8.5453272 -77.899673 -0.46899346 -94.39695
9201062500 -1.300035 123.70135 -8.5715904 -77.193428 -8.540822 -77.933098 -0.47490686 -94.413948
9201125000 -1.310254 123.70721 -8.5682993 -77.199577 -8.5421305 -77.863091 -0.47003195 -94.366386
9201187500 -1.3007061 123.74284 -8.5696306 -77.114212 -8.5450039 -77.878204 -0.46891865 -94.379829
9201250000 -1.2984408 123.705 -8.564517 -77.14772 -8.546977 -77.880585 -0.47382739 -94.363625
9201312500 -1.3048189 123.68929 -8.5607386 -77.178261 -8.5459194 -77.862297 -0.47561029 -94.291191
9201375000 -1.3039854 123.68532 -8.5596333 -77.076309 -8.5415058 -77.911125 -0.47345591 -94.286514
9201437500 -1.3056144 123.68601 -8.5507078 -77.06929 -8.538826 -77.86853 -0.47115338 -94.233528
9201500000 -1.3068484 123.64417 -8.5563259 -77.078514 -8.5354919 -77.911217 -0.46877852 -94.22657
9201562500 -1.3092884 123.62596 -8.5557432 -77.042221 -8.5313616 -77.890259 -0.46929145 -94.189583
9201625000 -1.3080454 123.6198 -8.5480576 -77.090477 -8.5384893 -77.947556 -0.47105372 -94.168999
9201687500 -1.3077248 123.59145 -8.5557976 -77.083641 -8.5370216 -77.892723 -0.47230294 -94.136711
9201750000 -1.3051735 123.58532 -8.5513124 -77.125717 -8.5280371 -77.940758 -0.47290236 -94.178566
9201812500 -1.3048966 123.55997 -8.5534916 -77.051666 -8.5266533 -77.832283 -0.47301054 -94.134567
9201875000 -1.302515 123.55746 -8.5441856 -77.072449 -8.539958 -77.905907 -0.47526643 -94.14814
9201937500 -1.3005427 123.56375 -8.5479784 -77.090271 -8.5302448 -77.856827 -0.47477421 -94.141403
9202000000 -1.306162 123.53401 -8.5499229 -77.090744 -8.533145 -77.813126 -0.47814709 -94.129936
9202062500 -1.3024278 123.5351 -8.542141 -77.136871 -8.5294437 -77.883972 -0.47472721 -94.127876
9202125000 -1.3030336 123.50481 -8.549408 -77.17894 -8.528635 -77.901726 -0.47653154 -94.135941
9202187500 -1.3012631 123.49537 -8.5423851 -77.128929 -8.534236 -77.882866 -0.47678345 -94.115257
9202250000 -1.3077859 123.44541 -8.5546227 -77.073792 -8.5320644 -77.855331 -0.4730331 -94.079979
9202312500 -1.2988772 123.41019 -8.5428181 -77.158813 -8.5214586 -77.936768 -0.472904 -94.062836
9202375000 -1.3016105 123.41852 -8.5518103 -77.140228 -8.533226 -77.905106 -0.48673475 -94.033348
9202437500 -1.299821 123.40242 -8.5404682 -77.139877 -8.531229 -77.903923 -0.48280451 -94.013466
9202500000 -1.2997661 123.37341 -8.5401173 -77.153816 -8.5253353 -77.926689 -0.46828583 -94.014351
9202562500 -1.2996715 123.38387 -8.5404482 -77.097504 -8.5213699 -77.851418 -0.47339636 -93.986832
9202625000 -1.3027937 123.35566 -8.531929 -77.121063 -8.5244722 -77.88459 -0.47498426 -93.957611
9202687500 -1.2977864 123.35792 -8.5341616 -77.086166 -8.5180655 -77.901474 -0.47293168 -93.975861
9202750000 -1.2988206 123.34093 -8.5347767 -77.075432 -8.5222607 -77.92337 -0.47445476 -93.945107
9202812500 -1.3014103 123.34292 -8.5395842 -77.063957 -8.5183458 -77.939003 -0.47333947 -93.959442
9202875000 -1.2980164 123.2909 -8.5379496 -77.137863 -8.5121441 -77.933189 -0.47057498 -93.945702
9202937500 -1.2927233 123.28124 -8.5302038 -77.093925 -8.5155525 -77.868454 -0.47575212 -93.874214
9203000000 -1.299172 123.27409 -8.5372753 -77.073784 -8.5209141 -77.853889 -0.48033121 -93.880623
9203062500 -1.2982402 123.25712 -8.5368462 -77.150665 -8.5134478 -77.883621 -0.47615352 -93.887207
9203125000 -1.2973377 123.21252 -8.5345974 -77.136116 -8.5084419 -77.883659 -0.47740978 -93.879501
9203187500 -1.2984825 123.25648 -8.5328236 -77.113159 -8.5084896 -77.891563 -0.47160694 -93.862473
9203250000 -1.3017164 123.24043 -8.5297556 -77.094131 -8.514061 -77.847282 -0.47898269 -93.782227
9203312500 -1.2976737 123.24402 -8.5204859 -77.090942 -8.5190592 -77.890991 -0.47452798 -93.786888
9203375000 -1.3017926 123.24672 -8.5104485 -77.06263 -8.5258551 -77.855896 -0.47904298 -93.75296
9203437500 -1.2999026 123.27039 -8.5198584 -77.078239 -8.5207205 -77.895943 -0.47714677 -93.731956
9203500000 -1.301744 123.22235 -8.5154943 -77.098442 -8.5218153 -77.849785 -0.47355518 -93.693977
9203562500 -1.2997388 123.23106 -8.5212727 -77.053818 -8.520587 -77.858101 -0.47565335 -93.684204
9203625000 -1.2999574 123.15954 -8.5205288 -77.118271 -8.5153456 -77.836411 -0.47587049 -93.665443
9203687500 -1.3037639 123.12445 -8.5260735 -77.095215 -8.52279 -77.850761 -0.47683203 -93.666267
9203750000 -1.2990268 123.13505 -8.525178 -77.124313 -8.5162373 -77.882164 -0.48250994 -93.680313
9203812500 -1.3037274 123.13662 -8.5286036 -77.113953 -8.5094652 -77.882713 -0.47982508 -93.653183
9203875000 -1.3020076 123.06541 -8.5219984 -77.098152 -8.5062389 -77.810059 -0.47941592 -93.643227
9203937500 -1.3018349 123.07934 -8.5299206 -77.050842 -8.5112505 -77.887138 -0.47855163 -93.646667
9204000000 -1.3046962 123.0498 -8.5280075 -77.185387 -8.5120955 -77.843132 -0.47887856 -93.604645
9204062500 -1.304809 123.05912 -8.5194817 -77.117348 -8.502182 -77.851768 -0.4669919 -93.614891
9204125000 -1.3022512 123.02217 -8.509017 -77.097206 -8.5116587 -77.870338 -0.47261059 -93.618835
9204187500 -1.3001572 123.02061 -8.5029469 -77.139946 -8.5088625 -77.867493 -0.46932873 -93.593132
9204250000 -1.3035771 123.01956 -8.5116901 -77.070786 -8.5057211 -77.8666 -0.47275114 -93.521919
9204312500 -1.3005019 123.01395 -8.5138073 -77.074219 -8.5021591 -77.879715 -0.46642449 -93.544159
9204375000 -1.2974325 123.01015 -8.5075331 -77.057037 -8.4988918 -77.801231 -0.47096908 -93.480835
9204437500 -1.2960252 122.99397 -8.5085831 -77.045166 -8.5002298 -77.879242 -0.47960794 -93.492432
9204500000 -1.2948176 122.95515 -8.5018778 -77.080444 -8.4975443 -77.861275 -0.48060498 -93.489052
9204562500 -1.2931863 122.93958 -8.5064602 -77.042191 -8.4980202 -77.800323 -0.48392534 -93.417793
9204625000 -1.290195 122.93755 -8.5025625 -76.996559 -8.5039034 -77.831734 -0.48752257 -93.391174
9204687500 -1.2946922 122.87703 -8.5068636 -77.057365 -8.4989214 -77.856941 -0.48572633 -93.411003
9204750000 -1.3010807 122.88928 -8.507616 -77.074715 -8.4932175 -77.880211 -0.48108807 -93.409851
9204812500 -1.3017869 122.91223 -8.5058336 -77.034599 -8.4926596 -77.805138 -0.4826766 -93.351723
9204875000 -1.3026614 122.8356 -8.5066633 -77.08194 -8.4937258 -77.850746 -0.48489735 -93.340759
9204937500 -1.3062704 122.83792 -8.5067444 -77.074249 -8.4973993 -77.816956 -0.48404697 -93.306488
9205000000 -1.3047425 122.79025 -8.5116596 -77.148201 -8.4984694 -77.83815 -0.49573353 -93.353561
9205062500 -1.3025142 122.7927 -8.500433 -77.082314 -8.4952993 -77.867638 -0.48262841 -93.302124
9205125000 -1.3056713 122.81995 -8.5004902 -77.092934 -8.4976892 -77.897835 -0.47523656 -93.316208
9205187500 -1.3011951 122.78731 -8.4962492 -77.097061 -8.4961624 -77.8741 -0.47451538 -93.262192
9205250000 -1.3030677 122.83802 -8.504468 -77.077347 -8.4927654 -77.844551 -0.47227848 -93.221184
9205312500 -1.3012265 122.83085 -8.5011225 -77.001282 -8.5035124 -77.867279 -0.47692651 -93.215141
9205375000 -1.3079733 122.82556 -8.5072689 -77.08596 -8.4993105 -77.866013 -0.47197813 -93.168686
9205437500 -1.3037473 122.75436 -8.5018759 -77.064232 -8.4877386 -77.842606 -0.47785604 -93.151474
9205500000 -1.3033491 122.75335 -8.4998102 -77.044662 -8.4968081 -77.870499 -0.48478886 -93.186089
9205562500 -1.3053533 122.73968 -8.50844 -77.010223 -8.485116 -77.858521 -0.48118037 -93.087326
9205625000 -1.3032365 122.69933 -8.4969454 -76.995888 -8.4843836 -77.776398 -0.48782545 -93.067787
9205687500 -1.3013995 122.66461 -8.4985342 -77.034142 -8.4830208 -77.834885 -0.48462883 -93.050056
9205750000 -1.2990912 122.64507 -8.4997978 -76.982513 -8.4896593 -77.783737 -0.49825615 -93.012604
9205812500 -1.3059506 122.61507 -8.505085 -76.967529 -8.484457 -77.795586 -0.48797691 -92.98838
9205875000 -1.3064289 122.60339 -8.5041838 -77.05925 -8.4849453 -77.804169 -0.49273354 -92.988144
9205937500 -1.3100544 122.63918 -8.5014019 -77.02449 -8.4833126 -77.832253 -0.49228874 -92.994492
9206000000 -1.3075925 122.60175 -8.5002775 -77.03051 -8.4907618 -77.801804 -0.49797615 -92.968513
9206062500 -1.3106538 122.61028 -8.5020666 -76.997818 -8.4911346 -77.835442 -0.49046674 -92.967262
9206125000 -1.3158584 122.59026 -8.5068855 -77.02626 -8.4807281 -77.812813 -0.49470186 -92.964752
9206187500 -1.3050803 122.58268 -8.4914198 -76.997383 -8.4822626 -77.810791 -0.49772957 -92.915962
9206250000 -1.3037442 122.5085 -8.492012 -77.113899 -8.4848356 -77.774628 -0.49496216 -92.894485
9206312500 -1.3074614 122.49559 -8.4938784 -77.072487 -8.4734163 -77.794716 -0.49045086 -92.946175
9206375000 -1.3075098 122.45143 -8.4890604 -77.085922 -8.4816332 -77.799301 -0.49453181 -92.883888
9206437500 -1.3044043 122.49258 -8.4847279 -77.037575 -8.4821701 -77.817261 -0.49327654 -92.860054
9206500000 -1.3042427 122.47227 -8.481843 -77.017815 -8.4814434 -77.783569 -0.49251562 -92.821907
9206562500 -1.3077378 122.42392 -8.4845848 -77.114677 -8.4726839 -77.726555 -0.4887456 -92.812408
9206625000 -1.309425 122.44881 -8.482626 -77.116272 -8.4779587 -77.791336 -0.48791501 -92.836884
9206687500 -1.3069965 122.48476 -8.4821415 -77.021347 -8.4693098 -77.787445 -0.48035482 -92.84832
9206750000 -1.3069919 122.47323 -8.4821911 -77.085373 -8.4796286 -77.810646 -0.49242076 -92.895393
9206812500 -1.3107544 122.48466 -8.492383 -77.084068 -8.4654112 -77.832314 -0.47879016 -92.791283
9206875000 -1.3075713 122.47812 -8.4923687 -77.046799 -8.4657145 -77.778023 -0.48261321 -92.799164
9206937500 -1.301837 122.4153 -8.487257 -77.114944 -8.4613285 -77.792908 -0.47981259 -92.796196
9207000000 -1.3056659 122.41855 -8.4785776 -77.045105 -8.4635277 -77.811821 -0.48047918 -92.740005
9207062500 -1.3040091 122.39591 -8.4874964 -77.058777 -8.464921 -77.761124 -0.48676306 -92.66259
9207125000 -1.3003552 122.36147 -8.4785299 -77.077911 -8.4593163 -77.799156 -0.48445722 -92.70639
9207187500 -1.3053731 122.34939 -8.484499 -77.084358 -8.4653425 -77.83712 -0.48584059 -92.687195
9207250000 -1.3044423 122.31786 -8.4892569 -77.059212 -8.4637442 -77.82132 -0.49180228 -92.669548
9207312500 -1.3055667 122.3196 -8.4791241 -77.05793 -8.4661703 -77.808884 -0.49293935 -92.649368
9207375000 -1.3074154 122.2876 -8.482337 -77.035759 -8.4557142 -77.813713 -0.49175987 -92.629936
9207437500 -1.3071971 122.266 -8.4790516 -77.043823 -8.4683275 -77.84549 -0.49560401 -92.601059
9207500000 -1.3036561 122.26059 -8.4705286 -77.092613 -8.4664192 -77.776459 -0.49746117 -92.585518
9207562500 -1.3102591 122.21986 -8.4735136 -77.035027 -8.460309 -77.777054 -0.5008257 -92.593002
9207625000 -1.307477 122.23399 -8.4689779 -76.996132 -8.4632998 -77.833656 -0.49955896 -92.616203
9207687500 -1.3131545 122.18692 -8.476511 -77.103043 -8.459383 -77.78141 -0.49672678 -92.555061
9207750000 -1.3132696 122.18942 -8.4696655 -77.116371 -8.4607944 -77.829689 -0.48908004 -92.573257
9207812500 -1.3168485 122.2109 -8.4667053 -77.094734 -8.4686861 -77.812004 -0.48721868 -92.574821
9207875000 -1.3141526 122.17133 -8.4716311 -77.109947 -8.4691658 -77.813652 -0.49138117 -92.538445
9207937500 -1.3141346 122.24588 -8.4782524 -77.030083 -8.4739647 -77.805183 -0.48921067 -92.47261
9208000000 -1.3176773 122.15881 -8.4693937 -77.054459 -8.4664497 -77.800156 -0.48569953 -92.477776
9208062500 -1.3166287 122.16213 -8.4707165 -77.080948 -8.4628897 -77.776733 -0.48752636 -92.430176
9208125000 -1.31398 122.16535 -8.4666986 -77.069893 -8.4642181 -77.810387 -0.48934573 -92.440292
9208187500 -1.3101047 122.12586 -8.4527445 -77.053658 -8.4632559 -77.825905 -0.49188185 -92.40374
9208250000 -1.3129784 122.11508 -8.4617548 -77.054321 -8.4588757 -77.793732 -0.49376658 -92.371841
9208312500 -1.3124089 122.11809 -8.4560843 -77.014709 -8.4538307 -77.841377 -0.49219453 -92.35849
9208375000 -1.308208 122.12142 -8.4620037 -76.97448 -8.4611731 -77.824875 -0.4936007 -92.32869
9208437500 -1.3094268 122.08109 -8.457715 -77.020462 -8.4590378 -77.836647 -0.49359536 -92.332397
9208500000 -1.3038698 122.08479 -8.4617701 -76.988098 -8.4632845 -77.753349 -0.49723241 -92.2686
9208562500 -1.3104055 122.06312 -8.4600277 -77.086243 -8.4635954 -77.775948 -0.49960807 -92.314972
9208625000 -1.3069685 122.05802 -8.4586964 -76.973839 -8.4495401 -77.756294 -0.49100485 -92.311539
9208687500 -1.3067445 122.04409 -8.4614573 -76.923981 -8.4549627 -77.802078 -0.49744225 -92.288216
9208750000 -1.3011589 122.02491 -8.4514656 -76.980637 -8.4476271 -77.778526 -0.49373984 -92.340965
9208812500 -1.303717 122.05797 -8.4533911 -76.948433 -8.4494247 -77.806175 -0.49202442 -92.23671
9208875000 -1.3034061 122.01917 -8.44771 -77.005554 -8.4468307 -77.781975 -0.49558488 -92.263588
9208937500 -1.3069143 121.99609 -8.4571152 -77.04232 -8.4375839 -77.769569 -0.49686167 -92.206055
9209000000 -1.2990079 121.9744 -8.4579582 -77.001251 -8.4455767 -77.792076 -0.50219637 -92.206131
9209062500 -1.301294 121.9866 -8.4475107 -77.023758 -8.4426641 -77.760086 -0.50324273 -92.180977
9209125000 -1.3052256 121.97571 -8.4570656 -77.011902 -8.4352465 -77.743027 -0.50144988 -92.163895
9209187500 -1.3033967 121.92699 -8.4534693 -76.969658 -8.4369535 -77.719955 -0.49942115 -92.107857
9209250000 -1.3029475 121.91203 -8.452529 -76.983002 -8.4431801 -77.711876 -0.49935007 -92.104172
9209312500 -1.3008418 121.91735 -8.4535856 -77.004738 -8.438405 -77.781578 -0.50250894 -92.130554
9209375000 -1.3057379 121.86798 -8.4588003 -77.006226 -8.4429522 -77.793159 -0.50876832 -92.126289
9209437500 -1.3018084 121.85607 -8.4546947 -76.983292 -8.4428511 -77.758759 -0.50310075 -92.071907
9209500000 -1.2952008 121.84424 -8.4431992 -76.964432 -8.4428425 -77.757866 -0.4990342 -92.067657
9209562500 -1.2994181 121.8032 -8.4443932 -77.052864 -8.4475908 -77.747955 -0.49626184 -92.067009
9209625000 -1.308267 121.80987 -8.4489689 -77.047279 -8.443511 -77.755058 -0.50417399 -92.043388
9209687500 -1.3132316 121.77076 -8.4423075 -77.038452 -8.4393845 -77.755486 -0.50096488 -92.023949
9209750000 -1.3140023 121.78284 -8.4438887 -77.046288 -8.4430618 -77.762527 -0.49635786 -92.028549
9209812500 -1.3124721 121.74498 -8.4393826 -77.100563 -8.440876 -77.778732 -0.49639854 -91.997444
9209875000 -1.3183844 121.76259 -8.4383326 -77.0009 -8.4298811 -77.76239 -0.49346218 -91.975792
9209937500 -1.3138224 121.7504 -8.4453983 -77.023567 -8.435894 -77.770737 -0.49257994 -91.962654
9210000000 -1.3168554 121.74332 -8.4418983 -77.075516 -8.430068 -77.78022 -0.48894784 -91.931419
9210062500 -1.3168014 121.78535 -8.4477406 -76.98877 -8.4350529 -77.810234 -0.50004882 -91.957443
9210125000 -1.3174094 121.73513 -8.4475603 -76.927696 -8.4310703 -77.752899 -0.49418563 -91.890556
9210187500 -1.313506 121.71989 -8.4506235 -76.991257 -8.4298277 -77.748886 -0.49798229 -91.870102
9210250000 -1.3127947 121.71721 -8.4392881 -77.002808 -8.4173956 -77.767693 -0.49532619 -91.881668
9210312500 -1.3093305 121.70859 -8.4435759 -77.021111 -8.4281712 -77.818214 -0.49842715 -91.871658
9210375000 -1.3120484 121.7001 -8.4309349 -76.944702 -8.4289331 -77.765656 -0.50573885 -91.806862
9210437500 -1.3108112 121.67195 -8.4358482 -77.01635 -8.4296598 -77.784515 -0.50288618 -91.846664
9210500000 -1.3152126 121.6135 -8.4394855 -76.993141 -8.4358292 -77.799652 -0.5074631 -91.814064
9210562500 -1.3128819 121.60406 -8.4341097 -76.979561 -8.428257 -77.774902 -0.5053702 -91.827118
9210625000 -1.3087244 121.5551 -8.4256229 -76.990295 -8.4300308 -77.760216 -0.50919539 -91.782761
9210687500 -1.308484 121.51285 -8.4313231 -77.043968 -8.4307623 -77.769897 -0.50827545 -91.769554
9210750000 -1.3099359 121.48779 -8.4273376 -77.06414 -8.4288588 -77.757011 -0.50923598 -91.747139
9210812500 -1.3075193 121.47802 -8.4220133 -76.972794 -8.4294691 -77.70089 -0.50870895 -91.696968
9210875000 -1.309978 121.48682 -8.4242706 -76.991447 -8.4155083 -77.744591 -0.50122845 -91.663269
9210937500 -1.3146672 121.47699 -8.4308815 -77.011086 -8.4190807 -77.721062 -0.50598854 -91.632713
9211000000 -1.3089913 121.46935 -8.4116745 -77.025818 -8.407443 -77.74662 -0.50228941 -91.665703
9211062500 -1.3088337 121.46183 -8.4184856 -77.032448 -8.4169035 -77.662994 -0.50365257 -91.576042
9211125000 -1.313624 121.43089 -8.4163513 -77.046333 -8.4172077 -77.69883 -0.51081955 -91.546638
9211187500 -1.3169955 121.44232 -8.430625 -76.950584 -8.4186325 -77.722687 -0.51294285 -91.56411
9211250000 -1.3104647 121.41645 -8.4265032 -77.023033 -8.4194708 -77.688698 -0.51380843 -91.55394
9211312500 -1.3137139 121.40923 -8.4283609 -77.059059 -8.4159861 -77.751015 -0.50884187 -91.574417
9211375000 -1.3168837 121.41055 -8.431427 -77.049667 -8.4131021 -77.673203 -0.51634318 -91.494888
9211437500 -1.3123937 121.40389 -8.4221869 -76.998352 -8.4110575 -77.685974 -0.50667083 -91.505424
9211500000 -1.3117211 121.39402 -8.4120417 -77.02327 -8.4142847 -77.707436 -0.50440139 -91.505196
9211562500 -1.31239 121.42724 -8.4203882 -76.976814 -8.4171629 -77.769096 -0.51127243 -91.556473
9211625000 -1.3074387 121.39504 -8.4211931 -77.032784 -8.4151812 -77.757721 -0.51026511 -91.570259
9211687500 -1.3071162 121.35786 -8.4138508 -77.014801 -8.4181604 -77.68911 -0.50457042 -91.58007
9211750000 -1.3066487 121.36591 -8.414156 -77.000648 -8.4162226 -77.669312 -0.50276792 -91.505516
9211812500 -1.3130082 121.34097 -8.4197874 -76.99659 -8.4184246 -77.734444 -0.51197422 -91.551193
9211875000 -1.3103892 121.36492 -8.4219189 -76.980827 -8.417119 -77.749161 -0.51143742 -91.493958
9211937500 -1.3085788 121.3174 -8.4155111 -77.019958 -8.4101849 -77.694038 -0.50617945 -91.402428
9212000000 -1.3085864 121.28278 -8.4148684 -76.981628 -8.407382 -77.728531 -0.50459725 -91.378937
9212062500 -1.3090692 121.25117 -8.4159851 -76.981377 -8.4063387 -77.666466 -0.51242912 -91.325928
9212125000 -1.3136671 121.21444 -8.4145527 -76.955544 -8.4107876 -77.718147 -0.51866609 -91.320015
9212187500 -1.3176147 121.19799 -8.418788 -76.963806 -8.4012413 -77.649712 -0.50768918 -91.272606
9212250000 -1.3075478 121.15861 -8.4014339 -77.012589 -8.4039259 -77.717972 -0.50580263 -91.312973
9212312500 -1.3115875 121.17165 -8.4063139 -77.003174 -8.3980093 -77.761246 -0.5067836 -91.344032
