!Agilent Technologies,N5242A,MY51221714,A.09.90.19
!Agilent N5242A: A.09.90.19
!Date: Saturday, December 30, 2023 10:50:03
!Correction: S11(Full 2 Port(1,2)) 
!S21(Full 2 Port(1,2)) 
!S12(Full 2 Port(1,2)) 
!S22(Full 2 Port(1,2)) 
!S2P File: Measurements: S11, S21, S12, S22:
# Hz S  dB   R 50
9200000000 -1.083056 125.06769 -8.6665201 -74.1548 -8.6447115 -74.979401 -0.25999475 -93.610542
9200062500 -1.0860509 125.05353 -8.6725073 -74.196854 -8.6435184 -74.91246 -0.25580949 -93.553238
9200125000 -1.0870081 125.02635 -8.6661377 -74.161026 -8.6466551 -74.921227 -0.26171711 -93.541023
9200187500 -1.081421 124.99799 -8.6643324 -74.142555 -8.6390982 -74.970428 -0.25596491 -93.52726
9200250000 -1.0920297 125.0047 -8.6699095 -74.203621 -8.6396112 -74.970245 -0.26192123 -93.530022
9200312500 -1.0912337 124.96568 -8.6720734 -74.149124 -8.656455 -74.913902 -0.2674019 -93.484077
9200375000 -1.0882556 124.93431 -8.6731367 -74.185738 -8.6476622 -74.987381 -0.26301181 -93.534935
9200437500 -1.0862349 124.9139 -8.666069 -74.196213 -8.6503658 -74.972961 -0.2642386 -93.495468
9200500000 -1.090239 124.89889 -8.6768084 -74.236855 -8.6448774 -74.893906 -0.26096517 -93.476021
9200562500 -1.0896178 124.88084 -8.6690006 -74.225647 -8.6445351 -74.902931 -0.26100576 -93.411934
9200625000 -1.0946276 124.86288 -8.6675749 -74.220711 -8.6451693 -74.942436 -0.2615625 -93.459579
9200687500 -1.081268 124.84082 -8.6550894 -74.201164 -8.6416569 -74.90387 -0.25961128 -93.388168
9200750000 -1.0844021 124.81835 -8.651372 -74.211823 -8.6324368 -74.93985 -0.25558046 -93.428223
9200812500 -1.0790647 124.82978 -8.6611443 -74.222305 -8.6347265 -74.907967 -0.25669622 -93.359604
9200875000 -1.0873698 124.80021 -8.6530371 -74.203133 -8.6353827 -74.966446 -0.25539365 -93.417358
9200937500 -1.0831102 124.83947 -8.6584082 -74.159676 -8.6283979 -74.920898 -0.25778618 -93.342606
9201000000 -1.0854604 124.83232 -8.6577206 -74.200645 -8.6341972 -74.92614 -0.25717032 -93.359093
9201062500 -1.0827662 124.80206 -8.6625519 -74.213898 -8.6364594 -74.86364 -0.26820287 -93.282753
9201125000 -1.0878037 124.85074 -8.6682167 -74.128578 -8.6447849 -74.893646 -0.27212036 -93.352829
9201187500 -1.0851231 124.85456 -8.6566629 -74.15892 -8.6433706 -74.978989 -0.26760614 -93.363182
9201250000 -1.0834571 124.81483 -8.6610165 -74.14624 -8.6382227 -74.925568 -0.26634145 -93.32666
9201312500 -1.0842421 124.83355 -8.6572027 -74.156357 -8.6476517 -74.918579 -0.2695567 -93.252335
9201375000 -1.0890014 124.80067 -8.6637583 -74.145058 -8.6446037 -74.912315 -0.27297577 -93.232788
9201437500 -1.0896113 124.74704 -8.6513538 -74.155411 -8.6333561 -74.931198 -0.26578438 -93.211609
9201500000 -1.088657 124.7624 -8.6555138 -74.149826 -8.6438036 -74.900574 -0.26618266 -93.162781
9201562500 -1.0904436 124.74422 -8.6449537 -74.125771 -8.6341381 -74.941872 -0.25502166 -93.153908
9201625000 -1.0883368 124.72618 -8.6398458 -74.134148 -8.6347437 -74.962341 -0.26344705 -93.173073
9201687500 -1.0856502 124.7189 -8.6468992 -74.090981 -8.6269264 -74.905746 -0.26208317 -93.060295
9201750000 -1.0834683 124.70437 -8.6489182 -74.122688 -8.6358328 -74.896004 -0.26634598 -93.104065
9201812500 -1.0910947 124.67816 -8.6583939 -74.138077 -8.6273317 -74.888985 -0.26734427 -93.099037
9201875000 -1.0890312 124.66991 -8.644865 -74.161842 -8.629261 -74.889923 -0.26943001 -93.116486
9201937500 -1.0851083 124.70997 -8.6565332 -74.118309 -8.6263857 -74.878754 -0.26643521 -93.056824
9202000000 -1.0850766 124.66644 -8.6555128 -74.148735 -8.6314936 -74.824501 -0.27320758 -93.067902
9202062500 -1.0861304 124.64967 -8.6508923 -74.110573 -8.625144 -74.936852 -0.27485493 -93.126183
9202125000 -1.0861098 124.63145 -8.6461048 -74.176857 -8.6246243 -74.911125 -0.27546477 -93.094055
9202187500 -1.0877755 124.59816 -8.6432743 -74.119133 -8.6303558 -74.891075 -0.27007604 -93.08091
9202250000 -1.0834033 124.56846 -8.6395483 -74.158157 -8.6183434 -74.938934 -0.26782328 -93.056076
9202312500 -1.0833653 124.55434 -8.6395454 -74.133942 -8.6333714 -74.907158 -0.27489024 -93.031151
9202375000 -1.0885776 124.53227 -8.6471024 -74.17527 -8.6233702 -74.910347 -0.26892656 -92.984596
9202437500 -1.0851008 124.53035 -8.6441822 -74.167191 -8.6266136 -74.946274 -0.27469686 -92.997665
9202500000 -1.0857756 124.51363 -8.6403656 -74.151993 -8.625886 -74.963501 -0.27080855 -92.982216
9202562500 -1.0825137 124.53528 -8.6356134 -74.117203 -8.6297808 -74.96386 -0.27918497 -92.976929
9202625000 -1.0870805 124.47971 -8.647191 -74.093964 -8.6256924 -74.94413 -0.27384076 -92.904701
9202687500 -1.0858138 124.50756 -8.6490955 -74.053345 -8.6241598 -74.896042 -0.2684871 -92.917267
9202750000 -1.0834155 124.47732 -8.6358643 -74.098404 -8.6159773 -74.918564 -0.26931006 -92.901222
9202812500 -1.08044 124.49339 -8.6416998 -74.066109 -8.6254845 -74.879761 -0.2742016 -92.863548
9202875000 -1.0884887 124.42168 -8.6374264 -74.133484 -8.6180925 -74.876122 -0.27331662 -92.884369
9202937500 -1.0849364 124.38647 -8.6381493 -74.117973 -8.6158257 -74.887627 -0.27274781 -92.861191
9203000000 -1.0829189 124.37836 -8.6366968 -74.131172 -8.6117306 -74.925011 -0.2764782 -92.870186
9203062500 -1.0815244 124.39265 -8.6380224 -74.165115 -8.6120949 -74.870728 -0.27116275 -92.829071
9203125000 -1.0783613 124.38234 -8.6315193 -74.117874 -8.6089039 -74.854752 -0.26978573 -92.81147
9203187500 -1.0780789 124.36909 -8.6237316 -74.152199 -8.6127596 -74.907906 -0.27289444 -92.797577
9203250000 -1.0823874 124.36577 -8.6279545 -74.125954 -8.6124821 -74.904343 -0.2692759 -92.747139
9203312500 -1.0833195 124.33199 -8.6224899 -74.133896 -8.6149302 -74.893852 -0.26846963 -92.700752
9203375000 -1.082724 124.33749 -8.6193428 -74.102249 -8.6201258 -74.901924 -0.268022 -92.703323
9203437500 -1.0828125 124.32414 -8.6144152 -74.138664 -8.6190453 -74.872116 -0.26757535 -92.667061
9203500000 -1.081948 124.34615 -8.6114893 -74.071068 -8.6133623 -74.898636 -0.26854151 -92.672989
9203562500 -1.0853051 124.30534 -8.6154375 -74.103699 -8.6236372 -74.846786 -0.27830532 -92.647469
9203625000 -1.0865501 124.31947 -8.6224813 -74.096756 -8.6136332 -74.88472 -0.26592791 -92.633286
9203687500 -1.0884806 124.25336 -8.6200886 -74.129333 -8.6097717 -74.894119 -0.27106717 -92.616646
9203750000 -1.0894495 124.23401 -8.6301003 -74.163986 -8.6173735 -74.845093 -0.28099841 -92.583496
9203812500 -1.0842352 124.19803 -8.6247463 -74.100578 -8.6083994 -74.867081 -0.27033958 -92.636993
9203875000 -1.0867783 124.16828 -8.6131868 -74.154739 -8.6037235 -74.85733 -0.27125329 -92.613464
9203937500 -1.0836576 124.15576 -8.619483 -74.138298 -8.6089077 -74.838852 -0.27060944 -92.601242
9204000000 -1.085685 124.15149 -8.6210003 -74.172409 -8.6053829 -74.840218 -0.26685432 -92.587547
9204062500 -1.082188 124.15942 -8.6075592 -74.109756 -8.6046019 -74.873627 -0.2647295 -92.542976
9204125000 -1.0856175 124.15817 -8.6188736 -74.140396 -8.6110582 -74.886032 -0.27023521 -92.569298
9204187500 -1.0856307 124.11684 -8.6116915 -74.113632 -8.6128654 -74.866913 -0.26749748 -92.532791
9204250000 -1.0880175 124.10825 -8.6123772 -74.116272 -8.6057129 -74.826523 -0.2670376 -92.482452
9204312500 -1.0786034 124.12691 -8.611496 -74.120003 -8.6040039 -74.857162 -0.27248776 -92.490997
9204375000 -1.0814788 124.1032 -8.6073065 -74.037941 -8.5934477 -74.822777 -0.26265562 -92.427734
9204437500 -1.0843102 124.08784 -8.6094961 -74.042282 -8.6008615 -74.885117 -0.27260253 -92.443718
9204500000 -1.077209 124.06904 -8.6020174 -74.048279 -8.5906563 -74.841293 -0.26968229 -92.404167
9204562500 -1.0797516 124.07547 -8.6087132 -74.050903 -8.5988598 -74.850746 -0.27511054 -92.415039
9204625000 -1.0752981 124.04445 -8.6051435 -74.003059 -8.5940733 -74.875671 -0.27376276 -92.363396
9204687500 -1.0822711 124.0214 -8.615365 -74.005539 -8.5942326 -74.826347 -0.2772761 -92.347382
9204750000 -1.0824662 124.0149 -8.6029997 -74.059357 -8.6003819 -74.800865 -0.28109252 -92.295082
9204812500 -1.0874538 124.0078 -8.6066427 -74.059738 -8.5960302 -74.802856 -0.28021702 -92.319969
9204875000 -1.0864693 123.99406 -8.6097879 -74.070053 -8.5949812 -74.832382 -0.28311044 -92.320923
9204937500 -1.0916935 123.94759 -8.6181841 -74.091736 -8.5914888 -74.821358 -0.27713141 -92.323105
9205000000 -1.0915102 123.93845 -8.6113625 -74.132965 -8.5831814 -74.782845 -0.27024919 -92.263451
9205062500 -1.093417 123.95847 -8.6081467 -74.157394 -8.5903788 -74.811775 -0.27707037 -92.262215
9205125000 -1.0841737 123.93211 -8.5920887 -74.079048 -8.5965042 -74.832497 -0.26915362 -92.197914
9205187500 -1.0890976 123.92038 -8.6114206 -74.084061 -8.5990362 -74.887802 -0.26973262 -92.2481
9205250000 -1.0840335 123.92982 -8.6031437 -74.104408 -8.6029863 -74.855751 -0.27410558 -92.187347
9205312500 -1.0817268 123.89544 -8.5994015 -74.019508 -8.5973539 -74.904411 -0.26923358 -92.193718
9205375000 -1.0815836 123.9365 -8.5925722 -73.992737 -8.5880651 -74.869781 -0.26393119 -92.166039
9205437500 -1.0858978 123.9018 -8.5961637 -74.067451 -8.5939608 -74.898003 -0.27353972 -92.13958
9205500000 -1.0857365 123.87605 -8.5988827 -73.980392 -8.5904455 -74.858643 -0.27784118 -92.068771
9205562500 -1.0876946 123.8757 -8.6071396 -73.956261 -8.5940666 -74.845673 -0.27817386 -92.063988
9205625000 -1.0890917 123.84716 -8.6126528 -73.962715 -8.5840969 -74.826462 -0.27746242 -92.028534
9205687500 -1.0924829 123.78893 -8.6064634 -73.991913 -8.5839062 -74.759911 -0.27959713 -91.991058
9205750000 -1.0841987 123.78146 -8.6048841 -73.973045 -8.5849895 -74.847908 -0.28088638 -91.999702
9205812500 -1.087522 123.75346 -8.5984917 -74.04081 -8.587183 -74.790688 -0.28376999 -91.992668
9205875000 -1.0908709 123.75433 -8.6004591 -74.010368 -8.5800867 -74.727486 -0.28619802 -91.910721
9205937500 -1.0917063 123.74683 -8.5979271 -73.987419 -8.5824203 -74.765526 -0.28438342 -91.903183
9206000000 -1.0910492 123.7382 -8.6008024 -73.997765 -8.5902004 -74.84005 -0.28796211 -91.971504
9206062500 -1.0902197 123.74176 -8.6034403 -73.978851 -8.5872641 -74.826118 -0.28808036 -91.934227
9206125000 -1.0894275 123.69275 -8.5968103 -74.0467 -8.5808868 -74.819542 -0.28377056 -91.928513
9206187500 -1.087382 123.6552 -8.5916824 -74.027763 -8.5821238 -74.819344 -0.28448665 -91.899788
9206250000 -1.0899494 123.63258 -8.6023788 -74.046318 -8.5792656 -74.792732 -0.28641745 -91.892334
9206312500 -1.0913333 123.62444 -8.5943899 -74.039207 -8.5789995 -74.791183 -0.2858963 -91.866882
9206375000 -1.085283 123.58326 -8.5850334 -74.060173 -8.5807142 -74.792328 -0.28790402 -91.842339
9206437500 -1.085801 123.5956 -8.5908546 -74.069809 -8.5728827 -74.727676 -0.28320459 -91.798805
9206500000 -1.0894495 123.56255 -8.5841093 -74.087181 -8.5803871 -74.840691 -0.28924817 -91.835388
9206562500 -1.089754 123.56622 -8.5889587 -74.058586 -8.5755539 -74.765572 -0.28345552 -91.798935
9206625000 -1.0864702 123.59595 -8.5871944 -74.033989 -8.5824308 -74.776306 -0.28375557 -91.7631
9206687500 -1.088195 123.5885 -8.58881 -74.045547 -8.5672073 -74.802689 -0.2738978 -91.762238
9206750000 -1.0960633 123.57796 -8.5919857 -74.113411 -8.5673933 -74.788712 -0.28459913 -91.786324
9206812500 -1.0869688 123.59548 -8.5831909 -74.090576 -8.5676661 -74.77243 -0.27042493 -91.770012
9206875000 -1.0858132 123.58044 -8.586607 -74.070351 -8.5703268 -74.802399 -0.27195615 -91.770546
9206937500 -1.0863522 123.5544 -8.5929861 -74.050362 -8.5648489 -74.745529 -0.27081463 -91.705971
9207000000 -1.0863234 123.5602 -8.5883808 -73.978027 -8.5634031 -74.789459 -0.27156621 -91.70414
9207062500 -1.0822847 123.4935 -8.5853891 -74.067352 -8.5618458 -74.770882 -0.27335444 -91.696548
9207125000 -1.0832399 123.51241 -8.5864897 -73.992386 -8.5628548 -74.812164 -0.27785918 -91.64949
9207187500 -1.0825294 123.45941 -8.5852156 -74.021423 -8.5617085 -74.823311 -0.28087926 -91.651024
9207250000 -1.0838231 123.44054 -8.5790272 -74.053719 -8.5634823 -74.690659 -0.2754755 -91.535057
9207312500 -1.0829004 123.44021 -8.5732126 -74.028008 -8.5600414 -74.782112 -0.2776629 -91.577995
9207375000 -1.0933416 123.41239 -8.5876398 -73.997566 -8.5546227 -74.792976 -0.28147313 -91.571854
9207437500 -1.0901285 123.39098 -8.5846462 -74.021057 -8.5614958 -74.77935 -0.2869643 -91.569908
9207500000 -1.090134 123.3654 -8.5780573 -74.049698 -8.554306 -74.763741 -0.27940053 -91.571175
9207562500 -1.0878921 123.34909 -8.575839 -74.049789 -8.5582266 -74.815605 -0.28821421 -91.543167
9207625000 -1.085461 123.33575 -8.5657778 -73.994736 -8.5604801 -74.761414 -0.28160486 -91.538292
9207687500 -1.0971479 123.32058 -8.5759888 -74.057709 -8.5626373 -74.734787 -0.28867319 -91.551239
9207750000 -1.0945899 123.32137 -8.5710907 -74.00058 -8.5665741 -74.767975 -0.27939534 -91.511612
9207812500 -1.0902179 123.31209 -8.5657282 -74.030838 -8.5700226 -74.750893 -0.28340682 -91.506828
9207875000 -1.1001266 123.34307 -8.577466 -74.006935 -8.5617027 -74.827194 -0.27482536 -91.510811
9207937500 -1.099591 123.29422 -8.5638494 -74.099464 -8.5639915 -74.742012 -0.27465683 -91.479774
9208000000 -1.1009902 123.28809 -8.572607 -74.087006 -8.5595913 -74.752617 -0.27235645 -91.44136
9208062500 -1.0976523 123.27551 -8.5673904 -74.020432 -8.564497 -74.772583 -0.27888069 -91.403809
9208125000 -1.0955372 123.27888 -8.5682049 -73.955048 -8.5703344 -74.78157 -0.28426003 -91.418701
9208187500 -1.0892833 123.23714 -8.562891 -73.9842 -8.5663033 -74.760643 -0.28580818 -91.359612
9208250000 -1.0923076 123.21062 -8.5641899 -74.017212 -8.5642099 -74.808144 -0.28049704 -91.344048
9208312500 -1.0885909 123.23927 -8.5589256 -74.005432 -8.5659895 -74.744698 -0.28361204 -91.271713
9208375000 -1.0888795 123.2617 -8.5600138 -73.957657 -8.5556927 -74.79229 -0.28616175 -91.290215
9208437500 -1.0891589 123.22715 -8.5641165 -73.942924 -8.5601063 -74.747169 -0.28189948 -91.254616
9208500000 -1.0907885 123.19131 -8.5529299 -73.951454 -8.55867 -74.712799 -0.2794669 -91.230728
9208562500 -1.0878224 123.17466 -8.5560846 -73.938354 -8.5616798 -74.760765 -0.28629923 -91.259453
9208625000 -1.0919877 123.17883 -8.5688076 -73.950111 -8.5584116 -74.771866 -0.29025739 -91.271126
9208687500 -1.0897133 123.14431 -8.5670214 -73.938568 -8.5536547 -74.715538 -0.28740072 -91.242317
9208750000 -1.0803618 123.14417 -8.5484171 -73.951904 -8.551753 -74.73111 -0.28990221 -91.246262
9208812500 -1.0870494 123.15513 -8.560235 -73.979736 -8.5533571 -74.741356 -0.29036778 -91.21244
9208875000 -1.0911831 123.10536 -8.55688 -73.941139 -8.5469637 -74.746201 -0.29071102 -91.203728
9208937500 -1.086468 123.12539 -8.5568914 -73.995842 -8.5514145 -74.719299 -0.2919527 -91.158882
9209000000 -1.0825961 123.10183 -8.5585413 -73.965111 -8.5493345 -74.712036 -0.29496109 -91.176628
9209062500 -1.0855383 123.09937 -8.5579748 -74.003113 -8.5482702 -74.717964 -0.29120445 -91.146645
9209125000 -1.0819839 123.07821 -8.5574455 -73.977524 -8.5446968 -74.707916 -0.29073423 -91.116272
9209187500 -1.088294 123.03967 -8.5581083 -74.006584 -8.5448465 -74.657074 -0.2883893 -91.06736
9209250000 -1.0860443 123.01811 -8.5611115 -73.962326 -8.5400057 -74.749237 -0.28543571 -91.088318
9209312500 -1.0855061 123.02985 -8.5524254 -73.939758 -8.5459633 -74.697769 -0.29562026 -91.032875
9209375000 -1.0808024 123.01026 -8.5495129 -73.944328 -8.5448875 -74.682503 -0.29055914 -91.047256
9209437500 -1.0878549 122.95827 -8.55546 -73.956741 -8.5455704 -74.673111 -0.29723594 -91.025688
9209500000 -1.0815058 122.95297 -8.5498161 -73.960022 -8.5463696 -74.712234 -0.29752409 -91.014015
9209562500 -1.0876687 122.90578 -8.5570784 -74.019066 -8.5454702 -74.684402 -0.29427922 -90.996048
9209625000 -1.0871344 122.95581 -8.5474358 -73.952766 -8.5429096 -74.757141 -0.28405553 -90.993202
9209687500 -1.0874511 122.90938 -8.5487814 -73.937927 -8.5325699 -74.725594 -0.28761941 -90.972633
9209750000 -1.0881972 122.88177 -8.5485935 -73.998177 -8.5500984 -74.677467 -0.2917338 -90.971718
9209812500 -1.0904025 122.86422 -8.5420113 -74.029716 -8.5421305 -74.758324 -0.28248802 -91.00013
9209875000 -1.0931071 122.88598 -8.5431223 -74.024429 -8.537776 -74.728149 -0.28096578 -90.933228
9209937500 -1.0916506 122.89742 -8.5397339 -73.974991 -8.537941 -74.742477 -0.28557241 -90.903214
9210000000 -1.0928681 122.8821 -8.5486975 -73.978699 -8.5377493 -74.72184 -0.28573421 -90.888237
9210062500 -1.0922494 122.89417 -8.5440159 -73.958809 -8.5305157 -74.740257 -0.28133544 -90.903023
9210125000 -1.0990652 122.826 -8.5543623 -73.942589 -8.5314121 -74.69516 -0.29064885 -90.821747
9210187500 -1.0958607 122.83997 -8.5405893 -73.959633 -8.5317507 -74.652885 -0.28933585 -90.809982
9210250000 -1.0914654 122.83377 -8.5507755 -73.95372 -8.5317764 -74.711296 -0.29141974 -90.80687
9210312500 -1.0979182 122.82102 -8.5470247 -73.919395 -8.5272017 -74.717972 -0.28777829 -90.82798
9210375000 -1.0958291 122.80325 -8.5484972 -73.982971 -8.5299788 -74.72316 -0.29640931 -90.825966
9210437500 -1.0965322 122.78584 -8.5441008 -73.942589 -8.532567 -74.751816 -0.29600215 -90.840065
9210500000 -1.090149 122.71754 -8.5367785 -73.955383 -8.5314493 -74.688759 -0.29111451 -90.744003
9210562500 -1.0927014 122.73976 -8.5349808 -73.952866 -8.5226736 -74.732994 -0.28853217 -90.804565
9210625000 -1.0854104 122.63401 -8.5263643 -73.921928 -8.5290232 -74.707191 -0.29286921 -90.744286
9210687500 -1.0895152 122.63039 -8.5324392 -73.975235 -8.528553 -74.676674 -0.29886749 -90.739372
9210750000 -1.0863892 122.64144 -8.5247908 -73.88076 -8.5339375 -74.683502 -0.29887041 -90.707321
9210812500 -1.089354 122.62564 -8.5296192 -73.983788 -8.5250893 -74.637444 -0.29617721 -90.637619
9210875000 -1.0890999 122.62421 -8.5268259 -73.943672 -8.5272865 -74.639206 -0.29179475 -90.60495
9210937500 -1.0884109 122.63863 -8.5278664 -73.957596 -8.5203676 -74.643288 -0.29286349 -90.569855
9211000000 -1.0860915 122.59319 -8.5222893 -73.951851 -8.523983 -74.595642 -0.2940256 -90.556564
9211062500 -1.0910853 122.59106 -8.5308313 -73.948196 -8.5200253 -74.671448 -0.2959587 -90.581802
9211125000 -1.0952398 122.58273 -8.5248985 -73.96769 -8.5187206 -74.646828 -0.29445004 -90.55201
9211187500 -1.0904405 122.5826 -8.5349588 -73.934639 -8.5169439 -74.6576 -0.29363811 -90.52224
9211250000 -1.0910417 122.55915 -8.5234709 -73.916664 -8.5212231 -74.63726 -0.30070472 -90.502922
9211312500 -1.0889127 122.51302 -8.5350132 -73.944679 -8.5228424 -74.652908 -0.29580206 -90.509613
9211375000 -1.0924803 122.54745 -8.5288334 -73.958992 -8.5156736 -74.659981 -0.30255082 -90.486534
9211437500 -1.0895264 122.52148 -8.5257521 -73.954559 -8.5195942 -74.682945 -0.30037946 -90.523003
9211500000 -1.0876724 122.53126 -8.5284033 -73.924271 -8.5217495 -74.639679 -0.29835734 -90.487885
9211562500 -1.0836205 122.52227 -8.5226851 -73.926498 -8.5142088 -74.673042 -0.2931568 -90.523293
9211625000 -1.0840701 122.53003 -8.5204868 -73.889664 -8.5245132 -74.693047 -0.29010662 -90.540337
9211687500 -1.0817285 122.53362 -8.5177603 -73.931602 -8.5099745 -74.645546 -0.28779858 -90.477142
9211750000 -1.0800811 122.5154 -8.5187016 -73.994621 -8.5238514 -74.641953 -0.29915321 -90.478569
9211812500 -1.0803329 122.52656 -8.5165062 -73.889366 -8.5123882 -74.648926 -0.29623497 -90.481781
9211875000 -1.0825894 122.48074 -8.5195971 -73.895248 -8.5094347 -74.591911 -0.29582569 -90.391365
9211937500 -1.0820725 122.43536 -8.517169 -73.917152 -8.5173512 -74.630302 -0.29502028 -90.394272
9212000000 -1.0861273 122.43191 -8.5156164 -73.875824 -8.5157146 -74.623962 -0.301626 -90.338905
9212062500 -1.0845129 122.41774 -8.5145054 -73.866409 -8.5082207 -74.657829 -0.29180282 -90.278885
9212125000 -1.0847037 122.36515 -8.5228043 -73.873558 -8.5127172 -74.674156 -0.30257267 -90.293411
9212187500 -1.087229 122.34892 -8.513937 -73.894325 -8.5079737 -74.698837 -0.2941829 -90.298065
9212250000 -1.0869457 122.28041 -8.5154867 -73.938751 -8.5043716 -74.665413 -0.29241127 -90.294197
9212312500 -1.0828141 122.26235 -8.5139074 -73.910034 -8.5020447 -74.660728 -0.28987113 -90.256424
