!Agilent Technologies,N5242A,MY51221714,A.09.90.19
!Agilent N5242A: A.09.90.19
!Date: Saturday, December 30, 2023 10:52:26
!Correction: S11(Full 2 Port(1,2)) 
!S21(Full 2 Port(1,2)) 
!S12(Full 2 Port(1,2)) 
!S22(Full 2 Port(1,2)) 
!S2P File: Measurements: S11, S21, S12, S22:
# Hz S  dB   R 50
9200000000 -1.0429616 125.25929 -8.625124 -73.286377 -8.6023445 -74.075317 -0.23194985 -92.898567
9200062500 -1.0452657 125.2631 -8.6208029 -73.287376 -8.5972719 -74.105568 -0.23290183 -92.879997
9200125000 -1.0456872 125.23412 -8.6224346 -73.293076 -8.5960093 -74.095673 -0.23200582 -92.838989
9200187500 -1.0480235 125.25485 -8.622242 -73.311104 -8.6015654 -74.097298 -0.22619048 -92.852882
9200250000 -1.0481725 125.19413 -8.620862 -73.301521 -8.6025429 -74.02951 -0.23880845 -92.824883
9200312500 -1.0498831 125.1992 -8.6266632 -73.342125 -8.6066437 -74.058937 -0.23808907 -92.79583
9200375000 -1.0521458 125.19231 -8.6259518 -73.298927 -8.606101 -74.134941 -0.23536664 -92.829872
9200437500 -1.0515004 125.13152 -8.6222315 -73.362404 -8.602458 -74.07605 -0.2333146 -92.787666
9200500000 -1.0524323 125.13914 -8.6267643 -73.329369 -8.6028175 -74.06501 -0.23589246 -92.752014
9200562500 -1.056769 125.07838 -8.6254702 -73.351753 -8.5999041 -74.120087 -0.2313095 -92.778076
9200625000 -1.0466677 125.09641 -8.6132126 -73.351143 -8.5898733 -74.103706 -0.22829099 -92.786415
9200687500 -1.0497605 125.0978 -8.6187782 -73.30011 -8.5944033 -74.085045 -0.23187171 -92.732536
9200750000 -1.0492134 125.04145 -8.6119413 -73.337173 -8.5889921 -74.102852 -0.22745195 -92.761917
9200812500 -1.0491731 125.03809 -8.6170988 -73.300201 -8.5933657 -74.099762 -0.23092766 -92.683578
9200875000 -1.0451733 125.04942 -8.6100636 -73.320175 -8.5847082 -74.111496 -0.23681211 -92.707085
9200937500 -1.0445209 125.04056 -8.6137447 -73.342369 -8.5916395 -74.074608 -0.23388731 -92.673996
9201000000 -1.0490435 125.03349 -8.6152983 -73.331169 -8.5902777 -74.056137 -0.23320851 -92.638031
9201062500 -1.0480435 125.03183 -8.6222458 -73.406662 -8.5937395 -74.007721 -0.24180162 -92.643585
9201125000 -1.0502996 125.06794 -8.6130133 -73.282005 -8.6065111 -74.069107 -0.24155183 -92.625771
9201187500 -1.0496278 125.02509 -8.615881 -73.336456 -8.6006269 -74.069138 -0.2454116 -92.667564
9201250000 -1.0483673 125.01382 -8.6234045 -73.302666 -8.597353 -74.019966 -0.2439466 -92.59861
9201312500 -1.0492893 125.04507 -8.6198988 -73.287331 -8.5947552 -74.020248 -0.24087466 -92.561424
9201375000 -1.0554568 125.03696 -8.61728 -73.257721 -8.5915022 -74.06118 -0.23748417 -92.57222
9201437500 -1.0518323 124.98481 -8.6092606 -73.277115 -8.5866175 -74.004128 -0.23213759 -92.510727
9201500000 -1.0525452 124.97279 -8.6002407 -73.27417 -8.5928507 -74.100021 -0.23638658 -92.509117
9201562500 -1.0544143 124.90592 -8.6075687 -73.333458 -8.5882006 -74.052116 -0.22963937 -92.448425
9201625000 -1.0472087 124.94425 -8.6040869 -73.231163 -8.5928907 -74.09082 -0.23308787 -92.457611
9201687500 -1.0545303 124.91034 -8.6067257 -73.234444 -8.5821123 -74.025543 -0.23385006 -92.382935
9201750000 -1.0491866 124.89814 -8.6091833 -73.28672 -8.5861397 -74.060509 -0.24054812 -92.440819
9201812500 -1.0525599 124.91702 -8.6073418 -73.233177 -8.5882416 -73.93647 -0.2386069 -92.363022
9201875000 -1.0533789 124.91151 -8.6008081 -73.229385 -8.5807505 -74.029869 -0.2344331 -92.438217
9201937500 -1.0529556 124.88468 -8.6025028 -73.27063 -8.5881367 -74.01416 -0.2481389 -92.387817
9202000000 -1.0509757 124.9024 -8.608202 -73.307434 -8.5922222 -74.004601 -0.24895926 -92.373047
9202062500 -1.0503578 124.8562 -8.605587 -73.282654 -8.588973 -74.031578 -0.25009009 -92.369942
9202125000 -1.0487343 124.83721 -8.6024532 -73.282677 -8.5827808 -74.00634 -0.24477172 -92.353035
9202187500 -1.0507668 124.84377 -8.6029205 -73.252838 -8.5830622 -74.05304 -0.2443936 -92.396896
9202250000 -1.0451361 124.79377 -8.5971708 -73.261726 -8.5807343 -74.018883 -0.24177757 -92.30838
9202312500 -1.0497792 124.7581 -8.5982533 -73.312096 -8.5856619 -74.064766 -0.24568138 -92.36467
9202375000 -1.0470943 124.76551 -8.5972986 -73.292183 -8.5869417 -74.088394 -0.24765795 -92.282967
9202437500 -1.0431979 124.74538 -8.6004572 -73.256195 -8.5890331 -74.094238 -0.24744263 -92.3237
9202500000 -1.0430564 124.73562 -8.5923271 -73.321442 -8.5849152 -74.107605 -0.24452372 -92.302299
9202562500 -1.0486008 124.71878 -8.5924301 -73.259804 -8.5861845 -74.024559 -0.24376227 -92.239349
9202625000 -1.0447192 124.69086 -8.5863924 -73.263786 -8.5856667 -74.060982 -0.2442026 -92.249184
9202687500 -1.0479647 124.67268 -8.5956049 -73.308922 -8.5791712 -74.099312 -0.24508917 -92.245819
9202750000 -1.0477352 124.70708 -8.5891581 -73.214523 -8.5793734 -74.089989 -0.24159084 -92.207809
9202812500 -1.0466535 124.64249 -8.5922937 -73.283905 -8.571969 -74.075157 -0.24252659 -92.197166
9202875000 -1.0484611 124.68263 -8.5935202 -73.188545 -8.5734358 -74.020607 -0.24329439 -92.157127
9202937500 -1.0479456 124.63551 -8.6002607 -73.236557 -8.5787086 -74.081268 -0.25085738 -92.174934
9203000000 -1.0407563 124.63155 -8.5888224 -73.233612 -8.5739031 -74.07592 -0.24966554 -92.155128
9203062500 -1.0424094 124.58824 -8.5915003 -73.282967 -8.5686798 -74.06398 -0.24390046 -92.157928
9203125000 -1.0432534 124.602 -8.58531 -73.163002 -8.5659885 -73.980125 -0.2482935 -92.085648
9203187500 -1.0409206 124.57516 -8.5858803 -73.259384 -8.570241 -74.043488 -0.24018453 -92.086853
9203250000 -1.0445926 124.58064 -8.5823832 -73.234558 -8.574604 -73.997696 -0.24229179 -92.032509
9203312500 -1.0419489 124.57997 -8.5745211 -73.238457 -8.5649595 -74.001686 -0.23658806 -92.033974
9203375000 -1.0457096 124.56268 -8.5671759 -73.255074 -8.5780611 -74.006279 -0.24048893 -92.018181
9203437500 -1.0422981 124.56581 -8.5716181 -73.203156 -8.5766964 -74.054878 -0.24634287 -91.983986
9203500000 -1.0451559 124.54155 -8.5734158 -73.263046 -8.5810652 -74.007584 -0.24531296 -91.985161
9203562500 -1.0520345 124.56647 -8.5691414 -73.220764 -8.5733213 -74.043213 -0.23909342 -91.960182
9203625000 -1.051468 124.5204 -8.5755348 -73.257523 -8.5665054 -74.03331 -0.24251984 -91.966782
9203687500 -1.0426782 124.48472 -8.5799227 -73.229202 -8.57125 -74.051361 -0.2426724 -91.936317
9203750000 -1.0462948 124.45248 -8.5748186 -73.317162 -8.5740318 -74.004967 -0.25458363 -91.947823
9203812500 -1.0522375 124.44689 -8.5812969 -73.193657 -8.5600119 -73.985809 -0.24364702 -91.949837
9203875000 -1.0495952 124.4353 -8.5807085 -73.259735 -8.5607767 -74.038094 -0.24772996 -91.952621
9203937500 -1.0474023 124.39677 -8.5748119 -73.284187 -8.5625315 -74.013664 -0.24340475 -91.903427
9204000000 -1.0486978 124.3807 -8.5807705 -73.240868 -8.5704346 -73.992065 -0.24369533 -91.895004
9204062500 -1.0485636 124.38896 -8.5800953 -73.181625 -8.5692902 -74.007133 -0.237927 -91.8424
9204125000 -1.0464666 124.39816 -8.5700722 -73.226112 -8.5656424 -74.013153 -0.24204326 -91.833954
9204187500 -1.0545634 124.37312 -8.5814686 -73.262733 -8.5528774 -74.017296 -0.23441486 -91.824692
9204250000 -1.0447546 124.38044 -8.5724316 -73.199867 -8.5583792 -73.951637 -0.23599432 -91.734192
9204312500 -1.0411036 124.33272 -8.5631714 -73.207863 -8.5639706 -73.997673 -0.23960564 -91.794289
9204375000 -1.0399604 124.32652 -8.5592127 -73.153526 -8.5576077 -73.95562 -0.24039087 -91.747292
9204437500 -1.0427732 124.31046 -8.5613327 -73.149178 -8.5593929 -73.939079 -0.24205726 -91.697868
9204500000 -1.0401368 124.33714 -8.5704746 -73.16433 -8.5639477 -74.010071 -0.25311166 -91.722847
9204562500 -1.0382229 124.30541 -8.5572548 -73.109741 -8.5506954 -73.923309 -0.24428169 -91.660934
9204625000 -1.037842 124.24479 -8.5664597 -73.179214 -8.5533714 -73.967026 -0.24489829 -91.672234
9204687500 -1.0437807 124.24625 -8.5688591 -73.110252 -8.5558815 -73.985802 -0.24858736 -91.641846
9204750000 -1.0437167 124.21802 -8.5620308 -73.178986 -8.5571747 -73.973671 -0.24903712 -91.60527
9204812500 -1.0439003 124.20692 -8.5661488 -73.200935 -8.5522966 -73.916428 -0.25221258 -91.571175
9204875000 -1.0481554 124.20655 -8.5691252 -73.20623 -8.5547256 -73.95372 -0.24839553 -91.609375
9204937500 -1.0496267 124.19006 -8.5629711 -73.190407 -8.5456944 -73.939682 -0.24942876 -91.594727
9205000000 -1.0485121 124.16728 -8.5670824 -73.283997 -8.5504322 -73.92556 -0.25011468 -91.59449
9205062500 -1.0448759 124.16108 -8.5593309 -73.258324 -8.5523071 -73.933449 -0.24884699 -91.560059
9205125000 -1.047388 124.15192 -8.5599308 -73.214096 -8.5539875 -73.989326 -0.24101023 -91.549278
9205187500 -1.0481452 124.16246 -8.5656404 -73.210876 -8.5600338 -74.018669 -0.24611548 -91.532715
9205250000 -1.0485249 124.15436 -8.5511599 -73.188179 -8.5576916 -73.986404 -0.23888414 -91.518372
9205312500 -1.0438671 124.17421 -8.5609636 -73.164207 -8.5535755 -74.02533 -0.23909476 -91.449562
9205375000 -1.0495487 124.13888 -8.5597219 -73.15078 -8.5528336 -74.002342 -0.23575369 -91.43708
9205437500 -1.0501999 124.11639 -8.5545807 -73.122467 -8.554822 -74.002151 -0.24299654 -91.428886
9205500000 -1.050427 124.09928 -8.5657778 -73.116112 -8.5512209 -73.973038 -0.24497001 -91.405006
9205562500 -1.046069 124.06569 -8.5655289 -73.151131 -8.5441675 -73.982368 -0.24444894 -91.38192
9205625000 -1.0434909 124.02636 -8.5582047 -73.156647 -8.5431137 -73.942421 -0.25254393 -91.284081
9205687500 -1.0463496 123.99999 -8.5667267 -73.163292 -8.5466986 -73.905212 -0.26020652 -91.292587
9205750000 -1.0534196 124.01115 -8.5704117 -73.102638 -8.5379963 -73.88179 -0.2504876 -91.267906
9205812500 -1.0488408 124.0155 -8.5606899 -73.131691 -8.5364952 -73.929237 -0.2540772 -91.271973
9205875000 -1.0511553 123.97009 -8.5617771 -73.163979 -8.5461159 -73.914688 -0.25119844 -91.277313
9205937500 -1.0547786 123.9578 -8.5605268 -73.118912 -8.5464468 -73.97139 -0.25772882 -91.276276
9206000000 -1.0525929 123.95447 -8.5586653 -73.141754 -8.545001 -73.922165 -0.25966427 -91.217613
9206062500 -1.0464027 123.94527 -8.5523977 -73.115349 -8.5484581 -73.947212 -0.25979424 -91.260315
9206125000 -1.0504124 123.90681 -8.5561275 -73.143082 -8.5360994 -73.876457 -0.24707796 -91.199921
9206187500 -1.0491779 123.89869 -8.5425396 -73.177124 -8.5393286 -73.941032 -0.25442407 -91.185638
9206250000 -1.0472147 123.89145 -8.5550737 -73.129402 -8.5457449 -73.923378 -0.26227415 -91.197937
9206312500 -1.0482659 123.85938 -8.5524368 -73.169334 -8.5400505 -73.922852 -0.26219636 -91.158524
9206375000 -1.0503273 123.84282 -8.5473051 -73.197487 -8.5488663 -73.964813 -0.26249349 -91.157349
9206437500 -1.0436596 123.83029 -8.5457363 -73.17617 -8.5438776 -73.884911 -0.25866789 -91.079384
9206500000 -1.0462828 123.80869 -8.5409384 -73.163925 -8.532774 -73.898613 -0.26127031 -91.128593
9206562500 -1.0502785 123.80946 -8.5485172 -73.152489 -8.5427351 -73.905754 -0.25746652 -91.084999
9206625000 -1.0526159 123.80691 -8.5399752 -73.220177 -8.5315485 -73.911751 -0.2523936 -91.100761
9206687500 -1.0506264 123.83675 -8.5389938 -73.205345 -8.5246944 -73.838333 -0.24536538 -91.060616
9206750000 -1.0540494 123.79139 -8.5420799 -73.251579 -8.5263729 -73.889412 -0.2495207 -91.095833
9206812500 -1.0535728 123.86719 -8.5540199 -73.172264 -8.5273933 -73.892632 -0.24434581 -91.042679
9206875000 -1.0472231 123.84344 -8.5486012 -73.154831 -8.5319147 -73.825928 -0.24514006 -90.993393
9206937500 -1.0451057 123.76438 -8.5369205 -73.207375 -8.5239029 -73.888855 -0.24378352 -91.045151
9207000000 -1.0472339 123.77029 -8.5410967 -73.199905 -8.5302696 -73.929268 -0.24346803 -91.013565
9207062500 -1.0443256 123.74029 -8.5390644 -73.17424 -8.5180178 -73.932144 -0.24375533 -90.980972
9207125000 -1.047141 123.71259 -8.5469542 -73.130852 -8.5221853 -73.926277 -0.24685049 -90.965851
9207187500 -1.0433391 123.67686 -8.5381165 -73.16777 -8.5251598 -73.907036 -0.24986005 -90.925293
9207250000 -1.0478665 123.67373 -8.5404272 -73.132866 -8.5215321 -73.859062 -0.24672428 -90.874832
9207312500 -1.0435842 123.6626 -8.5428247 -73.101852 -8.520196 -73.894432 -0.25134182 -90.846306
9207375000 -1.0494155 123.6192 -8.5359745 -73.168861 -8.5275221 -73.920761 -0.25696343 -90.889687
9207437500 -1.0500075 123.59184 -8.5412998 -73.186852 -8.5266485 -73.879288 -0.25794882 -90.856323
9207500000 -1.044314 123.61044 -8.5337391 -73.153671 -8.5191908 -73.923477 -0.25741515 -90.897598
9207562500 -1.0477407 123.59879 -8.5259972 -73.167313 -8.5281754 -73.893791 -0.26040709 -90.859337
9207625000 -1.0457212 123.51605 -8.5279837 -73.187584 -8.5207272 -73.876289 -0.25598648 -90.860893
9207687500 -1.0489173 123.57243 -8.5260973 -73.182625 -8.5274467 -73.929405 -0.25974384 -90.839684
9207750000 -1.0561507 123.56561 -8.523118 -73.228844 -8.5198708 -73.873322 -0.25897589 -90.812233
9207812500 -1.052544 123.53202 -8.5325441 -73.207115 -8.5231504 -73.924881 -0.25619441 -90.868828
9207875000 -1.0561721 123.53311 -8.5333672 -73.251884 -8.5269947 -73.920776 -0.25621256 -90.813469
9207937500 -1.0561858 123.52763 -8.5230122 -73.134827 -8.5202351 -73.93277 -0.24266142 -90.796516
9208000000 -1.0570412 123.52698 -8.5327539 -73.153709 -8.5309248 -73.883339 -0.24842434 -90.728088
9208062500 -1.0563619 123.54963 -8.5307045 -73.133904 -8.5253525 -73.964302 -0.25174138 -90.728462
9208125000 -1.0571816 123.52879 -8.5251188 -73.135727 -8.5287294 -73.960564 -0.25567231 -90.683762
9208187500 -1.0493664 123.47576 -8.5183372 -73.113419 -8.520359 -73.906448 -0.25168863 -90.680992
9208250000 -1.0489151 123.45165 -8.5206823 -73.151939 -8.5195684 -73.894867 -0.25844777 -90.655396
9208312500 -1.0470432 123.48358 -8.5217876 -73.098656 -8.5231428 -73.912872 -0.26070544 -90.594711
9208375000 -1.047935 123.43906 -8.5154152 -73.094681 -8.5140743 -73.918221 -0.25862217 -90.587273
9208437500 -1.045735 123.42177 -8.5156441 -73.055946 -8.5166454 -73.915329 -0.25430566 -90.603691
9208500000 -1.0460527 123.45112 -8.512661 -73.081963 -8.5155172 -73.872055 -0.25541845 -90.551674
9208562500 -1.0487895 123.39198 -8.5131741 -73.125496 -8.5185204 -73.907272 -0.25579086 -90.552238
9208625000 -1.0517974 123.41953 -8.5122089 -73.04493 -8.5185404 -73.916695 -0.25775003 -90.599541
9208687500 -1.0467312 123.39149 -8.517581 -73.096558 -8.5129547 -73.856552 -0.25453964 -90.557938
9208750000 -1.047935 123.40736 -8.5211124 -73.100357 -8.5116081 -73.858093 -0.25561735 -90.543922
9208812500 -1.0463566 123.3799 -8.5190201 -73.026871 -8.5146914 -73.890244 -0.26112697 -90.552483
9208875000 -1.0459582 123.36578 -8.5214739 -73.067749 -8.5058413 -73.864227 -0.26005957 -90.490509
9208937500 -1.0436848 123.33592 -8.5095253 -73.065102 -8.5025625 -73.855003 -0.25880095 -90.500465
9209000000 -1.0448524 123.32356 -8.5163202 -73.072182 -8.5125675 -73.884369 -0.26481465 -90.495834
9209062500 -1.0437112 123.30627 -8.5128374 -73.130432 -8.5102205 -73.866142 -0.26991317 -90.462929
9209125000 -1.0461731 123.32144 -8.5136051 -73.03978 -8.5059814 -73.855042 -0.26504192 -90.411453
9209187500 -1.0437597 123.28172 -8.5147743 -73.061012 -8.5060997 -73.824089 -0.26857188 -90.384651
9209250000 -1.0414668 123.23895 -8.514327 -73.131081 -8.5079918 -73.809052 -0.26428097 -90.376457
9209312500 -1.04333 123.22935 -8.514122 -73.072159 -8.5112782 -73.815353 -0.26877338 -90.324074
9209375000 -1.0424535 123.22588 -8.5104494 -73.104057 -8.5055256 -73.787979 -0.26409426 -90.315102
9209437500 -1.0420518 123.22012 -8.5036869 -73.059738 -8.5080061 -73.804085 -0.26522636 -90.286217
9209500000 -1.0402464 123.19795 -8.5016184 -73.056007 -8.499918 -73.841614 -0.26061422 -90.292366
9209562500 -1.0447791 123.14935 -8.5117378 -73.090836 -8.4969444 -73.840508 -0.25681946 -90.308868
9209625000 -1.0439308 123.17264 -8.512166 -73.086479 -8.5118952 -73.839111 -0.26356769 -90.301147
9209687500 -1.0520948 123.14291 -8.5080938 -73.074272 -8.5041113 -73.823509 -0.26045671 -90.23439
9209750000 -1.0513585 123.13562 -8.5022097 -73.127602 -8.5043764 -73.832588 -0.25279292 -90.263435
9209812500 -1.0555013 123.13261 -8.5043001 -73.166992 -8.4988747 -73.871307 -0.25338802 -90.269928
9209875000 -1.0597351 123.10714 -8.5128498 -73.117378 -8.4963732 -73.834312 -0.2505618 -90.227669
9209937500 -1.0541468 123.12611 -8.5132427 -73.072769 -8.5006342 -73.843597 -0.2522625 -90.24205
9210000000 -1.059621 123.10268 -8.5052986 -73.045914 -8.4989004 -73.821457 -0.25506565 -90.173668
9210062500 -1.0531607 123.09657 -8.498457 -73.083092 -8.4933462 -73.755295 -0.25966141 -90.117249
9210125000 -1.0538495 123.11063 -8.5069427 -73.030235 -8.4911995 -73.829575 -0.25546536 -90.144997
9210187500 -1.0554113 123.0657 -8.5016012 -73.021919 -8.4884806 -73.792542 -0.25637129 -90.113777
9210250000 -1.0551382 123.04329 -8.5054426 -73.086861 -8.4871426 -73.860786 -0.25448641 -90.173042
9210312500 -1.0538336 123.03815 -8.4978695 -73.088951 -8.4913998 -73.832596 -0.25895157 -90.097992
9210375000 -1.0525558 123.02274 -8.5024586 -73.079552 -8.4951363 -73.802711 -0.26147115 -90.093681
9210437500 -1.0530611 122.99672 -8.499589 -73.028061 -8.4891891 -73.824043 -0.26088393 -90.088539
9210500000 -1.049948 122.97252 -8.4961138 -73.094742 -8.4961147 -73.832642 -0.26891991 -90.062874
9210562500 -1.0523393 122.94017 -8.4917154 -73.136162 -8.489419 -73.865791 -0.26161358 -90.087143
9210625000 -1.0537163 122.87796 -8.4958525 -73.058952 -8.4855518 -73.85675 -0.26286289 -90.073761
9210687500 -1.0470641 122.86356 -8.4911375 -73.060928 -8.4830408 -73.789413 -0.26308605 -90.01152
9210750000 -1.0423169 122.84534 -8.4909925 -73.070099 -8.4892979 -73.806694 -0.26191273 -90.00782
9210812500 -1.0457948 122.83934 -8.484539 -73.075089 -8.4875841 -73.815598 -0.26247966 -89.961525
9210875000 -1.0473191 122.83636 -8.4787731 -73.090187 -8.4823141 -73.773262 -0.26086715 -89.919937
9210937500 -1.0524307 122.81559 -8.4895105 -73.090866 -8.479393 -73.729088 -0.26286125 -89.885384
9211000000 -1.0476992 122.82033 -8.4863024 -73.108788 -8.4740849 -73.739258 -0.25971249 -89.858948
9211062500 -1.0502946 122.82225 -8.4846315 -73.011208 -8.4822464 -73.744102 -0.2643435 -89.822464
9211125000 -1.0475695 122.78835 -8.4911766 -73.09481 -8.4828062 -73.78334 -0.267827 -89.836098
9211187500 -1.0537961 122.82717 -8.4905405 -73.032173 -8.4787416 -73.804276 -0.27015105 -89.835014
9211250000 -1.0456347 122.81067 -8.4903021 -73.025864 -8.478426 -73.753441 -0.27201405 -89.815216
9211312500 -1.0526228 122.82183 -8.4913378 -73.026863 -8.4739237 -73.788658 -0.27037612 -89.770889
9211375000 -1.0499007 122.75846 -8.4867125 -73.070198 -8.4733191 -73.782402 -0.27106094 -89.792297
9211437500 -1.0474426 122.74555 -8.4771471 -73.03286 -8.4790888 -73.808632 -0.27234808 -89.822227
9211500000 -1.0478489 122.74536 -8.4912567 -73.100906 -8.4860868 -73.754311 -0.27405366 -89.786522
9211562500 -1.0454941 122.78447 -8.4831533 -73.051369 -8.4746294 -73.798027 -0.26360327 -89.821358
9211625000 -1.0452496 122.76012 -8.4789581 -73.094925 -8.4849596 -73.846085 -0.26842004 -89.856674
9211687500 -1.0425271 122.75634 -8.4741602 -73.037354 -8.4805422 -73.723885 -0.26298574 -89.766411
9211750000 -1.0399991 122.76643 -8.4781265 -73.010086 -8.4750452 -73.796562 -0.25921503 -89.811729
9211812500 -1.0483119 122.68091 -8.4837971 -73.074348 -8.4755507 -73.767212 -0.26185161 -89.761787
9211875000 -1.0428991 122.66993 -8.477232 -73.069847 -8.4829006 -73.808388 -0.2631225 -89.768349
9211937500 -1.0461847 122.62566 -8.4757013 -73.072311 -8.470376 -73.728607 -0.26705903 -89.649765
9212000000 -1.0452107 122.6512 -8.4820452 -72.99707 -8.4696732 -73.776566 -0.26709822 -89.659348
9212062500 -1.0453992 122.59451 -8.4723091 -73.003029 -8.4700842 -73.740372 -0.27050245 -89.61692
9212125000 -1.0463817 122.58837 -8.4828758 -73.002228 -8.4670086 -73.807297 -0.26404673 -89.596207
9212187500 -1.0436661 122.55557 -8.4747095 -73.005569 -8.4643774 -73.765457 -0.26690888 -89.558868
9212250000 -1.0474508 122.53773 -8.4763136 -73.037682 -8.4684343 -73.794395 -0.26626053 -89.584579
9212312500 -1.0456526 122.50245 -8.4665813 -73.026283 -8.472352 -73.788071 -0.26690677 -89.603699
