!Agilent Technologies,N5242A,MY51221714,A.09.90.19
!Agilent N5242A: A.09.90.19
!Date: Saturday, December 30, 2023 10:38:30
!Correction: S11(Full 2 Port(1,2)) 
!S21(Full 2 Port(1,2)) 
!S12(Full 2 Port(1,2)) 
!S22(Full 2 Port(1,2)) 
!S2P File: Measurements: S11, S21, S12, S22:
# Hz S  dB   R 50
9200000000 -1.0275388 125.80964 -8.732378 -73.230438 -8.7233772 -73.992958 -0.22183843 -93.060715
9200062500 -1.0353858 125.81826 -8.7398062 -73.193527 -8.7152081 -74.021797 -0.21638918 -93.117027
9200125000 -1.0360137 125.75135 -8.735796 -73.271049 -8.7185383 -74.013161 -0.22109933 -93.068626
9200187500 -1.0387765 125.75273 -8.7388697 -73.229988 -8.7168379 -73.985413 -0.2246189 -93.003548
9200250000 -1.037529 125.75916 -8.738266 -73.275452 -8.7184839 -74.04895 -0.22500594 -93.048264
9200312500 -1.0361249 125.76576 -8.7404032 -73.224518 -8.7144146 -74.040802 -0.21385419 -93.072006
9200375000 -1.0325686 125.70977 -8.7411633 -73.265045 -8.7177324 -73.988152 -0.22264411 -92.98996
9200437500 -1.0368098 125.68241 -8.7405443 -73.261307 -8.7177935 -73.984215 -0.2235897 -93.007729
9200500000 -1.0386235 125.64625 -8.7431097 -73.264343 -8.7195091 -73.92939 -0.2252638 -92.964218
9200562500 -1.0393244 125.65121 -8.7454548 -73.252876 -8.7120275 -73.99398 -0.22635347 -92.9795
9200625000 -1.0377827 125.64524 -8.7367449 -73.264099 -8.7126408 -73.981766 -0.22252716 -92.962082
9200687500 -1.0364257 125.61017 -8.736207 -73.260475 -8.7104254 -73.991226 -0.21985276 -92.931229
9200750000 -1.0358779 125.59351 -8.7293062 -73.280914 -8.7039089 -73.966812 -0.21814834 -92.913162
9200812500 -1.028698 125.60661 -8.7287378 -73.203438 -8.697649 -73.941788 -0.21594729 -92.872444
9200875000 -1.0343665 125.58839 -8.7323856 -73.264565 -8.696805 -73.989784 -0.2206789 -92.896507
9200937500 -1.0347414 125.55533 -8.733285 -73.293442 -8.7023802 -74.021889 -0.22288682 -92.860733
9201000000 -1.0339348 125.58957 -8.7265558 -73.224495 -8.7063503 -73.968315 -0.2267745 -92.846703
9201062500 -1.0329934 125.56966 -8.7316551 -73.268173 -8.7142134 -73.95546 -0.231462 -92.858788
9201125000 -1.0345895 125.59406 -8.7336388 -73.235992 -8.7186499 -73.960304 -0.23007111 -92.865585
9201187500 -1.0374227 125.58454 -8.7352791 -73.246513 -8.7108536 -73.912697 -0.23152833 -92.779945
9201250000 -1.0348738 125.5844 -8.7381773 -73.222908 -8.7215719 -73.969971 -0.23472852 -92.809341
9201312500 -1.0392488 125.54066 -8.7290897 -73.227753 -8.7143898 -73.920799 -0.23172575 -92.739601
9201375000 -1.0364827 125.52686 -8.7238245 -73.205215 -8.7051954 -74.043571 -0.22573599 -92.778549
9201437500 -1.0409672 125.56016 -8.7289829 -73.183952 -8.7152233 -73.994392 -0.23361294 -92.749435
9201500000 -1.0446285 125.4901 -8.722208 -73.226471 -8.7088413 -73.977539 -0.22614101 -92.667038
9201562500 -1.0378853 125.48197 -8.7174501 -73.22065 -8.7119799 -74.038712 -0.22211564 -92.681976
9201625000 -1.0414937 125.43639 -8.71597 -73.169456 -8.6992722 -73.978622 -0.21722323 -92.615738
9201687500 -1.0426412 125.44894 -8.7218418 -73.187843 -8.6974478 -73.974289 -0.22605206 -92.647926
9201750000 -1.0411927 125.45441 -8.7214451 -73.163956 -8.7008495 -73.922401 -0.22674759 -92.615059
9201812500 -1.0407284 125.43478 -8.7249613 -73.191673 -8.6960535 -73.979675 -0.22794916 -92.617393
9201875000 -1.0399225 125.44458 -8.7217999 -73.206985 -8.7079296 -73.967178 -0.2271594 -92.631973
9201937500 -1.0426153 125.42312 -8.7270117 -73.223289 -8.7026129 -73.910278 -0.23650184 -92.607201
9202000000 -1.0363287 125.40308 -8.7187214 -73.178871 -8.7042236 -73.925438 -0.2354888 -92.59346
9202062500 -1.0364178 125.39014 -8.7164145 -73.178337 -8.7064457 -73.934624 -0.23455447 -92.616295
9202125000 -1.0376152 125.3804 -8.711854 -73.202118 -8.7024174 -73.928612 -0.23072475 -92.576134
9202187500 -1.0360447 125.3402 -8.7142229 -73.194221 -8.694397 -73.938957 -0.22756548 -92.532272
9202250000 -1.0349616 125.32413 -8.7099409 -73.239723 -8.694932 -73.973442 -0.23505126 -92.534538
9202312500 -1.0341178 125.32983 -8.7143726 -73.255013 -8.7015991 -73.897369 -0.23472621 -92.497894
9202375000 -1.0324291 125.3062 -8.7139225 -73.201431 -8.7079105 -73.990166 -0.23838894 -92.470589
9202437500 -1.0329608 125.27911 -8.7108335 -73.222977 -8.7016735 -73.9487 -0.23566203 -92.461342
9202500000 -1.0357486 125.25523 -8.7104483 -73.253281 -8.6988049 -73.986847 -0.23549993 -92.466682
9202562500 -1.0367609 125.25053 -8.7063017 -73.203087 -8.7009993 -73.970879 -0.23520803 -92.479469
9202625000 -1.0335964 125.24246 -8.7101803 -73.160118 -8.6997385 -73.957932 -0.23429015 -92.407883
9202687500 -1.0333041 125.25597 -8.7112646 -73.165352 -8.6921864 -74.003624 -0.2349194 -92.448875
9202750000 -1.0363359 125.23643 -8.7176723 -73.135742 -8.698143 -73.994766 -0.23820277 -92.375069
9202812500 -1.0352614 125.22454 -8.7056093 -73.16095 -8.6887579 -73.971336 -0.23321542 -92.372055
9202875000 -1.0353851 125.21664 -8.7077599 -73.153587 -8.6917572 -73.952484 -0.23136652 -92.385658
9202937500 -1.0337902 125.15599 -8.7088423 -73.181229 -8.6848888 -73.943253 -0.23618725 -92.366661
9203000000 -1.0317986 125.14502 -8.69561 -73.154526 -8.6879902 -73.935493 -0.23048247 -92.362228
9203062500 -1.0340025 125.16834 -8.7071819 -73.170761 -8.6794806 -73.932076 -0.2338102 -92.333473
9203125000 -1.0319118 125.09188 -8.7046499 -73.136803 -8.6806335 -73.911346 -0.22994897 -92.261093
9203187500 -1.0303103 125.12741 -8.6960793 -73.17308 -8.6988554 -73.957703 -0.23779941 -92.29007
9203250000 -1.0310191 125.10814 -8.6876402 -73.202538 -8.6848221 -73.937538 -0.22753386 -92.250061
9203312500 -1.0324528 125.10143 -8.6942492 -73.200172 -8.689229 -73.899368 -0.23494273 -92.242996
9203375000 -1.0290351 125.11941 -8.6872673 -73.171715 -8.6938353 -73.952744 -0.23719169 -92.213547
9203437500 -1.0308422 125.10126 -8.6801348 -73.136803 -8.697463 -73.821648 -0.22740908 -92.093307
9203500000 -1.0339626 125.08975 -8.6791286 -73.157013 -8.6894245 -73.918015 -0.22691998 -92.176277
9203562500 -1.0357304 125.05699 -8.6935272 -73.130997 -8.6931429 -73.888153 -0.24027181 -92.124512
9203625000 -1.0342714 125.05037 -8.6885242 -73.201645 -8.6896343 -73.899254 -0.23505361 -92.145462
9203687500 -1.0306509 125.04514 -8.6863842 -73.113342 -8.6788435 -73.877571 -0.23573399 -92.143761
9203750000 -1.0322605 124.93839 -8.6902628 -73.224129 -8.6818342 -73.875702 -0.23568484 -92.110512
9203812500 -1.0336164 124.97416 -8.6948681 -73.200645 -8.6795416 -73.944984 -0.23729239 -92.153099
9203875000 -1.0371333 124.94039 -8.6938648 -73.211021 -8.677577 -73.943939 -0.233512 -92.148964
9203937500 -1.0334765 124.94408 -8.6843824 -73.194344 -8.676136 -73.952415 -0.23327637 -92.138252
9204000000 -1.0333027 124.95319 -8.6892748 -73.172821 -8.6820345 -73.931396 -0.23950456 -92.052612
9204062500 -1.0313523 124.9165 -8.6863012 -73.179466 -8.6789207 -73.932205 -0.22556247 -92.0466
9204125000 -1.0367908 124.9348 -8.686532 -73.166306 -8.6747131 -73.914536 -0.22555946 -92.045685
9204187500 -1.0358168 124.91781 -8.686223 -73.1698 -8.6706018 -73.889328 -0.22451387 -92.003693
9204250000 -1.0341228 124.88319 -8.6826286 -73.115463 -8.6869726 -73.88652 -0.2325034 -92.002663
9204312500 -1.0322098 124.87918 -8.6777592 -73.181427 -8.6784992 -73.890686 -0.22615777 -92.004791
9204375000 -1.0281843 124.87762 -8.6827078 -73.126816 -8.6781597 -73.867363 -0.23726091 -91.927147
9204437500 -1.0267429 124.86926 -8.6832333 -73.081139 -8.6730804 -73.925034 -0.2372971 -91.944191
9204500000 -1.0285357 124.8581 -8.6853113 -73.080009 -8.6717291 -73.883141 -0.23117203 -91.930443
9204562500 -1.0293379 124.81607 -8.6707859 -73.095467 -8.671381 -73.888268 -0.23901637 -91.90033
9204625000 -1.0240924 124.79063 -8.670351 -73.052856 -8.6765127 -73.8787 -0.24506496 -91.865494
9204687500 -1.0268399 124.76809 -8.6851234 -73.104752 -8.6766596 -73.847496 -0.24018106 -91.847694
9204750000 -1.0326947 124.74614 -8.6740217 -73.100616 -8.6650782 -73.903595 -0.24272089 -91.82888
9204812500 -1.0324124 124.73235 -8.6802292 -73.168732 -8.6697693 -73.902405 -0.23565346 -91.854492
9204875000 -1.0355594 124.71391 -8.6775217 -73.161789 -8.6715126 -73.849586 -0.24284004 -91.804321
9204937500 -1.0375786 124.70029 -8.6869221 -73.151894 -8.6703844 -73.84993 -0.23952894 -91.776947
9205000000 -1.0322839 124.69561 -8.6789827 -73.157211 -8.6594591 -73.852165 -0.23811884 -91.781189
9205062500 -1.0344132 124.7301 -8.6673527 -73.156227 -8.6662617 -73.867661 -0.23451576 -91.775139
9205125000 -1.0352079 124.6658 -8.6796503 -73.134026 -8.6753435 -73.956078 -0.23936403 -91.79673
9205187500 -1.0400083 124.6926 -8.6712894 -73.150459 -8.6659107 -73.919861 -0.2342847 -91.732399
9205250000 -1.0335547 124.69513 -8.6704731 -73.166397 -8.6702852 -73.920502 -0.22790012 -91.69178
9205312500 -1.0390124 124.68424 -8.6731691 -73.076752 -8.6712389 -73.966675 -0.2240198 -91.675125
9205375000 -1.0352831 124.7192 -8.675355 -73.092278 -8.6720619 -73.941925 -0.22913095 -91.671623
9205437500 -1.0349978 124.66886 -8.6768684 -73.087326 -8.664917 -73.911095 -0.23041314 -91.620735
9205500000 -1.0402577 124.63456 -8.6820717 -73.064262 -8.6664839 -73.922394 -0.23915419 -91.620361
9205562500 -1.0350175 124.61802 -8.6846209 -72.980507 -8.6523199 -73.829697 -0.23419325 -91.535515
9205625000 -1.0353534 124.59441 -8.6711798 -73.104736 -8.6614151 -73.896767 -0.23735976 -91.564407
9205687500 -1.0344465 124.54399 -8.6774263 -73.089294 -8.6553602 -73.850967 -0.23886366 -91.497765
9205750000 -1.0336609 124.55351 -8.6746988 -73.026756 -8.6559734 -73.877831 -0.25026426 -91.523743
9205812500 -1.032033 124.52731 -8.6784611 -73.092201 -8.6618128 -73.775635 -0.24186754 -91.428467
9205875000 -1.03343 124.51791 -8.6739597 -73.121658 -8.6596775 -73.83773 -0.24507107 -91.490685
9205937500 -1.0350207 124.51522 -8.6636734 -73.06472 -8.6645765 -73.83223 -0.25247824 -91.429192
9206000000 -1.0380028 124.49849 -8.6745958 -73.052788 -8.6561422 -73.905685 -0.23917517 -91.476639
9206062500 -1.0420294 124.47472 -8.6755953 -73.067558 -8.6557693 -73.851608 -0.24551994 -91.412247
9206125000 -1.0367931 124.46851 -8.6700296 -73.055824 -8.6580257 -73.847778 -0.24845549 -91.414589
9206187500 -1.0394412 124.4589 -8.6645803 -73.044212 -8.6539679 -73.885262 -0.24424529 -91.401924
9206250000 -1.0360298 124.41808 -8.6661377 -73.115303 -8.6613541 -73.810753 -0.2514872 -91.368996
9206312500 -1.0391957 124.39301 -8.6629572 -73.0895 -8.6510706 -73.815857 -0.24805748 -91.344963
9206375000 -1.0362794 124.37634 -8.6652184 -73.068077 -8.6600246 -73.860275 -0.26058072 -91.343948
9206437500 -1.03422 124.36343 -8.6569128 -73.053993 -8.6545324 -73.807999 -0.24608357 -91.319389
9206500000 -1.0335149 124.32485 -8.6566381 -73.069527 -8.6554527 -73.863602 -0.24889284 -91.320396
9206562500 -1.039869 124.37547 -8.6629505 -73.094704 -8.6483202 -73.801575 -0.24360657 -91.271423
9206625000 -1.036397 124.35359 -8.6524134 -73.103683 -8.6467915 -73.801559 -0.24139921 -91.27256
9206687500 -1.0325631 124.35979 -8.6568298 -73.114731 -8.6473436 -73.809113 -0.2436979 -91.254295
9206750000 -1.0415766 124.37832 -8.6555538 -73.042717 -8.6470003 -73.805664 -0.23698223 -91.258713
9206812500 -1.0411774 124.40914 -8.6657152 -73.095978 -8.642293 -73.828613 -0.23582962 -91.270004
9206875000 -1.0373576 124.33455 -8.6631794 -73.114563 -8.6494436 -73.757843 -0.235966 -91.224655
9206937500 -1.0339206 124.33981 -8.6546745 -73.097076 -8.64538 -73.79863 -0.23855716 -91.184418
9207000000 -1.0312492 124.29458 -8.6509113 -73.097427 -8.6411762 -73.795662 -0.23526146 -91.219742
9207062500 -1.0306336 124.2672 -8.6631613 -73.117043 -8.6427155 -73.803421 -0.23914725 -91.136292
9207125000 -1.0314583 124.26159 -8.655776 -73.056129 -8.6407776 -73.80986 -0.2349035 -91.138725
9207187500 -1.0310334 124.25085 -8.6539431 -73.083168 -8.6336193 -73.863182 -0.2377198 -91.126877
9207250000 -1.0330822 124.20169 -8.6495647 -73.085686 -8.6370649 -73.836456 -0.2406269 -91.084732
9207312500 -1.0313232 124.21127 -8.6594687 -73.059036 -8.6347218 -73.823357 -0.24252918 -91.072617
9207375000 -1.036256 124.17408 -8.6608515 -73.040108 -8.6302986 -73.81752 -0.24384142 -91.070129
9207437500 -1.033246 124.1869 -8.6499023 -73.052643 -8.6397333 -73.80275 -0.24694459 -91.050591
9207500000 -1.0340977 124.15109 -8.6451349 -73.105637 -8.6408749 -73.76992 -0.25227484 -91.064438
9207562500 -1.0350438 124.11481 -8.6388111 -73.079491 -8.633688 -73.817848 -0.24536601 -91.072472
9207625000 -1.0330801 124.06239 -8.6367855 -73.089226 -8.6358852 -73.769066 -0.24818869 -91.021011
9207687500 -1.0373092 124.07124 -8.6413527 -73.063774 -8.6387482 -73.761269 -0.24233967 -91.000183
9207750000 -1.0406348 124.09432 -8.6486807 -73.123634 -8.6379986 -73.866196 -0.24173772 -91.067436
9207812500 -1.040712 124.10886 -8.6463995 -73.085365 -8.6445122 -73.807487 -0.24430862 -91.026695
9207875000 -1.0413364 124.07374 -8.6370077 -73.106224 -8.6328182 -73.790466 -0.23256704 -90.99968
9207937500 -1.0421703 124.07882 -8.6416388 -73.050148 -8.6351137 -73.812355 -0.23077148 -90.938591
9208000000 -1.0463629 124.04445 -8.6476049 -73.171547 -8.6369648 -73.864525 -0.23653518 -90.984818
9208062500 -1.0424764 124.07099 -8.6485443 -73.054527 -8.6459188 -73.831055 -0.25025263 -90.910004
9208125000 -1.039773 124.04506 -8.6321287 -73.075447 -8.637188 -73.761719 -0.24091277 -90.868652
9208187500 -1.0455152 124.0042 -8.6455641 -73.12542 -8.6345215 -73.796196 -0.2394737 -90.872704
9208250000 -1.0367459 124.00117 -8.6285324 -73.027603 -8.6369944 -73.799477 -0.248594 -90.828606
9208312500 -1.0359166 124.0264 -8.6331577 -72.990753 -8.6416225 -73.820839 -0.25128695 -90.805054
9208375000 -1.0390637 123.95821 -8.6303883 -73.06012 -8.6350012 -73.801811 -0.24186255 -90.764145
9208437500 -1.0341361 123.96896 -8.6293898 -73.015244 -8.6377878 -73.842873 -0.24608041 -90.783226
9208500000 -1.0377961 123.96532 -8.633337 -72.99791 -8.6359053 -73.788895 -0.2455889 -90.7509
9208562500 -1.0357434 123.94694 -8.6356049 -73.009613 -8.6261129 -73.788696 -0.23745944 -90.786102
9208625000 -1.0347949 123.9459 -8.6367006 -72.995216 -8.6225538 -73.747932 -0.24557124 -90.6996
9208687500 -1.036167 123.92813 -8.6326752 -72.972832 -8.6274185 -73.839622 -0.25241026 -90.76963
9208750000 -1.0383353 123.90479 -8.6346502 -73.006264 -8.6262732 -73.768967 -0.24954894 -90.709976
9208812500 -1.0272098 123.94056 -8.6285877 -72.960289 -8.6232691 -73.751854 -0.24527434 -90.700882
9208875000 -1.0302728 123.89906 -8.6304522 -73.027924 -8.6194153 -73.759422 -0.24826592 -90.723473
9208937500 -1.03312 123.88369 -8.6211052 -73.051559 -8.6167145 -73.780289 -0.24786574 -90.71003
9209000000 -1.0373127 123.88123 -8.6392641 -72.968834 -8.6214256 -73.779594 -0.25551498 -90.690521
9209062500 -1.0323845 123.88371 -8.6348286 -73.033737 -8.6158571 -73.726555 -0.24835457 -90.638809
9209125000 -1.0293045 123.85025 -8.6271448 -73.000801 -8.6110954 -73.790123 -0.2477794 -90.642776
9209187500 -1.0286205 123.82077 -8.6198359 -72.992264 -8.6104498 -73.762962 -0.24863 -90.56559
9209250000 -1.0355195 123.7983 -8.6251383 -72.957962 -8.6215935 -73.737564 -0.25080785 -90.564102
9209312500 -1.0286561 123.74889 -8.6330729 -73.013031 -8.6214371 -73.739861 -0.25246543 -90.557938
9209375000 -1.02923 123.75471 -8.6296768 -73.041733 -8.6291265 -73.736931 -0.26245058 -90.532188
9209437500 -1.031831 123.76168 -8.6282597 -73.005676 -8.6149473 -73.697151 -0.24819668 -90.464478
9209500000 -1.0264348 123.71912 -8.6303244 -73.001534 -8.6197014 -73.728882 -0.25614503 -90.489471
9209562500 -1.0326275 123.68765 -8.6250086 -72.996483 -8.6157932 -73.712921 -0.24838695 -90.45565
9209625000 -1.0328332 123.6757 -8.6231003 -72.984261 -8.622963 -73.745773 -0.25131544 -90.478958
9209687500 -1.0357361 123.67496 -8.6249628 -73.017807 -8.6163664 -73.728264 -0.24568537 -90.477974
9209750000 -1.0352834 123.6898 -8.6227598 -73.048004 -8.6157932 -73.788239 -0.24707171 -90.480156
9209812500 -1.0416249 123.66402 -8.6200266 -73.041252 -8.614419 -73.760826 -0.24487054 -90.456436
9209875000 -1.0404655 123.65824 -8.6235743 -73.011566 -8.6161594 -73.750793 -0.24804214 -90.381195
9209937500 -1.0395309 123.65059 -8.6142368 -73.028183 -8.6044474 -73.712402 -0.23421757 -90.410713
9210000000 -1.040339 123.63991 -8.6182051 -73.050247 -8.6074381 -73.723755 -0.23922786 -90.372612
9210062500 -1.0397704 123.63255 -8.6211557 -73.002213 -8.6062822 -73.775131 -0.24405868 -90.399826
9210125000 -1.0398401 123.64478 -8.623354 -72.962486 -8.6094933 -73.740028 -0.2531904 -90.354866
9210187500 -1.0376624 123.62691 -8.6098566 -72.95723 -8.6039019 -73.746696 -0.25034931 -90.330048
9210250000 -1.04399 123.59883 -8.6213837 -72.98082 -8.6048555 -73.704712 -0.24537669 -90.294266
9210312500 -1.0405315 123.598 -8.6113157 -73.005005 -8.6018496 -73.752464 -0.24968386 -90.349525
9210375000 -1.039409 123.57704 -8.6194839 -72.961311 -8.6104012 -73.762604 -0.25410414 -90.302032
9210437500 -1.0419605 123.55539 -8.6126375 -72.955986 -8.6078215 -73.741615 -0.25266099 -90.29348
9210500000 -1.0366263 123.52983 -8.6110926 -72.968552 -8.6113548 -73.802261 -0.25600389 -90.307831
9210562500 -1.0411065 123.50211 -8.6080894 -72.956635 -8.6085939 -73.71521 -0.25458938 -90.221008
9210625000 -1.0350379 123.4231 -8.6057005 -72.984436 -8.6073895 -73.703911 -0.25941411 -90.229576
9210687500 -1.0358989 123.41007 -8.5976448 -72.981773 -8.6030369 -73.720947 -0.25595143 -90.222214
9210750000 -1.036575 123.409 -8.6014328 -73.001938 -8.6032305 -73.742805 -0.25626794 -90.227089
9210812500 -1.0365013 123.38585 -8.6063223 -73.00489 -8.6053419 -73.689941 -0.25687754 -90.147171
9210875000 -1.0355424 123.38057 -8.6070328 -72.986481 -8.6026344 -73.663696 -0.25425228 -90.107162
9210937500 -1.0396639 123.33587 -8.6023951 -73.015457 -8.5919962 -73.660255 -0.25186813 -90.090645
9211000000 -1.0342783 123.3556 -8.5936804 -73.017365 -8.5952187 -73.662277 -0.25209558 -90.038315
9211062500 -1.0322564 123.3696 -8.6005497 -72.974846 -8.5869942 -73.69487 -0.24933179 -90.075439
9211125000 -1.0368476 123.38194 -8.6102829 -72.956253 -8.5972385 -73.61927 -0.26098639 -90.046684
9211187500 -1.0347342 123.37039 -8.6097603 -72.911789 -8.5950832 -73.659325 -0.25758556 -89.994408
9211250000 -1.0375797 123.35046 -8.6019897 -72.94223 -8.5992699 -73.723755 -0.26132497 -89.982224
9211312500 -1.0377736 123.32104 -8.6017818 -72.976685 -8.5830603 -73.700363 -0.25631607 -89.983574
9211375000 -1.0392385 123.30093 -8.6060295 -72.974792 -8.5923071 -73.706665 -0.2612552 -89.98555
9211437500 -1.0361762 123.29733 -8.6007185 -72.997276 -8.6040945 -73.677765 -0.26363742 -89.970985
9211500000 -1.0306699 123.33976 -8.5981398 -72.891556 -8.5873337 -73.693062 -0.25079674 -89.981667
9211562500 -1.0274246 123.29268 -8.6023397 -72.945587 -8.6008921 -73.676849 -0.2610361 -89.990715
9211625000 -1.0325235 123.30054 -8.5978527 -72.996544 -8.5934582 -73.712318 -0.26396918 -89.986244
9211687500 -1.0271454 123.28026 -8.5950861 -72.995689 -8.6061106 -73.669067 -0.26216936 -89.970192
9211750000 -1.0210538 123.29913 -8.5852118 -72.985504 -8.5935211 -73.684875 -0.25187558 -89.987167
9211812500 -1.028252 123.25555 -8.5923872 -72.993744 -8.5939512 -73.627151 -0.25089252 -89.897522
9211875000 -1.0310928 123.23708 -8.59828 -72.928741 -8.591917 -73.677139 -0.25394556 -89.920006
9211937500 -1.0327933 123.19417 -8.5961199 -72.96994 -8.5998602 -73.66951 -0.26079878 -89.857979
9212000000 -1.0349478 123.16577 -8.5969896 -72.944366 -8.5856028 -73.68721 -0.2622416 -89.820595
9212062500 -1.0317833 123.14989 -8.5954828 -72.91346 -8.5830564 -73.63356 -0.25479797 -89.81826
9212125000 -1.0295205 123.12815 -8.5901833 -72.863449 -8.5787649 -73.667908 -0.25880545 -89.73452
9212187500 -1.0342789 123.08376 -8.5988846 -72.948952 -8.5863848 -73.645508 -0.26184586 -89.73246
9212250000 -1.0344125 123.05389 -8.5917997 -72.935928 -8.5783501 -73.655785 -0.25667685 -89.753235
9212312500 -1.0335377 123.04968 -8.5884609 -72.972534 -8.579071 -73.724571 -0.25215459 -89.788612
