!Agilent Technologies,N5242A,MY51221714,A.09.90.19
!Agilent N5242A: A.09.90.19
!Date: Saturday, December 30, 2023 10:42:53
!Correction: S11(Full 2 Port(1,2)) 
!S21(Full 2 Port(1,2)) 
!S12(Full 2 Port(1,2)) 
!S22(Full 2 Port(1,2)) 
!S2P File: Measurements: S11, S21, S12, S22:
# Hz S  dB   R 50
9200000000 -1.0470946 125.39625 -8.7171659 -73.279251 -8.6946259 -74.082222 -0.22241269 -92.871696
9200062500 -1.0453542 125.34807 -8.7065325 -73.250824 -8.6847429 -74.050034 -0.21625906 -92.811386
9200125000 -1.0416306 125.29079 -8.7021122 -73.287415 -8.6911716 -74.024117 -0.22089605 -92.790344
9200187500 -1.0477275 125.33495 -8.7114944 -73.264145 -8.6929283 -74.068352 -0.22580825 -92.784058
9200250000 -1.0469615 125.30177 -8.7086906 -73.313759 -8.6966324 -74.077415 -0.22071446 -92.795998
9200312500 -1.0486227 125.2759 -8.7117653 -73.331078 -8.6898232 -74.060989 -0.22170344 -92.811104
9200375000 -1.0505484 125.28826 -8.7140923 -73.274612 -8.6926003 -74.057739 -0.2247002 -92.784348
9200437500 -1.0539153 125.23958 -8.7105913 -73.301239 -8.6825848 -74.063873 -0.21781528 -92.801147
9200500000 -1.0522836 125.27763 -8.7150812 -73.285759 -8.6877136 -74.078728 -0.22074446 -92.797539
9200562500 -1.0513138 125.24055 -8.7195225 -73.295753 -8.6895361 -74.074409 -0.2170527 -92.758759
9200625000 -1.0462415 125.19316 -8.7088709 -73.312592 -8.6837292 -74.06263 -0.21272717 -92.735336
9200687500 -1.0457464 125.17809 -8.7032766 -73.297462 -8.6684971 -74.002106 -0.2118893 -92.704628
9200750000 -1.0438132 125.16509 -8.7045317 -73.268311 -8.6862841 -74.06205 -0.2194896 -92.678421
9200812500 -1.0420212 125.14474 -8.7026052 -73.26329 -8.682601 -74.033539 -0.21718146 -92.656441
9200875000 -1.0428019 125.11365 -8.7031794 -73.356728 -8.6770344 -74.019516 -0.21739201 -92.61692
9200937500 -1.0401139 125.15205 -8.6950912 -73.274696 -8.672842 -74.023552 -0.2177455 -92.627014
9201000000 -1.0477209 125.13239 -8.7016621 -73.328354 -8.6817913 -74.085678 -0.22484189 -92.644226
9201062500 -1.0504676 125.14909 -8.7112417 -73.271843 -8.676918 -74.036568 -0.22586635 -92.613037
9201125000 -1.0487293 125.17301 -8.7080593 -73.298523 -8.6958141 -74.015045 -0.23451895 -92.584724
9201187500 -1.0429326 125.189 -8.7078047 -73.271202 -8.6933107 -74.007629 -0.22897039 -92.613678
9201250000 -1.0499659 125.17616 -8.7061234 -73.276337 -8.6884155 -73.999985 -0.23077179 -92.552818
9201312500 -1.0498872 125.12263 -8.7092457 -73.291977 -8.6874628 -74.049919 -0.23221023 -92.592079
9201375000 -1.0473287 125.13218 -8.7030973 -73.257057 -8.6881571 -74.019646 -0.22567521 -92.525246
9201437500 -1.0498079 125.11089 -8.6971111 -73.256477 -8.6823883 -74.074478 -0.22394933 -92.507233
9201500000 -1.0505131 125.05354 -8.6943007 -73.251549 -8.683774 -74.051025 -0.22511914 -92.498108
9201562500 -1.0492681 125.05499 -8.6885481 -73.204269 -8.6719418 -74.059044 -0.21302406 -92.450577
9201625000 -1.053086 125.04989 -8.6928968 -73.202827 -8.6786938 -74.035446 -0.22396879 -92.4058
9201687500 -1.05086 125.04437 -8.7013407 -73.211784 -8.6790752 -73.968521 -0.22169752 -92.323883
9201750000 -1.050464 125.02002 -8.6949959 -73.245415 -8.6694736 -74.056671 -0.22323585 -92.407677
9201812500 -1.0487401 125.01611 -8.6941748 -73.231483 -8.6726236 -74.045074 -0.22871834 -92.391045
9201875000 -1.0551661 125.00822 -8.6987839 -73.25605 -8.6769648 -74.004486 -0.23349485 -92.369003
9201937500 -1.0444303 124.99158 -8.6872206 -73.20594 -8.6759586 -73.990623 -0.22707993 -92.37841
9202000000 -1.0466644 124.99158 -8.6937637 -73.244614 -8.6769991 -73.970123 -0.2302265 -92.368187
9202062500 -1.0453867 124.95446 -8.6897144 -73.266396 -8.6782665 -74.011063 -0.22801445 -92.348839
9202125000 -1.0466967 124.92194 -8.6907749 -73.271515 -8.6755838 -74.017372 -0.23080805 -92.337776
9202187500 -1.0429866 124.92991 -8.6882792 -73.251358 -8.6789303 -73.969658 -0.23378408 -92.335114
9202250000 -1.0486795 124.92329 -8.6853914 -73.234039 -8.6746311 -74.027946 -0.23107977 -92.329803
9202312500 -1.045541 124.87654 -8.6870632 -73.263634 -8.6752157 -74.020424 -0.23418006 -92.26297
9202375000 -1.0447624 124.86643 -8.691535 -73.253586 -8.6684008 -74.053268 -0.22760347 -92.311737
9202437500 -1.0463879 124.84198 -8.6850348 -73.275024 -8.678463 -74.068474 -0.23692727 -92.232964
9202500000 -1.0517319 124.84625 -8.6880007 -73.243805 -8.6657352 -73.999397 -0.2277215 -92.224663
9202562500 -1.050547 124.83033 -8.6838655 -73.225281 -8.6646576 -74.035995 -0.22861595 -92.235237
9202625000 -1.0478164 124.79884 -8.6905165 -73.210655 -8.67099 -73.997864 -0.22873339 -92.208672
9202687500 -1.0471566 124.78903 -8.6869593 -73.228821 -8.6663971 -74.038826 -0.22957596 -92.192886
9202750000 -1.0433792 124.80315 -8.6789083 -73.205856 -8.6668892 -74.041405 -0.23390196 -92.186829
9202812500 -1.0426151 124.75864 -8.6756563 -73.184029 -8.658927 -74.067863 -0.22725894 -92.177444
9202875000 -1.0413681 124.74435 -8.6761284 -73.197525 -8.6670589 -74.040489 -0.23191079 -92.146988
9202937500 -1.0468377 124.71248 -8.6850777 -73.199852 -8.6534462 -73.993561 -0.22876416 -92.139557
9203000000 -1.0437752 124.72485 -8.6764507 -73.22673 -8.6593447 -74.053535 -0.2266672 -92.133896
9203062500 -1.045415 124.6802 -8.6738653 -73.261566 -8.6629457 -74.021828 -0.23696429 -92.135864
9203125000 -1.0400134 124.70588 -8.6737633 -73.213524 -8.6621208 -74.044792 -0.23560889 -92.126053
9203187500 -1.0397471 124.69124 -8.668622 -73.222847 -8.6649342 -74.054115 -0.23744194 -92.07325
9203250000 -1.0396255 124.68301 -8.6634264 -73.160858 -8.6615467 -74.022705 -0.22955103 -92.015129
9203312500 -1.0387175 124.68103 -8.6591406 -73.201302 -8.6634235 -73.998848 -0.2260406 -91.983376
9203375000 -1.0445523 124.64358 -8.6641502 -73.293114 -8.6605597 -73.978363 -0.22669959 -91.953842
9203437500 -1.0414846 124.67565 -8.6552124 -73.18782 -8.6604118 -73.980942 -0.23079924 -91.913475
9203500000 -1.0444701 124.68024 -8.6567593 -73.161247 -8.6566648 -74.002144 -0.21978924 -91.905418
9203562500 -1.0497334 124.66343 -8.6664791 -73.212204 -8.671463 -73.983505 -0.23273009 -91.930389
9203625000 -1.0429908 124.62374 -8.66605 -73.189575 -8.6620064 -73.952629 -0.2327455 -91.933723
9203687500 -1.047686 124.59809 -8.6773853 -73.237732 -8.6498632 -73.967018 -0.23023634 -91.938957
9203750000 -1.0477222 124.58023 -8.6729174 -73.230904 -8.6521711 -73.997238 -0.23156513 -91.930862
9203812500 -1.0478005 124.55415 -8.6732588 -73.162003 -8.6536074 -74.048508 -0.23059371 -91.953224
9203875000 -1.0440167 124.54331 -8.6678801 -73.186813 -8.6530104 -73.982758 -0.22690322 -91.88839
9203937500 -1.0513806 124.53021 -8.6662855 -73.206688 -8.6441221 -74.018761 -0.22825795 -91.896912
9204000000 -1.0485927 124.48648 -8.6686058 -73.288139 -8.6460199 -74.022087 -0.22455303 -91.895988
9204062500 -1.0466983 124.49897 -8.6687918 -73.23983 -8.6502895 -73.995445 -0.22765484 -91.849083
9204125000 -1.0483402 124.47566 -8.6616249 -73.190536 -8.645402 -73.94381 -0.22346672 -91.824173
9204187500 -1.0408852 124.49734 -8.6503963 -73.19297 -8.6435919 -73.951248 -0.21728571 -91.758293
9204250000 -1.0392234 124.44003 -8.6549702 -73.194763 -8.6532116 -73.985771 -0.22239578 -91.749466
9204312500 -1.0447965 124.41597 -8.663825 -73.244057 -8.6489382 -73.968742 -0.22092338 -91.758392
9204375000 -1.0411285 124.41611 -8.6579227 -73.203171 -8.6494246 -73.945015 -0.22590023 -91.699677
9204437500 -1.0384239 124.43374 -8.6591463 -73.170296 -8.6485958 -73.936317 -0.22912036 -91.707657
9204500000 -1.0453607 124.42251 -8.6573639 -73.149513 -8.6462994 -73.928032 -0.23594041 -91.699791
9204562500 -1.0370003 124.43137 -8.6520414 -73.088028 -8.6487083 -73.948685 -0.23854807 -91.672241
9204625000 -1.0397499 124.36239 -8.6593571 -73.15448 -8.646471 -73.901047 -0.2400645 -91.625969
9204687500 -1.0402217 124.34384 -8.6561441 -73.191414 -8.6418772 -73.899513 -0.23800357 -91.613075
9204750000 -1.0464607 124.30838 -8.6568365 -73.201157 -8.6348677 -73.939247 -0.23136681 -91.638481
9204812500 -1.0448123 124.30918 -8.6510868 -73.153854 -8.6460066 -73.995247 -0.23824994 -91.609978
9204875000 -1.0477378 124.29259 -8.6466923 -73.239914 -8.6432447 -73.949379 -0.23548874 -91.6017
9204937500 -1.0475458 124.28098 -8.6575518 -73.197083 -8.6471405 -73.932106 -0.24055685 -91.567802
9205000000 -1.0555987 124.27232 -8.6605825 -73.255798 -8.6332111 -73.910965 -0.22875695 -91.549278
9205062500 -1.0504974 124.25128 -8.6617546 -73.224915 -8.6446238 -73.969131 -0.2334587 -91.526932
9205125000 -1.0493929 124.23663 -8.6480169 -73.18586 -8.6339407 -73.929878 -0.22615156 -91.529526
9205187500 -1.0455623 124.25925 -8.6519146 -73.154289 -8.6380215 -73.984108 -0.23000519 -91.477669
9205250000 -1.044469 124.25215 -8.6474142 -73.230583 -8.6458387 -73.952248 -0.22906886 -91.51059
9205312500 -1.0497148 124.26916 -8.6419811 -73.171768 -8.6446209 -74.010017 -0.22426102 -91.439835
9205375000 -1.0400745 124.26889 -8.6416817 -73.115982 -8.6518946 -73.984375 -0.22830935 -91.418747
9205437500 -1.0449035 124.23871 -8.6492052 -73.153763 -8.6420336 -73.992584 -0.23321286 -91.381241
9205500000 -1.0453124 124.19858 -8.644968 -73.135544 -8.637249 -73.925964 -0.22909385 -91.379036
9205562500 -1.0462036 124.1812 -8.6472883 -73.136871 -8.6297073 -73.97438 -0.23118451 -91.349953
9205625000 -1.0471863 124.14079 -8.6496563 -73.083504 -8.6264477 -73.917961 -0.23898627 -91.298447
9205687500 -1.0432813 124.10529 -8.6485996 -73.085396 -8.6233873 -73.928894 -0.23668566 -91.28093
9205750000 -1.0442353 124.0655 -8.6506138 -73.11084 -8.6293716 -73.892128 -0.24113089 -91.259361
9205812500 -1.0438324 124.0985 -8.6395292 -73.105064 -8.6304884 -73.894844 -0.23969249 -91.223686
9205875000 -1.0498998 124.06774 -8.6515837 -73.123627 -8.6296196 -73.863899 -0.23817255 -91.200546
9205937500 -1.0484957 124.09201 -8.6508989 -73.099632 -8.6341124 -73.925659 -0.241008 -91.23774
9206000000 -1.0515624 124.05129 -8.6538591 -73.077553 -8.6328382 -73.890465 -0.2422857 -91.190559
9206062500 -1.0473546 124.03998 -8.6459761 -73.103958 -8.6393719 -73.890495 -0.24530318 -91.154358
9206125000 -1.0476176 124.02538 -8.6379156 -73.112717 -8.6269875 -73.93853 -0.23805803 -91.206429
9206187500 -1.0451514 124.03082 -8.6403303 -73.115356 -8.6273975 -73.891106 -0.24257638 -91.140167
9206250000 -1.044558 123.96999 -8.6405029 -73.120575 -8.6324844 -73.925774 -0.24891503 -91.166603
9206312500 -1.0473094 123.96397 -8.6391068 -73.141167 -8.6358471 -73.873787 -0.24465516 -91.123726
9206375000 -1.0483409 123.93441 -8.6367188 -73.127731 -8.622654 -73.843102 -0.24068089 -91.09536
9206437500 -1.0456475 123.9286 -8.6286011 -73.141388 -8.619812 -73.887093 -0.24278006 -91.107124
9206500000 -1.0447947 123.88633 -8.6376543 -73.178902 -8.6234303 -73.837791 -0.24408184 -91.016815
9206562500 -1.0450743 123.92881 -8.6325359 -73.134392 -8.6247673 -73.856285 -0.24148412 -91.008575
9206625000 -1.046912 123.92855 -8.6328459 -73.181091 -8.6188107 -73.871521 -0.23787795 -91.036865
9206687500 -1.0509319 123.92787 -8.6271629 -73.138832 -8.6210051 -73.863106 -0.23829049 -91.013092
9206750000 -1.0473808 123.93468 -8.6340752 -73.149864 -8.625576 -73.826485 -0.24073282 -91.032867
9206812500 -1.053187 123.95152 -8.6338196 -73.17485 -8.6215973 -73.863312 -0.23412029 -91.015594
9206875000 -1.0449989 123.9041 -8.6349287 -73.149384 -8.6132956 -73.872169 -0.23419306 -90.993217
9206937500 -1.0485634 123.90353 -8.6324272 -73.173264 -8.6082973 -73.862152 -0.23131157 -91.005432
9207000000 -1.0464085 123.8997 -8.6382332 -73.133652 -8.6110487 -73.851074 -0.2341087 -90.958939
9207062500 -1.0444336 123.85596 -8.631094 -73.139946 -8.6100416 -73.87191 -0.23566957 -90.91758
9207125000 -1.0464394 123.82305 -8.6385078 -73.156441 -8.6088314 -73.868179 -0.23709229 -90.912315
9207187500 -1.0442674 123.77886 -8.6302814 -73.087448 -8.6100826 -73.840637 -0.23613395 -90.871994
9207250000 -1.0442802 123.76183 -8.6257153 -73.105888 -8.6117992 -73.946724 -0.23968652 -90.91877
9207312500 -1.0446715 123.7356 -8.6243153 -73.128113 -8.611515 -73.863358 -0.24148367 -90.86879
9207375000 -1.0387558 123.74307 -8.6187134 -73.155144 -8.610817 -73.920853 -0.2400111 -90.867706
9207437500 -1.0451918 123.73795 -8.622221 -73.171944 -8.6058807 -73.860291 -0.24406599 -90.860222
9207500000 -1.0463172 123.70657 -8.6241903 -73.15609 -8.614747 -73.887741 -0.24705662 -90.830963
9207562500 -1.0452055 123.67074 -8.6245232 -73.165489 -8.6099749 -73.856499 -0.2485375 -90.847603
9207625000 -1.0480834 123.64215 -8.6251698 -73.12291 -8.6083002 -73.893478 -0.24372075 -90.854897
9207687500 -1.051448 123.61924 -8.6182346 -73.174835 -8.6139688 -73.870804 -0.2415673 -90.839561
9207750000 -1.0469609 123.61711 -8.6179247 -73.123009 -8.6191216 -73.930046 -0.24521893 -90.827332
9207812500 -1.0562409 123.66794 -8.6271229 -73.159576 -8.6128893 -73.845085 -0.23946694 -90.76767
9207875000 -1.0554974 123.67159 -8.6217852 -73.180382 -8.6136827 -73.883202 -0.23904793 -90.771919
9207937500 -1.0566375 123.66319 -8.6144018 -73.11454 -8.619812 -73.879036 -0.23892964 -90.745743
9208000000 -1.0559479 123.65985 -8.6156025 -73.159111 -8.6091776 -73.910889 -0.23531257 -90.729065
9208062500 -1.0482607 123.65759 -8.6079235 -73.119728 -8.6086235 -73.881218 -0.23590758 -90.667007
9208125000 -1.0544232 123.61632 -8.6182423 -73.095261 -8.6106462 -73.86618 -0.23829108 -90.697784
9208187500 -1.0503114 123.59177 -8.6125088 -73.10067 -8.6061563 -73.89682 -0.23857227 -90.668526
9208250000 -1.0469871 123.59863 -8.6035471 -73.091827 -8.6029367 -73.874237 -0.23550345 -90.593529
9208312500 -1.0522047 123.5649 -8.6139374 -73.095764 -8.6037235 -73.855431 -0.23342359 -90.570084
9208375000 -1.0481404 123.54806 -8.6038408 -73.11129 -8.6068192 -73.882797 -0.24597199 -90.564072
9208437500 -1.053324 123.55818 -8.6026096 -73.084633 -8.6072607 -73.875153 -0.24147327 -90.564659
9208500000 -1.0511208 123.55128 -8.6169844 -73.048729 -8.6013775 -73.912514 -0.24526791 -90.554703
9208562500 -1.0440162 123.5023 -8.6029243 -73.048233 -8.605546 -73.819412 -0.24340546 -90.532295
9208625000 -1.0513207 123.52549 -8.6038322 -73.049919 -8.6055517 -73.869804 -0.24246204 -90.532257
9208687500 -1.0430813 123.49787 -8.6005583 -73.044632 -8.6100302 -73.807281 -0.24856625 -90.51281
9208750000 -1.0454879 123.49052 -8.608551 -73.054634 -8.6061249 -73.864464 -0.24842636 -90.503532
9208812500 -1.0389538 123.47344 -8.601697 -73.001289 -8.6053839 -73.815674 -0.24698231 -90.501411
9208875000 -1.0398334 123.4268 -8.6009617 -73.06469 -8.6003904 -73.792633 -0.25113246 -90.434105
9208937500 -1.0473386 123.46003 -8.6091089 -73.015968 -8.5921755 -73.79364 -0.24709646 -90.453651
9209000000 -1.0446241 123.41283 -8.6070681 -73.039139 -8.5869246 -73.793457 -0.24789648 -90.418175
9209062500 -1.0419415 123.38353 -8.6036577 -73.072372 -8.5857639 -73.802559 -0.24734209 -90.396271
9209125000 -1.0457348 123.41064 -8.6064568 -73.044006 -8.5870934 -73.792213 -0.24435593 -90.37262
9209187500 -1.0408646 123.39022 -8.60532 -73.033119 -8.5954285 -73.794609 -0.25140777 -90.347763
9209250000 -1.0437282 123.34632 -8.6001616 -73.082855 -8.5916252 -73.820305 -0.25327006 -90.347145
9209312500 -1.0385829 123.32301 -8.6051083 -73.066216 -8.5869112 -73.77166 -0.24711566 -90.284546
9209375000 -1.0409564 123.28102 -8.5975847 -73.057518 -8.5897789 -73.776222 -0.24748605 -90.289917
9209437500 -1.0374551 123.32723 -8.6026411 -73.01384 -8.594141 -73.770691 -0.24735904 -90.290924
9209500000 -1.0446091 123.24775 -8.6071672 -73.059669 -8.5928898 -73.797462 -0.25199285 -90.271774
9209562500 -1.0455341 123.23889 -8.5958481 -73.075188 -8.5953007 -73.758789 -0.24630126 -90.246635
9209625000 -1.043974 123.23384 -8.5889139 -73.106552 -8.5898438 -73.828415 -0.24230824 -90.237267
9209687500 -1.048279 123.2519 -8.5966492 -73.09803 -8.5870237 -73.870247 -0.24332787 -90.265938
9209750000 -1.049348 123.19902 -8.5974579 -73.090195 -8.5970201 -73.753586 -0.24484819 -90.19088
9209812500 -1.0496389 123.21112 -8.5906858 -73.085991 -8.5931759 -73.829689 -0.24206875 -90.207275
9209875000 -1.0555049 123.20111 -8.5934296 -73.069565 -8.5784445 -73.861633 -0.23825283 -90.235916
9209937500 -1.0530183 123.19194 -8.5888605 -73.089417 -8.5930634 -73.826073 -0.24606459 -90.176605
9210000000 -1.0509046 123.19346 -8.5912056 -73.048386 -8.5843277 -73.836418 -0.24127944 -90.171989
9210062500 -1.0491014 123.17828 -8.5969534 -73.071426 -8.5771313 -73.78537 -0.23371422 -90.135941
9210125000 -1.0505943 123.2107 -8.592844 -73.001183 -8.5783815 -73.790749 -0.23740169 -90.115211
9210187500 -1.0443621 123.19166 -8.5863504 -73.015762 -8.581583 -73.812225 -0.24511027 -90.099037
9210250000 -1.046634 123.17644 -8.5844536 -72.99987 -8.5824137 -73.819641 -0.24653867 -90.096939
9210312500 -1.0541028 123.13614 -8.5896349 -73.013977 -8.5739336 -73.791908 -0.24330175 -90.059402
9210375000 -1.0550015 123.11927 -8.5891237 -73.061089 -8.5800667 -73.788376 -0.25819197 -90.044952
9210437500 -1.0523118 123.10857 -8.5885143 -73.041489 -8.5778923 -73.782059 -0.2517722 -90.013031
9210500000 -1.0508157 123.08435 -8.592906 -73.044533 -8.5772152 -73.819443 -0.25049505 -90.034569
9210562500 -1.0526519 123.06869 -8.5892982 -73.036957 -8.5718718 -73.801041 -0.25617334 -90.04628
9210625000 -1.0470235 122.97943 -8.5795002 -73.044472 -8.5824146 -73.836121 -0.26058006 -90.034828
9210687500 -1.0465211 122.96614 -8.5844631 -73.049561 -8.5856953 -73.751984 -0.25554928 -89.982635
9210750000 -1.0451297 122.94123 -8.5766716 -73.015457 -8.5804682 -73.804016 -0.25067773 -89.942703
9210812500 -1.0454886 122.94382 -8.5722113 -73.043823 -8.5721703 -73.721825 -0.24696769 -89.912819
9210875000 -1.0469 122.95625 -8.5735512 -73.018089 -8.5744524 -73.705368 -0.25485289 -89.881401
9210937500 -1.0418575 122.94624 -8.5717955 -73.037445 -8.5668192 -73.724922 -0.24318142 -89.867256
9211000000 -1.0511503 122.91666 -8.5719328 -73.053955 -8.568738 -73.681099 -0.24682258 -89.832939
9211062500 -1.0466818 122.94162 -8.5786686 -73.068207 -8.5732994 -73.751015 -0.25469387 -89.793144
9211125000 -1.047948 122.90446 -8.5776396 -73.055702 -8.560998 -73.73439 -0.25542167 -89.770164
9211187500 -1.0539808 122.90824 -8.5782928 -73.019112 -8.5677881 -73.707527 -0.24986075 -89.753113
9211250000 -1.0490141 122.8834 -8.5843325 -73.032089 -8.5799217 -73.767899 -0.26455748 -89.806099
9211312500 -1.0523269 122.86024 -8.5783386 -73.042313 -8.5659151 -73.774132 -0.25983647 -89.780113
9211375000 -1.0515754 122.87438 -8.5771751 -73.00251 -8.5639935 -73.744255 -0.2574842 -89.750748
9211437500 -1.047611 122.87654 -8.5710793 -73.009384 -8.5691595 -73.745705 -0.25506312 -89.726524
9211500000 -1.0435194 122.85999 -8.5674562 -73.020164 -8.5656433 -73.770767 -0.2561439 -89.778641
9211562500 -1.0431606 122.85316 -8.5656681 -73.025406 -8.564786 -73.772186 -0.25242499 -89.763725
9211625000 -1.0417012 122.84615 -8.5634537 -73.03344 -8.5727758 -73.761963 -0.25545153 -89.792244
9211687500 -1.0436995 122.84924 -8.5674009 -73.034317 -8.5718098 -73.728775 -0.25557426 -89.765091
9211750000 -1.0413525 122.82574 -8.5602264 -72.99913 -8.5669508 -73.703987 -0.24438579 -89.733955
9211812500 -1.0384188 122.82214 -8.5617456 -73.054512 -8.5661697 -73.715981 -0.25470129 -89.70546
9211875000 -1.0427226 122.775 -8.5694704 -73.022392 -8.5594864 -73.73317 -0.25104186 -89.69178
9211937500 -1.047007 122.77627 -8.575758 -72.997505 -8.5611382 -73.734879 -0.25165915 -89.666855
9212000000 -1.0483924 122.72693 -8.5702562 -72.980469 -8.5549011 -73.768875 -0.25298238 -89.604721
9212062500 -1.0412911 122.7781 -8.5627661 -72.92276 -8.5544682 -73.787949 -0.25253183 -89.59552
9212125000 -1.0426092 122.70055 -8.561882 -73.005455 -8.5657129 -73.735291 -0.26665297 -89.551903
9212187500 -1.0423759 122.65905 -8.5622482 -72.978439 -8.5650988 -73.725517 -0.25720787 -89.52774
9212250000 -1.0457006 122.63329 -8.5599613 -72.98851 -8.5553951 -73.743317 -0.25746787 -89.526695
9212312500 -1.0478725 122.60146 -8.5591516 -72.995216 -8.5595493 -73.770958 -0.25628152 -89.580093
