!Agilent Technologies,N5242A,MY51221714,A.09.90.19
!Agilent N5242A: A.09.90.19
!Date: Saturday, January 13, 2024 13:23:36
!Correction: S11(Full 2 Port(1,2)) 
!S21(Full 2 Port(1,2)) 
!S12(Full 2 Port(1,2)) 
!S22(Full 2 Port(1,2)) 
!S2P File: Measurements: S11, S21, S12, S22:
# Hz S  dB   R 50
9200000000 -1.3084861 122.65141 -8.9421902 -75.948311 -8.9132385 -77.850594 -0.32507789 -92.475204
9200062500 -1.3114537 122.65627 -8.9408188 -75.994034 -8.9039536 -77.878845 -0.32856044 -92.507416
9200125000 -1.3071158 122.6365 -8.9347982 -75.972015 -8.9120359 -77.864059 -0.32962358 -92.439423
9200187500 -1.307557 122.60696 -8.9389544 -76.003319 -8.9184561 -77.870346 -0.33595061 -92.451233
9200250000 -1.3127675 122.57954 -8.937459 -76.0382 -8.9120111 -77.832832 -0.33010185 -92.385689
9200312500 -1.3073636 122.54639 -8.92939 -76.027184 -8.9032507 -77.843231 -0.32261968 -92.404022
9200375000 -1.3040875 122.54997 -8.9208994 -76.013214 -8.9071608 -77.884163 -0.32714254 -92.386719
9200437500 -1.3102492 122.57941 -8.9328003 -75.908531 -8.9077988 -77.844536 -0.32871342 -92.351944
9200500000 -1.3010632 122.53001 -8.9219999 -76.020836 -8.9138794 -77.839142 -0.33301857 -92.325241
9200562500 -1.2994144 122.4911 -8.9228134 -76.045181 -8.9070759 -77.881844 -0.3316803 -92.343781
9200625000 -1.2972697 122.50648 -8.9185257 -76.047195 -8.8989868 -77.832947 -0.33107251 -92.297707
9200687500 -1.2921138 122.56006 -8.916028 -75.936012 -8.9080238 -77.87606 -0.32882217 -92.327263
9200750000 -1.2970295 122.50031 -8.9304895 -76.002922 -8.9048014 -77.851418 -0.3344689 -92.255745
9200812500 -1.2916293 122.49486 -8.916995 -75.923492 -8.9047651 -77.840286 -0.32706937 -92.254112
9200875000 -1.2900941 122.48223 -8.9244728 -75.961273 -8.9132786 -77.908859 -0.33840045 -92.261711
9200937500 -1.2931229 122.51703 -8.924468 -75.933357 -8.898509 -77.836334 -0.33012515 -92.236099
9201000000 -1.3047953 122.4594 -8.9232321 -75.949013 -8.90341 -77.879921 -0.33193713 -92.260658
9201062500 -1.3019477 122.46478 -8.9267607 -75.934845 -8.9053516 -77.838272 -0.33541411 -92.1978
9201125000 -1.3100044 122.41463 -8.9205675 -75.973022 -8.8967466 -77.849426 -0.33077386 -92.17215
9201187500 -1.3060585 122.42123 -8.9148045 -75.916977 -8.9004202 -77.858322 -0.33656865 -92.144493
9201250000 -1.3101506 122.37827 -8.9231033 -76.026779 -8.9091902 -77.873665 -0.34305328 -92.167496
9201312500 -1.304208 122.37792 -8.925909 -76.026405 -8.9036064 -77.851646 -0.33960646 -92.118645
9201375000 -1.3051671 122.33137 -8.919795 -75.919456 -8.8940744 -77.861313 -0.33413613 -92.158615
9201437500 -1.3018373 122.33687 -8.9291916 -76.012558 -8.9013863 -77.853333 -0.33948961 -92.1092
9201500000 -1.2995861 122.37348 -8.9106894 -75.932182 -8.8983021 -77.907669 -0.33635801 -92.129372
9201562500 -1.3033978 122.31886 -8.9199705 -75.953102 -8.9000616 -77.852692 -0.33650756 -92.126244
9201625000 -1.3036815 122.31803 -8.9149485 -75.932182 -8.904665 -77.822105 -0.33821103 -92.068733
9201687500 -1.3012927 122.29166 -8.9158688 -75.969215 -8.91014 -77.82708 -0.34053117 -92.05838
9201750000 -1.2995656 122.26104 -8.899209 -75.95237 -8.901269 -77.803215 -0.33626837 -91.995972
9201812500 -1.3058298 122.26959 -8.9167614 -75.970268 -8.9012756 -77.854622 -0.33696577 -92.007347
9201875000 -1.3021343 122.27834 -8.903594 -75.928726 -8.8997917 -77.835915 -0.3382377 -91.953957
9201937500 -1.3067272 122.23969 -8.9100971 -75.957352 -8.8980274 -77.788857 -0.33826971 -91.929176
9202000000 -1.3023517 122.21859 -8.9018764 -75.901993 -8.8980608 -77.787567 -0.33541527 -91.861328
9202062500 -1.2999145 122.18784 -8.9012871 -75.930283 -8.8961067 -77.728142 -0.34085199 -91.839653
9202125000 -1.3028973 122.17791 -8.9052906 -75.960083 -8.8997793 -77.761154 -0.3445802 -91.842522
9202187500 -1.3076034 122.17681 -8.9100323 -75.927948 -8.8948088 -77.844246 -0.3375265 -91.824791
9202250000 -1.2989125 122.12033 -8.9062777 -75.93396 -8.8922796 -77.820404 -0.33795792 -91.82399
9202312500 -1.3003657 122.12462 -8.8996353 -75.929359 -8.8964939 -77.794785 -0.34537196 -91.807823
9202375000 -1.3035543 122.08551 -8.9092588 -75.962585 -8.8888111 -77.807266 -0.34544763 -91.799988
9202437500 -1.308467 122.11788 -8.9139357 -75.883453 -8.8917446 -77.870247 -0.34313527 -91.798264
9202500000 -1.3081316 122.09764 -8.9053545 -75.931793 -8.8889351 -77.877884 -0.34462988 -91.837967
9202562500 -1.3146626 122.09081 -8.9066029 -75.865486 -8.8914452 -77.834984 -0.34367201 -91.801193
9202625000 -1.3157755 122.08121 -8.9090223 -75.890266 -8.8966665 -77.873154 -0.34289947 -91.828415
9202687500 -1.3081633 122.05052 -8.9053068 -75.973701 -8.8884716 -77.892982 -0.33546495 -91.84317
9202750000 -1.3137518 122.0584 -8.903718 -75.956642 -8.8872595 -77.837708 -0.3381964 -91.793762
9202812500 -1.3110793 122.06768 -8.9025297 -75.926949 -8.8887062 -77.842659 -0.33884951 -91.754677
9202875000 -1.3109971 122.04361 -8.8976269 -76.015518 -8.8808203 -77.872131 -0.33166364 -91.788887
9202937500 -1.3073336 122.04182 -8.9002962 -75.910088 -8.887805 -77.828476 -0.33799317 -91.697762
9203000000 -1.3073556 121.99448 -8.8974285 -75.98632 -8.8832493 -77.79287 -0.33507371 -91.697212
9203062500 -1.3118397 121.9875 -8.9002361 -75.912018 -8.8832979 -77.765388 -0.3408924 -91.606979
9203125000 -1.3058167 121.99113 -8.8970909 -75.879478 -8.8754282 -77.864441 -0.33801007 -91.647728
9203187500 -1.3076535 121.97722 -8.8973455 -75.914574 -8.87255 -77.866714 -0.3341904 -91.640167
9203250000 -1.309911 121.97755 -8.8879023 -75.898064 -8.8841619 -77.810043 -0.34228265 -91.599144
9203312500 -1.3076046 121.98841 -8.882947 -75.868698 -8.8843842 -77.793152 -0.34418803 -91.580521
9203375000 -1.307942 121.94433 -8.8991833 -75.929802 -8.8870363 -77.818253 -0.34443718 -91.580353
9203437500 -1.3097802 121.93444 -8.8947601 -75.932549 -8.8887072 -77.868591 -0.34408382 -91.583145
9203500000 -1.3084625 121.95852 -8.8850174 -75.86412 -8.8942366 -77.803108 -0.34361547 -91.52581
9203562500 -1.3078843 121.9493 -8.8911762 -75.867302 -8.8837366 -77.869713 -0.34615111 -91.590073
9203625000 -1.3070277 121.87004 -8.8908863 -75.943878 -8.8794985 -77.792397 -0.34143934 -91.513405
9203687500 -1.3104221 121.88039 -8.8942156 -75.879791 -8.8808899 -77.81469 -0.34925574 -91.480576
9203750000 -1.3068832 121.87876 -8.8982668 -75.898346 -8.8844891 -77.821571 -0.35585338 -91.485703
9203812500 -1.3085725 121.83413 -8.8949862 -75.946144 -8.8814707 -77.80928 -0.35423973 -91.446358
9203875000 -1.3109214 121.83116 -8.8970928 -76.000298 -8.8808203 -77.805351 -0.35060757 -91.448547
9203937500 -1.3074604 121.81152 -8.8918009 -75.955872 -8.8629169 -77.803734 -0.34155494 -91.427063
9204000000 -1.3093569 121.80212 -8.8917875 -75.932785 -8.8663292 -77.800941 -0.34005445 -91.388885
9204062500 -1.3108523 121.77499 -8.8930225 -76.008797 -8.8667736 -77.79969 -0.34392753 -91.416023
9204125000 -1.31353 121.77222 -8.8862057 -75.895195 -8.8705769 -77.714218 -0.34473497 -91.332077
9204187500 -1.3062654 121.75658 -8.8772316 -75.91925 -8.8717165 -77.74733 -0.34195971 -91.346565
9204250000 -1.3103677 121.76241 -8.8862171 -75.921829 -8.8663769 -77.748039 -0.3442615 -91.312164
9204312500 -1.3101972 121.74743 -8.8845911 -75.909164 -8.8712034 -77.743515 -0.34478879 -91.301476
9204375000 -1.3122649 121.7246 -8.8765526 -75.972488 -8.87117 -77.744652 -0.34784222 -91.345207
9204437500 -1.3100041 121.71486 -8.8926678 -75.849571 -8.8697968 -77.723 -0.35299018 -91.255768
9204500000 -1.3106881 121.68401 -8.8870001 -76.001129 -8.8737049 -77.811028 -0.35384193 -91.331825
9204562500 -1.3086724 121.66716 -8.880909 -75.904961 -8.8711748 -77.770462 -0.35724118 -91.246933
9204625000 -1.3139929 121.66881 -8.8860455 -75.942238 -8.8776178 -77.746849 -0.35377598 -91.224548
9204687500 -1.3143947 121.67159 -8.8836317 -75.891716 -8.8754444 -77.762245 -0.35663062 -91.214058
9204750000 -1.3171908 121.66653 -8.8846073 -75.931183 -8.8666878 -77.793846 -0.35043296 -91.241287
9204812500 -1.3151697 121.64491 -8.8804102 -75.870735 -8.8647261 -77.772728 -0.34366533 -91.189529
9204875000 -1.3241327 121.63428 -8.8838463 -75.877373 -8.8707199 -77.757698 -0.35211369 -91.194771
9204937500 -1.3178545 121.58865 -8.8828917 -75.890266 -8.8680229 -77.758476 -0.34491816 -91.131584
9205000000 -1.3163687 121.58331 -8.8828888 -75.921486 -8.8633995 -77.738968 -0.34695342 -91.126892
9205062500 -1.3126554 121.61117 -8.8796549 -75.87133 -8.8598795 -77.78154 -0.34847626 -91.118637
9205125000 -1.3102207 121.59607 -8.8720636 -75.865791 -8.8621035 -77.769371 -0.35127276 -91.078712
9205187500 -1.3053207 121.57678 -8.8687506 -75.925377 -8.8591814 -77.793167 -0.34919384 -91.108727
9205250000 -1.3111411 121.56168 -8.8760309 -75.92585 -8.8592567 -77.786552 -0.34388146 -91.077232
9205312500 -1.3068522 121.56759 -8.8652859 -75.879074 -8.8548756 -77.730324 -0.35167581 -91.053574
9205375000 -1.3021498 121.56088 -8.874815 -75.864883 -8.8576841 -77.79911 -0.35669258 -91.06926
9205437500 -1.3038763 121.50211 -8.8671265 -75.93956 -8.8572483 -77.753212 -0.35420904 -91.035141
9205500000 -1.3028327 121.48822 -8.8694935 -75.907516 -8.8570805 -77.782486 -0.35700965 -91.006248
9205562500 -1.3051416 121.50023 -8.871911 -75.874336 -8.8504734 -77.79261 -0.35348079 -91.020927
9205625000 -1.3011427 121.46085 -8.8616447 -75.898514 -8.8569584 -77.740501 -0.35571384 -91.006027
9205687500 -1.3036677 121.43636 -8.8745508 -75.84623 -8.8528357 -77.775467 -0.3552081 -90.984222
9205750000 -1.3035733 121.39376 -8.8785057 -75.866829 -8.8571301 -77.792877 -0.3602168 -90.956078
9205812500 -1.3042772 121.38113 -8.8694229 -75.884033 -8.8586903 -77.812386 -0.35525012 -90.969635
9205875000 -1.306475 121.41151 -8.8662243 -75.905449 -8.8602238 -77.767441 -0.35632494 -90.938782
9205937500 -1.3087537 121.43906 -8.8763762 -75.892586 -8.8558178 -77.81266 -0.35528877 -90.919212
9206000000 -1.311767 121.42149 -8.8748226 -75.903214 -8.8534775 -77.70797 -0.34399027 -90.869324
9206062500 -1.3116641 121.4183 -8.8708687 -75.873596 -8.8509636 -77.812241 -0.3414765 -90.91497
9206125000 -1.3097439 121.41585 -8.8608551 -75.858429 -8.8531532 -77.764091 -0.3449313 -90.893623
9206187500 -1.3098708 121.40392 -8.876626 -75.793098 -8.8492002 -77.779549 -0.34622771 -90.858978
9206250000 -1.3066126 121.36794 -8.8728714 -75.861336 -8.8501854 -77.77034 -0.35222346 -90.807518
9206312500 -1.3068691 121.32569 -8.8696108 -75.871086 -8.8497467 -77.720772 -0.35962653 -90.79557
9206375000 -1.3046423 121.29315 -8.8626156 -75.844025 -8.8483391 -77.771111 -0.36190647 -90.776306
9206437500 -1.3044139 121.2496 -8.8693428 -75.848419 -8.8515711 -77.746796 -0.35440466 -90.733238
9206500000 -1.3011028 121.25776 -8.8619556 -75.914856 -8.8477316 -77.803047 -0.35845757 -90.732941
9206562500 -1.3005327 121.21162 -8.8571672 -75.820816 -8.8484669 -77.756401 -0.36286044 -90.696167
9206625000 -1.3078008 121.22882 -8.8531466 -75.9114 -8.8389521 -77.770576 -0.35925603 -90.668098
9206687500 -1.3084444 121.22771 -8.8586073 -75.862038 -8.8394051 -77.712692 -0.36516258 -90.645393
9206750000 -1.3116025 121.2056 -8.8554106 -75.854935 -8.8464184 -77.691711 -0.36672351 -90.582764
9206812500 -1.3110358 121.20715 -8.8570213 -75.824448 -8.8555117 -77.736145 -0.37407136 -90.620941
9206875000 -1.3076241 121.21231 -8.8540688 -75.762314 -8.8401108 -77.711472 -0.36617953 -90.570824
9206937500 -1.3091946 121.19869 -8.8596716 -75.809471 -8.8470583 -77.714737 -0.36549109 -90.573265
9207000000 -1.3048053 121.20414 -8.8486071 -75.829895 -8.8487549 -77.665375 -0.36265177 -90.537598
9207062500 -1.3052704 121.18452 -8.853158 -75.783218 -8.8458681 -77.666191 -0.36280799 -90.556831
9207125000 -1.3061215 121.15607 -8.8502054 -75.865974 -8.841938 -77.694458 -0.36024293 -90.545105
9207187500 -1.304749 121.15456 -8.8509502 -75.808167 -8.8458509 -77.672264 -0.35767886 -90.507904
9207250000 -1.3091894 121.10654 -8.8491163 -75.920113 -8.8423462 -77.697441 -0.36089513 -90.573029
9207312500 -1.3036064 121.10689 -8.8552504 -75.854248 -8.8391972 -77.738541 -0.35918632 -90.536827
9207375000 -1.3064853 121.07348 -8.8487816 -75.913094 -8.8364096 -77.66851 -0.36151814 -90.498276
9207437500 -1.3053222 121.05834 -8.8402281 -75.871719 -8.8280716 -77.661346 -0.35459301 -90.482704
9207500000 -1.3039722 121.04521 -8.8502741 -75.854507 -8.8436766 -77.694 -0.3667706 -90.463699
9207562500 -1.306036 121.04222 -8.8551254 -75.848381 -8.830966 -77.654922 -0.36688647 -90.447777
9207625000 -1.3038608 121.02124 -8.8511848 -75.806053 -8.8358717 -77.680573 -0.36471832 -90.462158
9207687500 -1.2999518 120.98666 -8.8452816 -75.867432 -8.8344555 -77.756058 -0.3607249 -90.470375
9207750000 -1.3051258 120.98096 -8.8464279 -75.792175 -8.8321171 -77.712906 -0.36392492 -90.428001
9207812500 -1.3071067 120.98953 -8.8454695 -75.893578 -8.8400698 -77.788483 -0.36930317 -90.430046
9207875000 -1.3103456 120.97324 -8.8484879 -75.840874 -8.8409195 -77.725449 -0.36077422 -90.382133
9207937500 -1.3044977 120.99046 -8.8430834 -75.859917 -8.8410625 -77.73851 -0.37120715 -90.349884
9208000000 -1.3035492 120.95148 -8.8335152 -75.909348 -8.8356094 -77.756325 -0.36312589 -90.378448
9208062500 -1.3079393 120.94318 -8.846159 -75.886848 -8.8388004 -77.766312 -0.3700133 -90.330444
9208125000 -1.3069037 120.91064 -8.8447008 -75.874397 -8.8371964 -77.742706 -0.37317455 -90.332726
9208187500 -1.3060719 120.92905 -8.8393974 -75.846458 -8.8308468 -77.737053 -0.36982521 -90.350327
9208250000 -1.3033835 120.91361 -8.8433599 -75.8508 -8.8352861 -77.753952 -0.36488754 -90.302986
9208312500 -1.3047949 120.84173 -8.8417368 -75.885429 -8.8293896 -77.789375 -0.3748014 -90.347832
9208375000 -1.3064486 120.83713 -8.8466177 -75.93811 -8.8317947 -77.656738 -0.3741281 -90.296188
9208437500 -1.3067485 120.82844 -8.8382645 -75.901176 -8.8306789 -77.75425 -0.37865648 -90.297737
9208500000 -1.3075924 120.82714 -8.8332224 -75.863052 -8.8273716 -77.710495 -0.36985633 -90.250702
9208562500 -1.3125305 120.87601 -8.8361692 -75.810768 -8.82481 -77.739334 -0.37097138 -90.2062
9208625000 -1.314163 120.84752 -8.844902 -75.796776 -8.8198977 -77.678253 -0.37296104 -90.17395
9208687500 -1.3027689 120.79583 -8.8281994 -75.783913 -8.8277559 -77.664597 -0.37199253 -90.11113
9208750000 -1.3132758 120.78029 -8.832675 -75.848854 -8.8283491 -77.675728 -0.36993024 -90.090668
9208812500 -1.3114426 120.78313 -8.8339472 -75.82724 -8.8246202 -77.654518 -0.37012726 -90.062065
9208875000 -1.307729 120.74104 -8.8277445 -75.821159 -8.8222952 -77.679138 -0.37027681 -90.071915
9208937500 -1.3107625 120.74535 -8.833231 -75.857239 -8.8197079 -77.665039 -0.36477146 -90.092461
9209000000 -1.3125371 120.70689 -8.8410196 -75.874123 -8.8062534 -77.676071 -0.36362278 -90.109802
9209062500 -1.3072858 120.68665 -8.8260689 -75.866631 -8.807971 -77.716148 -0.35896048 -90.064285
9209125000 -1.3142142 120.71359 -8.8440123 -75.790298 -8.8104839 -77.698189 -0.37123939 -90.067162
9209187500 -1.3084216 120.70164 -8.8343563 -75.861572 -8.8214245 -77.680046 -0.36658573 -90.028839
9209250000 -1.3029625 120.67618 -8.8291655 -75.888359 -8.8101425 -77.656952 -0.36651167 -90.008545
9209312500 -1.3088541 120.70345 -8.823101 -75.756813 -8.8143911 -77.678604 -0.36889368 -89.980782
9209375000 -1.3094749 120.66019 -8.8233757 -75.893372 -8.8223763 -77.603256 -0.36826104 -89.929649
9209437500 -1.3116075 120.70892 -8.8262882 -75.759377 -8.8150911 -77.666824 -0.36450106 -89.927826
9209500000 -1.3094733 120.72676 -8.8251085 -75.802277 -8.8119192 -77.604454 -0.36431259 -89.919601
9209562500 -1.3138816 120.6647 -8.8219414 -75.828522 -8.8201838 -77.59642 -0.3744297 -89.879158
9209625000 -1.3100448 120.63144 -8.8190565 -75.870346 -8.810461 -77.684074 -0.37131622 -89.909882
9209687500 -1.3101978 120.605 -8.8101511 -75.821274 -8.8105173 -77.615364 -0.36807367 -89.834572
9209750000 -1.3138846 120.58044 -8.8285379 -75.831985 -8.8148403 -77.68145 -0.37469295 -89.854599
9209812500 -1.3153195 120.56086 -8.8273916 -75.837791 -8.8148088 -77.655212 -0.37011859 -89.813133
9209875000 -1.3150699 120.52996 -8.831295 -75.839577 -8.8103247 -77.629341 -0.37207332 -89.780708
9209937500 -1.3151063 120.52654 -8.8283663 -75.79554 -8.8127871 -77.67971 -0.37742674 -89.796822
9210000000 -1.3093455 120.56065 -8.8087912 -75.745674 -8.8063211 -77.670143 -0.36586088 -89.795639
9210062500 -1.3095996 120.47163 -8.8158054 -75.872124 -8.812274 -77.687363 -0.36878058 -89.77655
9210125000 -1.30272 120.4445 -8.8131914 -75.826996 -8.8049717 -77.654297 -0.36227188 -89.755829
9210187500 -1.3065428 120.44383 -8.8196621 -75.863342 -8.8045769 -77.647194 -0.3696799 -89.740791
9210250000 -1.3081748 120.45934 -8.8122807 -75.779442 -8.8074236 -77.628311 -0.36316988 -89.719017
9210312500 -1.3042318 120.41681 -8.8153095 -75.8591 -8.8045321 -77.624733 -0.36938155 -89.702484
9210375000 -1.3072636 120.42625 -8.8161955 -75.782112 -8.8029547 -77.595512 -0.37345245 -89.678017
9210437500 -1.3111889 120.44774 -8.8245153 -75.851616 -8.8104477 -77.679176 -0.37600648 -89.714211
9210500000 -1.3101442 120.39616 -8.8114834 -75.861336 -8.7991076 -77.679657 -0.37549588 -89.697899
9210562500 -1.3081825 120.39628 -8.8107901 -75.84227 -8.8037434 -77.659637 -0.37679812 -89.696342
9210625000 -1.3080308 120.41544 -8.813385 -75.794441 -8.8043528 -77.686371 -0.37580258 -89.655731
9210687500 -1.3063219 120.35926 -8.8024521 -75.803108 -8.8034744 -77.70443 -0.38059404 -89.639755
9210750000 -1.3085176 120.38185 -8.8074532 -75.819588 -8.8077974 -77.692543 -0.37948519 -89.646591
9210812500 -1.3041937 120.35539 -8.8050241 -75.776886 -8.7958727 -77.624962 -0.37387028 -89.567566
9210875000 -1.3121325 120.30911 -8.8130245 -75.86747 -8.7999363 -77.579941 -0.37483212 -89.515198
9210937500 -1.3063266 120.28703 -8.808054 -75.853134 -8.7979679 -77.629387 -0.37891728 -89.549438
9211000000 -1.309342 120.29266 -8.8113394 -75.874969 -8.7926664 -77.64106 -0.38227943 -89.506348
9211062500 -1.314687 120.28223 -8.8084164 -75.815796 -8.8006639 -77.619797 -0.37742177 -89.460464
9211125000 -1.3077611 120.28593 -8.820569 -75.806816 -8.8003817 -77.641174 -0.38013217 -89.504166
9211187500 -1.3080808 120.25815 -8.8130245 -75.833923 -8.800292 -77.666939 -0.38113672 -89.483986
9211250000 -1.3160892 120.26626 -8.8080044 -75.808472 -8.803154 -77.681702 -0.38116956 -89.510712
9211312500 -1.3121303 120.28656 -8.8184948 -75.808304 -8.7875919 -77.701607 -0.37305546 -89.493355
9211375000 -1.3075314 120.22598 -8.8081646 -75.788033 -8.8004827 -77.649498 -0.37897515 -89.431854
9211437500 -1.3119093 120.21551 -8.8076277 -75.817665 -8.7901249 -77.628967 -0.37732995 -89.427116
9211500000 -1.3130252 120.21428 -8.8082361 -75.800369 -8.7856512 -77.673622 -0.37388799 -89.440956
9211562500 -1.3132067 120.21244 -8.8125105 -75.787514 -8.8000507 -77.627686 -0.38215452 -89.359627
9211625000 -1.3155745 120.18523 -8.8032169 -75.866348 -8.7869835 -77.622498 -0.37327355 -89.388008
9211687500 -1.3129858 120.17423 -8.7961855 -75.791504 -8.7854471 -77.666748 -0.37819123 -89.346367
9211750000 -1.3119596 120.1779 -8.7957296 -75.841103 -8.7810955 -77.581299 -0.37369126 -89.31131
9211812500 -1.31042 120.14548 -8.8008451 -75.784225 -8.7901154 -77.649971 -0.38002214 -89.323677
9211875000 -1.3124224 120.10466 -8.8023787 -75.819771 -8.7864523 -77.57814 -0.38138366 -89.257919
9211937500 -1.3067352 120.10347 -8.7924118 -75.824394 -8.7829447 -77.58773 -0.38597944 -89.214455
9212000000 -1.3093892 120.07235 -8.8007154 -75.806152 -8.7927656 -77.660698 -0.38639975 -89.252747
9212062500 -1.3138865 120.05338 -8.794939 -75.747643 -8.7842779 -77.555557 -0.38589311 -89.193504
9212125000 -1.3139633 120.04294 -8.8067646 -75.803001 -8.7752495 -77.577324 -0.37928575 -89.217102
9212187500 -1.3070819 119.97644 -8.7910681 -75.864052 -8.7792168 -77.579384 -0.38876063 -89.178085
9212250000 -1.3097755 119.95719 -8.8010588 -75.877159 -8.7842407 -77.611824 -0.38915205 -89.183304
9212312500 -1.3082412 119.96326 -8.7942581 -75.883179 -8.7699242 -77.608322 -0.37052143 -89.161911
