!Agilent Technologies,N5242A,MY51221714,A.09.90.19
!Agilent N5242A: A.09.90.19
!Date: Saturday, January 13, 2024 13:27:06
!Correction: S11(Full 2 Port(1,2)) 
!S21(Full 2 Port(1,2)) 
!S12(Full 2 Port(1,2)) 
!S22(Full 2 Port(1,2)) 
!S2P File: Measurements: S11, S21, S12, S22:
# Hz S  dB   R 50
9200000000 -1.1222066 123.44035 -8.9877548 -73.171478 -8.9558048 -75.148552 -0.15441036 -90.964119
9200062500 -1.1218853 123.43797 -8.9888783 -73.18132 -8.9636383 -75.094025 -0.15779288 -90.941269
9200125000 -1.1213588 123.36576 -8.9781904 -73.197372 -8.9540758 -75.062508 -0.1545897 -90.913353
9200187500 -1.1224729 123.39709 -8.993557 -73.212929 -8.9547672 -75.105484 -0.15115876 -90.936508
9200250000 -1.1227367 123.4165 -8.9837608 -73.198647 -8.9552383 -75.102356 -0.15895842 -90.911728
9200312500 -1.1163737 123.33482 -8.9737558 -73.267822 -8.9694834 -75.10553 -0.16060665 -90.904007
9200375000 -1.1158819 123.35923 -8.9823351 -73.196732 -8.9588137 -75.087341 -0.15881942 -90.899094
9200437500 -1.1198682 123.34579 -8.9742041 -73.168716 -8.9581308 -75.10067 -0.16258651 -90.85054
9200500000 -1.1116228 123.30931 -8.9674549 -73.226944 -8.9602337 -75.06649 -0.1578244 -90.845642
9200562500 -1.1093644 123.32318 -8.9663858 -73.204956 -8.9595013 -75.133064 -0.15777327 -90.830658
9200625000 -1.1096683 123.30787 -8.9681931 -73.190514 -8.9505091 -75.10955 -0.15937439 -90.803993
9200687500 -1.1109501 123.31394 -8.9698553 -73.168266 -8.9539747 -75.090889 -0.1582827 -90.778618
9200750000 -1.1062193 123.26581 -8.975831 -73.200676 -8.9560728 -75.151169 -0.15725186 -90.793083
9200812500 -1.0995781 123.27837 -8.9703941 -73.198753 -8.9549198 -75.049789 -0.15796986 -90.728172
9200875000 -1.1040559 123.30086 -8.9798203 -73.123138 -8.9609509 -75.077156 -0.16002138 -90.696724
9200937500 -1.1136401 123.26744 -8.972374 -73.179092 -8.9559021 -75.091805 -0.16169144 -90.741798
9201000000 -1.1132649 123.22598 -8.9747744 -73.183014 -8.9510546 -75.029579 -0.15633379 -90.689171
9201062500 -1.1177945 123.23578 -8.9728441 -73.147804 -8.961072 -75.08046 -0.16070887 -90.69828
9201125000 -1.1185623 123.22605 -8.9786301 -73.093269 -8.9510288 -75.018631 -0.15875047 -90.620796
9201187500 -1.1214552 123.18171 -8.9733171 -73.161606 -8.9539223 -75.098923 -0.16784523 -90.667023
9201250000 -1.1181133 123.17828 -8.9734764 -73.108368 -8.9529543 -75.030693 -0.16741373 -90.607712
9201312500 -1.1204909 123.16785 -8.977829 -73.176682 -8.956872 -75.084984 -0.16588813 -90.586884
9201375000 -1.1164329 123.16618 -8.9726162 -73.17942 -8.9449358 -75.104004 -0.16221611 -90.617859
9201437500 -1.1150542 123.14267 -8.9801006 -73.1436 -8.9463167 -75.0858 -0.1659396 -90.619118
9201500000 -1.1165957 123.13091 -8.965785 -73.175072 -8.957778 -75.057907 -0.1688982 -90.599396
9201562500 -1.109179 123.11442 -8.9696503 -73.16053 -8.9586859 -75.081337 -0.16701901 -90.594711
9201625000 -1.1111261 123.11065 -8.9736309 -73.185699 -8.9544048 -75.14032 -0.16696288 -90.638191
9201687500 -1.1101706 123.0712 -8.9622755 -73.125877 -8.9506416 -75.061722 -0.16307606 -90.552399
9201750000 -1.1142397 123.07468 -8.9644957 -73.211128 -8.9533224 -75.023338 -0.16423745 -90.519928
9201812500 -1.116812 123.06784 -8.9666948 -73.159416 -8.9547501 -75.037895 -0.16995914 -90.501678
9201875000 -1.1147807 123.07175 -8.9591789 -73.167252 -8.9471931 -75.092239 -0.16011405 -90.474159
9201937500 -1.116552 123.0743 -8.9561987 -73.070366 -8.9519472 -74.978149 -0.16638915 -90.365593
9202000000 -1.1138555 123.03971 -8.9658232 -73.081757 -8.9587555 -75.05687 -0.17132767 -90.390846
9202062500 -1.1124648 123.00402 -8.9571095 -73.095352 -8.948348 -75.040024 -0.16705035 -90.364601
9202125000 -1.109508 122.95946 -8.9507036 -73.133499 -8.94664 -74.9972 -0.16769269 -90.358505
9202187500 -1.1142284 122.94655 -8.9552135 -73.099968 -8.9447851 -75.038696 -0.16515124 -90.311913
9202250000 -1.1113982 122.937 -8.9458799 -73.115288 -8.9296198 -74.984444 -0.16437206 -90.257057
9202312500 -1.1194875 122.91375 -8.9598236 -73.117584 -8.9384623 -75.039215 -0.16771622 -90.318703
9202375000 -1.1141239 122.88221 -8.9576082 -73.109955 -8.9381809 -75.006493 -0.16645953 -90.248413
9202437500 -1.1154798 122.92674 -8.9538832 -73.116089 -8.9324017 -75.027702 -0.16413957 -90.252083
9202500000 -1.1180227 122.87371 -8.9527321 -73.192902 -8.9397001 -74.989899 -0.17267908 -90.237732
9202562500 -1.1236657 122.89431 -8.9608183 -73.175987 -8.9408846 -75.075142 -0.17374757 -90.317497
9202625000 -1.1205773 122.8438 -8.9506006 -73.137665 -8.9412575 -75.07634 -0.16431561 -90.318069
9202687500 -1.122354 122.87431 -8.9605122 -73.137184 -8.943222 -75.03714 -0.16900757 -90.299072
9202750000 -1.1207005 122.88002 -8.951334 -73.122978 -8.9462099 -75.098991 -0.16602822 -90.295555
9202812500 -1.1200327 122.81851 -8.9534473 -73.185226 -8.9415703 -75.031517 -0.17068067 -90.272491
9202875000 -1.119967 122.81461 -8.9561939 -73.170937 -8.9381361 -75.06163 -0.1629367 -90.229767
9202937500 -1.1174259 122.82018 -8.9566441 -73.127815 -8.9329014 -75.033302 -0.1632705 -90.171356
9203000000 -1.1161056 122.82124 -8.9464169 -73.16021 -8.9299583 -75.062363 -0.16117582 -90.171471
9203062500 -1.1203971 122.81049 -8.9465199 -73.090126 -8.9266653 -75.024422 -0.16589506 -90.126816
9203125000 -1.112354 122.76298 -8.9366713 -73.052467 -8.9315386 -75.014496 -0.16352709 -90.087631
9203187500 -1.1156088 122.78452 -8.9426956 -73.044281 -8.9357786 -75.038086 -0.16573891 -90.10424
9203250000 -1.1151024 122.73158 -8.9410391 -73.041206 -8.9397173 -74.96759 -0.16598997 -90.070534
9203312500 -1.118169 122.76537 -8.9365044 -73.06678 -8.935235 -75.031464 -0.16093665 -90.075302
9203375000 -1.1229082 122.78532 -8.9436884 -73.035538 -8.9371567 -74.996834 -0.16352752 -90.042145
9203437500 -1.1200309 122.77575 -8.9422112 -73.046555 -8.9423904 -75.030991 -0.16436477 -90.014183
9203500000 -1.1198256 122.73026 -8.9432449 -73.081367 -8.9395332 -75.013222 -0.16502872 -90.035286
9203562500 -1.1201642 122.72102 -8.9539452 -73.016762 -8.9386263 -75.022652 -0.1721614 -90.018456
9203625000 -1.1174558 122.71001 -8.946537 -73.082779 -8.9327145 -74.998932 -0.17175806 -89.983658
9203687500 -1.1202843 122.68424 -8.9467869 -73.142944 -8.9313993 -75.066292 -0.17223185 -90.013313
9203750000 -1.1194813 122.66935 -8.9512129 -73.078056 -8.9269047 -74.960388 -0.17753941 -89.980247
9203812500 -1.1156611 122.67338 -8.9464712 -73.100441 -8.9337635 -75.049309 -0.18283591 -89.941383
9203875000 -1.1160077 122.64673 -8.9456196 -73.116325 -8.9153986 -74.974396 -0.16974267 -89.904861
9203937500 -1.1167877 122.64782 -8.940341 -73.059029 -8.9178982 -74.985619 -0.17304496 -89.900528
9204000000 -1.1195147 122.5931 -8.9446611 -73.13327 -8.9175014 -75.046585 -0.16610187 -89.926834
9204062500 -1.1178554 122.60045 -8.9424257 -73.060089 -8.9312353 -74.967125 -0.17261454 -89.824936
9204125000 -1.1197912 122.59238 -8.9320107 -73.057564 -8.9225197 -74.954781 -0.17183669 -89.830765
9204187500 -1.1204211 122.57307 -8.935256 -73.067101 -8.9229612 -74.975647 -0.16398746 -89.824043
9204250000 -1.1166408 122.55154 -8.936285 -73.070328 -8.9111786 -74.939659 -0.16865385 -89.784637
9204312500 -1.1185457 122.56696 -8.9353762 -73.067146 -8.9245682 -74.945671 -0.17161389 -89.794624
9204375000 -1.1170919 122.53686 -8.9231281 -73.071014 -8.9260683 -74.932541 -0.1762218 -89.757141
9204437500 -1.1144805 122.52924 -8.9319859 -73.036201 -8.9219742 -74.898186 -0.17542002 -89.750122
9204500000 -1.1182599 122.48162 -8.9336386 -73.091942 -8.9205542 -74.954727 -0.17823441 -89.803391
9204562500 -1.1197132 122.50088 -8.9416218 -73.108879 -8.9260283 -74.97438 -0.17885289 -89.751587
9204625000 -1.1207429 122.47334 -8.93468 -73.108017 -8.9289265 -74.94986 -0.18494906 -89.732925
9204687500 -1.1266458 122.48788 -8.940979 -73.057785 -8.9197912 -74.961136 -0.17619775 -89.730232
9204750000 -1.1224576 122.46082 -8.9360456 -73.073608 -8.9257545 -74.915154 -0.17667273 -89.680092
9204812500 -1.1247127 122.44215 -8.9416218 -73.025955 -8.9236536 -74.948273 -0.17545575 -89.652328
9204875000 -1.1236309 122.43016 -8.9288902 -73.10067 -8.9214582 -74.943939 -0.16869687 -89.631813
9204937500 -1.1231778 122.40932 -8.9341755 -73.02771 -8.9171467 -74.948593 -0.1711065 -89.645668
9205000000 -1.1297678 122.41248 -8.9393425 -73.051003 -8.9071875 -74.942528 -0.17161594 -89.618423
9205062500 -1.1185658 122.40746 -8.9263058 -73.045189 -8.9171314 -74.947456 -0.1790185 -89.589355
9205125000 -1.1171726 122.3979 -8.924819 -73.074402 -8.9093723 -74.95768 -0.16968396 -89.602524
9205187500 -1.11835 122.36735 -8.928441 -73.048058 -8.9105053 -74.906502 -0.17176466 -89.527573
9205250000 -1.118214 122.38199 -8.927063 -73.094917 -8.9089098 -74.98481 -0.17646682 -89.559921
9205312500 -1.1120844 122.37367 -8.9219885 -73.064178 -8.8955755 -74.955818 -0.16858219 -89.537979
9205375000 -1.1108047 122.35992 -8.9122391 -73.044662 -8.9064131 -74.998199 -0.17099553 -89.545425
9205437500 -1.1089134 122.32661 -8.9166756 -73.034302 -8.9065523 -74.948792 -0.17223451 -89.490463
9205500000 -1.1082411 122.31276 -8.9173317 -73.039261 -8.9087582 -74.932289 -0.17688258 -89.471603
9205562500 -1.1080824 122.27864 -8.9257822 -73.076492 -8.9099007 -74.916481 -0.18012349 -89.435913
9205625000 -1.1086624 122.24711 -8.9177294 -73.020454 -8.9099207 -74.946793 -0.17718287 -89.502075
9205687500 -1.1128246 122.26515 -8.9125919 -73.005753 -8.9174376 -74.996208 -0.18628496 -89.476036
9205750000 -1.1087769 122.21553 -8.9150248 -73.018188 -8.9102888 -75.013725 -0.18551034 -89.458229
9205812500 -1.1115237 122.23584 -8.9217291 -72.979317 -8.9078112 -74.984505 -0.17398992 -89.444931
9205875000 -1.1176376 122.20285 -8.9279232 -73.031349 -8.9074669 -74.928398 -0.18198785 -89.390816
9205937500 -1.112965 122.24352 -8.9141979 -73.030197 -8.9084463 -74.995224 -0.17265329 -89.455231
9206000000 -1.1179093 122.23372 -8.9243383 -73.025108 -8.9066782 -74.997688 -0.17720333 -89.418015
9206062500 -1.1174273 122.22939 -8.9233685 -73.059235 -8.9070768 -74.972687 -0.17526631 -89.392136
9206125000 -1.1142814 122.19241 -8.9123096 -73.080597 -8.9002428 -74.988564 -0.16921936 -89.396423
9206187500 -1.1131878 122.20729 -8.912816 -73.02993 -8.9042454 -74.961922 -0.16970274 -89.37072
9206250000 -1.1150343 122.15344 -8.9172964 -73.034676 -8.9058266 -74.98262 -0.18006624 -89.314331
9206312500 -1.1099075 122.14584 -8.9102278 -72.969208 -8.9019032 -74.979568 -0.1844659 -89.334167
9206375000 -1.1087126 122.08187 -8.9091759 -73.054787 -8.9018145 -74.923332 -0.17984769 -89.257942
9206437500 -1.1064024 122.07051 -8.9126396 -73.023949 -8.9026623 -74.934875 -0.17853971 -89.24736
9206500000 -1.1104085 122.03626 -8.906167 -73.023026 -8.8881931 -74.955093 -0.17667077 -89.223953
9206562500 -1.1167409 122.04991 -8.9137859 -73.024551 -8.9054136 -74.900902 -0.1890765 -89.170853
9206625000 -1.1167486 122.01833 -8.909934 -72.999001 -8.9063921 -74.932701 -0.1925761 -89.166054
9206687500 -1.1170077 122.04055 -8.9080973 -72.93383 -8.9021378 -74.891907 -0.19388483 -89.110779
9206750000 -1.1194148 122.03861 -8.9142017 -72.931931 -8.892662 -74.853203 -0.19091889 -89.091057
9206812500 -1.1217865 122.01812 -8.9126244 -72.895638 -8.8953533 -74.892792 -0.19076888 -89.064934
9206875000 -1.1200129 122.0285 -8.9072647 -72.974014 -8.8951759 -74.89283 -0.18530113 -89.052673
9206937500 -1.1115414 122.03224 -8.905448 -72.981705 -8.8932028 -74.823593 -0.18388499 -89.02739
9207000000 -1.1191652 121.99043 -8.9107885 -72.929901 -8.8912706 -74.837234 -0.18348175 -89.031418
9207062500 -1.1168308 121.97128 -8.9106112 -72.996841 -8.8966265 -74.79689 -0.18366623 -88.984047
9207125000 -1.1187181 121.96398 -8.915678 -72.990738 -8.8931017 -74.846756 -0.18804568 -89.000053
9207187500 -1.1127218 121.95508 -8.9029255 -72.95565 -8.9018469 -74.813988 -0.18593365 -89.013351
9207250000 -1.1139464 121.90432 -8.9066935 -72.928879 -8.8908997 -74.786621 -0.18626301 -88.995995
9207312500 -1.1161964 121.8965 -8.9055185 -72.98558 -8.8886585 -74.823105 -0.18048804 -88.971817
9207375000 -1.1139554 121.90355 -8.9002132 -72.98468 -8.8894081 -74.816681 -0.18140386 -88.976143
9207437500 -1.1162372 121.87737 -8.9098129 -72.984344 -8.8907366 -74.850517 -0.18338287 -88.984077
9207500000 -1.1116761 121.86361 -8.908103 -73.011864 -8.8844576 -74.807365 -0.18763061 -88.947563
9207562500 -1.1087039 121.84835 -8.8948879 -72.961594 -8.8843288 -74.829582 -0.18218018 -88.949211
9207625000 -1.1106269 121.8252 -8.8968954 -72.993454 -8.8868446 -74.83606 -0.18463157 -88.93792
9207687500 -1.1152306 121.83275 -8.901001 -72.958931 -8.8872805 -74.893333 -0.18928804 -88.954453
9207750000 -1.1157788 121.82484 -8.9055576 -72.974571 -8.8863401 -74.847717 -0.18369497 -88.906235
9207812500 -1.1099104 121.82835 -8.9008913 -72.937309 -8.8941593 -74.888214 -0.19144031 -88.890839
9207875000 -1.1181897 121.81593 -8.9025621 -72.978554 -8.8954105 -74.949837 -0.19468427 -88.899712
9207937500 -1.1114081 121.77567 -8.9024515 -73.009979 -8.887043 -74.909447 -0.18660475 -88.840378
9208000000 -1.1125866 121.81182 -8.8865328 -72.991859 -8.8944473 -74.95726 -0.18690372 -88.917984
9208062500 -1.1140348 121.74434 -8.8972826 -73.012527 -8.8865919 -74.932793 -0.19178045 -88.865791
9208125000 -1.1132817 121.70675 -8.8947983 -73.015015 -8.8849277 -74.883385 -0.1926448 -88.819244
9208187500 -1.1097926 121.76402 -8.8980827 -73.030792 -8.8847227 -74.951965 -0.1891318 -88.860153
9208250000 -1.1170189 121.70837 -8.905694 -72.983315 -8.8821192 -74.919006 -0.19379158 -88.813644
9208312500 -1.1175278 121.69698 -8.9002008 -72.964211 -8.8790407 -74.87249 -0.1989408 -88.786034
9208375000 -1.1080924 121.68731 -8.9001427 -72.981552 -8.8849516 -74.897263 -0.19964619 -88.820045
9208437500 -1.1106755 121.65564 -8.8942318 -73.001686 -8.8793383 -74.832222 -0.19347206 -88.744888
9208500000 -1.1119348 121.63464 -8.8868828 -72.97821 -8.8875732 -74.873154 -0.19628166 -88.736023
9208562500 -1.1178751 121.63441 -8.8875303 -72.999413 -8.8792143 -74.848106 -0.1935247 -88.698769
9208625000 -1.1178851 121.61121 -8.8886232 -72.931084 -8.8830166 -74.801582 -0.1949483 -88.64679
9208687500 -1.1128492 121.58283 -8.8788767 -72.913544 -8.8820772 -74.760139 -0.1864754 -88.572029
9208750000 -1.1154345 121.60257 -8.8840227 -72.937149 -8.8768635 -74.767906 -0.19031654 -88.556145
9208812500 -1.1160575 121.58636 -8.8851471 -72.954132 -8.8733997 -74.80867 -0.19177079 -88.547157
9208875000 -1.1131033 121.56519 -8.892642 -72.930435 -8.8730326 -74.827904 -0.19430268 -88.586739
9208937500 -1.1158419 121.53808 -8.8809366 -73.042122 -8.8727865 -74.834282 -0.19153392 -88.573921
9209000000 -1.1143179 121.52348 -8.8900681 -72.972931 -8.8672123 -74.828026 -0.19261755 -88.560608
9209062500 -1.1090393 121.52249 -8.8827648 -72.960373 -8.8716269 -74.825691 -0.18820116 -88.57151
9209125000 -1.1126405 121.53951 -8.8839302 -72.965981 -8.8596325 -74.853439 -0.18562408 -88.552422
9209187500 -1.1134865 121.53188 -8.8803062 -72.951546 -8.8722553 -74.851326 -0.19657075 -88.518303
9209250000 -1.1118604 121.53246 -8.877985 -72.910484 -8.86238 -74.813469 -0.18383598 -88.489578
9209312500 -1.114553 121.52132 -8.8779726 -72.991188 -8.86695 -74.776001 -0.18627723 -88.474083
9209375000 -1.1096754 121.5049 -8.8765049 -72.97345 -8.8646727 -74.839279 -0.18259038 -88.46257
9209437500 -1.1141633 121.50146 -8.8733807 -72.957413 -8.8650913 -74.746399 -0.18598579 -88.435425
9209500000 -1.116732 121.51506 -8.8650799 -72.938148 -8.8630056 -74.775665 -0.17713848 -88.390961
9209562500 -1.1220417 121.43739 -8.878459 -72.943901 -8.8662663 -74.759758 -0.18775286 -88.372314
9209625000 -1.1157262 121.43008 -8.8755102 -72.92202 -8.8622303 -74.889725 -0.18710367 -88.377403
9209687500 -1.1199707 121.4188 -8.8821869 -72.934593 -8.8632336 -74.809769 -0.19107741 -88.356354
9209750000 -1.1214058 121.39437 -8.8798962 -72.972702 -8.8601093 -74.750313 -0.18861459 -88.319977
9209812500 -1.1231236 121.38367 -8.8761396 -72.934914 -8.861721 -74.789497 -0.19353415 -88.313744
9209875000 -1.117588 121.36823 -8.8722649 -72.910866 -8.8664799 -74.779861 -0.19564469 -88.316307
9209937500 -1.1183623 121.29535 -8.8652248 -72.946983 -8.8623161 -74.79895 -0.18753566 -88.280037
9210000000 -1.1119345 121.31413 -8.8681421 -72.96183 -8.8626852 -74.802185 -0.18330586 -88.301453
9210062500 -1.1154215 121.32239 -8.8791409 -72.92672 -8.8663568 -74.776459 -0.18808071 -88.244003
9210125000 -1.1124481 121.28482 -8.8773708 -72.916145 -8.8626537 -74.817673 -0.19309106 -88.191818
9210187500 -1.1093872 121.28731 -8.8701582 -72.952797 -8.857131 -74.827209 -0.18769512 -88.280769
9210250000 -1.1068041 121.24392 -8.8619881 -72.96347 -8.8623266 -74.782265 -0.19026427 -88.192123
9210312500 -1.1076769 121.23246 -8.8672686 -72.926506 -8.8629065 -74.773865 -0.18989728 -88.180855
9210375000 -1.1123197 121.24487 -8.8636332 -72.951241 -8.8641272 -74.739189 -0.1990851 -88.15995
9210437500 -1.1110625 121.2093 -8.8588734 -72.952293 -8.8626623 -74.760086 -0.1980731 -88.154243
9210500000 -1.112735 121.21938 -8.8701334 -72.960518 -8.86131 -74.757668 -0.19607171 -88.129562
9210562500 -1.1090723 121.2129 -8.8666077 -72.920448 -8.8559799 -74.78331 -0.19236243 -88.136253
9210625000 -1.1149615 121.2213 -8.8714314 -72.929001 -8.860136 -74.837059 -0.20639609 -88.154472
9210687500 -1.1132545 121.191 -8.8726187 -72.941658 -8.8595924 -74.779572 -0.20127846 -88.116165
9210750000 -1.1064575 121.17791 -8.8597212 -72.891479 -8.8553476 -74.743134 -0.20205159 -88.068932
9210812500 -1.1122525 121.21005 -8.8726816 -72.906731 -8.8574505 -74.815262 -0.20259744 -88.080528
9210875000 -1.1111408 121.13472 -8.8669882 -72.914513 -8.8515291 -74.791496 -0.19831623 -88.05677
9210937500 -1.1129564 121.12021 -8.8663845 -72.948784 -8.8464375 -74.744759 -0.19812869 -88.02652
9211000000 -1.1122122 121.0947 -8.8696795 -73.001846 -8.8507967 -74.758911 -0.1935129 -88.0112
9211062500 -1.1137532 121.09356 -8.8667345 -72.940041 -8.8518248 -74.757149 -0.19744255 -87.949532
9211125000 -1.1138382 121.0733 -8.8617516 -72.948654 -8.8518457 -74.731644 -0.20277622 -87.965828
9211187500 -1.1163781 121.07214 -8.8677759 -72.901016 -8.8511982 -74.757179 -0.19970068 -87.982651
9211250000 -1.1205703 121.07317 -8.865962 -72.860146 -8.8511171 -74.773972 -0.19228795 -87.927475
9211312500 -1.1163172 121.08508 -8.8621864 -72.853462 -8.8518438 -74.830437 -0.20123936 -87.971802
9211375000 -1.1141135 121.02734 -8.8636923 -72.885025 -8.8567171 -74.781586 -0.19896531 -87.911316
9211437500 -1.1158293 121.01848 -8.8578005 -72.904892 -8.8467493 -74.791443 -0.19952498 -87.917358
9211500000 -1.1124616 121.02449 -8.8552809 -72.883286 -8.8480186 -74.808968 -0.19622909 -87.906837
9211562500 -1.1175885 121.03935 -8.8564682 -72.828819 -8.8473101 -74.70903 -0.1950684 -87.829147
9211625000 -1.1086015 120.98444 -8.8486814 -72.899071 -8.8384275 -74.790268 -0.19047076 -87.873703
9211687500 -1.1114655 121.00639 -8.8526583 -72.913841 -8.839633 -74.775337 -0.19570754 -87.84388
9211750000 -1.1119781 120.97339 -8.845377 -72.879028 -8.8423672 -74.697388 -0.19348368 -87.802933
9211812500 -1.1132526 120.94754 -8.841423 -72.94265 -8.8421478 -74.759552 -0.20459789 -87.75563
9211875000 -1.114659 120.97071 -8.8520021 -72.903679 -8.8342113 -74.713936 -0.19734469 -87.754036
9211937500 -1.1145986 120.91541 -8.8474846 -72.898354 -8.8392487 -74.727303 -0.20262191 -87.752655
9212000000 -1.112795 120.87617 -8.8421974 -72.958817 -8.8401775 -74.732475 -0.20372306 -87.709045
9212062500 -1.1085975 120.85845 -8.8445415 -72.891426 -8.8455515 -74.757912 -0.20167263 -87.700752
9212125000 -1.1147708 120.80779 -8.8488379 -72.920784 -8.831645 -74.679428 -0.202323 -87.689919
9212187500 -1.1098294 120.79092 -8.8512783 -72.912254 -8.8294115 -74.705269 -0.20520401 -87.658241
9212250000 -1.1157273 120.81931 -8.8555269 -72.876915 -8.8270149 -74.743507 -0.20187537 -87.630745
9212312500 -1.1080317 120.79778 -8.8477497 -72.922714 -8.8403473 -74.718872 -0.20650281 -87.654381
