!Agilent Technologies,N5242A,MY51221714,A.09.90.19
!Agilent N5242A: A.09.90.19
!Date: Saturday, January 13, 2024 13:25:25
!Correction: S11(Full 2 Port(1,2)) 
!S21(Full 2 Port(1,2)) 
!S12(Full 2 Port(1,2)) 
!S22(Full 2 Port(1,2)) 
!S2P File: Measurements: S11, S21, S12, S22:
# Hz S  dB   R 50
9200000000 -1.2457428 122.90931 -8.983777 -75.203934 -8.9626894 -77.142647 -0.29644069 -92.191788
9200062500 -1.2520589 122.89872 -8.991992 -75.232544 -8.9557877 -77.082855 -0.29979956 -92.157097
9200125000 -1.2511129 122.89607 -8.9836206 -75.22364 -8.9538593 -77.113762 -0.29592705 -92.161278
9200187500 -1.2471559 122.89584 -8.9846201 -75.206978 -8.9557457 -77.148918 -0.29667544 -92.148964
9200250000 -1.248937 122.89571 -8.9798403 -75.235207 -8.9588928 -77.105026 -0.29860064 -92.112762
9200312500 -1.2438055 122.85634 -8.9789209 -75.283371 -8.9565973 -77.109062 -0.30317712 -92.121864
9200375000 -1.2467997 122.85851 -8.9753857 -75.227173 -8.9468002 -77.138367 -0.29747912 -92.105835
9200437500 -1.2447336 122.81857 -8.9711065 -75.232208 -8.9526186 -77.102966 -0.29964969 -92.049561
9200500000 -1.2429906 122.79878 -8.970891 -75.223473 -8.9511766 -77.075912 -0.30020446 -92.026039
9200562500 -1.2367001 122.81188 -8.9665222 -75.253014 -8.94876 -77.132263 -0.29463866 -92.08419
9200625000 -1.2334933 122.77695 -8.9681301 -75.230064 -8.954051 -77.110466 -0.29894567 -92.015671
9200687500 -1.2322526 122.77518 -8.9695702 -75.260017 -8.9494076 -77.105995 -0.2977109 -92.044006
9200750000 -1.2322505 122.77618 -8.9566622 -75.210129 -8.9480362 -77.167099 -0.29637629 -92.027657
9200812500 -1.2365775 122.76373 -8.9763412 -75.198189 -8.9518995 -77.097198 -0.30318889 -92.002869
9200875000 -1.2326953 122.76655 -8.9730167 -75.17215 -8.9481335 -77.162819 -0.29431152 -91.974182
9200937500 -1.2409508 122.75745 -8.9784555 -75.256042 -8.9409189 -77.153679 -0.29862547 -91.97406
9201000000 -1.2405912 122.72745 -8.9764137 -75.151817 -8.9482212 -77.069839 -0.29599407 -91.922371
9201062500 -1.2404398 122.70481 -8.9653883 -75.181358 -8.9424343 -77.086838 -0.29813606 -91.906921
9201125000 -1.2474961 122.69383 -8.976038 -75.211266 -8.9457121 -77.100815 -0.30104184 -91.888306
9201187500 -1.2436978 122.66322 -8.9635973 -75.175095 -8.9414234 -77.105057 -0.29851329 -91.871254
9201250000 -1.2523476 122.66553 -8.9757147 -75.207474 -8.9464617 -77.103333 -0.30196109 -91.883247
9201312500 -1.2429184 122.6909 -8.9766169 -75.16861 -8.9435034 -77.109612 -0.30268183 -91.88414
9201375000 -1.2384079 122.62946 -8.9639826 -75.244736 -8.9475098 -77.05249 -0.30462947 -91.846016
9201437500 -1.2416061 122.63577 -8.9666519 -75.196823 -8.9464855 -77.119576 -0.31212276 -91.862579
9201500000 -1.2446067 122.63759 -8.9766569 -75.18145 -8.9461575 -77.106804 -0.30736914 -91.829247
9201562500 -1.2433277 122.57728 -8.9749832 -75.236847 -8.9530153 -77.112144 -0.31253761 -91.843025
9201625000 -1.2364006 122.56184 -8.9629946 -75.210487 -8.9418144 -77.169609 -0.30009422 -91.869461
9201687500 -1.2376343 122.58572 -8.9642048 -75.189301 -8.9430113 -77.099319 -0.29887709 -91.766632
9201750000 -1.2400274 122.59832 -8.9597626 -75.173492 -8.9474916 -77.105286 -0.30544332 -91.749969
9201812500 -1.2418545 122.59068 -8.9625053 -75.148155 -8.9425287 -77.093697 -0.30010188 -91.706612
9201875000 -1.2392659 122.55241 -8.9551277 -75.163727 -8.9474764 -77.011841 -0.30236912 -91.684853
9201937500 -1.2418721 122.54984 -8.9505386 -75.164627 -8.9462156 -77.089851 -0.30767083 -91.669144
9202000000 -1.2373419 122.48788 -8.944212 -75.148109 -8.9524212 -77.032875 -0.31010062 -91.611992
9202062500 -1.2422529 122.50601 -8.9529209 -75.075699 -8.93783 -76.998451 -0.30502275 -91.596352
9202125000 -1.2406005 122.45814 -8.959796 -75.161926 -8.9392786 -77.015259 -0.30998477 -91.502312
9202187500 -1.2409273 122.43049 -8.9475985 -75.188202 -8.9416237 -77.033951 -0.30650336 -91.513573
9202250000 -1.2383522 122.39079 -8.9466152 -75.233376 -8.9266472 -77.119255 -0.30488387 -91.576401
9202312500 -1.2384839 122.40377 -8.9477243 -75.205063 -8.932025 -77.025696 -0.30407977 -91.515854
9202375000 -1.2404172 122.3998 -8.947917 -75.159065 -8.9252481 -77.06707 -0.30494994 -91.511658
9202437500 -1.2464012 122.37326 -8.9533424 -75.180893 -8.9302444 -77.079742 -0.30586952 -91.499512
9202500000 -1.2455783 122.35821 -8.9569263 -75.206299 -8.9292192 -77.114876 -0.30553469 -91.546783
9202562500 -1.2424027 122.36291 -8.9557438 -75.151527 -8.9369001 -77.141739 -0.3132453 -91.535721
9202625000 -1.2451061 122.36146 -8.952527 -75.203789 -8.9306965 -77.112556 -0.30853197 -91.559402
9202687500 -1.2520391 122.37318 -8.9526215 -75.22332 -8.9268799 -77.097458 -0.30076107 -91.563705
9202750000 -1.2481414 122.36758 -8.9427338 -75.182945 -8.9377356 -77.102493 -0.30523831 -91.526794
9202812500 -1.2495743 122.32729 -8.9509134 -75.175117 -8.927845 -77.072952 -0.30328986 -91.498619
9202875000 -1.2454067 122.34022 -8.950304 -75.144836 -8.9265413 -77.136581 -0.30284095 -91.490227
9202937500 -1.2380393 122.31564 -8.9375753 -75.19648 -8.9323816 -77.078613 -0.30377823 -91.42421
9203000000 -1.2429684 122.36087 -8.9464121 -75.157387 -8.9245157 -77.094177 -0.3076787 -91.432144
9203062500 -1.237637 122.25648 -8.9349785 -75.140823 -8.9216881 -77.032974 -0.30581531 -91.326355
9203125000 -1.2449257 122.26145 -8.9514523 -75.18187 -8.9285202 -77.015396 -0.31067505 -91.334572
9203187500 -1.2447958 122.27196 -8.9391232 -75.120293 -8.9270687 -77.046608 -0.30974469 -91.316605
9203250000 -1.2465163 122.26103 -8.9396296 -75.157494 -8.9274397 -77.044357 -0.30831328 -91.313896
9203312500 -1.2446631 122.23017 -8.932642 -75.070053 -8.9300308 -77.064606 -0.30633071 -91.344452
9203375000 -1.2468349 122.24954 -8.941762 -75.107193 -8.9341593 -77.038322 -0.31012198 -91.312592
9203437500 -1.240543 122.21633 -8.9294767 -75.122513 -8.9279451 -77.050453 -0.30370361 -91.272583
9203500000 -1.2485533 122.21725 -8.9368944 -75.108917 -8.9279652 -76.989716 -0.30798343 -91.265762
9203562500 -1.245623 122.19571 -8.9363575 -75.101845 -8.9361687 -77.074669 -0.3161799 -91.289841
9203625000 -1.2471741 122.21699 -8.9380932 -75.132256 -8.919136 -77.020988 -0.30822018 -91.215218
9203687500 -1.2426727 122.16209 -8.9328871 -75.210739 -8.9255085 -77.042397 -0.31560728 -91.2192
9203750000 -1.2473207 122.15687 -8.9385109 -75.149147 -8.9315434 -77.063385 -0.32144582 -91.206985
9203812500 -1.2450329 122.14359 -8.9340324 -75.157265 -8.9179211 -77.045502 -0.31120154 -91.212433
9203875000 -1.2419212 122.11324 -8.9362288 -75.14418 -8.9232931 -77.060562 -0.32110235 -91.162292
9203937500 -1.2441152 122.0889 -8.9415617 -75.162361 -8.9160318 -77.087265 -0.31490567 -91.144081
9204000000 -1.2422733 122.09209 -8.9379168 -75.099388 -8.9197979 -77.010826 -0.31799775 -91.153679
9204062500 -1.2432814 122.09929 -8.9374218 -75.129845 -8.9139719 -77.040306 -0.30508527 -91.119888
9204125000 -1.2454075 122.04945 -8.9306068 -75.12159 -8.9133692 -76.953835 -0.31180707 -91.050529
9204187500 -1.2439122 122.04408 -8.9290543 -75.094604 -8.9122143 -77.009857 -0.30708179 -91.077995
9204250000 -1.2466859 122.04353 -8.9328909 -75.167206 -8.9095659 -77.036865 -0.31146467 -91.055901
9204312500 -1.2396657 122.00604 -8.930294 -75.110641 -8.9097624 -76.946358 -0.31016645 -91.002724
9204375000 -1.2465516 122.0304 -8.934701 -75.164726 -8.9177399 -77.058601 -0.3172729 -91.046593
9204437500 -1.2429241 121.96909 -8.9211187 -75.159859 -8.9130955 -77.003586 -0.31450108 -90.982773
9204500000 -1.2470846 122.00069 -8.9335489 -75.135445 -8.9171619 -76.992653 -0.32154295 -90.995956
9204562500 -1.2434278 121.94761 -8.9225101 -75.162453 -8.9176884 -76.986778 -0.31936327 -90.976616
9204625000 -1.2439426 121.94157 -8.9279013 -75.166283 -8.9212437 -77.011391 -0.32312402 -90.968613
9204687500 -1.2529649 121.93896 -8.934453 -75.154221 -8.9110518 -76.996956 -0.32245204 -90.976639
9204750000 -1.2485802 121.94195 -8.9294357 -75.115112 -8.9236469 -77.0028 -0.32523602 -90.964951
9204812500 -1.2481774 121.92368 -8.9278917 -75.078117 -8.9142637 -76.98793 -0.31974632 -90.906532
9204875000 -1.2551969 121.92461 -8.9204121 -75.120514 -8.908865 -77.046204 -0.31888106 -90.896561
9204937500 -1.2578393 121.90121 -8.9362793 -75.149368 -8.9135303 -76.972473 -0.31840575 -90.87384
9205000000 -1.2528254 121.89866 -8.9286795 -75.099571 -8.9064665 -77.034447 -0.31206039 -90.882652
9205062500 -1.2466123 121.91945 -8.9228373 -75.07148 -8.9101105 -77.044525 -0.31296647 -90.880341
9205125000 -1.2412225 121.85613 -8.9159422 -75.137375 -8.9101715 -77.009598 -0.31511763 -90.84288
9205187500 -1.2413772 121.87597 -8.9186287 -75.113251 -8.8990307 -77.017975 -0.31709167 -90.817123
9205250000 -1.2380213 121.87227 -8.9118052 -75.154388 -8.9003801 -77.006187 -0.31704649 -90.77169
9205312500 -1.2438911 121.8407 -8.9121733 -75.156281 -8.8989496 -77.001556 -0.32129416 -90.757935
9205375000 -1.2363226 121.83208 -8.9076328 -75.137955 -8.894824 -77.041588 -0.31427082 -90.802505
9205437500 -1.2366076 121.78338 -8.9093924 -75.126915 -8.9047213 -77.018044 -0.32531044 -90.747803
9205500000 -1.2400999 121.77332 -8.9211636 -75.07785 -8.8930502 -76.984917 -0.32113409 -90.724205
9205562500 -1.2350329 121.77626 -8.9085617 -75.097992 -8.9092569 -77.021912 -0.32631817 -90.736397
9205625000 -1.2351739 121.74482 -8.9044476 -75.088783 -8.9095373 -77.004234 -0.32801607 -90.706802
9205687500 -1.2383281 121.72545 -8.9071865 -75.101929 -8.8992939 -76.976646 -0.318385 -90.683441
9205750000 -1.2365825 121.68204 -8.9102879 -75.105659 -8.9040089 -77.036873 -0.32724038 -90.730751
9205812500 -1.2452782 121.69384 -8.9176655 -75.177071 -8.8994713 -77.030495 -0.31772104 -90.685608
9205875000 -1.2418486 121.72953 -8.9041357 -75.085312 -8.8996754 -76.977776 -0.31553122 -90.640625
9205937500 -1.2412783 121.68143 -8.903245 -75.098785 -8.8959103 -76.999779 -0.31317687 -90.668106
9206000000 -1.2431844 121.73068 -8.9064293 -75.023094 -8.899087 -76.998573 -0.31584758 -90.635788
9206062500 -1.2427065 121.70307 -8.9133415 -75.085556 -8.899394 -77.028152 -0.31374216 -90.628334
9206125000 -1.2435706 121.70863 -8.9016399 -75.041756 -8.8995943 -76.9916 -0.31780964 -90.614418
9206187500 -1.2415825 121.67503 -8.9091282 -75.112083 -8.8946333 -76.965233 -0.31734416 -90.593857
9206250000 -1.2402129 121.6441 -8.9074783 -75.080124 -8.8921709 -77.008202 -0.31601927 -90.550346
9206312500 -1.2373197 121.6143 -8.9021578 -75.13044 -8.8868332 -76.994011 -0.31897703 -90.523598
9206375000 -1.2373089 121.59481 -8.9062862 -75.07383 -8.8911018 -77.008095 -0.32193485 -90.506233
9206437500 -1.2350292 121.59069 -8.9009647 -75.097275 -8.8907213 -76.968925 -0.32162538 -90.452896
9206500000 -1.2373805 121.55434 -8.9040852 -75.052124 -8.8879375 -77.016251 -0.32739115 -90.469131
9206562500 -1.2373669 121.49284 -8.8992615 -75.139572 -8.8913212 -77.002182 -0.32811937 -90.42627
9206625000 -1.2428789 121.52938 -8.9065552 -74.995789 -8.8865957 -77.003242 -0.33179134 -90.394539
9206687500 -1.2450817 121.5155 -8.9003134 -74.974861 -8.8843193 -76.939529 -0.33643556 -90.303108
9206750000 -1.247335 121.54924 -8.9038191 -75.054192 -8.8912477 -76.989563 -0.33411601 -90.378647
9206812500 -1.2451882 121.53083 -8.894618 -75.009666 -8.8936539 -76.940086 -0.33278853 -90.316963
9206875000 -1.2363588 121.52399 -8.8921871 -74.998711 -8.8854465 -76.939865 -0.33513463 -90.314636
9206937500 -1.2396216 121.51096 -8.8969584 -75.040688 -8.8887386 -76.918137 -0.32613495 -90.282524
9207000000 -1.2433616 121.46377 -8.8958254 -75.009834 -8.8986139 -76.923897 -0.33913264 -90.311218
9207062500 -1.2414392 121.4306 -8.9004297 -75.10154 -8.8926048 -76.882721 -0.32949859 -90.260582
9207125000 -1.2402651 121.41116 -8.9008093 -75.11322 -8.8925562 -76.903831 -0.32579845 -90.249672
9207187500 -1.2415756 121.42499 -8.9057226 -75.067734 -8.8819895 -76.8881 -0.3215794 -90.22319
9207250000 -1.2439814 121.40436 -8.897047 -75.107674 -8.8870258 -76.88546 -0.32681906 -90.244209
9207312500 -1.2413415 121.37536 -8.8889141 -75.080048 -8.875411 -76.942215 -0.32172915 -90.258766
9207375000 -1.2394482 121.36182 -8.8903379 -75.089935 -8.8818035 -76.908936 -0.32735777 -90.243301
9207437500 -1.2331799 121.37399 -8.8825369 -75.040024 -8.8759375 -76.890228 -0.31907392 -90.20137
9207500000 -1.2339299 121.33527 -8.8839273 -75.050385 -8.8767881 -76.892593 -0.32977259 -90.190735
9207562500 -1.2382069 121.33516 -8.900033 -75.020317 -8.8783665 -76.931412 -0.32903472 -90.204277
9207625000 -1.2322463 121.29963 -8.8851156 -75.047951 -8.8700132 -76.920601 -0.32394174 -90.209595
9207687500 -1.2364919 121.31204 -8.8834305 -75.081924 -8.8757544 -76.968193 -0.32811955 -90.15052
9207750000 -1.240096 121.28291 -8.883213 -75.10331 -8.8800974 -76.967651 -0.32624581 -90.162697
9207812500 -1.2389246 121.27881 -8.887105 -75.035866 -8.8841162 -76.967514 -0.32947287 -90.143776
9207875000 -1.2365786 121.26407 -8.8875809 -75.065498 -8.8858681 -76.969604 -0.33351174 -90.134857
9207937500 -1.2401487 121.23684 -8.8856649 -75.08075 -8.8857718 -76.984383 -0.33298036 -90.107521
9208000000 -1.2403222 121.23723 -8.8832235 -75.113159 -8.8783646 -77.009422 -0.33265084 -90.104851
9208062500 -1.2367078 121.21783 -8.8815231 -75.117722 -8.8736391 -76.936104 -0.32949769 -90.087219
9208125000 -1.244481 121.21019 -8.8875761 -75.077477 -8.8747931 -76.95488 -0.33125696 -90.05114
9208187500 -1.2385012 121.17966 -8.8852444 -75.115219 -8.8766632 -76.953819 -0.33120093 -90.065613
9208250000 -1.2385877 121.1617 -8.887908 -75.091789 -8.8740978 -76.932037 -0.33962959 -90.049141
9208312500 -1.2439867 121.17096 -8.8833008 -75.116547 -8.8723497 -76.902023 -0.34302399 -90.021652
9208375000 -1.238042 121.16025 -8.875515 -75.072014 -8.8669138 -76.976639 -0.33876553 -90.019714
9208437500 -1.2391423 121.1026 -8.8742437 -75.088531 -8.8672247 -76.955437 -0.33522037 -90.004112
9208500000 -1.2403524 121.13738 -8.8768501 -75.060661 -8.8753929 -76.960556 -0.3409611 -89.960434
9208562500 -1.2423135 121.11829 -8.8792696 -75.010201 -8.877346 -76.891014 -0.34382781 -89.882919
9208625000 -1.2431011 121.07814 -8.8717289 -75.074883 -8.8711309 -76.878159 -0.3353574 -89.873459
9208687500 -1.2470132 121.0927 -8.8716917 -74.987701 -8.8659658 -76.928993 -0.3299503 -89.870872
9208750000 -1.2419658 121.07928 -8.8708029 -75.01989 -8.8673124 -76.89119 -0.33452094 -89.847839
9208812500 -1.2507651 121.04932 -8.883111 -75.022545 -8.8609915 -76.904099 -0.3301205 -89.84314
9208875000 -1.2468204 121.08068 -8.8781185 -75.010612 -8.8604641 -76.847801 -0.33550197 -89.785866
9208937500 -1.2441717 121.01363 -8.8742905 -75.091385 -8.8593187 -76.891991 -0.33229786 -89.81945
9209000000 -1.2412775 121.00112 -8.8751316 -75.045555 -8.858943 -76.847893 -0.33153436 -89.779434
9209062500 -1.2412974 120.9984 -8.8744726 -75.035423 -8.8533754 -76.903282 -0.32632083 -89.77771
9209125000 -1.2418814 121.02069 -8.8762312 -75.072548 -8.8521004 -76.910744 -0.32932967 -89.808548
9209187500 -1.2424136 121.00996 -8.8799257 -75.088654 -8.8514605 -76.909103 -0.32740352 -89.815704
9209250000 -1.2401607 120.99181 -8.8746862 -75.062088 -8.8622103 -76.912483 -0.33428004 -89.752472
9209312500 -1.2439048 120.98177 -8.8677635 -75.077049 -8.8611717 -76.931 -0.33006799 -89.765587
9209375000 -1.2441878 121.00188 -8.8739967 -75.061325 -8.8555593 -76.90773 -0.32803035 -89.675781
9209437500 -1.2388161 120.98873 -8.858428 -75.07325 -8.862401 -76.827156 -0.33158448 -89.647583
9209500000 -1.2431129 120.97802 -8.8612833 -75.067833 -8.8641062 -76.824585 -0.33068466 -89.614525
9209562500 -1.2442076 120.95151 -8.8606529 -75.048653 -8.8562565 -76.830162 -0.33306888 -89.595734
9209625000 -1.2507584 120.94515 -8.880909 -75.037712 -8.8563471 -76.897835 -0.33625937 -89.620934
9209687500 -1.250682 120.89107 -8.8652401 -75.009552 -8.8527699 -76.868477 -0.34057078 -89.600693
9209750000 -1.2471474 120.87229 -8.8675919 -75.015091 -8.8471375 -76.814545 -0.32494301 -89.557945
9209812500 -1.2482536 120.82377 -8.8714428 -75.008629 -8.8491583 -76.891663 -0.32637897 -89.595619
9209875000 -1.2504815 120.81665 -8.8660288 -74.975113 -8.8460217 -76.828728 -0.32537121 -89.484787
9209937500 -1.2468005 120.81133 -8.8643999 -74.995987 -8.8524227 -76.856987 -0.3306739 -89.520103
9210000000 -1.2483183 120.79041 -8.8600206 -75.036682 -8.8542919 -76.882019 -0.33033955 -89.538811
9210062500 -1.2410624 120.81403 -8.8575563 -74.997421 -8.8496819 -76.863884 -0.33195633 -89.493828
9210125000 -1.2399096 120.76389 -8.861043 -75.060699 -8.8508034 -76.953232 -0.33246905 -89.530991
9210187500 -1.2446349 120.74783 -8.8534718 -75.01754 -8.8543539 -76.821716 -0.33362171 -89.462929
9210250000 -1.239893 120.74661 -8.8524733 -75.064072 -8.8565083 -76.844391 -0.33935037 -89.467201
9210312500 -1.2333561 120.69081 -8.8477125 -75.057861 -8.8436594 -76.865593 -0.33110449 -89.423714
9210375000 -1.2396964 120.72577 -8.8517761 -75.033203 -8.8518639 -76.874908 -0.33644548 -89.426178
9210437500 -1.237523 120.70099 -8.8522253 -75.053116 -8.8599272 -76.873497 -0.3492502 -89.395241
9210500000 -1.2410697 120.69064 -8.8556442 -75.024124 -8.8504133 -76.854576 -0.33857957 -89.413826
9210562500 -1.2405385 120.69415 -8.8581104 -75.081299 -8.8517962 -76.892593 -0.3480587 -89.427864
9210625000 -1.2392132 120.65987 -8.8513746 -75.066505 -8.8462915 -76.948776 -0.34408453 -89.398346
9210687500 -1.2375592 120.67072 -8.8544407 -75.047699 -8.8472519 -76.902969 -0.34391958 -89.360535
9210750000 -1.2446544 120.67136 -8.8605194 -75.039093 -8.8413763 -76.878365 -0.34066311 -89.376129
9210812500 -1.2454294 120.64001 -8.8589392 -75.078812 -8.8468285 -76.878716 -0.34243798 -89.346764
9210875000 -1.2410114 120.62164 -8.8553352 -75.010857 -8.8418732 -76.839279 -0.3458741 -89.313858
9210937500 -1.2410018 120.59173 -8.8503914 -74.997986 -8.8390055 -76.831421 -0.34527388 -89.251953
9211000000 -1.2441186 120.60612 -8.8563433 -75.056831 -8.8290339 -76.847275 -0.34370768 -89.245354
9211062500 -1.2449464 120.57697 -8.8545961 -75.086288 -8.8381758 -76.886932 -0.33942991 -89.273842
9211125000 -1.2460774 120.56653 -8.8675461 -75.041824 -8.8421612 -76.849365 -0.34644327 -89.22242
9211187500 -1.2489536 120.54082 -8.8616886 -75.073311 -8.8374271 -76.886421 -0.34000832 -89.241829
9211250000 -1.2471253 120.55521 -8.8587656 -75.058723 -8.8311949 -76.85347 -0.33810374 -89.191032
9211312500 -1.2489039 120.54742 -8.8502779 -74.984116 -8.8398113 -76.870758 -0.34280005 -89.173271
9211375000 -1.2448751 120.50648 -8.8535585 -75.016571 -8.8432827 -76.860939 -0.34327951 -89.166916
9211437500 -1.2437841 120.52272 -8.8477259 -74.921265 -8.8369875 -76.886734 -0.34363496 -89.184181
9211500000 -1.245114 120.47857 -8.8536768 -75.018898 -8.8249006 -76.844215 -0.34406239 -89.126221
9211562500 -1.2443796 120.50272 -8.8489618 -75.003494 -8.832592 -76.868675 -0.34474057 -89.139328
9211625000 -1.2452095 120.4808 -8.841629 -74.987442 -8.8326721 -76.789711 -0.34025511 -89.041138
9211687500 -1.245146 120.45486 -8.8414183 -74.975586 -8.82689 -76.784607 -0.34433302 -89.035912
9211750000 -1.2460783 120.44755 -8.8322611 -74.992561 -8.8236008 -76.835144 -0.34123129 -89.061897
9211812500 -1.2419837 120.42408 -8.8358412 -74.968208 -8.8262157 -76.830971 -0.3414205 -89.037346
9211875000 -1.2436104 120.43842 -8.8360558 -74.967697 -8.8284273 -76.848129 -0.34689924 -89.010002
9211937500 -1.2433106 120.36709 -8.8355942 -75.023506 -8.8284826 -76.801819 -0.350813 -88.946579
9212000000 -1.2385739 120.34337 -8.8291235 -74.989113 -8.8232479 -76.831863 -0.34516636 -89.020142
9212062500 -1.2454475 120.3429 -8.8389912 -75.01445 -8.8224926 -76.821381 -0.34669077 -88.933014
9212125000 -1.2426012 120.3279 -8.8332233 -74.99588 -8.8324366 -76.807442 -0.35773325 -88.922729
9212187500 -1.2434953 120.30758 -8.8371258 -75.019196 -8.826108 -76.841843 -0.35006967 -88.90303
9212250000 -1.2394906 120.27637 -8.836256 -75.01561 -8.8210745 -76.807518 -0.35198075 -88.866936
9212312500 -1.2389083 120.24134 -8.8410454 -75.035439 -8.8217649 -76.766808 -0.35100123 -88.877861
