!Agilent Technologies,N5242A,MY51221714,A.09.90.19
!Agilent N5242A: A.09.90.19
!Date: Saturday, December 30, 2023 10:55:07
!Correction: S11(Full 2 Port(1,2)) 
!S21(Full 2 Port(1,2)) 
!S12(Full 2 Port(1,2)) 
!S22(Full 2 Port(1,2)) 
!S2P File: Measurements: S11, S21, S12, S22:
# Hz S  dB   R 50
9200000000 -0.99837542 127.75791 -8.8213196 -70.363213 -8.7975025 -71.184982 -0.19537383 -90.243835
9200062500 -0.99910277 127.71361 -8.8191986 -70.397018 -8.8000469 -71.255013 -0.19453439 -90.236687
9200125000 -1.0067351 127.70062 -8.8210163 -70.395592 -8.7964735 -71.171822 -0.19327851 -90.19313
9200187500 -1.0026097 127.70334 -8.8288088 -70.371262 -8.8077202 -71.231873 -0.20109476 -90.200729
9200250000 -1.011055 127.67935 -8.8310442 -70.399261 -8.7973461 -71.183548 -0.19364367 -90.167839
9200312500 -1.0029607 127.62186 -8.8190403 -70.455307 -8.8033543 -71.159622 -0.19561657 -90.161438
9200375000 -1.005739 127.64188 -8.831584 -70.404938 -8.8031807 -71.175957 -0.19589055 -90.117836
9200437500 -1.0055979 127.59129 -8.8300171 -70.395119 -8.7991457 -71.173584 -0.19346797 -90.17009
9200500000 -1.007836 127.61671 -8.8208523 -70.39267 -8.8043251 -71.176735 -0.19911674 -90.152718
9200562500 -1.006613 127.5798 -8.8291531 -70.390587 -8.8058786 -71.194611 -0.20030107 -90.127602
9200625000 -1.0034723 127.57586 -8.8195038 -70.42585 -8.7931061 -71.187889 -0.18895563 -90.106476
9200687500 -1.0039991 127.53081 -8.8151293 -70.374916 -8.7959528 -71.203819 -0.18948501 -90.039185
9200750000 -1.0031335 127.52139 -8.8184166 -70.401878 -8.7947149 -71.147133 -0.18616349 -90.010956
9200812500 -0.99787772 127.51788 -8.8088999 -70.373001 -8.7937975 -71.174202 -0.19213516 -90.077957
9200875000 -1.0005467 127.47826 -8.8161325 -70.401375 -8.7884951 -71.157593 -0.19077444 -90.021805
9200937500 -1.0010797 127.47708 -8.8195677 -70.424591 -8.7817507 -71.166542 -0.18942218 -90.015587
9201000000 -1.0037719 127.51278 -8.8109798 -70.387039 -8.7909489 -71.229416 -0.19670643 -90.049011
9201062500 -1.0007601 127.47935 -8.8262796 -70.377319 -8.7925949 -71.103157 -0.19649516 -89.980453
9201125000 -1.0057398 127.50347 -8.8218794 -70.38559 -8.7974215 -71.180298 -0.20032652 -89.984093
9201187500 -1.0007765 127.52925 -8.8202724 -70.399727 -8.7961655 -71.118912 -0.20304936 -89.971489
9201250000 -1.0005918 127.49764 -8.8205204 -70.353455 -8.7941313 -71.134972 -0.19741917 -89.946373
9201312500 -1.0023063 127.49853 -8.8163662 -70.349739 -8.7957716 -71.117447 -0.19985297 -89.957687
9201375000 -1.0080824 127.46494 -8.8110905 -70.401382 -8.7915134 -71.132477 -0.19625378 -89.913361
9201437500 -1.0049267 127.47409 -8.8138494 -70.300385 -8.7886572 -71.143387 -0.19573645 -89.864769
9201500000 -1.0061328 127.40654 -8.8073435 -70.358772 -8.7954082 -71.182472 -0.19856448 -89.814651
9201562500 -1.0097648 127.44212 -8.8027096 -70.272751 -8.789279 -71.111946 -0.18957329 -89.765045
9201625000 -1.0033418 127.40919 -8.8025637 -70.309227 -8.7897997 -71.137131 -0.19320582 -89.773216
9201687500 -1.0096213 127.37963 -8.8045578 -70.352318 -8.7857895 -71.138443 -0.18897554 -89.75206
9201750000 -1.0062551 127.3571 -8.8081226 -70.326546 -8.7830133 -71.152878 -0.19801421 -89.800201
9201812500 -1.0108773 127.34966 -8.8139477 -70.383049 -8.7911835 -71.117241 -0.19825895 -89.765251
9201875000 -1.0048529 127.34034 -8.8010807 -70.345856 -8.7788477 -71.14827 -0.19677545 -89.775703
9201937500 -1.0037044 127.32067 -8.811018 -70.365036 -8.7782602 -71.079437 -0.19691332 -89.755508
9202000000 -1.0030742 127.36229 -8.8053331 -70.355042 -8.7855377 -71.07843 -0.20170751 -89.717545
9202062500 -1.0045671 127.31044 -8.8051929 -70.322533 -8.7920132 -71.102837 -0.20645598 -89.75705
9202125000 -1.002038 127.27794 -8.8048363 -70.406349 -8.790514 -71.088058 -0.20893778 -89.693184
9202187500 -1.0017195 127.28357 -8.7922506 -70.37709 -8.7932625 -71.091171 -0.20458551 -89.666428
9202250000 -1.0039877 127.24863 -8.8105221 -70.368149 -8.7865105 -71.170914 -0.20264687 -89.752007
9202312500 -1.0048461 127.24697 -8.8024836 -70.346664 -8.7851391 -71.182716 -0.19893318 -89.66114
9202375000 -0.99870175 127.19557 -8.8017702 -70.401619 -8.7865868 -71.120049 -0.20048328 -89.639366
9202437500 -1.0004659 127.20999 -8.7982683 -70.380173 -8.7875433 -71.109009 -0.20443344 -89.596878
9202500000 -1.0004271 127.19034 -8.8047142 -70.341034 -8.7835226 -71.126083 -0.20733763 -89.592461
9202562500 -1.0001116 127.17223 -8.7965231 -70.356117 -8.7939405 -71.172119 -0.20848553 -89.582115
9202625000 -0.99920207 127.16625 -8.7954865 -70.288757 -8.7865677 -71.209732 -0.20022655 -89.608704
9202687500 -1.0047371 127.16336 -8.7964792 -70.349342 -8.782939 -71.125076 -0.20179017 -89.567879
9202750000 -0.99988562 127.12724 -8.7949581 -70.343201 -8.7889709 -71.177719 -0.19885732 -89.564819
9202812500 -0.99951863 127.12251 -8.7972231 -70.315155 -8.7779198 -71.135445 -0.20228587 -89.513969
9202875000 -0.99378395 127.1156 -8.7974243 -70.319511 -8.7693367 -71.139404 -0.198348 -89.535652
9202937500 -0.99344516 127.13143 -8.7908058 -70.269066 -8.7816086 -71.159035 -0.2021402 -89.491455
9203000000 -0.99871391 127.07764 -8.7924376 -70.345695 -8.7689686 -71.118256 -0.20225777 -89.499741
9203062500 -1.0003245 127.0481 -8.7952862 -70.421242 -8.7701054 -71.126961 -0.20175724 -89.475677
9203125000 -0.99569255 127.05676 -8.7864418 -70.324112 -8.7719698 -71.12104 -0.20224352 -89.49263
9203187500 -0.99402076 127.04394 -8.7881355 -70.381615 -8.777792 -71.124542 -0.20367493 -89.459694
9203250000 -0.99403769 127.02574 -8.7827711 -70.321587 -8.7775249 -71.019615 -0.20192885 -89.358475
9203312500 -0.99504173 127.063 -8.7830191 -70.297554 -8.7779627 -71.089119 -0.20271078 -89.35955
9203375000 -0.99043995 127.05265 -8.7697697 -70.303986 -8.7786407 -71.017906 -0.19795665 -89.294441
9203437500 -1.0000761 127.01299 -8.7788782 -70.321098 -8.7825041 -71.05687 -0.19934763 -89.292122
9203500000 -0.99703383 127.01535 -8.7759724 -70.31736 -8.7756033 -71.080261 -0.19656019 -89.285553
9203562500 -0.99924278 127.00713 -8.7782125 -70.274086 -8.7743502 -71.076584 -0.20162447 -89.284569
9203625000 -0.99534976 126.96804 -8.7798901 -70.267136 -8.7708559 -71.06797 -0.19472434 -89.279472
9203687500 -1.0026542 126.97502 -8.7822962 -70.277863 -8.7687082 -71.12706 -0.20174159 -89.267143
9203750000 -1.0005502 126.92329 -8.7830801 -70.367653 -8.7696276 -71.09668 -0.20444332 -89.280807
9203812500 -1.0010625 126.90959 -8.7846136 -70.314827 -8.7693224 -71.101685 -0.20615414 -89.26403
9203875000 -1.0000397 126.89695 -8.7746382 -70.36586 -8.767499 -71.088203 -0.19958518 -89.297058
9203937500 -1.0076982 126.87325 -8.7953568 -70.288177 -8.7680979 -71.060089 -0.20012727 -89.22142
9204000000 -1.0020281 126.9016 -8.773283 -70.269127 -8.7644806 -71.053589 -0.19527799 -89.229172
9204062500 -1.0008404 126.85516 -8.7842445 -70.305939 -8.7641335 -71.089668 -0.1951811 -89.202637
9204125000 -1.0018015 126.8513 -8.7816133 -70.281906 -8.7653999 -71.075104 -0.19609408 -89.182808
9204187500 -1.0034516 126.83835 -8.7789955 -70.297585 -8.7695389 -71.057968 -0.19656967 -89.167755
9204250000 -0.99783784 126.83553 -8.7849798 -70.25811 -8.7702255 -71.052292 -0.19861449 -89.133217
9204312500 -0.99234205 126.813 -8.7702894 -70.270882 -8.7672863 -71.036789 -0.19307637 -89.094505
9204375000 -0.99462485 126.77932 -8.7673178 -70.261917 -8.7619543 -70.975304 -0.19551677 -89.067688
9204437500 -0.99356455 126.76547 -8.7703228 -70.274109 -8.7647142 -71.097794 -0.20773454 -89.082352
9204500000 -0.99436474 126.78799 -8.7695026 -70.271088 -8.7576342 -71.08448 -0.20109054 -89.071487
9204562500 -0.9998858 126.75388 -8.7767935 -70.266029 -8.7641487 -71.036758 -0.20747416 -88.998001
9204625000 -0.99087399 126.74408 -8.7577896 -70.18502 -8.7599373 -71.031258 -0.20846902 -89.041527
9204687500 -0.99298757 126.70043 -8.7732744 -70.217224 -8.7599173 -71.004784 -0.20495573 -89.011162
9204750000 -1.0011235 126.7147 -8.7724657 -70.225517 -8.7589836 -71.040863 -0.21015061 -89.008484
9204812500 -0.99914312 126.67459 -8.7695847 -70.292717 -8.7519646 -71.012932 -0.20167007 -88.972488
9204875000 -0.99907511 126.67007 -8.7747164 -70.287544 -8.7611361 -71.063782 -0.21130393 -88.964561
9204937500 -1.0030806 126.61641 -8.7788734 -70.331589 -8.7521486 -71.038979 -0.20672171 -88.942169
9205000000 -1.0039563 126.62545 -8.7807341 -70.332512 -8.7617207 -71.039856 -0.20439185 -88.926338
9205062500 -1.0046287 126.61703 -8.7826958 -70.32962 -8.7620926 -71.027855 -0.20476137 -88.910782
9205125000 -1.0019385 126.64332 -8.7693853 -70.239227 -8.754262 -71.043846 -0.19833909 -88.909088
9205187500 -1.0045912 126.64143 -8.7715731 -70.248909 -8.7585402 -71.005386 -0.2020202 -88.827499
9205250000 -1.0027959 126.62946 -8.7723322 -70.26133 -8.7633829 -71.133865 -0.20234358 -88.885498
9205312500 -1.0030439 126.61852 -8.7746506 -70.205574 -8.765213 -71.071495 -0.1994983 -88.78772
9205375000 -0.99714786 126.59127 -8.7614107 -70.20517 -8.7694912 -71.053917 -0.19686317 -88.758354
9205437500 -1.0035764 126.60331 -8.7738266 -70.238846 -8.7567348 -71.097122 -0.19843209 -88.765564
9205500000 -1.0039799 126.56185 -8.7674284 -70.230301 -8.7585087 -71.047325 -0.20746896 -88.718895
9205562500 -0.99962312 126.55259 -8.7683105 -70.218025 -8.7520046 -71.06414 -0.19778839 -88.678314
9205625000 -1.0026098 126.55084 -8.773139 -70.195045 -8.7521524 -70.981743 -0.21072865 -88.633316
9205687500 -1.0001734 126.48744 -8.7769899 -70.236725 -8.7517281 -71.025658 -0.21090625 -88.630203
9205750000 -1.0004244 126.47833 -8.7734032 -70.174538 -8.7556028 -70.981201 -0.21079844 -88.596626
9205812500 -0.99883795 126.46162 -8.7719946 -70.208298 -8.7517357 -70.983147 -0.20967743 -88.61187
9205875000 -1.0057629 126.43633 -8.7721815 -70.176674 -8.7418098 -71.026398 -0.20624761 -88.614441
9205937500 -1.0005894 126.39029 -8.7710018 -70.202316 -8.751668 -70.968956 -0.20949696 -88.589638
9206000000 -1.0014044 126.41621 -8.7605858 -70.206512 -8.7567368 -71.005821 -0.21046783 -88.584099
9206062500 -1.0046114 126.40897 -8.7701921 -70.140503 -8.753438 -70.967186 -0.20811909 -88.545647
9206125000 -1.0067698 126.38182 -8.7722178 -70.296509 -8.7559195 -71.024239 -0.21690798 -88.548615
9206187500 -0.99988765 126.41692 -8.7604876 -70.15052 -8.7449703 -70.959915 -0.20988229 -88.501595
9206250000 -1.0023158 126.34166 -8.7581158 -70.236153 -8.7573118 -70.993988 -0.21431315 -88.505501
9206312500 -1.0019794 126.34044 -8.7623615 -70.22702 -8.752552 -70.975044 -0.21617417 -88.444397
9206375000 -1.0001954 126.28648 -8.7575741 -70.253914 -8.7482014 -70.978622 -0.21621767 -88.485817
9206437500 -0.99688113 126.28558 -8.7474108 -70.24968 -8.7430592 -71.056091 -0.21030398 -88.481888
9206500000 -0.99982554 126.27471 -8.7568998 -70.198631 -8.7442055 -70.985703 -0.21285044 -88.476959
9206562500 -1.0018364 126.31358 -8.7570877 -70.203781 -8.7479105 -70.974686 -0.21346363 -88.395805
9206625000 -0.99922264 126.27724 -8.7485027 -70.265343 -8.7402802 -70.888908 -0.20627688 -88.372627
9206687500 -1.0047393 126.30708 -8.7572899 -70.233391 -8.7449121 -70.920891 -0.21005116 -88.363747
9206750000 -1.0057304 126.2943 -8.752676 -70.228004 -8.7346821 -70.964684 -0.20096803 -88.394592
9206812500 -1.002781 126.31161 -8.7602253 -70.253738 -8.7457933 -70.974594 -0.20108366 -88.376007
9206875000 -1.0031556 126.27726 -8.7455578 -70.254311 -8.7382164 -70.961739 -0.20189326 -88.383835
9206937500 -0.9991768 126.26956 -8.7550516 -70.235779 -8.728652 -70.932259 -0.20177847 -88.33506
9207000000 -1.0000604 126.21916 -8.7527246 -70.238419 -8.7387381 -70.922585 -0.20431246 -88.295738
9207062500 -0.99793601 126.20625 -8.7536888 -70.216568 -8.7339602 -70.973198 -0.2049915 -88.28466
9207125000 -0.99994606 126.18485 -8.7575932 -70.22245 -8.7396832 -70.989914 -0.21162958 -88.253082
9207187500 -0.99575657 126.17171 -8.755127 -70.214249 -8.7317562 -70.932648 -0.20390651 -88.19397
9207250000 -1.0010411 126.15769 -8.7594109 -70.148979 -8.7281361 -70.999199 -0.21089382 -88.245712
9207312500 -0.99547559 126.11281 -8.7594643 -70.230064 -8.7376099 -70.930984 -0.21476583 -88.211342
9207375000 -1.0002701 126.11514 -8.7542372 -70.236443 -8.7388191 -70.994789 -0.21477568 -88.220169
9207437500 -1.0037379 126.11491 -8.7507038 -70.171761 -8.7290697 -70.927612 -0.2129613 -88.207413
9207500000 -0.99895912 126.07906 -8.7420416 -70.236656 -8.7309828 -70.948151 -0.21523421 -88.182762
9207562500 -1.003004 126.05535 -8.743329 -70.233116 -8.7327194 -70.958382 -0.21389626 -88.20018
9207625000 -1.0038975 126.01751 -8.7494736 -70.216225 -8.7368364 -70.974113 -0.21602134 -88.173996
9207687500 -1.0045445 126.01511 -8.748044 -70.224846 -8.7411127 -70.992706 -0.2161117 -88.173676
9207750000 -1.0041559 126.02669 -8.7364635 -70.225883 -8.737072 -70.983276 -0.20903338 -88.157967
9207812500 -1.0046561 126.05269 -8.7467051 -70.202026 -8.7384911 -70.897751 -0.20644745 -88.099564
9207875000 -1.0088987 126.05276 -8.7433548 -70.206924 -8.7358637 -70.907639 -0.20258303 -88.094971
9207937500 -1.00861 126.0379 -8.7404661 -70.218689 -8.7305317 -70.948082 -0.19963637 -88.102417
9208000000 -1.0130588 126.01141 -8.7410126 -70.216133 -8.7320862 -70.989975 -0.19948547 -88.075005
9208062500 -1.0048891 125.9809 -8.7430592 -70.199921 -8.728941 -70.952156 -0.19926317 -88.086639
9208125000 -1.0010772 125.98892 -8.7359619 -70.150154 -8.7316084 -70.948074 -0.20419534 -88.017403
9208187500 -1.0004112 125.94622 -8.7344246 -70.14798 -8.7389221 -70.929848 -0.21715982 -87.997643
9208250000 -1.0050426 125.95424 -8.7435923 -70.180275 -8.7385845 -70.930641 -0.21336061 -87.891441
9208312500 -1.0048198 125.9445 -8.7301302 -70.142197 -8.730072 -70.92572 -0.20651701 -87.891602
9208375000 -1.0019978 125.97204 -8.7365932 -70.173836 -8.7324991 -71.013672 -0.2090058 -87.911125
9208437500 -0.99894702 125.93055 -8.7310238 -70.105003 -8.7352209 -70.941704 -0.21345094 -87.872231
9208500000 -1.0043274 125.90537 -8.7307444 -70.142502 -8.7230272 -70.986618 -0.21189968 -87.895462
9208562500 -1.0001996 125.91854 -8.730031 -70.132751 -8.7289591 -70.93116 -0.2086077 -87.897049
9208625000 -1.0031848 125.8832 -8.7313051 -70.129349 -8.7266617 -70.949715 -0.20955779 -87.914597
9208687500 -0.99982864 125.86629 -8.7309589 -70.123947 -8.7278967 -70.919464 -0.21321657 -87.857346
9208750000 -0.99398255 125.8513 -8.7335587 -70.115616 -8.7300024 -70.870399 -0.21348183 -87.837463
9208812500 -1.0002556 125.8605 -8.7381773 -70.062515 -8.7276964 -70.896889 -0.21768822 -87.807327
9208875000 -0.99345309 125.87643 -8.7303438 -70.044434 -8.7205524 -70.897598 -0.21697636 -87.775795
9208937500 -0.99777293 125.83759 -8.7361851 -70.086647 -8.7225227 -70.855476 -0.21681158 -87.756645
9209000000 -0.99777496 125.84235 -8.7364445 -70.091888 -8.7154341 -70.906113 -0.2182014 -87.758537
9209062500 -0.99760604 125.7869 -8.7258892 -70.090057 -8.7184868 -70.836922 -0.21892956 -87.73745
9209125000 -0.9945814 125.80023 -8.7368078 -70.130577 -8.7224607 -70.888039 -0.22156875 -87.764076
9209187500 -0.99602658 125.78427 -8.7238111 -70.104485 -8.7199717 -70.850014 -0.2232026 -87.684105
9209250000 -0.99277997 125.72868 -8.7354479 -70.133255 -8.7201376 -70.867493 -0.22232497 -87.689056
9209312500 -0.99629313 125.72216 -8.7320404 -70.131485 -8.7158537 -70.84552 -0.21268199 -87.638794
9209375000 -0.99587703 125.73196 -8.7328453 -70.098083 -8.7168999 -70.878349 -0.2213915 -87.61718
9209437500 -0.99198252 125.66916 -8.7271776 -70.166763 -8.72293 -70.854256 -0.22533686 -87.593597
9209500000 -0.98848885 125.67237 -8.7242661 -70.087471 -8.7253942 -70.859077 -0.22288112 -87.580322
9209562500 -1.0031512 125.64198 -8.729393 -70.145432 -8.7197723 -70.938721 -0.21378079 -87.631592
9209625000 -0.99463469 125.65224 -8.7159195 -70.096504 -8.7257967 -70.857742 -0.2174271 -87.570313
9209687500 -0.99998999 125.64861 -8.7221556 -70.145134 -8.7172813 -70.881248 -0.20691822 -87.569679
9209750000 -1.0011637 125.62121 -8.7270517 -70.150688 -8.7174988 -70.866371 -0.21134236 -87.569565
9209812500 -1.0048566 125.62468 -8.7327051 -70.12011 -8.714057 -70.899658 -0.20725475 -87.609352
9209875000 -1.0030162 125.59568 -8.7269545 -70.138161 -8.7103233 -70.897705 -0.20801938 -87.566368
9209937500 -1.0040283 125.60923 -8.7249298 -70.152809 -8.7102156 -70.869911 -0.21165076 -87.513176
9210000000 -1.0054399 125.5743 -8.7173719 -70.134315 -8.710043 -70.858688 -0.20860133 -87.512543
9210062500 -1.007727 125.58363 -8.7317972 -70.108612 -8.7186069 -70.890182 -0.21578854 -87.535286
9210125000 -1.0042348 125.55027 -8.7188339 -70.086021 -8.704669 -70.819229 -0.21257843 -87.431053
9210187500 -1.0049628 125.55467 -8.7230959 -70.095856 -8.7073231 -70.846474 -0.21335118 -87.415634
9210250000 -1.0010741 125.5633 -8.7190008 -70.096321 -8.703845 -70.883865 -0.21311483 -87.4366
9210312500 -0.99780333 125.5535 -8.7212715 -70.049263 -8.7127333 -70.848518 -0.22051316 -87.430038
9210375000 -1.0021147 125.51752 -8.720355 -70.107475 -8.7078276 -70.837242 -0.21757281 -87.396637
9210437500 -1.0032798 125.51009 -8.7177372 -70.091179 -8.7078342 -70.898926 -0.22447008 -87.439682
9210500000 -1.0042844 125.4831 -8.7185841 -70.113083 -8.7170753 -70.873062 -0.2158417 -87.407761
9210562500 -1.0010972 125.4203 -8.7199478 -70.133957 -8.7036133 -70.819389 -0.22162168 -87.321022
9210625000 -1.005356 125.35985 -8.7225685 -70.14135 -8.7019262 -70.864395 -0.21890341 -87.331131
9210687500 -1.0031791 125.35709 -8.716218 -70.13929 -8.7147875 -70.853439 -0.22302486 -87.323112
9210750000 -0.99859565 125.32508 -8.716773 -70.092751 -8.7080917 -70.866051 -0.22709557 -87.309746
9210812500 -0.99825847 125.35601 -8.7070723 -70.066895 -8.6984825 -70.861099 -0.21002319 -87.27948
9210875000 -0.99566537 125.33308 -8.6985626 -70.107605 -8.7053118 -70.802612 -0.22017099 -87.213989
9210937500 -0.99907529 125.32455 -8.7052994 -70.093895 -8.7045507 -70.827049 -0.21718021 -87.19342
9211000000 -0.99847591 125.33814 -8.7053652 -70.037811 -8.6998262 -70.755547 -0.21733314 -87.171532
9211062500 -0.99402308 125.31291 -8.7029963 -70.071289 -8.7051573 -70.73259 -0.22206619 -87.11174
9211125000 -0.99443394 125.30366 -8.7024965 -70.102089 -8.6887054 -70.763786 -0.21526431 -87.112968
9211187500 -1.0021254 125.29792 -8.7106047 -70.103973 -8.6996336 -70.841766 -0.22221169 -87.185661
9211250000 -1.0018886 125.31003 -8.7090282 -70.028358 -8.7011766 -70.7668 -0.22054994 -87.081421
9211312500 -0.99788731 125.25672 -8.7158813 -70.075653 -8.7008276 -70.738464 -0.23186304 -87.062912
9211375000 -0.99825078 125.23856 -8.7132673 -70.129082 -8.6976967 -70.750221 -0.22172061 -87.027191
9211437500 -0.99879342 125.22622 -8.7071419 -70.079086 -8.7007399 -70.828804 -0.22151972 -87.056877
9211500000 -0.99424034 125.25031 -8.7083597 -70.109596 -8.7025576 -70.817108 -0.22328207 -87.097534
9211562500 -0.99616998 125.28075 -8.7047138 -70.037987 -8.7022753 -70.877159 -0.22196393 -87.137772
9211625000 -0.98664063 125.23816 -8.695262 -70.076935 -8.6976337 -70.781433 -0.22032616 -87.109703
9211687500 -0.98976749 125.25404 -8.6966009 -70.115517 -8.6984529 -70.814323 -0.21949016 -87.111275
9211750000 -0.99336267 125.22088 -8.7039223 -70.097527 -8.70012 -70.763596 -0.22217759 -87.108856
9211812500 -0.99423194 125.23657 -8.703495 -70.000755 -8.6946716 -70.766365 -0.21873401 -87.057007
9211875000 -0.9916296 125.2094 -8.7014608 -70.068665 -8.6960716 -70.82383 -0.22634812 -87.040527
9211937500 -0.9974395 125.16428 -8.6998377 -70.015945 -8.6908016 -70.78521 -0.21918949 -86.975037
9212000000 -0.99250185 125.17047 -8.6965256 -70.003395 -8.6910124 -70.836006 -0.22242427 -86.955307
9212062500 -0.99346334 125.1009 -8.6935759 -70.023575 -8.6887875 -70.81929 -0.22221838 -86.924255
9212125000 -0.99543327 125.06563 -8.6973972 -69.991119 -8.6877203 -70.752502 -0.22647093 -86.827271
9212187500 -0.98880458 125.07071 -8.6894217 -70.034637 -8.6846313 -70.805618 -0.22131063 -86.886124
9212250000 -0.99125254 124.98911 -8.6979475 -70.069344 -8.6841898 -70.765671 -0.22237748 -86.831375
