!Agilent Technologies,N5242A,MY51221714,A.09.90.19
!Agilent N5242A: A.09.90.19
!Date: Saturday, March 16, 2024 08:51:09
!Correction: S11(Full 2 Port(1,2)) 
!S21(Full 2 Port(1,2)) 
!S12(Full 2 Port(1,2)) 
!S22(Full 2 Port(1,2)) 
!S2P File: Measurements: S11, S21, S12, S22:
# Hz S  dB   R 50
9200000000 -0.92190456 123.14922 -9.0579529 -73.635567 -9.0468769 -74.100418 -0.21001796 -89.73127
9200062500 -0.92690945 123.08691 -9.058363 -73.639442 -9.046752 -74.064995 -0.20183827 -89.685196
9200125000 -0.92630619 123.08075 -9.0510159 -73.591263 -9.0482473 -74.112862 -0.20407361 -89.715187
9200187500 -0.92345488 123.08198 -9.0498457 -73.596176 -9.0410585 -74.072533 -0.20102735 -89.665215
9200250000 -0.9235304 123.02165 -9.0512362 -73.644737 -9.0345135 -74.064362 -0.20271339 -89.649307
9200312500 -0.9214651 123.00074 -9.0501928 -73.652 -9.0428076 -74.112694 -0.20742369 -89.663147
9200375000 -0.91643405 123.02027 -9.049531 -73.696732 -9.034481 -74.146896 -0.20658234 -89.656776
9200437500 -0.91998988 123.03449 -9.0492582 -73.58918 -9.0397043 -74.119987 -0.20991415 -89.595131
9200500000 -0.92030913 123.02261 -9.0467415 -73.592094 -9.0360508 -74.122307 -0.20372878 -89.553299
9200562500 -0.92006451 123.00027 -9.0514774 -73.618713 -9.034502 -74.138573 -0.21167766 -89.578407
9200625000 -0.92032617 122.96593 -9.0481758 -73.656303 -9.0295744 -74.056892 -0.21061322 -89.521156
9200687500 -0.91890508 122.97697 -9.0429955 -73.551353 -9.0250072 -74.04393 -0.20992637 -89.501915
9200750000 -0.91867644 122.9307 -9.0534487 -73.588104 -9.0272579 -74.053818 -0.21467356 -89.457092
9200812500 -0.92480099 122.94624 -9.0578165 -73.572365 -9.0318689 -74.113846 -0.2166279 -89.438614
9200875000 -0.92130268 122.92237 -9.0527439 -73.575478 -9.0320129 -74.067688 -0.22387445 -89.371452
9200937500 -0.92121118 122.94371 -9.0470257 -73.574722 -9.030695 -74.04921 -0.215591 -89.355293
9201000000 -0.91826427 122.86344 -9.0422077 -73.570763 -9.0356026 -74.023911 -0.22317767 -89.360497
9201062500 -0.91240615 122.88404 -9.0324421 -73.53096 -9.0224686 -74.041061 -0.20905244 -89.359734
9201125000 -0.91764671 122.88151 -9.0372915 -73.543289 -9.0349617 -74.078217 -0.21654439 -89.347916
9201187500 -0.91222173 122.84604 -9.0380964 -73.600578 -9.0322056 -74.070595 -0.219771 -89.341293
9201250000 -0.91477472 122.82209 -9.0367155 -73.567253 -9.028698 -74.075752 -0.21573929 -89.342171
9201312500 -0.91307759 122.85065 -9.0315161 -73.54821 -9.0287514 -74.051598 -0.2135441 -89.292709
9201375000 -0.92233002 122.803 -9.0464725 -73.639542 -9.0243673 -74.064339 -0.21818036 -89.325424
9201437500 -0.92300463 122.78064 -9.0385208 -73.653435 -9.0258961 -74.05072 -0.21133107 -89.285103
9201500000 -0.92205244 122.76954 -9.0413666 -73.643211 -9.0251493 -74.041992 -0.21352428 -89.303177
9201562500 -0.92790306 122.78661 -9.0447206 -73.607826 -9.027626 -74.020508 -0.21248639 -89.281914
9201625000 -0.92215729 122.79227 -9.0351934 -73.597252 -9.0289984 -74.017929 -0.21365669 -89.264954
9201687500 -0.9195509 122.75697 -9.035531 -73.5578 -9.0211325 -74.014656 -0.21000795 -89.211441
9201750000 -0.92387998 122.72136 -9.0423822 -73.57399 -9.0310497 -73.965508 -0.21618657 -89.165215
9201812500 -0.92237115 122.70779 -9.0462275 -73.535187 -9.0144787 -74.017899 -0.21273664 -89.168465
9201875000 -0.917449 122.71082 -9.0313454 -73.557587 -9.0247593 -74.022316 -0.21642338 -89.187645
9201937500 -0.92199337 122.69931 -9.0474195 -73.571434 -9.0231857 -74.041298 -0.22380149 -89.151901
9202000000 -0.91683829 122.64177 -9.0216017 -73.615044 -9.0175438 -73.9758 -0.2137332 -89.080505
9202062500 -0.91598499 122.64717 -9.0252609 -73.582306 -9.0205297 -74.038139 -0.21066317 -89.1213
9202125000 -0.92382389 122.63988 -9.0301952 -73.535652 -9.0163383 -74.016449 -0.21103197 -89.110901
9202187500 -0.92421031 122.61358 -9.0292301 -73.566177 -9.0167961 -74.038391 -0.21278393 -89.089516
9202250000 -0.92038929 122.63242 -9.0182772 -73.531563 -9.017787 -73.995911 -0.21125145 -89.021118
9202312500 -0.91749513 122.59872 -9.0182896 -73.621666 -9.0206289 -74.050171 -0.21307352 -89.062126
9202375000 -0.91895217 122.6022 -9.021739 -73.535599 -9.0245161 -74.106033 -0.21555226 -89.040031
9202437500 -0.91652095 122.58688 -9.0207357 -73.60376 -9.0191278 -73.997375 -0.2152223 -89.017792
9202500000 -0.92802274 122.56837 -9.0283251 -73.581551 -9.0217943 -74.047928 -0.2226496 -88.989204
9202562500 -0.9208231 122.57525 -9.0221405 -73.504311 -9.0242167 -74.037033 -0.22600724 -88.987633
9202625000 -0.92060125 122.57166 -9.0304327 -73.521996 -9.0212555 -74.065025 -0.22167261 -88.941437
9202687500 -0.92638814 122.52604 -9.025363 -73.545158 -9.0162296 -74.032677 -0.22247238 -88.948395
9202750000 -0.92213964 122.48936 -9.0245991 -73.5812 -9.0176516 -73.988022 -0.22225763 -88.898735
9202812500 -0.91808265 122.54088 -9.0240059 -73.494545 -9.0158501 -74.020126 -0.22718765 -88.907471
9202875000 -0.9199906 122.49622 -9.0210142 -73.518829 -9.0154467 -74.037582 -0.22400765 -88.890007
9202937500 -0.92151153 122.45987 -9.0298367 -73.548523 -9.0141573 -74.007629 -0.22023013 -88.844666
9203000000 -0.91949439 122.46658 -9.0174379 -73.51387 -9.0208549 -73.996353 -0.22189829 -88.821693
9203062500 -0.91413438 122.4483 -9.0100937 -73.528519 -9.0201845 -74.068344 -0.21864499 -88.835526
9203125000 -0.91738409 122.39277 -9.0120678 -73.57254 -9.0125732 -73.96344 -0.21323267 -88.781601
9203187500 -0.91962135 122.40037 -9.0138435 -73.49881 -9.0070028 -74.032784 -0.21233706 -88.84816
9203250000 -0.92016864 122.40411 -9.0166187 -73.542732 -9.0084791 -74.011734 -0.21939136 -88.802803
9203312500 -0.92192477 122.39098 -9.0200014 -73.576012 -9.0136852 -74.025475 -0.22281998 -88.750725
9203375000 -0.92300528 122.37968 -9.020195 -73.53125 -9.0115566 -73.99958 -0.2197469 -88.753441
9203437500 -0.92513859 122.37933 -9.0186901 -73.562737 -9.0102024 -74.042709 -0.21762148 -88.712372
9203500000 -0.91490233 122.35418 -9.0140619 -73.488304 -9.0128927 -74.022316 -0.2203393 -88.654678
9203562500 -0.92117238 122.32175 -9.0149136 -73.581894 -9.0074911 -74.06601 -0.21891761 -88.687798
9203625000 -0.9176116 122.32791 -9.0103912 -73.537743 -9.0069914 -73.996407 -0.22120653 -88.661507
9203687500 -0.92688942 122.2704 -9.0146742 -73.568794 -9.0058107 -74.01284 -0.22108914 -88.644226
9203750000 -0.91979212 122.2495 -9.0126333 -73.557121 -9.0106182 -73.921852 -0.22561038 -88.575439
9203812500 -0.92139298 122.28791 -9.0134363 -73.541473 -9.0113077 -74.032562 -0.22649503 -88.621056
9203875000 -0.92445832 122.25014 -9.0149441 -73.505592 -9.015769 -73.972267 -0.23718177 -88.546432
9203937500 -0.91842651 122.24083 -9.0177736 -73.509712 -9.0133924 -73.962265 -0.23439504 -88.562027
9204000000 -0.91866636 122.2287 -9.0154867 -73.548599 -9.0047655 -74.000496 -0.23651893 -88.591896
9204062500 -0.92186689 122.22643 -9.0209379 -73.529961 -9.0010977 -73.990677 -0.23587804 -88.522987
9204125000 -0.91358441 122.17624 -9.011467 -73.611465 -9.0008917 -74.004326 -0.23510849 -88.532257
9204187500 -0.91907966 122.17818 -9.0212326 -73.508804 -8.989357 -73.980247 -0.23162766 -88.481766
9204250000 -0.91203922 122.22644 -9.0066233 -73.469948 -8.9934521 -73.925919 -0.23228255 -88.461418
9204312500 -0.91748977 122.15836 -9.0189934 -73.497116 -8.9969482 -74.002831 -0.23234966 -88.478111
9204375000 -0.91593111 122.16012 -9.0115471 -73.528152 -8.9920731 -73.965233 -0.22284791 -88.434532
9204437500 -0.9165194 122.10507 -9.0152349 -73.525734 -9.0011234 -73.927979 -0.22934157 -88.406914
9204500000 -0.91019279 122.08511 -8.994627 -73.568619 -8.9963417 -73.900726 -0.2240748 -88.373718
9204562500 -0.91460085 122.08688 -8.9991503 -73.489471 -8.9922667 -73.974915 -0.21712427 -88.395912
9204625000 -0.91066206 122.07869 -8.9999771 -73.49176 -8.9934149 -74.006279 -0.21949877 -88.395523
9204687500 -0.9165917 122.03526 -9.0067921 -73.529846 -8.994647 -73.978218 -0.2243014 -88.361832
9204750000 -0.90966487 122.08524 -8.9984093 -73.434181 -8.9881783 -74.00872 -0.22175941 -88.340935
9204812500 -0.91813231 122.06535 -9.0060015 -73.498657 -8.9911175 -73.977516 -0.22576419 -88.301872
9204875000 -0.91673958 122.03652 -9.0066938 -73.489868 -8.9909678 -74.007088 -0.22790268 -88.352478
9204937500 -0.91751426 122.04376 -8.9991322 -73.44249 -8.9874725 -74.00457 -0.22604643 -88.353149
9205000000 -0.91905296 122.02935 -9.0022707 -73.467224 -8.9890184 -73.985512 -0.22784886 -88.272453
9205062500 -0.91684246 122.02215 -8.9912462 -73.448578 -8.9915781 -73.972572 -0.22230196 -88.269279
9205125000 -0.9237923 121.96774 -8.9983521 -73.504105 -8.9916172 -73.958412 -0.22174294 -88.275436
9205187500 -0.92754412 121.99106 -9.0023975 -73.470215 -8.989295 -73.963989 -0.2212925 -88.204849
9205250000 -0.92359424 121.92323 -8.9860935 -73.403114 -8.9944839 -73.991241 -0.22323161 -88.200951
9205312500 -0.92528987 121.9157 -8.9965782 -73.441597 -8.9865656 -73.986183 -0.22250573 -88.1884
9205375000 -0.92297167 121.89217 -8.9856129 -73.460068 -8.9914207 -73.90847 -0.22412184 -88.159134
9205437500 -0.92197746 121.89496 -8.9957161 -73.454613 -8.9905157 -73.938545 -0.22104183 -88.144714
9205500000 -0.92065912 121.83891 -8.9861431 -73.455788 -8.9894428 -73.957771 -0.22722012 -88.162842
9205562500 -0.92128235 121.83514 -8.9870262 -73.53923 -8.9943295 -73.968979 -0.22363739 -88.155373
9205625000 -0.92132068 121.88848 -8.9887419 -73.456619 -8.995224 -73.973175 -0.22655918 -88.131287
9205687500 -0.91908121 121.86264 -8.9945669 -73.477562 -8.984046 -73.892166 -0.22157849 -88.071808
9205750000 -0.92233366 121.83125 -8.988286 -73.489861 -8.9809713 -73.949394 -0.22232249 -88.1521
9205812500 -0.91562366 121.80515 -8.9902592 -73.541382 -8.9895115 -73.957649 -0.22854471 -88.088234
9205875000 -0.92063856 121.80521 -8.9934578 -73.505249 -8.9934158 -73.884659 -0.22747439 -88.016167
9205937500 -0.91555035 121.81719 -8.9850636 -73.472145 -8.9877901 -73.910477 -0.23028503 -88.02903
9206000000 -0.916673 121.82177 -8.9913273 -73.409676 -8.988101 -73.93647 -0.22942977 -87.980202
9206062500 -0.91686571 121.81718 -8.9906349 -73.451981 -8.9840174 -73.94072 -0.2281598 -87.961014
9206125000 -0.91713399 121.78046 -8.9864273 -73.483856 -8.9876232 -73.944176 -0.22762144 -87.956459
9206187500 -0.91505355 121.7671 -8.9929485 -73.498314 -8.9768 -73.953758 -0.22309996 -87.940857
9206250000 -0.91450274 121.75486 -8.9791937 -73.438072 -8.9809151 -73.964302 -0.23545665 -87.911171
9206312500 -0.91449618 121.78087 -8.9807911 -73.41391 -8.9789934 -73.933296 -0.22013794 -87.902649
9206375000 -0.91666502 121.77209 -8.9872112 -73.337891 -8.9746218 -73.961411 -0.22661698 -87.911636
9206437500 -0.91374928 121.73485 -8.9732504 -73.474121 -8.978343 -73.971657 -0.22698179 -87.913666
9206500000 -0.91852653 121.71738 -8.9798088 -73.399689 -8.9723616 -73.991089 -0.22785877 -87.886787
9206562500 -0.91269547 121.6815 -8.9706631 -73.482048 -8.9736605 -73.951118 -0.22261938 -87.886848
9206625000 -0.91984278 121.6606 -8.9750729 -73.48027 -8.966382 -73.944382 -0.21893884 -87.832085
9206687500 -0.92404044 121.65021 -8.9701071 -73.402733 -8.9708929 -73.946358 -0.22442488 -87.785355
9206750000 -0.92450655 121.6685 -8.9778786 -73.39357 -8.9571314 -73.907578 -0.21461166 -87.71862
9206812500 -0.92605746 121.62232 -8.9725685 -73.394081 -8.9654455 -73.896629 -0.22098677 -87.712669
9206875000 -0.9239502 121.57588 -8.9769983 -73.41037 -8.9624777 -73.880806 -0.22084212 -87.699089
9206937500 -0.92272907 121.58167 -8.9688721 -73.44516 -8.9681969 -73.88253 -0.22084588 -87.692558
9207000000 -0.91926098 121.56173 -8.9668865 -73.450165 -8.9724569 -73.893463 -0.22948924 -87.685921
9207062500 -0.91687185 121.54991 -8.9723301 -73.433167 -8.9657583 -73.924324 -0.23054719 -87.70034
9207125000 -0.91682506 121.50856 -8.9753666 -73.429939 -8.9713154 -73.887108 -0.22979917 -87.663498
9207187500 -0.9170326 121.5003 -8.9774246 -73.451942 -8.9784689 -73.827896 -0.23330003 -87.600395
9207250000 -0.91793281 121.51179 -8.9719706 -73.448578 -8.9701262 -73.839027 -0.23299065 -87.611542
9207312500 -0.9184801 121.4775 -8.9741335 -73.49926 -8.9697723 -73.923088 -0.236469 -87.682037
9207375000 -0.91519272 121.4417 -8.9694653 -73.55574 -8.9659777 -73.915535 -0.23631269 -87.638664
9207437500 -0.9182536 121.41429 -8.9709215 -73.478256 -8.9634848 -73.909233 -0.23174627 -87.613716
9207500000 -0.91841263 121.38979 -8.9709921 -73.446823 -8.9624634 -73.853722 -0.23221649 -87.546478
9207562500 -0.9175545 121.36938 -8.9680004 -73.523323 -8.9565258 -73.92601 -0.22635344 -87.602585
9207625000 -0.91952598 121.37351 -8.9671469 -73.48156 -8.9583912 -73.929672 -0.23715109 -87.597488
9207687500 -0.92159814 121.34282 -8.9689455 -73.458664 -8.9666071 -73.909798 -0.22874351 -87.555786
9207750000 -0.92283791 121.33784 -8.9658108 -73.506462 -8.9576054 -73.905861 -0.2241419 -87.521301
9207812500 -0.92546856 121.34894 -8.9623413 -73.516594 -8.9613314 -73.932518 -0.22551222 -87.546371
9207875000 -0.92454517 121.36475 -8.9618073 -73.450882 -8.9578867 -73.892532 -0.21467218 -87.504738
9207937500 -0.92752016 121.33476 -8.962081 -73.43354 -8.9582129 -73.896431 -0.22143611 -87.448555
9208000000 -0.92895812 121.35912 -8.9637384 -73.407585 -8.9544058 -73.939774 -0.21967638 -87.421669
9208062500 -0.92471826 121.34409 -8.9650793 -73.453728 -8.9603291 -73.937355 -0.22541434 -87.426407
9208125000 -0.9221465 121.33703 -8.962719 -73.400116 -8.9587107 -73.935989 -0.22789083 -87.402672
9208187500 -0.92727917 121.33084 -8.9587688 -73.375137 -8.9520178 -73.944923 -0.2326667 -87.376122
9208250000 -0.92248088 121.32409 -8.9636326 -73.395027 -8.9604502 -73.860893 -0.23715939 -87.32663
9208312500 -0.9223007 121.2678 -8.9666901 -73.348335 -8.9659548 -73.828163 -0.24476197 -87.297234
9208375000 -0.9204458 121.2823 -8.957942 -73.359344 -8.9543247 -73.909897 -0.24313708 -87.328758
9208437500 -0.91862124 121.25024 -8.9634752 -73.380371 -8.9654665 -73.869331 -0.24296501 -87.281639
9208500000 -0.92364377 121.228 -8.9631119 -73.38002 -8.9543905 -73.816055 -0.23679394 -87.247437
9208562500 -0.92704117 121.18652 -8.9518919 -73.354118 -8.950181 -73.852051 -0.23220393 -87.255577
9208625000 -0.92374188 121.1632 -8.9624081 -73.442184 -8.9449682 -73.872551 -0.23170267 -87.259789
9208687500 -0.92079496 121.17039 -8.9479895 -73.432365 -8.9470911 -73.87294 -0.23170374 -87.262505
9208750000 -0.92075652 121.17799 -8.9438524 -73.457848 -8.9452133 -73.88575 -0.22601552 -87.268372
9208812500 -0.92163086 121.15644 -8.9558172 -73.415054 -8.9497271 -73.884705 -0.23256004 -87.206635
9208875000 -0.9239943 121.11416 -8.9636517 -73.437851 -8.9526911 -73.915985 -0.23892914 -87.184868
9208937500 -0.92058456 121.13386 -8.9480963 -73.459305 -8.9563465 -73.882652 -0.23386683 -87.238731
9209000000 -0.92215407 121.1533 -8.9478445 -73.397285 -8.951663 -73.835945 -0.23396297 -87.20504
9209062500 -0.92582142 121.17809 -8.9521418 -73.426559 -8.9493771 -73.879784 -0.23819406 -87.204247
9209125000 -0.92286336 121.17388 -8.9521685 -73.41037 -8.9541512 -73.887421 -0.23962632 -87.170349
9209187500 -0.92518634 121.1599 -8.9422798 -73.406219 -8.9501934 -73.846519 -0.23670258 -87.162971
9209250000 -0.92359596 121.09454 -8.9493666 -73.42141 -8.9554234 -73.824043 -0.24231842 -87.10186
9209312500 -0.92403311 121.08542 -8.9475985 -73.415962 -8.9570646 -73.854515 -0.23994078 -87.117523
9209375000 -0.92219621 121.05534 -8.9422417 -73.437691 -8.9498005 -73.896477 -0.23336764 -87.061935
9209437500 -0.91736364 121.04926 -8.9472198 -73.423248 -8.9493036 -73.823128 -0.23649389 -87.053772
9209500000 -0.9175393 121.0177 -8.9438667 -73.397644 -8.9502449 -73.849541 -0.2370722 -87.051018
9209562500 -0.91834831 121.02174 -8.9505644 -73.432495 -8.9444275 -73.806885 -0.23494844 -87.014282
9209625000 -0.92674214 121.02641 -8.946044 -73.358894 -8.9523945 -73.815239 -0.24055168 -87.012558
9209687500 -0.92408824 120.99788 -8.9530039 -73.404266 -8.9439402 -73.830215 -0.22917932 -86.984154
9209750000 -0.92896056 120.99176 -8.9479961 -73.463013 -8.9413795 -73.844833 -0.23073988 -86.938538
9209812500 -0.92563581 120.94336 -8.9418049 -73.406189 -8.9434443 -73.861275 -0.23197682 -86.894463
9209875000 -0.92851281 120.96391 -8.9440813 -73.476807 -8.9366674 -73.863159 -0.23010994 -86.916344
9209937500 -0.92181748 120.90952 -8.9353151 -73.417847 -8.9441118 -73.822525 -0.22886771 -86.861275
9210000000 -0.92015487 120.90192 -8.9378004 -73.470505 -8.9390583 -73.825272 -0.22683294 -86.872505
9210062500 -0.91241097 120.9066 -8.9363451 -73.430916 -8.9341774 -73.742455 -0.22317521 -86.819641
9210125000 -0.91665125 120.90279 -8.9359465 -73.371986 -8.9377699 -73.794281 -0.23154935 -86.835533
9210187500 -0.92084652 120.90202 -8.9419975 -73.362694 -8.9396124 -73.80278 -0.22849602 -86.829269
9210250000 -0.91744953 120.85294 -8.9266682 -73.420822 -8.9348726 -73.773926 -0.22602741 -86.787971
9210312500 -0.91558236 120.90881 -8.9435396 -73.34626 -8.9388151 -73.771591 -0.23233788 -86.777588
9210375000 -0.91798884 120.81285 -8.9372196 -73.447464 -8.940382 -73.74762 -0.24194695 -86.80381
9210437500 -0.91391969 120.80898 -8.9338722 -73.395782 -8.9438639 -73.789009 -0.24185748 -86.763763
9210500000 -0.91452432 120.80766 -8.9358349 -73.363998 -8.940218 -73.774254 -0.24441911 -86.736107
9210562500 -0.9198252 120.80116 -8.9405785 -73.375481 -8.9442844 -73.797058 -0.24515781 -86.701004
9210625000 -0.9149763 120.81351 -8.942296 -73.321808 -8.9419384 -73.766159 -0.24468465 -86.700874
9210687500 -0.91898048 120.75688 -8.9450493 -73.344994 -8.9387655 -73.751625 -0.24556404 -86.634552
9210750000 -0.91467547 120.70447 -8.935235 -73.333435 -8.9317865 -73.807137 -0.24464324 -86.646416
9210812500 -0.91569942 120.71672 -8.9458475 -73.341187 -8.9326525 -73.783623 -0.25285727 -86.648666
9210875000 -0.91596514 120.68829 -8.9372129 -73.343857 -8.9354105 -73.790596 -0.2483346 -86.626564
9210937500 -0.92251652 120.6599 -8.93542 -73.40377 -8.928853 -73.887802 -0.24711657 -86.609146
9211000000 -0.92465508 120.66254 -8.9391565 -73.376442 -8.9224367 -73.747383 -0.2441809 -86.553619
9211062500 -0.93078566 120.64825 -8.9365416 -73.360649 -8.9310579 -73.802719 -0.24272756 -86.585388
9211125000 -0.92286861 120.66566 -8.9227209 -73.325523 -8.9320211 -73.828423 -0.24048495 -86.609978
9211187500 -0.92353094 120.62587 -8.928998 -73.352859 -8.9251747 -73.75872 -0.23728217 -86.555397
9211250000 -0.9293887 120.66128 -8.9281559 -73.335991 -8.9284382 -73.832573 -0.23706119 -86.597862
9211312500 -0.92820746 120.65585 -8.933527 -73.432465 -8.9267626 -73.855026 -0.23375474 -86.665878
9211375000 -0.92476654 120.61855 -8.9322824 -73.438133 -8.9331646 -73.831879 -0.23251785 -86.528717
9211437500 -0.9263851 120.63069 -8.9250889 -73.369286 -8.9345589 -73.816521 -0.23883484 -86.489754
9211500000 -0.92740285 120.61075 -8.9274645 -73.337715 -8.9282713 -73.774681 -0.23644644 -86.448753
9211562500 -0.92460012 120.58452 -8.9251623 -73.372681 -8.9239397 -73.759735 -0.24027896 -86.444481
9211625000 -0.92751831 120.62136 -8.9359856 -73.329178 -8.9260073 -73.789894 -0.23951991 -86.452217
9211687500 -0.92718613 120.54906 -8.9284897 -73.298767 -8.9307814 -73.793915 -0.24785616 -86.448891
9211750000 -0.9267931 120.56373 -8.9309769 -73.277557 -8.9289503 -73.785294 -0.2457906 -86.386566
9211812500 -0.92828542 120.52806 -8.9269962 -73.339485 -8.9301176 -73.74041 -0.24926598 -86.392159
9211875000 -0.92819524 120.49025 -8.9223604 -73.377289 -8.9268732 -73.670113 -0.24875872 -86.326508
9211937500 -0.92542803 120.46644 -8.9231377 -73.393501 -8.9199429 -73.787956 -0.24442813 -86.37175
9212000000 -0.92816103 120.44437 -8.9191475 -73.408806 -8.919549 -73.741379 -0.24488533 -86.294518
9212062500 -0.93132567 120.41625 -8.9187946 -73.357536 -8.9182081 -73.792366 -0.24678639 -86.294464
9212125000 -0.936185 120.38152 -8.9212942 -73.40699 -8.9121532 -73.775887 -0.24843909 -86.248161
9212187500 -0.92996001 120.40694 -8.9175377 -73.359276 -8.9160557 -73.753281 -0.24059911 -86.213478
