!Agilent Technologies,N5242A,MY51221714,A.09.90.19
!Agilent N5242A: A.09.90.19
!Date: Saturday, March 16, 2024 08:52:50
!Correction: S11(Full 2 Port(1,2)) 
!S21(Full 2 Port(1,2)) 
!S12(Full 2 Port(1,2)) 
!S22(Full 2 Port(1,2)) 
!S2P File: Measurements: S11, S21, S12, S22:
# Hz S  dB   R 50
9200000000 -1.0950813 122.65404 -8.9814005 -76.197037 -8.9667854 -76.659546 -0.35358229 -91.506783
9200062500 -1.0945241 122.64616 -8.9743834 -76.218979 -8.9695129 -76.641449 -0.3584117 -91.480499
9200125000 -1.0933162 122.64777 -8.9785728 -76.183456 -8.9707079 -76.725761 -0.35944521 -91.509445
9200187500 -1.0952419 122.64918 -8.973485 -76.147346 -8.9648104 -76.725609 -0.36017278 -91.479446
9200250000 -1.0910974 122.60498 -8.9726639 -76.219963 -8.9633484 -76.710396 -0.35591742 -91.476944
9200312500 -1.0913302 122.58653 -8.9697132 -76.211182 -8.9569902 -76.713371 -0.35575673 -91.450447
9200375000 -1.0868775 122.60396 -8.9601917 -76.185272 -8.9669933 -76.681053 -0.36205816 -91.388191
9200437500 -1.0916998 122.58769 -8.9781628 -76.160721 -8.9663076 -76.634758 -0.36079127 -91.37188
9200500000 -1.0877948 122.56829 -8.9663467 -76.188591 -8.9661551 -76.63018 -0.36658901 -91.341904
9200562500 -1.0908325 122.53661 -8.9776964 -76.155128 -8.9577093 -76.670868 -0.36007577 -91.350525
9200625000 -1.0902586 122.54453 -8.9713774 -76.141434 -8.9545231 -76.66893 -0.36562371 -91.358833
9200687500 -1.0979559 122.49264 -8.9735641 -76.190445 -8.9524899 -76.659348 -0.3737852 -91.300903
9200750000 -1.0940564 122.5283 -8.973134 -76.117012 -8.9568729 -76.680702 -0.37105972 -91.271385
9200812500 -1.0934751 122.46812 -8.9779215 -76.124054 -8.9574089 -76.605301 -0.37283528 -91.199295
9200875000 -1.0917517 122.47568 -8.9666309 -76.148491 -8.9448452 -76.667969 -0.3692916 -91.236526
9200937500 -1.0906408 122.49464 -8.9781885 -76.076202 -8.9528036 -76.647781 -0.37274992 -91.231544
9201000000 -1.0917784 122.45118 -8.966774 -76.109772 -8.9597998 -76.651375 -0.37276754 -91.188232
9201062500 -1.087303 122.44836 -8.9594088 -76.124298 -8.9574833 -76.663696 -0.36766031 -91.15815
9201125000 -1.0875934 122.43514 -8.9572029 -76.150673 -8.958972 -76.596275 -0.36710513 -91.128288
9201187500 -1.0863022 122.43578 -8.9505262 -76.109657 -8.9602776 -76.611427 -0.36827961 -91.130081
9201250000 -1.0871202 122.37495 -8.9579411 -76.170731 -8.9563122 -76.620094 -0.37495613 -91.142387
9201312500 -1.0894389 122.38831 -8.9532576 -76.157631 -8.9546375 -76.655098 -0.37134254 -91.155716
9201375000 -1.0928001 122.37358 -8.9567871 -76.124908 -8.9502497 -76.652374 -0.36727506 -91.140594
9201437500 -1.0895541 122.38283 -8.9526262 -76.114143 -8.9484835 -76.667068 -0.36524442 -91.169861
9201500000 -1.0902232 122.31454 -8.9648676 -76.122482 -8.9561567 -76.622406 -0.36900312 -91.118614
9201562500 -1.0950682 122.32865 -8.9637661 -76.142586 -8.9571533 -76.651802 -0.36785507 -91.101692
9201625000 -1.0887165 122.32592 -8.9609089 -76.115082 -8.9496565 -76.583015 -0.36652717 -91.065201
9201687500 -1.0988971 122.34541 -8.9640799 -76.098595 -8.9446135 -76.600258 -0.36421552 -91.04007
9201750000 -1.0887811 122.29874 -8.954834 -76.173538 -8.9511948 -76.63504 -0.37402293 -91.027351
9201812500 -1.0887041 122.2763 -8.9526005 -76.132057 -8.9526072 -76.655411 -0.37830475 -91.013992
9201875000 -1.0885866 122.25518 -8.9578505 -76.074829 -8.9490004 -76.570335 -0.3693637 -90.966774
9201937500 -1.095437 122.24446 -8.9637651 -76.134033 -8.9456768 -76.595161 -0.37220985 -90.944763
9202000000 -1.092435 122.25499 -8.9601488 -76.097351 -8.944212 -76.561005 -0.37883765 -90.914742
9202062500 -1.0889361 122.21087 -8.9466448 -76.14257 -8.9423218 -76.639 -0.36836937 -90.955833
9202125000 -1.0944463 122.16281 -8.9471655 -76.165977 -8.9458723 -76.561058 -0.36828268 -90.873123
9202187500 -1.0902709 122.19494 -8.9531345 -76.122749 -8.9473162 -76.640594 -0.37215766 -90.911667
9202250000 -1.08904 122.14992 -8.9341946 -76.162331 -8.9448643 -76.676407 -0.36509696 -90.924278
9202312500 -1.0927182 122.17605 -8.9430847 -76.110695 -8.9441729 -76.64904 -0.37088653 -90.86644
9202375000 -1.0958493 122.17021 -8.9411936 -76.110367 -8.947732 -76.63015 -0.3721312 -90.860237
9202437500 -1.0976739 122.1471 -8.950016 -76.121269 -8.9422045 -76.613495 -0.3690668 -90.823174
9202500000 -1.0919445 122.13217 -8.9411449 -76.107224 -8.9450464 -76.599045 -0.37565622 -90.804993
9202562500 -1.0961709 122.10651 -8.9473743 -76.126236 -8.9439096 -76.620377 -0.37657318 -90.763588
9202625000 -1.0983797 122.08984 -8.9516993 -76.139633 -8.949688 -76.640694 -0.37962028 -90.805679
9202687500 -1.0999085 122.09058 -8.9484377 -76.09726 -8.9375896 -76.617455 -0.37712395 -90.741432
9202750000 -1.0946345 122.09811 -8.9528389 -76.128319 -8.9373455 -76.617203 -0.38112167 -90.710052
9202812500 -1.0919738 122.0813 -8.9384232 -76.035789 -8.9337196 -76.599625 -0.37612534 -90.684647
9202875000 -1.0932689 122.05045 -8.9436235 -76.066704 -8.9320374 -76.599052 -0.3746976 -90.679832
9202937500 -1.0904254 122.00331 -8.9420662 -76.186356 -8.937417 -76.59626 -0.37690541 -90.681137
9203000000 -1.0935533 121.97585 -8.9426975 -76.14402 -8.9300241 -76.57473 -0.3744787 -90.632484
9203062500 -1.0873955 121.97578 -8.9352179 -76.140076 -8.9317608 -76.648575 -0.37425268 -90.670174
9203125000 -1.092096 121.96622 -8.9438334 -76.116653 -8.9397087 -76.592896 -0.38464174 -90.617134
9203187500 -1.0920587 121.92779 -8.944932 -76.099663 -8.9398546 -76.562775 -0.37588164 -90.549828
9203250000 -1.0926225 121.9351 -8.92733 -76.117592 -8.9338856 -76.595406 -0.37012854 -90.586426
9203312500 -1.0993886 121.96111 -8.9419537 -76.168129 -8.9358253 -76.641403 -0.37649754 -90.558632
9203375000 -1.0999635 121.92164 -8.9399776 -76.105431 -8.9278154 -76.610329 -0.37403801 -90.492386
9203437500 -1.0964708 121.91561 -8.934763 -76.165054 -8.9297609 -76.62896 -0.37383887 -90.519989
9203500000 -1.0960275 121.8738 -8.9384642 -76.133156 -8.9304447 -76.578384 -0.37236154 -90.499329
9203562500 -1.0915326 121.87966 -8.9437456 -76.115967 -8.934392 -76.570854 -0.37652093 -90.464211
9203625000 -1.0939257 121.85813 -8.9409962 -76.118774 -8.9341621 -76.552963 -0.38053593 -90.476746
9203687500 -1.0986366 121.81832 -8.9350777 -76.220802 -8.9350157 -76.579094 -0.38117197 -90.452171
9203750000 -1.0913451 121.8019 -8.9330196 -76.21064 -8.9419155 -76.562096 -0.39026904 -90.41256
9203812500 -1.0950296 121.8037 -8.9373236 -76.149628 -8.9244194 -76.598442 -0.37925225 -90.393234
9203875000 -1.0931369 121.79753 -8.9358368 -76.1642 -8.9350948 -76.61161 -0.39118996 -90.410828
9203937500 -1.0940006 121.78267 -8.939683 -76.160255 -8.9225416 -76.572777 -0.38820189 -90.395706
9204000000 -1.0962483 121.76907 -8.9351988 -76.142387 -8.9174376 -76.62072 -0.38368014 -90.380539
9204062500 -1.0908831 121.73414 -8.939167 -76.171104 -8.9174929 -76.563499 -0.39050317 -90.328415
9204125000 -1.0917984 121.78286 -8.9450779 -76.100128 -8.9290485 -76.608688 -0.39145157 -90.362633
9204187500 -1.0893791 121.74164 -8.9402046 -76.104782 -8.9262228 -76.621712 -0.39482948 -90.329041
9204250000 -1.0933161 121.71915 -8.9380074 -76.093956 -8.9193573 -76.546844 -0.39279959 -90.252258
9204312500 -1.0931982 121.70862 -8.9345512 -76.070152 -8.9113913 -76.603821 -0.38513678 -90.272308
9204375000 -1.0902723 121.65826 -8.9287434 -76.082245 -8.9158735 -76.541008 -0.38509962 -90.221481
9204437500 -1.0874164 121.67952 -8.9253292 -76.113213 -8.9159937 -76.578339 -0.38296419 -90.259964
9204500000 -1.0945902 121.66478 -8.9269066 -76.067665 -8.921422 -76.608398 -0.38673225 -90.257057
9204562500 -1.0947781 121.64468 -8.9336729 -76.101875 -8.9138069 -76.569786 -0.38532567 -90.19944
9204625000 -1.0843946 121.60915 -8.9249296 -76.108925 -8.9101658 -76.592651 -0.37788931 -90.19133
9204687500 -1.0900958 121.62372 -8.9259062 -76.030418 -8.9224386 -76.584473 -0.38865337 -90.173721
9204750000 -1.090742 121.56785 -8.9205666 -76.135536 -8.9202433 -76.52935 -0.38524273 -90.130272
9204812500 -1.0931903 121.59212 -8.922473 -76.099258 -8.9097967 -76.622917 -0.37958306 -90.163712
9204875000 -1.0922368 121.62756 -8.9272242 -76.110374 -8.910737 -76.566116 -0.38475886 -90.133545
9204937500 -1.0902205 121.59747 -8.9240465 -76.086258 -8.9105377 -76.54213 -0.38992727 -90.088188
9205000000 -1.0953685 121.61523 -8.9306412 -76.059441 -8.9123783 -76.571083 -0.38666657 -90.110519
9205062500 -1.0976564 121.56213 -8.9107466 -76.072502 -8.9110966 -76.575897 -0.38600034 -90.082672
9205125000 -1.0959638 121.55568 -8.908617 -76.001167 -8.9180765 -76.592667 -0.38608709 -90.086754
9205187500 -1.0946838 121.50349 -8.922389 -76.089333 -8.9210682 -76.545265 -0.39247471 -89.991158
9205250000 -1.1038705 121.47489 -8.923666 -75.994583 -8.9173317 -76.561493 -0.38371614 -90.014595
9205312500 -1.0997802 121.45058 -8.9133654 -76.126648 -8.9113626 -76.571037 -0.38213459 -89.983917
9205375000 -1.0975718 121.4342 -8.9141502 -76.05146 -8.9175406 -76.585899 -0.38369685 -90.008026
9205437500 -1.0988955 121.43138 -8.9156666 -76.017509 -8.9146147 -76.580132 -0.38314745 -89.975159
9205500000 -1.0921103 121.44801 -8.9136047 -76.004944 -8.9028282 -76.586937 -0.37810495 -89.973183
9205562500 -1.0928259 121.40916 -8.9020805 -76.051682 -8.9137173 -76.507019 -0.38686535 -89.928185
9205625000 -1.0948763 121.40817 -8.9092817 -76.065857 -8.9172144 -76.554977 -0.38474944 -89.905067
9205687500 -1.0961022 121.39262 -8.9140844 -76.065132 -8.9099522 -76.502495 -0.38657406 -89.907921
9205750000 -1.0904988 121.37636 -8.9067612 -76.094246 -8.9125624 -76.497902 -0.37934965 -89.907089
9205812500 -1.0885264 121.37201 -8.9032183 -76.067688 -8.9149294 -76.515968 -0.38707465 -89.896973
9205875000 -1.0857059 121.33779 -8.9089241 -76.054863 -8.9133234 -76.517227 -0.38385066 -89.851547
9205937500 -1.0929881 121.3733 -8.9126549 -76.047264 -8.9074497 -76.532349 -0.39033422 -89.842705
9206000000 -1.0938478 121.33974 -8.9115915 -76.076004 -8.9059401 -76.514938 -0.38615727 -89.825134
9206062500 -1.0921272 121.36378 -8.9106808 -76.002525 -8.9096107 -76.524384 -0.38678387 -89.792603
9206125000 -1.0899652 121.31619 -8.9016047 -76.08947 -8.9105616 -76.530983 -0.38529044 -89.768181
9206187500 -1.0888093 121.33588 -8.9070082 -75.999496 -8.9085121 -76.548538 -0.38926068 -89.782982
9206250000 -1.090335 121.34382 -8.9096937 -76.006447 -8.9015284 -76.552032 -0.3848078 -89.789635
9206312500 -1.0904011 121.29424 -8.9039116 -76.025467 -8.9093456 -76.541405 -0.39086869 -89.725174
9206375000 -1.0904653 121.2785 -8.9004631 -76.03643 -8.8984604 -76.582268 -0.38745907 -89.723526
9206437500 -1.0922602 121.27302 -8.9034405 -75.994629 -8.8908854 -76.494514 -0.38148418 -89.664749
9206500000 -1.0899781 121.25797 -8.8988714 -76.034668 -8.8941402 -76.583466 -0.38070434 -89.693024
9206562500 -1.085879 121.27946 -8.8906965 -76.07476 -8.8861904 -76.567574 -0.37441128 -89.632355
9206625000 -1.0941525 121.24509 -8.9018879 -76.018097 -8.8857737 -76.571213 -0.37703261 -89.64872
9206687500 -1.0963432 121.2041 -8.8939667 -76.052856 -8.8787174 -76.503731 -0.37186638 -89.570946
9206750000 -1.0984623 121.19799 -8.8960304 -76.011978 -8.878726 -76.563881 -0.37554413 -89.579315
9206812500 -1.0990853 121.18981 -8.8842173 -76.006439 -8.8767223 -76.53553 -0.37339395 -89.561325
9206875000 -1.0974479 121.1509 -8.8874435 -76.050842 -8.8864021 -76.570839 -0.37540913 -89.569351
9206937500 -1.0934966 121.16085 -8.8913622 -76.020607 -8.8851404 -76.549446 -0.38278645 -89.527565
9207000000 -1.0902209 121.11338 -8.8908348 -76.038513 -8.8821554 -76.547379 -0.386823 -89.515869
9207062500 -1.0890352 121.11169 -8.8901844 -75.991394 -8.891881 -76.483032 -0.39057192 -89.508347
9207125000 -1.0875967 121.0789 -8.8904552 -76.016716 -8.8938293 -76.49691 -0.3895168 -89.505684
9207187500 -1.0847682 121.05408 -8.8892736 -76.075447 -8.9020805 -76.461815 -0.39556366 -89.47097
9207250000 -1.0926974 121.05069 -8.8911514 -76.038124 -8.889698 -76.52858 -0.3928532 -89.494362
9207312500 -1.0909728 120.99494 -8.8924494 -76.103966 -8.8796825 -76.50486 -0.39397407 -89.471031
9207375000 -1.0942078 120.9822 -8.8882637 -76.062561 -8.880908 -76.529091 -0.39761651 -89.453461
9207437500 -1.0917709 120.94747 -8.8910704 -76.080055 -8.8831186 -76.56073 -0.39743179 -89.472603
9207500000 -1.0880491 120.95106 -8.8869648 -76.050079 -8.8742256 -76.537216 -0.38660046 -89.437271
9207562500 -1.096161 120.94566 -8.8916607 -76.076263 -8.879859 -76.540672 -0.39292234 -89.45752
9207625000 -1.0957576 120.87465 -8.8890877 -76.128838 -8.8822346 -76.485207 -0.39820847 -89.378799
9207687500 -1.0967976 120.88539 -8.8776426 -76.117279 -8.8803473 -76.573624 -0.39185861 -89.367996
9207750000 -1.1034023 120.91357 -8.8898602 -76.012558 -8.8807774 -76.553932 -0.38731503 -89.385147
9207812500 -1.1021345 120.89226 -8.8831091 -76.111992 -8.8741684 -76.523407 -0.37944284 -89.347687
9207875000 -1.1006387 120.90596 -8.89217 -75.990677 -8.8809166 -76.555313 -0.38373947 -89.287148
9207937500 -1.102811 120.90202 -8.8787336 -76.020317 -8.8824644 -76.560631 -0.38210317 -89.271248
9208000000 -1.102322 120.88234 -8.8862133 -76.05896 -8.8752203 -76.541718 -0.38169658 -89.222511
9208062500 -1.1032177 120.86629 -8.8900423 -76.029373 -8.8801489 -76.516304 -0.38749856 -89.223145
9208125000 -1.1004486 120.86051 -8.8818541 -76.015053 -8.8746986 -76.530304 -0.38933671 -89.223381
9208187500 -1.0986191 120.86077 -8.8846979 -76.00972 -8.8770227 -76.483727 -0.39317691 -89.17411
9208250000 -1.0989503 120.88258 -8.8784933 -75.995911 -8.8758307 -76.534943 -0.39510578 -89.178589
9208312500 -1.10197 120.83176 -8.8767977 -75.988464 -8.8849764 -76.486229 -0.40216616 -89.134239
9208375000 -1.0967882 120.83804 -8.8727818 -75.999146 -8.8835449 -76.505493 -0.39735204 -89.143402
9208437500 -1.0938754 120.81251 -8.8784208 -75.996323 -8.8822985 -76.525063 -0.40506589 -89.146164
9208500000 -1.0933034 120.79418 -8.8755093 -76.02153 -8.8692551 -76.490265 -0.39447492 -89.120735
9208562500 -1.0980306 120.75069 -8.8743687 -76.059784 -8.8643017 -76.511162 -0.39453447 -89.140266
9208625000 -1.0952721 120.75714 -8.8780079 -76.001976 -8.8795118 -76.519493 -0.39838943 -89.088898
9208687500 -1.0988801 120.72228 -8.8639278 -76.057022 -8.8657475 -76.548553 -0.38809079 -89.089249
9208750000 -1.1009496 120.68912 -8.870698 -76.069672 -8.8725185 -76.533722 -0.3935135 -89.078117
9208812500 -1.0999877 120.68568 -8.8655682 -76.049187 -8.8700714 -76.507828 -0.39280599 -89.07106
9208875000 -1.0987425 120.68238 -8.8730068 -76.078766 -8.8685122 -76.508766 -0.38994485 -89.066376
9208937500 -1.0970323 120.72346 -8.8786907 -76.004112 -8.8697577 -76.537254 -0.39667571 -89.028481
9209000000 -1.0969392 120.73035 -8.873477 -76.016602 -8.8711472 -76.488106 -0.39803058 -89.019585
9209062500 -1.0979931 120.70576 -8.8740225 -76.013832 -8.8674097 -76.490463 -0.39348179 -88.978752
9209125000 -1.0950587 120.7196 -8.8743629 -76.006622 -8.874999 -76.50351 -0.40135929 -88.987404
9209187500 -1.1005056 120.71757 -8.8697872 -75.989098 -8.8779802 -76.539658 -0.39812449 -88.994263
9209250000 -1.0957525 120.67626 -8.8633928 -76.014198 -8.868948 -76.473816 -0.39059263 -88.912094
9209312500 -1.0954551 120.65523 -8.8684206 -76.017639 -8.8734941 -76.482315 -0.3971611 -88.939873
9209375000 -1.0967838 120.60154 -8.8582563 -76.057091 -8.8685389 -76.429665 -0.3973175 -88.856316
9209437500 -1.094576 120.60666 -8.8664026 -76.039795 -8.8693399 -76.451408 -0.39846444 -88.826042
9209500000 -1.0956511 120.56953 -8.8660336 -76.030441 -8.8673077 -76.43148 -0.39897424 -88.803795
9209562500 -1.0965809 120.53865 -8.8656359 -76.058525 -8.8696575 -76.439011 -0.40066096 -88.809074
9209625000 -1.0966477 120.53851 -8.8557348 -76.036552 -8.8678751 -76.477554 -0.3952356 -88.80497
9209687500 -1.1027871 120.56501 -8.8582993 -76.078835 -8.8657408 -76.463959 -0.39090392 -88.801559
9209750000 -1.0997872 120.55149 -8.8524723 -76.065247 -8.8577137 -76.508209 -0.39368734 -88.800499
9209812500 -1.1051685 120.52036 -8.8656483 -76.068413 -8.8612957 -76.428864 -0.39323682 -88.724968
9209875000 -1.103204 120.46822 -8.864665 -76.062561 -8.8649368 -76.497169 -0.39101273 -88.759079
9209937500 -1.1038231 120.51681 -8.8613682 -75.99691 -8.8551722 -76.521484 -0.38499627 -88.766052
9210000000 -1.1018357 120.45245 -8.8667078 -76.052498 -8.8568125 -76.486328 -0.39776644 -88.721382
9210062500 -1.0994962 120.44392 -8.8539267 -76.044685 -8.8587179 -76.48053 -0.39308524 -88.718269
9210125000 -1.0986964 120.45506 -8.8540096 -75.967567 -8.8547173 -76.459496 -0.38977918 -88.663719
9210187500 -1.0946317 120.43872 -8.8551006 -76.017998 -8.8522205 -76.450195 -0.39289442 -88.632607
9210250000 -1.0946563 120.44997 -8.8448162 -75.977066 -8.8494892 -76.473137 -0.39160758 -88.654312
9210312500 -1.0948356 120.42422 -8.8504696 -75.974007 -8.8565245 -76.433311 -0.4002026 -88.610794
9210375000 -1.0978003 120.38349 -8.8525629 -76.028168 -8.8493795 -76.411858 -0.39268774 -88.60247
9210437500 -1.0975462 120.39803 -8.85779 -75.976967 -8.8656244 -76.506203 -0.405404 -88.611046
9210500000 -1.0957104 120.31181 -8.857892 -76.015205 -8.855504 -76.410881 -0.400837 -88.519783
9210562500 -1.0997825 120.33068 -8.8589659 -75.984917 -8.8473949 -76.389656 -0.39927006 -88.523186
9210625000 -1.0925686 120.30077 -8.8596935 -76.022232 -8.8459511 -76.416763 -0.40146077 -88.493576
9210687500 -1.0915903 120.29607 -8.8562975 -75.933479 -8.8566236 -76.415199 -0.4048239 -88.510864
9210750000 -1.0953008 120.27275 -8.8643684 -75.962959 -8.8459826 -76.419044 -0.40103766 -88.452095
9210812500 -1.0923173 120.26311 -8.855279 -75.995361 -8.849021 -76.432541 -0.40808362 -88.456543
9210875000 -1.0971677 120.24077 -8.8518343 -75.959557 -8.8521757 -76.445488 -0.40729061 -88.461746
9210937500 -1.095696 120.21954 -8.8546991 -75.906891 -8.8504114 -76.456207 -0.40377975 -88.455391
9211000000 -1.0990368 120.1792 -8.8574514 -75.99649 -8.8443928 -76.488205 -0.40827242 -88.444206
9211062500 -1.1011231 120.1751 -8.8530655 -75.988701 -8.8397856 -76.448502 -0.39910784 -88.419815
9211125000 -1.1038398 120.19547 -8.8485031 -75.969696 -8.845232 -76.501854 -0.40524575 -88.438339
9211187500 -1.1016018 120.20309 -8.8374949 -75.999451 -8.8344526 -76.474129 -0.39471212 -88.429276
9211250000 -1.1072905 120.18056 -8.8541059 -75.983109 -8.84132 -76.477463 -0.4030028 -88.431808
9211312500 -1.1080949 120.1935 -8.8483267 -76.109749 -8.8455944 -76.496239 -0.39801079 -88.442902
9211375000 -1.106468 120.22278 -8.8383503 -75.964935 -8.8403349 -76.468262 -0.39286354 -88.257004
9211437500 -1.1061786 120.17658 -8.8490534 -75.969841 -8.8443356 -76.462196 -0.40550098 -88.282906
9211500000 -1.1038171 120.14748 -8.845068 -76.009583 -8.8408079 -76.460732 -0.40285388 -88.261047
9211562500 -1.1008127 120.15352 -8.840559 -75.982422 -8.8447666 -76.404099 -0.40401617 -88.279785
9211625000 -1.1052188 120.08985 -8.8438807 -75.996803 -8.8435545 -76.41201 -0.40875912 -88.245491
9211687500 -1.1041381 120.13274 -8.8438625 -75.958725 -8.8444309 -76.45108 -0.40998 -88.284348
9211750000 -1.1001389 120.0781 -8.8370285 -75.959923 -8.8406534 -76.433197 -0.40982148 -88.275993
9211812500 -1.1027302 120.04337 -8.838274 -75.995537 -8.8393698 -76.392647 -0.40710926 -88.199318
9211875000 -1.0998344 120.05611 -8.8437519 -75.952377 -8.8381729 -76.379234 -0.40552002 -88.154449
9211937500 -1.1034034 120.01524 -8.8375311 -75.984978 -8.8353376 -76.397362 -0.40982291 -88.113663
9212000000 -1.0994639 119.96507 -8.8313656 -75.959351 -8.842927 -76.407722 -0.41203138 -88.092728
9212062500 -1.1105165 119.99312 -8.8406067 -75.991837 -8.8287888 -76.4431 -0.40481213 -88.110931
9212125000 -1.1099957 119.95506 -8.8385248 -76.053436 -8.8330011 -76.410355 -0.40472788 -88.062576
9212187500 -1.1058382 119.92379 -8.8340006 -75.996323 -8.8348618 -76.389671 -0.40685591 -88.067398
9212250000 -1.1043627 119.88407 -8.8313055 -75.997696 -8.8418665 -76.423904 -0.41539809 -88.046577
9212312500 -1.1084231 119.90535 -8.8296251 -76.002174 -8.8243351 -76.467361 -0.40514034 -88.039429
