!Agilent Technologies,N5242A,MY51221714,A.09.90.19
!Agilent N5242A: A.09.90.19
!Date: Saturday, March 16, 2024 08:49:34
!Correction: S11(Full 2 Port(1,2)) 
!S21(Full 2 Port(1,2)) 
!S12(Full 2 Port(1,2)) 
!S22(Full 2 Port(1,2)) 
!S2P File: Measurements: S11, S21, S12, S22:
# Hz S  dB   R 50
9200000000 -1.2141489 120.84437 -8.709465 -78.771782 -8.7081089 -79.202301 -0.49387503 -92.205956
9200062500 -1.2198868 120.8189 -8.7130737 -78.775543 -8.7067022 -79.143776 -0.49561355 -92.173332
9200125000 -1.218881 120.83212 -8.7124472 -78.704338 -8.7011833 -79.21373 -0.48735318 -92.208366
9200187500 -1.2192595 120.81203 -8.7098494 -78.743546 -8.6905489 -79.240936 -0.48210517 -92.169365
9200250000 -1.2122891 120.83273 -8.7100592 -78.721199 -8.7044678 -79.21241 -0.49556288 -92.160751
9200312500 -1.2051178 120.76806 -8.7052813 -78.810463 -8.7002354 -79.143677 -0.48867223 -92.124474
9200375000 -1.2098389 120.77061 -8.698617 -78.750778 -8.6975193 -79.23632 -0.48586249 -92.142372
9200437500 -1.2110448 120.75869 -8.697938 -78.762604 -8.7014542 -79.178436 -0.49270934 -92.128708
9200500000 -1.2077465 120.76105 -8.6958647 -78.728706 -8.6930637 -79.199509 -0.48849466 -92.097893
9200562500 -1.2146804 120.74828 -8.7146816 -78.678146 -8.692008 -79.176796 -0.49580663 -92.069603
9200625000 -1.212238 120.70329 -8.6993132 -78.756218 -8.6902246 -79.202187 -0.49853557 -92.028267
9200687500 -1.2146027 120.70104 -8.7031937 -78.710686 -8.6886902 -79.173447 -0.50180888 -92.04039
9200750000 -1.2206287 120.70438 -8.7140665 -78.672501 -8.6866274 -79.153664 -0.50063658 -91.936028
9200812500 -1.216098 120.69534 -8.7032623 -78.679405 -8.691184 -79.20842 -0.50499129 -91.924454
9200875000 -1.2197357 120.63651 -8.7039967 -78.697456 -8.6886473 -79.187469 -0.50164354 -91.917961
9200937500 -1.2141294 120.65879 -8.7012005 -78.6026 -8.6884413 -79.138756 -0.50065506 -91.89624
9201000000 -1.2136133 120.66581 -8.6951389 -78.656769 -8.6844034 -79.144485 -0.49879012 -91.870041
9201062500 -1.2077252 120.6116 -8.6860905 -78.726799 -8.6924686 -79.18351 -0.51213706 -91.866493
9201125000 -1.2065147 120.60845 -8.686904 -78.710899 -8.6928139 -79.227859 -0.50216156 -91.872231
9201187500 -1.2100104 120.56411 -8.6927099 -78.723488 -8.6858215 -79.169762 -0.50435817 -91.838142
9201250000 -1.2101697 120.57068 -8.6847143 -78.704437 -8.6763639 -79.151817 -0.49991867 -91.825737
9201312500 -1.2110696 120.57339 -8.6893616 -78.670135 -8.6843109 -79.167343 -0.5001502 -91.8255
9201375000 -1.2203505 120.53236 -8.6970844 -78.730988 -8.6856537 -79.199562 -0.49685499 -91.825478
9201437500 -1.2188262 120.54446 -8.693841 -78.705551 -8.6817799 -79.167 -0.50158978 -91.848259
9201500000 -1.2189114 120.51683 -8.6895189 -78.738228 -8.6811724 -79.182655 -0.4954046 -91.805695
9201562500 -1.2184168 120.52551 -8.7008753 -78.714729 -8.6884985 -79.140678 -0.50030261 -91.81002
9201625000 -1.2216635 120.50585 -8.6988783 -78.744003 -8.6882391 -79.154106 -0.49984661 -91.796928
9201687500 -1.2166855 120.5116 -8.6874228 -78.749931 -8.6836538 -79.076805 -0.50013459 -91.758575
9201750000 -1.2199129 120.46928 -8.7031422 -78.700325 -8.6746292 -79.170502 -0.50117916 -91.750694
9201812500 -1.2097211 120.46471 -8.690752 -78.674393 -8.6835957 -79.11158 -0.50015515 -91.680763
9201875000 -1.22139 120.45234 -8.6875677 -78.685822 -8.6753416 -79.166794 -0.50567573 -91.729546
9201937500 -1.2131224 120.41038 -8.6918545 -78.738823 -8.6780167 -79.103149 -0.50261772 -91.616272
9202000000 -1.2172779 120.37599 -8.6867247 -78.726181 -8.6825266 -79.149757 -0.50893819 -91.584877
9202062500 -1.210497 120.3615 -8.6733179 -78.717094 -8.6765966 -79.179214 -0.49959764 -91.607933
9202125000 -1.2162097 120.38164 -8.6843214 -78.70092 -8.6682873 -79.189644 -0.49742389 -91.59655
9202187500 -1.2202073 120.38411 -8.6807117 -78.70575 -8.6707096 -79.181282 -0.5011906 -91.586456
9202250000 -1.2198433 120.32368 -8.6783609 -78.723488 -8.681179 -79.194115 -0.49923155 -91.597115
9202312500 -1.21425 120.32268 -8.6739988 -78.728111 -8.6760435 -79.210815 -0.49905151 -91.618286
9202375000 -1.2174166 120.30609 -8.6723166 -78.734528 -8.6710081 -79.144669 -0.49499935 -91.593224
9202437500 -1.216372 120.31183 -8.6657267 -78.67495 -8.6717405 -79.165672 -0.50002521 -91.520966
9202500000 -1.2207581 120.26747 -8.6778898 -78.72757 -8.6718473 -79.21875 -0.5047946 -91.529053
9202562500 -1.2197872 120.31108 -8.6735659 -78.70591 -8.6739445 -79.141121 -0.51090693 -91.466446
9202625000 -1.2205011 120.26887 -8.6739559 -78.691292 -8.6742687 -79.221573 -0.50974327 -91.501923
9202687500 -1.224257 120.24398 -8.6849117 -78.719498 -8.6687708 -79.192223 -0.51221335 -91.450897
9202750000 -1.2175232 120.27106 -8.6799898 -78.654953 -8.6708899 -79.145248 -0.51484674 -91.42868
9202812500 -1.2231383 120.2275 -8.6841621 -78.709923 -8.6723242 -79.135544 -0.50941062 -91.378853
9202875000 -1.2174698 120.19079 -8.6774235 -78.738548 -8.6642408 -79.150772 -0.50930649 -91.387939
9202937500 -1.2181245 120.20558 -8.67276 -78.691811 -8.6594791 -79.156036 -0.50782061 -91.370949
9203000000 -1.2173204 120.16456 -8.6713486 -78.714294 -8.6698885 -79.14698 -0.50547636 -91.337753
9203062500 -1.2177494 120.15559 -8.6677542 -78.691711 -8.6649113 -79.188362 -0.51031649 -91.352333
9203125000 -1.2215123 120.11814 -8.6699886 -78.740341 -8.659502 -79.141312 -0.50608337 -91.335915
9203187500 -1.2177632 120.16912 -8.6648569 -78.69928 -8.6704779 -79.186829 -0.50913811 -91.309418
9203250000 -1.2180877 120.10903 -8.66609 -78.681885 -8.662899 -79.109924 -0.50436842 -91.282768
9203312500 -1.2219591 120.14008 -8.6728935 -78.738724 -8.6698189 -79.159897 -0.5088923 -91.252846
9203375000 -1.221388 120.08365 -8.6706057 -78.774971 -8.6608105 -79.174232 -0.50580001 -91.239136
9203437500 -1.2190136 120.0729 -8.6670914 -78.710136 -8.6594028 -79.176086 -0.50872952 -91.225792
9203500000 -1.2180191 120.0845 -8.6587973 -78.77095 -8.6551666 -79.148338 -0.5087406 -91.195602
9203562500 -1.2181749 120.0888 -8.6613216 -78.681557 -8.669383 -79.140396 -0.50871754 -91.202179
9203625000 -1.2165986 120.04961 -8.6610508 -78.69545 -8.6636028 -79.164268 -0.51019907 -91.190895
9203687500 -1.2223494 120.05286 -8.6696873 -78.752342 -8.6555119 -79.147545 -0.51089066 -91.195885
9203750000 -1.2210631 120.00338 -8.666749 -78.683922 -8.6528826 -79.12014 -0.51527697 -91.13208
9203812500 -1.2203474 119.98458 -8.659771 -78.701096 -8.664175 -79.17247 -0.51740718 -91.141701
9203875000 -1.2226022 119.93685 -8.6700029 -78.770317 -8.6550608 -79.213043 -0.51625711 -91.150703
9203937500 -1.217235 119.96462 -8.6636705 -78.701439 -8.6544466 -79.117188 -0.52352554 -91.068474
9204000000 -1.2144455 119.93292 -8.6673622 -78.696823 -8.6528502 -79.160667 -0.52332914 -91.066345
9204062500 -1.2180606 119.95451 -8.6702843 -78.717278 -8.6540337 -79.108978 -0.52406412 -91.053139
9204125000 -1.2152588 119.91632 -8.665309 -78.729073 -8.6504707 -79.198555 -0.52872407 -91.118423
9204187500 -1.213623 119.92261 -8.6535683 -78.642265 -8.6473207 -79.087936 -0.52175921 -90.980637
9204250000 -1.2112958 119.87564 -8.6612406 -78.70192 -8.6532536 -79.130547 -0.53079116 -91.020424
9204312500 -1.214093 119.89182 -8.6643648 -78.676109 -8.6497831 -79.111549 -0.52209651 -90.982033
9204375000 -1.2102978 119.86433 -8.6631861 -78.698204 -8.646718 -79.061066 -0.51647592 -90.949989
9204437500 -1.2139286 119.83633 -8.6549015 -78.640091 -8.6546984 -79.159744 -0.52388364 -90.93837
9204500000 -1.2124397 119.8309 -8.6533318 -78.705238 -8.652627 -79.115471 -0.51898903 -90.936607
9204562500 -1.2114091 119.78728 -8.6524439 -78.667686 -8.6416092 -79.127113 -0.50787055 -90.885033
9204625000 -1.2105694 119.79634 -8.6496372 -78.696609 -8.6459799 -79.142387 -0.51016277 -90.889
9204687500 -1.2118632 119.78432 -8.6492195 -78.667435 -8.6439037 -79.120636 -0.51446909 -90.878082
9204750000 -1.2128482 119.77489 -8.6509581 -78.704926 -8.6465464 -79.124496 -0.52086806 -90.865814
9204812500 -1.2178948 119.76524 -8.6502533 -78.665405 -8.6424446 -79.102646 -0.51615238 -90.869812
9204875000 -1.214674 119.75922 -8.6493759 -78.71846 -8.6449194 -79.110397 -0.51461703 -90.826103
9204937500 -1.2216499 119.77531 -8.6488657 -78.64209 -8.6396561 -79.161392 -0.51608217 -90.857018
9205000000 -1.2184397 119.74412 -8.6474113 -78.655243 -8.6420918 -79.127724 -0.51559669 -90.815956
9205062500 -1.2227057 119.74181 -8.6443338 -78.654892 -8.6412973 -79.119576 -0.51275182 -90.799408
9205125000 -1.2196362 119.69814 -8.6426382 -78.705864 -8.6394281 -79.185852 -0.51962322 -90.7967
9205187500 -1.225925 119.67563 -8.6533918 -78.695053 -8.6432133 -79.156883 -0.51691616 -90.790543
9205250000 -1.2243522 119.63291 -8.6472721 -78.642075 -8.6355009 -79.147308 -0.51388115 -90.757011
9205312500 -1.2276846 119.63902 -8.6358843 -78.61348 -8.6389799 -79.119644 -0.51798511 -90.732132
9205375000 -1.2281971 119.60345 -8.6407728 -78.638885 -8.6383133 -79.154617 -0.51414269 -90.732155
9205437500 -1.2262671 119.56602 -8.6393499 -78.676346 -8.6466074 -79.117958 -0.52297276 -90.689171
9205500000 -1.2269807 119.57713 -8.6408367 -78.670937 -8.6416016 -79.080185 -0.51712304 -90.642899
9205562500 -1.225547 119.59254 -8.6398344 -78.666054 -8.6398878 -79.131584 -0.51775098 -90.649124
9205625000 -1.220449 119.54987 -8.6299334 -78.691879 -8.6388655 -79.097984 -0.51705486 -90.662346
9205687500 -1.2208341 119.58716 -8.6382484 -78.634117 -8.6398077 -79.119774 -0.51774997 -90.659248
9205750000 -1.2196145 119.56805 -8.6345692 -78.65477 -8.6381636 -79.148872 -0.51609403 -90.639572
9205812500 -1.2170737 119.56077 -8.6321297 -78.667099 -8.6491728 -79.147369 -0.53367817 -90.615059
9205875000 -1.2197412 119.54354 -8.6336374 -78.640839 -8.633317 -79.053085 -0.51948136 -90.557785
9205937500 -1.2140453 119.53096 -8.6339445 -78.652542 -8.6427221 -79.100258 -0.52588767 -90.587563
9206000000 -1.220459 119.52113 -8.6383381 -78.713982 -8.6386232 -79.050003 -0.52390283 -90.515915
9206062500 -1.2182826 119.48922 -8.6295757 -78.646797 -8.6329422 -79.10746 -0.52492189 -90.508621
9206125000 -1.2197011 119.51129 -8.6401272 -78.650284 -8.6339645 -79.098877 -0.52309769 -90.501259
9206187500 -1.2226189 119.48972 -8.6373444 -78.606628 -8.6367645 -79.113663 -0.52177978 -90.452896
9206250000 -1.2213461 119.48621 -8.6377993 -78.655052 -8.6250153 -79.175186 -0.52227741 -90.49115
9206312500 -1.2182316 119.46785 -8.6329432 -78.636169 -8.627346 -79.168121 -0.51825666 -90.487518
9206375000 -1.2182668 119.4574 -8.6283474 -78.635696 -8.6240635 -79.134048 -0.52333015 -90.439552
9206437500 -1.2172544 119.44453 -8.625659 -78.643646 -8.6221676 -79.118927 -0.51350766 -90.433731
9206500000 -1.2223747 119.44132 -8.6288157 -78.581467 -8.6126842 -79.121498 -0.51656723 -90.388626
9206562500 -1.2241762 119.39951 -8.625288 -78.68528 -8.619319 -79.143326 -0.51319724 -90.408707
9206625000 -1.225004 119.41419 -8.6259861 -78.584335 -8.6125193 -79.146568 -0.51221043 -90.34465
9206687500 -1.2287436 119.39444 -8.6156206 -78.637154 -8.6104813 -79.170532 -0.5105083 -90.348694
9206750000 -1.2261285 119.3741 -8.6163692 -78.616035 -8.6121912 -79.126984 -0.51318854 -90.32164
9206812500 -1.2261634 119.34367 -8.6097679 -78.619507 -8.6034536 -79.124138 -0.50943822 -90.272552
9206875000 -1.22427 119.32144 -8.6116476 -78.619354 -8.6051912 -79.085358 -0.50924659 -90.227844
9206937500 -1.2229128 119.32195 -8.6167316 -78.624664 -8.6108246 -79.114494 -0.51902461 -90.234077
9207000000 -1.2194808 119.28558 -8.6143885 -78.630592 -8.6154604 -79.059471 -0.52160889 -90.191681
9207062500 -1.2223829 119.24187 -8.6163759 -78.696747 -8.6174889 -79.062279 -0.5276376 -90.19796
9207125000 -1.223254 119.23006 -8.6192217 -78.71315 -8.6142311 -79.157639 -0.52359581 -90.274834
9207187500 -1.2188377 119.20741 -8.6171837 -78.744926 -8.6152706 -79.095322 -0.53339827 -90.20443
9207250000 -1.2202421 119.22134 -8.6199484 -78.646431 -8.613719 -79.087921 -0.52490926 -90.204216
9207312500 -1.2237414 119.17461 -8.6166849 -78.748001 -8.6077585 -79.054268 -0.52225626 -90.184486
9207375000 -1.2204958 119.12437 -8.6179676 -78.703285 -8.6143436 -79.11026 -0.53459454 -90.16526
9207437500 -1.2216336 119.14983 -8.6216583 -78.676346 -8.618269 -79.092682 -0.53489494 -90.148521
9207500000 -1.2271843 119.11639 -8.6226234 -78.699364 -8.6089106 -79.084244 -0.53009576 -90.162636
9207562500 -1.2221352 119.05529 -8.6126661 -78.715096 -8.6024036 -79.081329 -0.52245104 -90.137657
9207625000 -1.2227694 119.06363 -8.6122847 -78.70784 -8.6065178 -79.133865 -0.53329599 -90.104424
9207687500 -1.2243189 119.06996 -8.6138144 -78.663239 -8.6121311 -79.092705 -0.5312025 -90.075111
9207750000 -1.234802 119.08632 -8.6134634 -78.653938 -8.6026583 -79.093376 -0.52189744 -90.069489
9207812500 -1.2285398 119.06171 -8.6109571 -78.674141 -8.605505 -79.14595 -0.52200598 -90.058113
9207875000 -1.2264669 119.05874 -8.6090374 -78.689072 -8.6023846 -79.129913 -0.51172507 -90.035339
9207937500 -1.230562 119.08416 -8.6076317 -78.614128 -8.6030226 -79.15889 -0.51823753 -89.999084
9208000000 -1.231056 119.04089 -8.6086969 -78.628441 -8.598217 -79.136719 -0.51169759 -89.996025
9208062500 -1.2278379 119.05334 -8.6093435 -78.594986 -8.6029425 -79.08223 -0.52378899 -89.905807
9208125000 -1.2297306 119.02558 -8.6060467 -78.652496 -8.6076059 -79.121674 -0.53166103 -89.956886
9208187500 -1.2303879 119.01993 -8.6061268 -78.646118 -8.5999813 -79.115807 -0.53041881 -89.92215
9208250000 -1.2274506 119.02731 -8.6114655 -78.601898 -8.6047392 -79.127701 -0.53361636 -89.903618
9208312500 -1.2288858 119.01713 -8.6071644 -78.545624 -8.5967655 -79.059669 -0.52830541 -89.905838
9208375000 -1.2260624 118.99654 -8.6023941 -78.605827 -8.5953083 -79.085045 -0.53378159 -89.899727
9208437500 -1.2282653 118.93765 -8.6015167 -78.59304 -8.6014528 -79.046257 -0.53450966 -89.866676
9208500000 -1.2254567 118.9155 -8.6035404 -78.641121 -8.593791 -79.062088 -0.53252023 -89.804939
9208562500 -1.2225604 118.89986 -8.589488 -78.65435 -8.590004 -79.08712 -0.5259524 -89.843826
9208625000 -1.2271353 118.94586 -8.6100416 -78.671173 -8.5922356 -79.129456 -0.5265339 -89.85804
9208687500 -1.2282951 118.87341 -8.6001606 -78.692345 -8.5969858 -79.108276 -0.52907407 -89.80294
9208750000 -1.2265704 118.79758 -8.5900898 -78.689842 -8.5917931 -79.070229 -0.5251382 -89.757896
9208812500 -1.2301443 118.82024 -8.5966806 -78.746239 -8.5929489 -79.10244 -0.53238374 -89.80072
9208875000 -1.2257421 118.85474 -8.5960255 -78.706596 -8.593133 -79.164017 -0.53431046 -89.797493
9208937500 -1.2328483 118.86901 -8.6056719 -78.628242 -8.5906286 -79.108406 -0.53043741 -89.756302
9209000000 -1.2267072 118.87847 -8.5972462 -78.591713 -8.5938063 -79.125732 -0.52856749 -89.764832
9209062500 -1.2329617 118.87335 -8.5936232 -78.637733 -8.5946379 -79.11274 -0.53307319 -89.750214
9209125000 -1.2282989 118.87287 -8.5976143 -78.662849 -8.5963297 -79.051064 -0.53690517 -89.711884
9209187500 -1.2264042 118.87814 -8.5950642 -78.590057 -8.5865879 -79.11528 -0.52667981 -89.702911
9209250000 -1.2255037 118.83729 -8.5901442 -78.609558 -8.5899286 -79.01976 -0.53019053 -89.659668
9209312500 -1.2293631 118.82073 -8.5877876 -78.590149 -8.593895 -79.055038 -0.53167766 -89.628212
9209375000 -1.2213314 118.76191 -8.5853004 -78.68203 -8.5902824 -79.036263 -0.52665263 -89.584274
9209437500 -1.22794 118.76366 -8.5860815 -78.639435 -8.5950136 -79.053833 -0.5322454 -89.580566
9209500000 -1.2264552 118.73317 -8.5821762 -78.652122 -8.5916147 -79.036263 -0.53755927 -89.548866
9209562500 -1.2207595 118.73274 -8.5781879 -78.655045 -8.5901003 -79.074516 -0.52783793 -89.555527
9209625000 -1.2271074 118.67889 -8.5786142 -78.656532 -8.5840626 -79.036537 -0.52982652 -89.532722
9209687500 -1.2287081 118.66576 -8.5750942 -78.657043 -8.5893059 -79.121964 -0.53184497 -89.527649
9209750000 -1.2303537 118.66877 -8.5885048 -78.640579 -8.5820961 -79.109497 -0.53097838 -89.520897
9209812500 -1.2295367 118.657 -8.5825977 -78.733917 -8.5878258 -79.072105 -0.53186637 -89.480629
9209875000 -1.2366242 118.68047 -8.5924978 -78.643417 -8.5824003 -79.122581 -0.53567457 -89.484215
9209937500 -1.232592 118.64398 -8.5797892 -78.675461 -8.5773392 -79.044083 -0.52510321 -89.441017
9210000000 -1.2278445 118.63445 -8.5731049 -78.666573 -8.5779276 -79.093971 -0.52657378 -89.433037
9210062500 -1.2312623 118.6468 -8.5830584 -78.662811 -8.5750237 -79.032074 -0.52766627 -89.371773
9210125000 -1.2294225 118.59454 -8.5881252 -78.607414 -8.5739298 -79.047058 -0.52756739 -89.348122
9210187500 -1.2257882 118.61555 -8.5886717 -78.587341 -8.5753584 -79.021507 -0.52871037 -89.356926
9210250000 -1.2230219 118.57561 -8.5803814 -78.627014 -8.5730133 -79.072769 -0.52463657 -89.362663
9210312500 -1.2271972 118.56126 -8.5761261 -78.663269 -8.5763111 -79.02977 -0.53382319 -89.334404
9210375000 -1.227937 118.53165 -8.5882015 -78.655426 -8.581418 -79.013695 -0.54200566 -89.324371
9210437500 -1.2275609 118.56799 -8.5746965 -78.621101 -8.5764647 -79.022591 -0.53270119 -89.294334
9210500000 -1.2255617 118.52409 -8.5712004 -78.651505 -8.5785818 -78.997887 -0.54164791 -89.242645
9210562500 -1.2265917 118.49985 -8.5858049 -78.579651 -8.5803518 -79.032021 -0.53939688 -89.26799
9210625000 -1.2246033 118.46287 -8.5786753 -78.607079 -8.5737247 -79.049438 -0.5370633 -89.225914
9210687500 -1.2202765 118.44044 -8.5742741 -78.61393 -8.5663195 -79.055649 -0.53769279 -89.254082
9210750000 -1.2260441 118.41961 -8.5833826 -78.655647 -8.5686979 -79.051933 -0.54288423 -89.187775
9210812500 -1.2259942 118.42395 -8.5798435 -78.586113 -8.5735712 -79.072037 -0.54066467 -89.192001
9210875000 -1.2309068 118.38548 -8.5810595 -78.628448 -8.5774727 -79.073364 -0.54932958 -89.193092
9210937500 -1.2314609 118.37595 -8.5702572 -78.652802 -8.5679083 -79.069992 -0.53732926 -89.182709
9211000000 -1.2228922 118.34859 -8.566617 -78.616104 -8.5657492 -79.107277 -0.54397923 -89.18663
9211062500 -1.2336494 118.35222 -8.5761166 -78.638527 -8.5652943 -79.078842 -0.53758949 -89.184105
9211125000 -1.2330023 118.35287 -8.5715256 -78.666382 -8.570962 -79.090736 -0.54342395 -89.148026
9211187500 -1.2358075 118.34618 -8.5707836 -78.616959 -8.5637865 -79.128326 -0.53402454 -89.176414
9211250000 -1.2389646 118.36217 -8.5672131 -78.641525 -8.5639153 -79.089752 -0.53619659 -89.201118
9211312500 -1.2371529 118.33647 -8.5742178 -78.66349 -8.5701418 -79.101295 -0.54075408 -89.17955
9211375000 -1.2442336 118.31437 -8.5619345 -78.692932 -8.5570116 -79.074402 -0.52499831 -89.053185
9211437500 -1.236588 118.32442 -8.570159 -78.669144 -8.5650711 -79.055626 -0.5358265 -89.025116
9211500000 -1.240996 118.28655 -8.5743656 -78.636139 -8.5653591 -79.064384 -0.54097193 -89.024689
9211562500 -1.2379227 118.27847 -8.5707712 -78.644241 -8.5655451 -79.04969 -0.54208988 -89.016731
9211625000 -1.2399948 118.23978 -8.5730696 -78.669724 -8.565732 -79.053535 -0.54787177 -89.021454
9211687500 -1.2362878 118.25388 -8.5732746 -78.578194 -8.5564985 -79.030594 -0.5402357 -88.98616
9211750000 -1.2364448 118.22388 -8.5653305 -78.655579 -8.5573368 -79.029984 -0.54397225 -88.977051
9211812500 -1.2379692 118.2196 -8.5666313 -78.602921 -8.5569029 -79.049828 -0.54983628 -88.976822
9211875000 -1.2412113 118.17994 -8.564105 -78.701248 -8.5679779 -79.040176 -0.55051357 -88.930923
9211937500 -1.2363117 118.18637 -8.5615339 -78.600555 -8.5630589 -79.015488 -0.54463929 -88.91172
9212000000 -1.2407206 118.11426 -8.562232 -78.630325 -8.5568504 -79.009796 -0.54269296 -88.819252
9212062500 -1.2372456 118.11479 -8.5529938 -78.618843 -8.5539579 -78.983368 -0.54366553 -88.797615
9212125000 -1.2389897 118.08683 -8.5553055 -78.691429 -8.5592852 -79.061424 -0.54712665 -88.85463
9212187500 -1.2358356 118.05769 -8.5581789 -78.707428 -8.5591059 -79.01545 -0.55369627 -88.79882
9212250000 -1.2475963 118.07287 -8.5555725 -78.666649 -8.5450096 -79.076057 -0.53959548 -88.804459
9212312500 -1.2420011 118.04564 -8.5598793 -78.621185 -8.5458384 -79.045845 -0.54876822 -88.735161
