!Agilent Technologies,N5242A,MY51221714,A.09.90.19
!Agilent N5242A: A.09.90.19
!Date: Saturday, March 16, 2024 08:47:55
!Correction: S11(Full 2 Port(1,2)) 
!S21(Full 2 Port(1,2)) 
!S12(Full 2 Port(1,2)) 
!S22(Full 2 Port(1,2)) 
!S2P File: Measurements: S11, S21, S12, S22:
# Hz S  dB   R 50
9200000000 -0.99723053 122.18125 -8.8997774 -75.189316 -8.9005508 -75.639366 -0.27101964 -90.654259
9200062500 -0.99707794 122.13366 -8.8955832 -75.212524 -8.9016981 -75.606216 -0.27339828 -90.630226
9200125000 -1.0013144 122.16162 -8.9094505 -75.15728 -8.8950615 -75.595642 -0.26909468 -90.627182
9200187500 -0.9958384 122.12049 -8.9053812 -75.234329 -8.8983698 -75.611984 -0.27038985 -90.569489
9200250000 -0.9936921 122.15448 -8.8998346 -75.151955 -8.9002819 -75.635048 -0.27143446 -90.605354
9200312500 -0.99242431 122.15168 -8.9032536 -75.153549 -8.8896904 -75.628609 -0.27080745 -90.563858
9200375000 -0.99240106 122.08485 -8.8914289 -75.206207 -8.8949394 -75.665421 -0.27353719 -90.594627
9200437500 -0.99227351 122.0757 -8.8977919 -75.243629 -8.8957424 -75.5849 -0.27081412 -90.553177
9200500000 -0.98987919 122.07786 -8.9031229 -75.203392 -8.8810577 -75.628448 -0.26990712 -90.53994
9200562500 -0.99552196 122.03192 -8.8981953 -75.152603 -8.8824472 -75.594666 -0.27775913 -90.482979
9200625000 -0.99078989 122.03484 -8.89641 -75.140602 -8.8860216 -75.665154 -0.28121412 -90.488419
9200687500 -0.99929655 122.04552 -8.9013453 -75.114685 -8.8808031 -75.653503 -0.28150517 -90.482063
9200750000 -0.99326295 122.04114 -8.8880882 -75.110703 -8.8736906 -75.621063 -0.27641809 -90.440048
9200812500 -0.99162823 121.98829 -8.8954401 -75.13385 -8.880271 -75.574417 -0.27830774 -90.377182
9200875000 -0.99401003 122.01005 -8.8972244 -75.045425 -8.8738346 -75.575081 -0.2756027 -90.367317
9200937500 -0.99241143 121.97491 -8.8954573 -75.131851 -8.8788738 -75.590729 -0.28216192 -90.362961
9201000000 -0.99331576 121.94659 -8.8926315 -75.149117 -8.8850269 -75.599319 -0.28393671 -90.344597
9201062500 -0.98766965 121.93684 -8.8903084 -75.083336 -8.8829556 -75.648048 -0.27805844 -90.341965
9201125000 -0.9945547 121.92995 -8.8923788 -75.106972 -8.8826952 -75.584869 -0.28163308 -90.309319
9201187500 -0.99230915 121.91635 -8.8889341 -75.134727 -8.884964 -75.629028 -0.27694336 -90.295097
9201250000 -0.99484807 121.90697 -8.8825531 -75.122314 -8.8752689 -75.549156 -0.27483982 -90.264786
9201312500 -0.99055934 121.90327 -8.8780346 -75.161652 -8.8830872 -75.61158 -0.27660155 -90.272652
9201375000 -0.99283898 121.88209 -8.8883648 -75.108604 -8.8830147 -75.576363 -0.28063789 -90.318359
9201437500 -0.99986023 121.8594 -8.8889198 -75.131508 -8.883976 -75.565369 -0.28857368 -90.281219
9201500000 -0.99640864 121.8436 -8.8898115 -75.144112 -8.8855419 -75.531952 -0.2812044 -90.233032
9201562500 -0.9971782 121.87197 -8.8892202 -75.082382 -8.8751965 -75.547897 -0.27849358 -90.205406
9201625000 -0.99914122 121.86854 -8.8859644 -75.045135 -8.879631 -75.565872 -0.27768609 -90.216454
9201687500 -0.99500138 121.81996 -8.8898592 -75.137215 -8.8783646 -75.594284 -0.28159395 -90.236099
9201750000 -0.99333549 121.78714 -8.8866653 -75.109657 -8.878871 -75.535301 -0.27858308 -90.166977
9201812500 -0.9925366 121.76893 -8.8853779 -75.054863 -8.8810492 -75.557472 -0.28221568 -90.136818
9201875000 -0.99404222 121.71878 -8.8845863 -75.140602 -8.8722134 -75.552177 -0.28009248 -90.157997
9201937500 -0.99452275 121.74647 -8.8864002 -75.102661 -8.871171 -75.590416 -0.28838977 -90.120918
9202000000 -0.99621403 121.69968 -8.8870726 -75.161926 -8.8770952 -75.544014 -0.28897083 -90.076538
9202062500 -0.99419254 121.69398 -8.8802309 -75.080673 -8.8696861 -75.539932 -0.27973369 -90.039368
9202125000 -0.99284822 121.68321 -8.8737288 -75.124535 -8.8652277 -75.620338 -0.27682391 -90.1101
9202187500 -0.9971354 121.68952 -8.8705292 -75.101051 -8.8710651 -75.546631 -0.28333399 -90.037491
9202250000 -0.99420369 121.65208 -8.8719711 -75.142174 -8.8703785 -75.580566 -0.28204957 -90.056679
9202312500 -0.99339473 121.65425 -8.8658237 -75.075012 -8.8737097 -75.559082 -0.27861223 -90.024353
9202375000 -0.98953015 121.63313 -8.8599386 -75.12027 -8.8698225 -75.570076 -0.27912074 -89.989014
9202437500 -0.99578476 121.63395 -8.8694973 -75.155205 -8.8799706 -75.570145 -0.28997815 -89.948364
9202500000 -0.99967444 121.63039 -8.8767519 -75.136696 -8.8669109 -75.599472 -0.28094304 -89.946411
9202562500 -0.99975234 121.60608 -8.8727617 -75.097443 -8.8733454 -75.56723 -0.28820857 -89.931213
9202625000 -0.99799496 121.58373 -8.8779402 -75.100067 -8.8706875 -75.551033 -0.28657421 -89.917549
9202687500 -1.0016047 121.56596 -8.8769264 -75.105247 -8.8686991 -75.563728 -0.29106098 -89.901764
9202750000 -0.99618405 121.56338 -8.8742123 -75.124725 -8.8659334 -75.520859 -0.2879203 -89.863029
9202812500 -0.99851739 121.53942 -8.8767576 -75.104591 -8.8692665 -75.530014 -0.2938821 -89.811111
9202875000 -0.98897111 121.54367 -8.8614931 -75.08902 -8.8545256 -75.55072 -0.28116176 -89.834137
9202937500 -0.99584311 121.55862 -8.8680172 -75.100212 -8.863451 -75.557892 -0.28706628 -89.831436
9203000000 -0.99430156 121.49556 -8.8666162 -75.131195 -8.8702564 -75.514793 -0.28953493 -89.795265
9203062500 -0.99646586 121.49811 -8.868804 -75.079895 -8.8671112 -75.575623 -0.28976309 -89.791626
9203125000 -1.0026578 121.45547 -8.8690434 -75.078117 -8.8545322 -75.486 -0.28564328 -89.74987
9203187500 -0.99934173 121.42828 -8.8739738 -75.137329 -8.8573475 -75.570435 -0.28362992 -89.773201
9203250000 -1.0015932 121.46055 -8.8622303 -75.148361 -8.8535156 -75.567078 -0.27912182 -89.745483
9203312500 -0.99835789 121.43121 -8.8716631 -75.138977 -8.8615952 -75.590454 -0.2860589 -89.742546
9203375000 -0.99987918 121.44429 -8.8653288 -75.137581 -8.8623705 -75.580788 -0.28852829 -89.692131
9203437500 -0.99661893 121.4007 -8.8586998 -75.128189 -8.8606148 -75.581841 -0.29222721 -89.681541
9203500000 -0.99706596 121.38485 -8.8667908 -75.112885 -8.8576479 -75.531754 -0.2904065 -89.603569
9203562500 -0.9968276 121.42832 -8.873558 -75.095161 -8.8621941 -75.56707 -0.29353431 -89.641449
9203625000 -0.99612701 121.36865 -8.8630056 -75.108864 -8.8569994 -75.551628 -0.28982964 -89.63459
9203687500 -1.0000851 121.39287 -8.8627577 -75.103226 -8.8592558 -75.532707 -0.29501596 -89.616638
9203750000 -0.99634159 121.31802 -8.8627129 -75.110657 -8.8583555 -75.552513 -0.2952548 -89.615509
9203812500 -1.0032127 121.30876 -8.8658667 -75.110764 -8.8508501 -75.530205 -0.29251301 -89.564873
9203875000 -0.99429142 121.31225 -8.8544827 -75.143036 -8.8537359 -75.551971 -0.2936756 -89.548882
9203937500 -0.99260831 121.28648 -8.8625479 -75.117836 -8.8576183 -75.520363 -0.29964709 -89.51329
9204000000 -0.99775225 121.26728 -8.866291 -75.117157 -8.8509521 -75.585648 -0.29489824 -89.560638
9204062500 -0.99459296 121.27169 -8.8633137 -75.114403 -8.8491631 -75.526138 -0.30293387 -89.523346
9204125000 -0.99538922 121.26792 -8.8589096 -75.073563 -8.8490505 -75.521713 -0.30327094 -89.484047
9204187500 -0.98968321 121.2212 -8.8529282 -75.094498 -8.8325071 -75.539597 -0.29468262 -89.457718
9204250000 -0.99044096 121.21415 -8.8569145 -75.057663 -8.8424225 -75.491211 -0.30270526 -89.435242
9204312500 -0.98866796 121.22445 -8.8583746 -75.112923 -8.8438072 -75.559715 -0.29977676 -89.471001
9204375000 -0.9886204 121.17268 -8.8517761 -75.082596 -8.8400364 -75.528427 -0.29533929 -89.41288
9204437500 -0.98855001 121.15694 -8.8459616 -75.119034 -8.8434124 -75.488098 -0.29264182 -89.389038
9204500000 -0.99378914 121.14819 -8.8525715 -75.077026 -8.8434372 -75.465843 -0.29958481 -89.3395
9204562500 -0.9910273 121.14193 -8.858429 -75.057808 -8.8502607 -75.531364 -0.29137179 -89.371124
9204625000 -0.98868233 121.12052 -8.8514967 -75.087334 -8.842783 -75.47142 -0.28756526 -89.341866
9204687500 -0.99038064 121.11563 -8.8504047 -75.082413 -8.8394585 -75.479187 -0.29367915 -89.30825
9204750000 -0.99146664 121.1111 -8.8560848 -75.089722 -8.8408737 -75.558022 -0.2900781 -89.310226
9204812500 -0.99022716 121.08981 -8.8480606 -75.084984 -8.8401737 -75.484802 -0.28835472 -89.28727
9204875000 -0.99159396 121.11356 -8.8565035 -75.038063 -8.8443127 -75.523857 -0.29938141 -89.259262
9204937500 -0.99424183 121.11884 -8.8434238 -75.015755 -8.83183 -75.54258 -0.29932648 -89.262413
9205000000 -0.99557436 121.10129 -8.8515739 -75.060562 -8.841424 -75.50589 -0.29268384 -89.227386
9205062500 -0.99960041 121.06333 -8.8462725 -75.088745 -8.8381796 -75.533295 -0.2972528 -89.242401
9205125000 -0.99692363 121.04493 -8.8456078 -75.074402 -8.8382349 -75.461739 -0.29336613 -89.171036
9205187500 -0.9988932 121.0539 -8.8500967 -74.988663 -8.8374386 -75.498413 -0.28978598 -89.212265
9205250000 -0.99873024 121.02485 -8.8388348 -74.998672 -8.8371162 -75.512756 -0.29251161 -89.201973
9205312500 -0.9981252 120.94376 -8.8377047 -75.056557 -8.8431501 -75.521584 -0.29120678 -89.145447
9205375000 -1.0018389 120.92789 -8.8414068 -75.0168 -8.8359365 -75.553726 -0.28837264 -89.168945
9205437500 -1.0032774 120.92677 -8.8423252 -75.041664 -8.8426619 -75.542336 -0.29910195 -89.172119
9205500000 -0.99653655 120.92384 -8.8380337 -75.001373 -8.8386784 -75.520119 -0.29178685 -89.137276
9205562500 -0.99655479 120.90686 -8.8378925 -75.067085 -8.8350706 -75.490089 -0.29439306 -89.116051
9205625000 -0.99994349 120.89973 -8.8428326 -75.010239 -8.8401937 -75.479881 -0.29480949 -89.100037
9205687500 -0.99415904 120.88809 -8.8369532 -75.123528 -8.8444929 -75.498749 -0.29997304 -89.122543
9205750000 -0.99925941 120.87621 -8.844305 -75.046646 -8.8352585 -75.4636 -0.29743272 -89.039627
9205812500 -0.99419606 120.8828 -8.8372803 -75.031593 -8.8357325 -75.488983 -0.29378116 -89.028679
9205875000 -0.99568003 120.87418 -8.8376923 -75.088737 -8.8452759 -75.49929 -0.30004206 -89.026009
9205937500 -0.99577212 120.83621 -8.8376608 -75.076828 -8.8333921 -75.454178 -0.29133248 -88.973099
9206000000 -0.99934036 120.86898 -8.8436193 -75.047432 -8.8404837 -75.452278 -0.30232865 -88.947517
9206062500 -0.99424589 120.81609 -8.8312941 -75.026466 -8.8346376 -75.522041 -0.29819721 -88.964081
9206125000 -0.99251878 120.80357 -8.8326082 -75.085526 -8.8340569 -75.466881 -0.30075485 -88.921158
9206187500 -0.98916703 120.8449 -8.8385706 -74.963364 -8.8370895 -75.49263 -0.30250058 -88.873436
9206250000 -0.99050468 120.81847 -8.830862 -74.982231 -8.8351135 -75.465027 -0.3066597 -88.871864
9206312500 -0.98695374 120.85488 -8.8230438 -74.91658 -8.8332424 -75.484879 -0.30466577 -88.883522
9206375000 -0.99622864 120.79887 -8.8274393 -74.991638 -8.8193865 -75.48835 -0.29760265 -88.864746
9206437500 -0.99576646 120.78408 -8.8264198 -74.996231 -8.8227158 -75.438232 -0.29950753 -88.857513
9206500000 -0.99055398 120.76071 -8.8240843 -74.959435 -8.8260574 -75.4776 -0.29744899 -88.81282
9206562500 -0.99539483 120.74435 -8.8224649 -75.000397 -8.8170462 -75.541695 -0.29153252 -88.805237
9206625000 -1.0002297 120.70068 -8.8234844 -74.995079 -8.817811 -75.452995 -0.28873327 -88.781082
9206687500 -0.99921143 120.7379 -8.8273945 -74.985802 -8.8113003 -75.477905 -0.29053792 -88.735085
9206750000 -1.0030549 120.65117 -8.8167686 -74.9869 -8.8070669 -75.47261 -0.2844221 -88.730194
9206812500 -1.0014913 120.68727 -8.8182669 -74.976044 -8.8104296 -75.433868 -0.2817252 -88.668961
9206875000 -0.99861157 120.66565 -8.8173323 -74.935066 -8.8021841 -75.48909 -0.28225186 -88.695892
9206937500 -0.99634862 120.63811 -8.816926 -74.949043 -8.8067179 -75.501808 -0.28991038 -88.696167
9207000000 -0.99165714 120.64552 -8.8164272 -74.93972 -8.8127728 -75.479713 -0.29492486 -88.665276
9207062500 -0.99348855 120.6039 -8.8193111 -74.989822 -8.8128252 -75.48362 -0.29393917 -88.671211
9207125000 -0.99328011 120.5863 -8.815196 -75.024551 -8.8163271 -75.465736 -0.30348477 -88.649078
9207187500 -0.99038875 120.57781 -8.8146257 -75.017227 -8.8187456 -75.417343 -0.2994462 -88.646461
9207250000 -0.99165785 120.53017 -8.8117065 -75.054359 -8.8187952 -75.50351 -0.30122656 -88.666824
9207312500 -0.99102396 120.49483 -8.8145761 -75.039772 -8.8076715 -75.436852 -0.29418811 -88.588577
9207375000 -0.99875772 120.50867 -8.8245344 -75.040695 -8.8083048 -75.406776 -0.30495644 -88.571213
9207437500 -0.99562997 120.44477 -8.8193054 -75.079308 -8.8132153 -75.437523 -0.30317953 -88.593353
9207500000 -0.99701095 120.43385 -8.8130989 -75.037613 -8.8037024 -75.464424 -0.29857147 -88.630402
9207562500 -0.99174404 120.42327 -8.8076487 -75.061646 -8.8092422 -75.51516 -0.30224845 -88.576118
9207625000 -0.99690199 120.40546 -8.8158131 -75.060486 -8.8056746 -75.528862 -0.30483148 -88.586182
9207687500 -0.9976266 120.3801 -8.8097544 -75.07431 -8.8048162 -75.505676 -0.30315682 -88.54612
9207750000 -0.99757397 120.39005 -8.8130951 -75.051735 -8.8038683 -75.481705 -0.30015802 -88.495346
9207812500 -1.0034152 120.39281 -8.8142862 -75.062897 -8.8005829 -75.486511 -0.29723018 -88.526184
9207875000 -1.001601 120.40677 -8.8173265 -75.005783 -8.801218 -75.47213 -0.28882402 -88.461296
9207937500 -1.008312 120.36792 -8.8069859 -75.049698 -8.8049898 -75.504494 -0.29033968 -88.464134
9208000000 -1.007603 120.40006 -8.8142319 -74.991325 -8.8042631 -75.510315 -0.28918204 -88.387672
9208062500 -1.0002294 120.37782 -8.8098316 -74.98938 -8.8058739 -75.431419 -0.29288793 -88.396797
9208125000 -1.0082043 120.38132 -8.8066549 -75.000038 -8.8012981 -75.462753 -0.29994076 -88.371933
9208187500 -0.99961549 120.35648 -8.8109579 -75.036583 -8.8116207 -75.463936 -0.31138054 -88.364944
9208250000 -1.001477 120.35983 -8.8129759 -74.960136 -8.8075047 -75.463341 -0.30934295 -88.364075
9208312500 -0.99904168 120.3195 -8.8114595 -74.950745 -8.8038645 -75.43573 -0.30880427 -88.354225
9208375000 -1.0010742 120.31468 -8.8081865 -74.970665 -8.8067884 -75.40786 -0.311389 -88.294838
9208437500 -0.99892026 120.25756 -8.811964 -74.980988 -8.7984095 -75.402298 -0.30319807 -88.251015
9208500000 -1.0003741 120.25995 -8.8031349 -74.972961 -8.8061666 -75.412437 -0.30804747 -88.203186
9208562500 -0.99574769 120.24939 -8.809516 -74.916595 -8.7950525 -75.394165 -0.30566144 -88.220352
9208625000 -0.99815768 120.21936 -8.7977324 -75.015495 -8.7894783 -75.418144 -0.29887185 -88.255196
9208687500 -1.0008072 120.18176 -8.800458 -75.025719 -8.7879419 -75.419754 -0.29858565 -88.208702
9208750000 -0.99735594 120.17027 -8.7923489 -75.064575 -8.7885036 -75.439835 -0.29821333 -88.218971
9208812500 -0.99771428 120.1892 -8.7910366 -75.051826 -8.7980862 -75.444443 -0.30028391 -88.210587
9208875000 -1.0011253 120.1729 -8.8007174 -75.069099 -8.7940693 -75.42112 -0.30187652 -88.20211
9208937500 -1.0031846 120.1751 -8.8099775 -75.04425 -8.7983179 -75.418983 -0.30994681 -88.192345
9209000000 -1.0037923 120.21223 -8.7987118 -75.028801 -8.8045673 -75.391052 -0.30702347 -88.181511
9209062500 -1.0016745 120.17588 -8.8023243 -75.018616 -8.7974806 -75.385086 -0.30177337 -88.121597
9209125000 -0.99409801 120.21133 -8.7882795 -75.000229 -8.8007259 -75.421379 -0.305298 -88.145561
9209187500 -1.0035518 120.15652 -8.7965107 -75.024994 -8.7978163 -75.446701 -0.31208444 -88.164146
9209250000 -1.0005162 120.19058 -8.7911186 -74.972267 -8.7933664 -75.423592 -0.29949585 -88.087158
9209312500 -0.99973714 120.15195 -8.7941418 -74.96611 -8.7915316 -75.450539 -0.30231252 -88.096764
9209375000 -0.9965322 120.12265 -8.7891273 -74.979164 -8.7936029 -75.364326 -0.30447143 -88.042038
9209437500 -0.9964745 120.09628 -8.7900524 -74.980339 -8.8008375 -75.422279 -0.31117919 -88.032196
9209500000 -0.99769402 120.04933 -8.7851171 -74.969742 -8.7917013 -75.393456 -0.30309066 -87.975479
9209562500 -1.0040035 120.04081 -8.7887478 -75.012825 -8.7912912 -75.378799 -0.30244869 -87.958656
9209625000 -0.99866593 120.03362 -8.7884808 -74.9879 -8.7917557 -75.339363 -0.30443472 -87.920105
9209687500 -1.0017279 120.03692 -8.7856178 -74.957146 -8.7837391 -75.393837 -0.29688749 -87.945518
9209750000 -1.002597 120.01529 -8.7859421 -74.952942 -8.7933846 -75.402573 -0.30477041 -87.90802
9209812500 -1.0024456 119.99778 -8.7774372 -75.00753 -8.7824812 -75.43898 -0.29921833 -87.930634
9209875000 -1.0043037 119.97765 -8.7825632 -75.041916 -8.7694778 -75.429794 -0.29080707 -87.905075
9209937500 -1.0006868 119.98786 -8.786891 -74.994995 -8.7848415 -75.367416 -0.30167958 -87.841522
9210000000 -0.99849099 119.96279 -8.7811031 -74.990852 -8.7744627 -75.363274 -0.29658327 -87.835541
9210062500 -0.9994728 119.97141 -8.7850266 -74.98632 -8.7729483 -75.364677 -0.29036704 -87.830338
9210125000 -0.99468523 119.93156 -8.787056 -75.010376 -8.7816362 -75.337387 -0.3022278 -87.811783
9210187500 -0.99576074 119.93937 -8.7833757 -74.963753 -8.775918 -75.350182 -0.30046675 -87.784073
9210250000 -0.9911747 119.90101 -8.7796144 -74.98259 -8.7775536 -75.375298 -0.29445255 -87.799454
9210312500 -0.99134558 119.92474 -8.7758932 -74.913223 -8.7843285 -75.350319 -0.29977778 -87.732056
9210375000 -0.99839985 119.91763 -8.7814455 -74.958466 -8.7728729 -75.440025 -0.3096112 -87.792938
9210437500 -0.99657053 119.86807 -8.7780685 -74.932014 -8.7725487 -75.353043 -0.3016834 -87.720001
9210500000 -0.99640065 119.85181 -8.7830553 -74.994545 -8.7774887 -75.328125 -0.3049168 -87.708069
9210562500 -0.99534994 119.80695 -8.7763128 -74.956467 -8.7834501 -75.354538 -0.31001249 -87.693298
9210625000 -0.99708015 119.83585 -8.7806215 -74.949768 -8.7795906 -75.348793 -0.31298983 -87.658531
9210687500 -0.99452132 119.79073 -8.7831907 -74.90239 -8.7764282 -75.327286 -0.31341785 -87.61763
9210750000 -0.99423563 119.77683 -8.7798443 -74.93132 -8.7775755 -75.369934 -0.31891376 -87.647842
9210812500 -0.99579573 119.73029 -8.7795963 -74.94294 -8.7667246 -75.356041 -0.31023583 -87.611557
9210875000 -0.99336326 119.7366 -8.7789316 -74.922844 -8.7765408 -75.385635 -0.31974939 -87.616669
9210937500 -0.99609095 119.71408 -8.7792816 -74.90329 -8.7768698 -75.41568 -0.31248915 -87.581039
9211000000 -1.0028918 119.68932 -8.7788439 -74.941452 -8.7687292 -75.36232 -0.31451938 -87.569168
9211062500 -0.99569601 119.71203 -8.7746201 -74.932152 -8.7707815 -75.400162 -0.31082726 -87.600815
9211125000 -1.0020554 119.66635 -8.7702188 -74.944679 -8.7754927 -75.428429 -0.31155697 -87.596649
9211187500 -1.0126468 119.66011 -8.7753201 -74.953445 -8.7704477 -75.418365 -0.30694348 -87.618782
9211250000 -1.0079998 119.71407 -8.7802515 -74.957191 -8.7831287 -75.372543 -0.31654471 -87.573853
9211312500 -1.0041237 119.71432 -8.7742472 -74.999779 -8.7678986 -75.433167 -0.30405486 -87.622353
9211375000 -1.0092927 119.65374 -8.7761307 -74.957397 -8.7667894 -75.384499 -0.30175218 -87.466972
9211437500 -1.0071634 119.69324 -8.7747555 -74.998787 -8.7666864 -75.404114 -0.31035402 -87.447906
9211500000 -1.0024698 119.65574 -8.7622528 -74.937393 -8.7634945 -75.365036 -0.30880448 -87.468224
9211562500 -1.0046011 119.67679 -8.7706747 -74.903 -8.767931 -75.399338 -0.31072837 -87.458412
9211625000 -1.0084043 119.60646 -8.7709713 -74.945023 -8.7654819 -75.337425 -0.31252408 -87.417397
9211687500 -1.0058371 119.63071 -8.7780838 -74.912331 -8.763176 -75.410683 -0.31142935 -87.445045
9211750000 -1.0031775 119.57461 -8.7706604 -74.959221 -8.7680607 -75.322067 -0.3219611 -87.406052
9211812500 -1.0022504 119.56466 -8.769784 -74.911102 -8.7665052 -75.292465 -0.31722164 -87.350395
9211875000 -1.000777 119.52354 -8.7550688 -74.964417 -8.7628412 -75.336472 -0.31356832 -87.388527
9211937500 -1.0112622 119.5116 -8.7599754 -74.98497 -8.7662697 -75.35376 -0.31372902 -87.300728
9212000000 -1.0109677 119.50844 -8.7617197 -74.918312 -8.7621861 -75.322601 -0.3180356 -87.246017
9212062500 -1.0106952 119.46255 -8.7661324 -74.95652 -8.7620239 -75.355148 -0.31773663 -87.250282
9212125000 -1.0145284 119.45811 -8.7627468 -74.951469 -8.7575188 -75.35173 -0.31620499 -87.222
9212187500 -1.0085484 119.40195 -8.7472277 -74.936592 -8.7562389 -75.287659 -0.31609175 -87.170334
9212250000 -1.0112684 119.37317 -8.7656507 -74.97155 -8.7518187 -75.329689 -0.31013292 -87.174446
