!Agilent Technologies,N5242A,MY51221714,A.09.90.19
!Agilent N5242A: A.09.90.19
!Date: Saturday, March 16, 2024 08:44:45
!Correction: S11(Full 2 Port(1,2)) 
!S21(Full 2 Port(1,2)) 
!S12(Full 2 Port(1,2)) 
!S22(Full 2 Port(1,2)) 
!S2P File: Measurements: S11, S21, S12, S22:
# Hz S  dB   R 50
9200000000 -0.88297135 123.70461 -9.1612196 -72.917 -9.1511545 -73.310059 -0.16923164 -89.167282
9200062500 -0.87744242 123.67907 -9.1664553 -72.892151 -9.1563253 -73.383026 -0.16336989 -89.216789
9200125000 -0.8873331 123.64842 -9.171627 -72.91922 -9.1528807 -73.274834 -0.16783693 -89.154938
9200187500 -0.885454 123.6852 -9.1656904 -72.82756 -9.1520405 -73.32473 -0.16564378 -89.173035
9200250000 -0.88283777 123.61906 -9.1556892 -72.930656 -9.1491423 -73.345879 -0.16389751 -89.147552
9200312500 -0.87874573 123.63747 -9.1516056 -72.840088 -9.1537771 -73.327637 -0.16892102 -89.129021
9200375000 -0.878681 123.6123 -9.1559763 -72.930557 -9.1441383 -73.356873 -0.16569607 -89.106056
9200437500 -0.87499583 123.59228 -9.1585064 -72.96566 -9.1487646 -73.316757 -0.17285772 -89.136589
9200500000 -0.87405789 123.57721 -9.1578856 -72.893608 -9.149888 -73.192352 -0.17302424 -89.042175
9200562500 -0.87756234 123.55054 -9.1560392 -72.860634 -9.1511431 -73.298569 -0.17925046 -89.034111
9200625000 -0.87871033 123.53091 -9.1611757 -72.901215 -9.139801 -73.253181 -0.17439845 -89.024307
9200687500 -0.88155711 123.5712 -9.16117 -72.847893 -9.1385288 -73.300781 -0.18069348 -88.997513
9200750000 -0.87774622 123.50237 -9.1563482 -72.868301 -9.1436834 -73.277657 -0.17645502 -88.943222
9200812500 -0.87547302 123.53204 -9.150466 -72.781197 -9.1442766 -73.289894 -0.18022551 -88.942207
9200875000 -0.88027531 123.52448 -9.1571865 -72.802101 -9.1385088 -73.297722 -0.17119868 -88.888367
9200937500 -0.87465727 123.52016 -9.151536 -72.754227 -9.142334 -73.277588 -0.17858495 -88.865219
9201000000 -0.87703323 123.48982 -9.1525459 -72.838043 -9.1450558 -73.278168 -0.18065897 -88.887146
9201062500 -0.87939304 123.45457 -9.1532946 -72.845009 -9.1406097 -73.271431 -0.17636073 -88.838188
9201125000 -0.87620592 123.46326 -9.1463814 -72.824364 -9.141654 -73.25293 -0.17881407 -88.85305
9201187500 -0.87070924 123.42181 -9.1465769 -72.85733 -9.1472626 -73.231964 -0.18071049 -88.841148
9201250000 -0.87517148 123.4032 -9.1402626 -72.893082 -9.1448822 -73.284485 -0.17859402 -88.827164
9201312500 -0.87655514 123.37024 -9.1509542 -72.858322 -9.1461306 -73.250069 -0.17892413 -88.793007
9201375000 -0.88003105 123.39604 -9.1496401 -72.806572 -9.135191 -73.275162 -0.1748594 -88.833855
9201437500 -0.87797505 123.35714 -9.1405125 -72.849304 -9.1344404 -73.270416 -0.17129996 -88.797089
9201500000 -0.88300645 123.37679 -9.1484232 -72.851158 -9.1406717 -73.180908 -0.17198984 -88.766487
9201562500 -0.88412243 123.37432 -9.1588984 -72.84906 -9.142909 -73.221878 -0.17610964 -88.753426
9201625000 -0.88563883 123.32802 -9.1499434 -72.887207 -9.1452456 -73.268036 -0.17401583 -88.773499
9201687500 -0.88118982 123.34719 -9.1491127 -72.826256 -9.1358423 -73.234497 -0.17535347 -88.715561
9201750000 -0.88045216 123.31206 -9.1442471 -72.824348 -9.1346378 -73.241211 -0.17263351 -88.729736
9201812500 -0.88064092 123.30277 -9.1534023 -72.783531 -9.1403875 -73.22094 -0.18157314 -88.723091
9201875000 -0.87703091 123.25098 -9.1390839 -72.855598 -9.1385393 -73.199295 -0.18242392 -88.643982
9201937500 -0.87670672 123.25847 -9.1531601 -72.839897 -9.1371002 -73.293175 -0.19119199 -88.63047
9202000000 -0.8783654 123.21454 -9.137085 -72.85733 -9.1332998 -73.229286 -0.1767472 -88.638184
9202062500 -0.87591743 123.21793 -9.1303892 -72.843201 -9.129899 -73.255959 -0.17749393 -88.604546
9202125000 -0.87830019 123.19981 -9.1376219 -72.865677 -9.1290503 -73.177231 -0.17479175 -88.533783
9202187500 -0.87853271 123.20002 -9.1319256 -72.86972 -9.1262398 -73.257378 -0.17652637 -88.629143
9202250000 -0.8808766 123.21313 -9.1302462 -72.816986 -9.13871 -73.26088 -0.18150093 -88.581978
9202312500 -0.87756658 123.16483 -9.1288605 -72.834877 -9.135848 -73.333244 -0.17650467 -88.550812
9202375000 -0.87631673 123.18345 -9.1241732 -72.842545 -9.1281471 -73.226425 -0.17428635 -88.499535
9202437500 -0.87860376 123.14625 -9.1353083 -72.832878 -9.129878 -73.255997 -0.17679025 -88.518692
9202500000 -0.8872394 123.15369 -9.1336851 -72.765686 -9.1322947 -73.223869 -0.18327731 -88.476776
9202562500 -0.88105005 123.13745 -9.1366224 -72.849068 -9.1245461 -73.255791 -0.17876281 -88.471657
9202625000 -0.88305187 123.13957 -9.1304483 -72.852264 -9.1282644 -73.229111 -0.18381874 -88.434395
9202687500 -0.88056374 123.11767 -9.1424446 -72.808189 -9.127141 -73.210136 -0.18318625 -88.424515
9202750000 -0.87729579 123.10128 -9.1304169 -72.782753 -9.1284437 -73.211632 -0.18489978 -88.397354
9202812500 -0.88979667 123.09848 -9.1418419 -72.805817 -9.1258802 -73.206779 -0.18544318 -88.393745
9202875000 -0.88417399 123.04097 -9.1488771 -72.817856 -9.126811 -73.228165 -0.18649456 -88.357925
9202937500 -0.87789589 123.04111 -9.1280851 -72.759674 -9.1255808 -73.184677 -0.1831982 -88.309525
9203000000 -0.87350869 123.01676 -9.1204824 -72.830276 -9.1270819 -73.237 -0.18140228 -88.32206
9203062500 -0.87695807 123.02922 -9.12679 -72.807449 -9.1261721 -73.169945 -0.18396901 -88.282089
9203125000 -0.87356561 122.97902 -9.1238155 -72.844345 -9.1225109 -73.215553 -0.1815421 -88.279182
9203187500 -0.88027 122.97108 -9.1348963 -72.8536 -9.1285868 -73.251976 -0.18772084 -88.280724
9203250000 -0.87871307 122.95258 -9.125433 -72.781639 -9.1274366 -73.220993 -0.1813782 -88.222076
9203312500 -0.88076383 122.97242 -9.1392345 -72.78553 -9.1197557 -73.25161 -0.17859915 -88.223068
9203375000 -0.88405907 122.93159 -9.1368742 -72.794754 -9.1283627 -73.247345 -0.18931292 -88.169479
9203437500 -0.87963486 122.98194 -9.1276503 -72.803154 -9.1216316 -73.217491 -0.18349333 -88.192497
9203500000 -0.88320374 122.93113 -9.1320982 -72.852501 -9.1220636 -73.236351 -0.18154459 -88.179604
9203562500 -0.87713331 122.92915 -9.1198235 -72.794456 -9.1208363 -73.235298 -0.18603741 -88.159081
9203625000 -0.8778128 122.932 -9.1277361 -72.790359 -9.1303453 -73.237358 -0.18549649 -88.154404
9203687500 -0.8807041 122.86224 -9.1212358 -72.883942 -9.1166248 -73.245903 -0.1866501 -88.146286
9203750000 -0.87962162 122.84171 -9.118515 -72.837212 -9.1198044 -73.208206 -0.18709138 -88.126198
9203812500 -0.87835473 122.81213 -9.1278048 -72.877678 -9.1239452 -73.227005 -0.19180857 -88.107407
9203875000 -0.88110632 122.7844 -9.1205034 -72.876808 -9.1215286 -73.167183 -0.19345069 -88.055618
9203937500 -0.87617117 122.8312 -9.1182766 -72.817657 -9.1209278 -73.209366 -0.19497213 -88.05265
9204000000 -0.87601334 122.80837 -9.1253614 -72.802849 -9.1101408 -73.193329 -0.1957389 -88.074181
9204062500 -0.87747562 122.79459 -9.1289606 -72.815842 -9.1103945 -73.198807 -0.19831955 -87.975456
9204125000 -0.8707543 122.75404 -9.1265516 -72.782555 -9.1092081 -73.203484 -0.19194341 -88.031403
9204187500 -0.87763542 122.76833 -9.1263247 -72.728706 -9.1126709 -73.169273 -0.19866204 -87.98896
9204250000 -0.87027597 122.73377 -9.1302013 -72.836235 -9.1140356 -73.179497 -0.19930072 -87.939484
9204312500 -0.87051022 122.73104 -9.122673 -72.782753 -9.1105862 -73.218254 -0.19300283 -87.961815
9204375000 -0.87032616 122.72416 -9.1210814 -72.792549 -9.1124516 -73.213211 -0.1920229 -87.962097
9204437500 -0.87049544 122.71312 -9.1187286 -72.742722 -9.1097326 -73.171944 -0.18655528 -87.892174
9204500000 -0.87461621 122.67094 -9.1144915 -72.769653 -9.1121969 -73.174644 -0.19036224 -87.912262
9204562500 -0.87082314 122.67577 -9.112751 -72.750999 -9.1090631 -73.208519 -0.18282142 -87.8508
9204625000 -0.86837399 122.63467 -9.1053495 -72.81105 -9.1112471 -73.170563 -0.18391761 -87.85981
9204687500 -0.87460858 122.63278 -9.113678 -72.730499 -9.1100502 -73.177391 -0.18785411 -87.842163
9204750000 -0.87196064 122.64595 -9.1100359 -72.697334 -9.1052618 -73.166191 -0.18612827 -87.799835
9204812500 -0.87234509 122.65666 -9.1118259 -72.692703 -9.106389 -73.181465 -0.1895216 -87.768906
9204875000 -0.87497354 122.62322 -9.107934 -72.765869 -9.104867 -73.15593 -0.19081761 -87.793549
9204937500 -0.87714493 122.65813 -9.1070642 -72.709953 -9.1039362 -73.151138 -0.19242282 -87.778778
9205000000 -0.88282895 122.61581 -9.1177969 -72.739204 -9.1041765 -73.15612 -0.19183438 -87.772942
9205062500 -0.8826136 122.59516 -9.1108007 -72.747322 -9.1032972 -73.194809 -0.19324285 -87.752533
9205125000 -0.87919796 122.56176 -9.1011066 -72.721062 -9.1054821 -73.094269 -0.18120804 -87.718063
9205187500 -0.87989891 122.55021 -9.1094141 -72.722885 -9.1059523 -73.195427 -0.18614438 -87.706345
9205250000 -0.87661445 122.51242 -9.1031456 -72.722542 -9.1135664 -73.19194 -0.18608017 -87.713737
9205312500 -0.88229024 122.535 -9.1116314 -72.650024 -9.1040545 -73.179955 -0.1852551 -87.63797
9205375000 -0.87920916 122.48121 -9.1015568 -72.738754 -9.1071901 -73.17627 -0.18743126 -87.653397
9205437500 -0.87595081 122.49018 -9.0985765 -72.693893 -9.1052561 -73.184662 -0.18503483 -87.667084
9205500000 -0.87860924 122.47957 -9.1079445 -72.730629 -9.1037216 -73.136322 -0.1899274 -87.643265
9205562500 -0.87982869 122.4546 -9.1041365 -72.741966 -9.1014252 -73.159126 -0.18438624 -87.607399
9205625000 -0.87469202 122.44804 -9.102272 -72.697205 -9.110322 -73.140747 -0.18632984 -87.631393
9205687500 -0.87954074 122.45337 -9.1032181 -72.763779 -9.1123772 -73.16407 -0.18910582 -87.570099
9205750000 -0.87401342 122.438 -9.1003265 -72.758018 -9.103404 -73.139313 -0.18532692 -87.571335
9205812500 -0.8773427 122.4021 -9.1083612 -72.733635 -9.113204 -73.089424 -0.19418474 -87.542702
9205875000 -0.87730318 122.39153 -9.1073465 -72.719963 -9.1115141 -73.149078 -0.18958105 -87.536362
9205937500 -0.87828678 122.42043 -9.1015549 -72.753799 -9.1098042 -73.074142 -0.19648941 -87.498894
9206000000 -0.87342238 122.40338 -9.0990524 -72.674759 -9.10149 -73.071777 -0.18865956 -87.439301
9206062500 -0.87179613 122.35701 -9.0935001 -72.752754 -9.1064167 -73.175034 -0.19247663 -87.483337
9206125000 -0.87638265 122.34355 -9.0974836 -72.747795 -9.0990152 -73.071533 -0.19237255 -87.448318
9206187500 -0.87667114 122.32103 -9.0999432 -72.729622 -9.0933876 -73.074272 -0.18539216 -87.379372
9206250000 -0.87806094 122.37956 -9.1036797 -72.642044 -9.0998974 -73.124481 -0.19214761 -87.37278
9206312500 -0.87127733 122.34015 -9.0931616 -72.702553 -9.0992765 -73.14283 -0.19098374 -87.399361
9206375000 -0.87166554 122.33258 -9.0931387 -72.731865 -9.0962925 -73.127159 -0.19312088 -87.356277
9206437500 -0.8785826 122.30534 -9.0879498 -72.646828 -9.0946569 -73.164467 -0.18722391 -87.357353
9206500000 -0.87358499 122.31163 -9.0943117 -72.649567 -9.0870972 -73.133583 -0.18963911 -87.316864
9206562500 -0.8765136 122.29871 -9.081768 -72.628342 -9.0827522 -73.183777 -0.18137103 -87.309753
9206625000 -0.88024372 122.2739 -9.087635 -72.671547 -9.0803232 -73.130737 -0.17829411 -87.270973
9206687500 -0.88345343 122.25455 -9.0901909 -72.647629 -9.080267 -73.123276 -0.17902394 -87.264565
9206750000 -0.88162857 122.20557 -9.0809803 -72.673393 -9.0860119 -73.12767 -0.17810035 -87.199623
9206812500 -0.88566613 122.21628 -9.0810156 -72.577263 -9.0749741 -73.084908 -0.17360455 -87.21344
9206875000 -0.88342613 122.20377 -9.0829954 -72.660484 -9.0787525 -73.139336 -0.18125014 -87.195862
9206937500 -0.88110924 122.19598 -9.0825129 -72.636353 -9.0779228 -73.116692 -0.1835846 -87.173714
9207000000 -0.87339747 122.14549 -9.078599 -72.661354 -9.0828772 -73.114876 -0.18924244 -87.152657
9207062500 -0.87628984 122.15296 -9.0863485 -72.675331 -9.0906944 -73.151428 -0.19162278 -87.203888
9207125000 -0.87466681 122.11456 -9.0791569 -72.678329 -9.0838165 -73.058655 -0.1950745 -87.128693
9207187500 -0.86791617 122.10551 -9.0840282 -72.655037 -9.0870752 -73.040047 -0.19505495 -87.08065
9207250000 -0.87095404 122.10064 -9.0834646 -72.725174 -9.0991392 -73.098068 -0.20150924 -87.132622
9207312500 -0.87319797 122.06074 -9.0895128 -72.730438 -9.0810261 -73.119392 -0.19402447 -87.152229
9207375000 -0.87499142 122.00995 -9.0861731 -72.732315 -9.0804195 -73.083458 -0.20095342 -87.078796
9207437500 -0.87643218 122.00658 -9.0873871 -72.732536 -9.0798044 -73.093956 -0.19083245 -87.07309
9207500000 -0.87587541 122.01868 -9.0897608 -72.637459 -9.0848799 -73.024635 -0.20063101 -87.035851
9207562500 -0.8754425 121.94599 -9.0814133 -72.742844 -9.0749388 -73.096176 -0.19358945 -87.017937
9207625000 -0.88198763 121.96246 -9.0844746 -72.731682 -9.0867519 -73.12693 -0.19848488 -87.089668
9207687500 -0.8811391 121.91499 -9.0787096 -72.732506 -9.0759563 -73.049751 -0.18832353 -87.012657
9207750000 -0.88700372 121.92095 -9.0860233 -72.699959 -9.0661497 -73.124321 -0.18479136 -87.021072
9207812500 -0.88906276 121.94142 -9.0809383 -72.692772 -9.0761995 -73.135765 -0.18486564 -87.008896
9207875000 -0.88011408 121.93417 -9.0828838 -72.726494 -9.0763731 -73.111984 -0.18191785 -86.937813
9207937500 -0.88510203 121.94968 -9.0783453 -72.672325 -9.0772972 -73.167381 -0.17818293 -86.975029
9208000000 -0.88639295 121.94696 -9.0743704 -72.621597 -9.0804663 -73.119545 -0.189768 -86.906013
9208062500 -0.88837129 121.92509 -9.0793514 -72.664993 -9.072506 -73.107521 -0.18231283 -86.89637
9208125000 -0.88270837 121.90607 -9.0786161 -72.635376 -9.0757008 -73.091324 -0.19522317 -86.88974
9208187500 -0.8835876 121.89484 -9.0745678 -72.677338 -9.0753317 -73.110016 -0.19097054 -86.864258
9208250000 -0.88279802 121.90057 -9.0734015 -72.639412 -9.074585 -73.094696 -0.20244494 -86.835098
9208312500 -0.87852198 121.83924 -9.0785046 -72.651299 -9.0804787 -73.088295 -0.20479432 -86.803276
9208375000 -0.87897962 121.85789 -9.0833054 -72.610016 -9.0770159 -73.040619 -0.20174582 -86.773636
9208437500 -0.87568867 121.85958 -9.0702124 -72.716087 -9.0772791 -73.025368 -0.19676021 -86.775459
9208500000 -0.88334775 121.79262 -9.0753937 -72.649986 -9.0671434 -72.993813 -0.19295694 -86.737816
9208562500 -0.87857455 121.81704 -9.0796194 -72.646149 -9.071887 -73.03891 -0.19818321 -86.759933
9208625000 -0.87796265 121.7644 -9.0694742 -72.711342 -9.067893 -73.076904 -0.18853122 -86.742889
9208687500 -0.87988472 121.76416 -9.0679884 -72.689903 -9.0686922 -73.023453 -0.18650445 -86.715683
9208750000 -0.87913781 121.72008 -9.0680408 -72.668243 -9.0617418 -73.037132 -0.18889615 -86.71199
9208812500 -0.8788482 121.7127 -9.066843 -72.708771 -9.0606499 -73.08802 -0.18538561 -86.733765
9208875000 -0.88202351 121.718 -9.0727777 -72.696739 -9.0642481 -73.061592 -0.19345911 -86.691147
9208937500 -0.88058299 121.72079 -9.0679817 -72.633751 -9.0726271 -73.131454 -0.19617105 -86.700394
9209000000 -0.88199389 121.73634 -9.0672932 -72.677422 -9.0690622 -73.032219 -0.20307371 -86.648224
9209062500 -0.88004553 121.73595 -9.0632706 -72.690231 -9.069129 -73.06971 -0.19432168 -86.698692
9209125000 -0.88591212 121.74911 -9.0691423 -72.675842 -9.0772123 -73.071335 -0.2012136 -86.615608
9209187500 -0.87960559 121.74594 -9.0614185 -72.687469 -9.0746269 -73.044235 -0.20222318 -86.591827
9209250000 -0.88081694 121.70221 -9.065588 -72.612885 -9.073719 -73.011383 -0.20610227 -86.570869
9209312500 -0.87712693 121.68034 -9.0612221 -72.619896 -9.0766973 -73.002296 -0.20450832 -86.552132
9209375000 -0.87106866 121.65415 -9.0534706 -72.691673 -9.066061 -73.02652 -0.20019038 -86.554596
9209437500 -0.87771904 121.60715 -9.0616665 -72.615616 -9.063798 -72.972618 -0.19504105 -86.500969
9209500000 -0.88329947 121.61691 -9.0668478 -72.640175 -9.0727758 -72.996742 -0.19780473 -86.482712
9209562500 -0.87841719 121.60398 -9.0561104 -72.616615 -9.0660963 -73.065552 -0.19685321 -86.499817
9209625000 -0.88497031 121.58219 -9.0593367 -72.682755 -9.0616856 -72.996979 -0.19349286 -86.448395
9209687500 -0.88286364 121.57545 -9.0603333 -72.65657 -9.059453 -73.048218 -0.19377539 -86.427528
9209750000 -0.88700789 121.54498 -9.0581808 -72.69976 -9.0521526 -72.985413 -0.19238906 -86.404579
9209812500 -0.88154304 121.55718 -9.054203 -72.637863 -9.055377 -73.015327 -0.18300365 -86.400917
9209875000 -0.88151234 121.55185 -9.0520773 -72.665596 -9.0579853 -73.059303 -0.18935293 -86.412117
9209937500 -0.88236088 121.52803 -9.0593891 -72.699501 -9.0536737 -73.046249 -0.19092846 -86.381485
9210000000 -0.87948066 121.49076 -9.0570927 -72.654594 -9.0574121 -73.005363 -0.18927497 -86.327065
9210062500 -0.88068187 121.5136 -9.0508623 -72.641258 -9.0550289 -72.987465 -0.19204625 -86.299255
9210125000 -0.88094419 121.49377 -9.0594654 -72.620529 -9.0486794 -72.97245 -0.18391472 -86.282692
9210187500 -0.88075626 121.47217 -9.0526037 -72.588203 -9.0614672 -72.952759 -0.19809151 -86.249176
9210250000 -0.87907326 121.45393 -9.0519848 -72.607506 -9.0543499 -72.978638 -0.19484679 -86.300026
9210312500 -0.8772791 121.45582 -9.0502739 -72.634834 -9.0515614 -73.007996 -0.18893141 -86.27932
9210375000 -0.87891304 121.444 -9.0584345 -72.627785 -9.0435829 -72.974472 -0.18774922 -86.232788
9210437500 -0.87803328 121.41683 -9.0610428 -72.651779 -9.0557003 -72.94696 -0.20197026 -86.218567
9210500000 -0.87906957 121.39231 -9.0576353 -72.613297 -9.0504827 -72.975426 -0.19698422 -86.206154
9210562500 -0.87571037 121.35075 -9.0531654 -72.66153 -9.0538616 -72.909706 -0.20452338 -86.168633
9210625000 -0.87350899 121.39822 -9.0545435 -72.598068 -9.0558243 -73.00959 -0.2060163 -86.154266
9210687500 -0.8746134 121.33469 -9.0577812 -72.604568 -9.0518484 -72.99144 -0.20318215 -86.151672
9210750000 -0.87388062 121.31873 -9.0568457 -72.547592 -9.0568619 -72.977913 -0.20502102 -86.119431
9210812500 -0.87824965 121.33128 -9.0526896 -72.552368 -9.0556192 -72.952988 -0.21456128 -86.085976
9210875000 -0.88082916 121.27556 -9.0595226 -72.576363 -9.0475645 -73.032166 -0.20576683 -86.116104
9210937500 -0.88454455 121.28023 -9.0606947 -72.575348 -9.0459661 -72.984802 -0.20714928 -86.091377
9211000000 -0.88213444 121.21175 -9.055294 -72.651001 -9.0443192 -73.025215 -0.2041595 -86.081146
9211062500 -0.88349009 121.24509 -9.0568533 -72.573914 -9.0493574 -73.019753 -0.20415889 -86.025719
9211125000 -0.88343555 121.28982 -9.0506935 -72.561813 -9.045579 -73.002342 -0.19929376 -86.086304
9211187500 -0.88400126 121.26032 -9.0513058 -72.600945 -9.0362778 -72.993462 -0.19197376 -86.0812
9211250000 -0.88523501 121.23272 -9.0516243 -72.642632 -9.0505199 -73.017502 -0.19915745 -86.089806
9211312500 -0.88762265 121.24632 -9.0527735 -72.609024 -9.0460691 -73.026329 -0.20302381 -86.1026
9211375000 -0.88591236 121.23985 -9.0428295 -72.612724 -9.0506525 -73.013557 -0.19660597 -86.000504
9211437500 -0.88905835 121.21294 -9.0511131 -72.653008 -9.0426722 -73.015717 -0.19358939 -85.980713
9211500000 -0.88185096 121.20673 -9.0440216 -72.590492 -9.0387497 -73.001999 -0.1968936 -85.965393
9211562500 -0.88308531 121.19994 -9.0569439 -72.576721 -9.0421638 -73.057968 -0.20434088 -85.984894
9211625000 -0.88705897 121.14425 -9.0456247 -72.638161 -9.0497637 -73.015106 -0.20161682 -85.972313
9211687500 -0.88295162 121.15795 -9.0403948 -72.569466 -9.0451822 -72.894249 -0.20675386 -85.880638
9211750000 -0.88127768 121.14017 -9.035202 -72.583435 -9.0386791 -72.941483 -0.20791982 -85.883965
9211812500 -0.88829011 121.092 -9.0410576 -72.615913 -9.0458508 -72.939171 -0.20906448 -85.888153
9211875000 -0.88558131 121.0839 -9.0327568 -72.566132 -9.0364828 -72.966774 -0.20285332 -85.853928
9211937500 -0.88433778 121.05095 -9.0399418 -72.571106 -9.0348606 -72.940735 -0.19922967 -85.778336
9212000000 -0.88305819 121.04832 -9.0310526 -72.563538 -9.0387774 -72.932564 -0.20155025 -85.750381
9212062500 -0.89133507 121.00015 -9.0378799 -72.637131 -9.0351543 -72.962036 -0.19903854 -85.768158
9212125000 -0.88534045 120.97477 -9.0328083 -72.601601 -9.0361357 -72.948051 -0.20387545 -85.730591
9212187500 -0.89167422 120.9793 -9.0346813 -72.580902 -9.027976 -72.881622 -0.20057122 -85.678101
