!Agilent Technologies,N5242A,MY51221714,A.09.90.19
!Agilent N5242A: A.09.90.19
!Date: Saturday, March 16, 2024 08:46:01
!Correction: S11(Full 2 Port(1,2)) 
!S21(Full 2 Port(1,2)) 
!S12(Full 2 Port(1,2)) 
!S22(Full 2 Port(1,2)) 
!S2P File: Measurements: S11, S21, S12, S22:
# Hz S  dB   R 50
9200000000 -0.87399018 123.8323 -9.1663513 -72.699448 -9.166254 -73.10614 -0.15431383 -89.197792
9200062500 -0.87695873 123.79846 -9.1693554 -72.720779 -9.1651611 -73.143402 -0.1541259 -89.189247
9200125000 -0.87037051 123.80579 -9.1555166 -72.698715 -9.1636229 -73.165955 -0.14947253 -89.174019
9200187500 -0.86959398 123.79241 -9.1586781 -72.712517 -9.1625309 -73.139656 -0.15003648 -89.159103
9200250000 -0.86732203 123.78332 -9.1604948 -72.69976 -9.1594496 -73.152992 -0.15389985 -89.142708
9200312500 -0.87075466 123.80636 -9.1744986 -72.70755 -9.1533175 -73.153244 -0.15292379 -89.130463
9200375000 -0.87014937 123.76009 -9.1577349 -72.682983 -9.1505318 -73.176025 -0.15231174 -89.118973
9200437500 -0.86736876 123.74563 -9.1583624 -72.670181 -9.1493092 -73.149315 -0.15645933 -89.096901
9200500000 -0.86632615 123.70901 -9.1594276 -72.705391 -9.1402988 -73.146553 -0.15089063 -89.061386
9200562500 -0.86387795 123.68859 -9.1585588 -72.693939 -9.1436834 -73.134232 -0.15527262 -89.06971
9200625000 -0.8710804 123.7029 -9.1558981 -72.636383 -9.146224 -73.090904 -0.1572375 -89.025795
9200687500 -0.86816353 123.69161 -9.16395 -72.682999 -9.1506138 -73.093933 -0.16385366 -88.965935
9200750000 -0.86967027 123.66925 -9.1674242 -72.661957 -9.1458397 -73.101868 -0.16049893 -88.955025
9200812500 -0.86990625 123.66171 -9.1700697 -72.620789 -9.1447115 -73.079659 -0.16332205 -88.896622
9200875000 -0.87220615 123.63435 -9.1624107 -72.614525 -9.1399212 -73.152542 -0.16056667 -88.933205
9200937500 -0.86898166 123.6152 -9.1541767 -72.611633 -9.140913 -73.136276 -0.16189207 -88.884514
9201000000 -0.8664661 123.67137 -9.1575966 -72.597504 -9.1474533 -73.104523 -0.16423906 -88.887413
9201062500 -0.86929727 123.62814 -9.1589689 -72.595917 -9.1419868 -73.048584 -0.16028215 -88.806496
9201125000 -0.86769539 123.58043 -9.1522017 -72.61351 -9.1433916 -73.053886 -0.1594387 -88.778252
9201187500 -0.86505502 123.58461 -9.1502953 -72.646561 -9.1451702 -73.115204 -0.16231745 -88.831329
9201250000 -0.86496204 123.53095 -9.1497965 -72.63623 -9.1443329 -73.060768 -0.15810989 -88.758575
9201312500 -0.86567485 123.53532 -9.1475544 -72.640869 -9.1462097 -73.056038 -0.16477968 -88.770653
9201375000 -0.87274498 123.52983 -9.1559401 -72.619965 -9.1499786 -73.099205 -0.1625234 -88.80307
9201437500 -0.87669271 123.51723 -9.1583452 -72.63813 -9.1373911 -73.123177 -0.15602288 -88.788795
9201500000 -0.8725037 123.51657 -9.1560278 -72.618355 -9.1438026 -73.07019 -0.16086218 -88.791985
9201562500 -0.87357348 123.53132 -9.1509266 -72.614624 -9.1435928 -73.055229 -0.15853028 -88.734909
9201625000 -0.8737458 123.48997 -9.1562891 -72.627632 -9.1430473 -73.081825 -0.15646259 -88.712257
9201687500 -0.86957198 123.50002 -9.1582794 -72.586258 -9.1453829 -73.036072 -0.16239451 -88.721664
9201750000 -0.87122256 123.46188 -9.1533337 -72.662041 -9.1335583 -73.053406 -0.15671165 -88.692955
9201812500 -0.86914331 123.46563 -9.1520605 -72.626549 -9.1343508 -73.04586 -0.16104461 -88.677567
9201875000 -0.8727662 123.41114 -9.1500311 -72.638588 -9.1337786 -73.022346 -0.15583947 -88.659966
9201937500 -0.871961 123.40267 -9.1517868 -72.618927 -9.1359224 -73.025787 -0.16103496 -88.610916
9202000000 -0.8640396 123.37696 -9.1485023 -72.58075 -9.133523 -73.053467 -0.15661547 -88.569595
9202062500 -0.86802667 123.36383 -9.1454525 -72.660896 -9.1399603 -73.011375 -0.16244881 -88.532837
9202125000 -0.86725831 123.3443 -9.1430082 -72.608528 -9.1356373 -73.093246 -0.1637284 -88.584
9202187500 -0.8663215 123.34579 -9.1342764 -72.598343 -9.1369247 -73.065147 -0.1559411 -88.576172
9202250000 -0.86932176 123.31139 -9.134593 -72.661057 -9.1363459 -73.071396 -0.15853415 -88.581955
9202312500 -0.8705135 123.31751 -9.138401 -72.577148 -9.1309519 -73.142464 -0.15172669 -88.528572
9202375000 -0.86888146 123.30939 -9.1346331 -72.664444 -9.1450701 -73.081184 -0.1610786 -88.555305
9202437500 -0.87118089 123.29766 -9.1322308 -72.592072 -9.1433687 -73.057083 -0.16262548 -88.480728
9202500000 -0.87235928 123.3049 -9.1376104 -72.589272 -9.1410265 -73.084183 -0.16856194 -88.478378
9202562500 -0.87393022 123.27746 -9.1460552 -72.580185 -9.1321774 -73.001106 -0.16275707 -88.434883
9202625000 -0.87051636 123.28941 -9.1428556 -72.570686 -9.1323795 -73.045219 -0.16949482 -88.426994
9202687500 -0.87220556 123.24287 -9.1433487 -72.645966 -9.1359148 -73.026604 -0.16348015 -88.411636
9202750000 -0.87389332 123.28136 -9.1490221 -72.61277 -9.1412315 -73.001701 -0.17395511 -88.36763
9202812500 -0.87495166 123.20936 -9.1428871 -72.634544 -9.1314602 -73.031364 -0.16706042 -88.366127
9202875000 -0.87425137 123.19524 -9.1393442 -72.627815 -9.1205997 -73.035088 -0.15872073 -88.353508
9202937500 -0.87167996 123.18091 -9.1390877 -72.556145 -9.1327829 -73.057846 -0.16951136 -88.332329
9203000000 -0.87209821 123.19178 -9.133378 -72.64576 -9.1255903 -73.07766 -0.16488615 -88.333076
9203062500 -0.86856639 123.14958 -9.1384277 -72.628426 -9.1258974 -73.108238 -0.1657083 -88.28093
9203125000 -0.86590797 123.09722 -9.1293468 -72.626617 -9.117363 -73.020248 -0.15630028 -88.241699
9203187500 -0.87541777 123.13658 -9.1348467 -72.603371 -9.1299839 -73.041824 -0.16492723 -88.270111
9203250000 -0.8689456 123.08609 -9.1292124 -72.677055 -9.1222954 -73.063232 -0.16119246 -88.249313
9203312500 -0.87127477 123.11251 -9.1358013 -72.643555 -9.1303091 -73.050362 -0.16382554 -88.218864
9203375000 -0.86702943 123.1149 -9.1336346 -72.590302 -9.1249809 -73.00103 -0.16186279 -88.191978
9203437500 -0.86966193 123.10657 -9.1288166 -72.575386 -9.1270399 -73.008003 -0.16316043 -88.179092
9203500000 -0.87021232 123.08728 -9.1368217 -72.642319 -9.1275034 -73.095795 -0.16710787 -88.18483
9203562500 -0.86824232 123.06105 -9.1314344 -72.582756 -9.13659 -73.057129 -0.17038757 -88.141037
9203625000 -0.87114197 123.05385 -9.1387863 -72.553185 -9.1262178 -72.98822 -0.16369267 -88.068176
9203687500 -0.87247711 123.03634 -9.1357698 -72.638771 -9.131876 -73.02877 -0.16629295 -88.10743
9203750000 -0.87585223 122.97263 -9.1351385 -72.642799 -9.1277304 -72.948563 -0.17790318 -88.076828
9203812500 -0.87501884 122.98316 -9.1306524 -72.599564 -9.121665 -73.017288 -0.17516872 -88.056732
9203875000 -0.87211496 122.98009 -9.1302767 -72.611008 -9.1322365 -72.999947 -0.17506941 -88.051208
9203937500 -0.86795396 122.97057 -9.1284781 -72.593346 -9.1207075 -72.988594 -0.17643218 -88.020798
9204000000 -0.87100428 122.95512 -9.1267443 -72.567711 -9.1077251 -73.026848 -0.17176554 -88.036728
9204062500 -0.87112707 122.93191 -9.1414957 -72.578468 -9.1158915 -72.995621 -0.17746857 -87.997559
9204125000 -0.86365998 122.90245 -9.1283951 -72.578194 -9.1077328 -73.00695 -0.17768469 -87.980843
9204187500 -0.86895573 122.88799 -9.1317186 -72.601929 -9.1158123 -72.977844 -0.17591797 -87.987114
9204250000 -0.86793691 122.91857 -9.1329651 -72.609016 -9.1152573 -72.994934 -0.17396039 -87.951271
9204312500 -0.86148864 122.85138 -9.1266031 -72.594498 -9.1142931 -72.959999 -0.17976671 -87.909012
9204375000 -0.85929644 122.86051 -9.1226196 -72.542496 -9.1077785 -72.941307 -0.17520791 -87.896942
9204437500 -0.86327296 122.83524 -9.1247864 -72.589622 -9.1171389 -72.952477 -0.17140609 -87.869553
9204500000 -0.86054409 122.87086 -9.1199656 -72.516983 -9.1113358 -73.004356 -0.17003536 -87.89534
9204562500 -0.86014313 122.83167 -9.1194735 -72.52285 -9.1182241 -73.001389 -0.16726691 -87.873459
9204625000 -0.86132652 122.81425 -9.1086264 -72.527031 -9.1166058 -72.95694 -0.16632296 -87.795944
9204687500 -0.86477721 122.76401 -9.1166344 -72.489861 -9.1143265 -72.976273 -0.16422231 -87.836853
9204750000 -0.86773396 122.76238 -9.1210499 -72.572639 -9.109561 -73.009933 -0.17570028 -87.794174
9204812500 -0.86641628 122.79831 -9.1229916 -72.577141 -9.1188383 -73.004707 -0.17615388 -87.819756
9204875000 -0.86072379 122.78001 -9.119277 -72.498291 -9.1125193 -72.981712 -0.16922519 -87.767288
9204937500 -0.86962873 122.78304 -9.1178007 -72.546463 -9.1113167 -73.018623 -0.17525218 -87.79702
9205000000 -0.86940771 122.77388 -9.1231432 -72.534203 -9.109127 -73.050072 -0.17354144 -87.787407
9205062500 -0.86841738 122.71684 -9.1159563 -72.521889 -9.1020117 -72.95472 -0.16822822 -87.722145
9205125000 -0.86953253 122.70738 -9.1120548 -72.516876 -9.1031561 -73.034332 -0.17015155 -87.760887
9205187500 -0.87346584 122.67517 -9.1143961 -72.511894 -9.1036549 -72.999603 -0.16895653 -87.705002
9205250000 -0.87128109 122.6019 -9.1129932 -72.52951 -9.1145134 -72.953972 -0.1700497 -87.70327
9205312500 -0.87437069 122.65331 -9.115633 -72.490753 -9.1189203 -72.996971 -0.17272814 -87.647392
9205375000 -0.87296885 122.61517 -9.1085978 -72.524521 -9.1090279 -72.981255 -0.16475832 -87.617218
9205437500 -0.87456167 122.58927 -9.1130095 -72.57341 -9.1112309 -73.010597 -0.16932838 -87.643547
9205500000 -0.87372845 122.54432 -9.1032095 -72.550354 -9.1062317 -72.960075 -0.16727172 -87.603081
9205562500 -0.87651837 122.59963 -9.1219797 -72.495735 -9.1180449 -72.977257 -0.17708308 -87.587288
9205625000 -0.87075031 122.58736 -9.105546 -72.506523 -9.1126146 -72.970428 -0.16834176 -87.574814
9205687500 -0.86927909 122.60654 -9.1127615 -72.559563 -9.1022196 -72.977219 -0.16858236 -87.581032
9205750000 -0.87502056 122.53697 -9.1069851 -72.621178 -9.1066456 -72.980034 -0.16643061 -87.592506
9205812500 -0.86761898 122.57368 -9.1094084 -72.477577 -9.1120739 -72.926651 -0.17380871 -87.532005
9205875000 -0.86567926 122.54171 -9.106885 -72.541122 -9.1035004 -72.951912 -0.17340589 -87.48584
9205937500 -0.86914045 122.52251 -9.1130209 -72.529655 -9.1120186 -72.929939 -0.17212644 -87.445953
9206000000 -0.86521256 122.51655 -9.1087561 -72.546974 -9.1081648 -72.933693 -0.17413741 -87.473289
9206062500 -0.86452699 122.52155 -9.1024113 -72.46843 -9.1080513 -72.902161 -0.17242175 -87.44381
9206125000 -0.86261898 122.51686 -9.1048012 -72.473251 -9.110445 -72.916161 -0.17439865 -87.414001
9206187500 -0.86439443 122.4805 -9.1126862 -72.438194 -9.1042242 -72.932457 -0.17710659 -87.392578
9206250000 -0.86473531 122.47872 -9.1067762 -72.482491 -9.1057978 -72.917938 -0.17401527 -87.371033
9206312500 -0.86494815 122.48421 -9.0956507 -72.467155 -9.097518 -72.932343 -0.17298993 -87.377327
9206375000 -0.86513972 122.47908 -9.0975828 -72.500496 -9.0973186 -72.943932 -0.16756254 -87.352936
9206437500 -0.86657226 122.44345 -9.1066561 -72.496323 -9.0964041 -72.986252 -0.16961591 -87.375183
9206500000 -0.86652887 122.42741 -9.1051168 -72.475433 -9.0838633 -72.986145 -0.1665038 -87.341507
9206562500 -0.87029201 122.46374 -9.103302 -72.443176 -9.0852556 -72.97541 -0.15902691 -87.331734
9206625000 -0.8721652 122.42989 -9.0929756 -72.456322 -9.0870409 -72.965263 -0.16536425 -87.297516
9206687500 -0.87099057 122.39256 -9.0928907 -72.482292 -9.0886202 -72.976402 -0.157672 -87.226028
9206750000 -0.87295407 122.37288 -9.0844736 -72.408081 -9.0801764 -72.941902 -0.16039135 -87.174904
9206812500 -0.87188786 122.34478 -9.0906162 -72.426605 -9.0685215 -72.91993 -0.1603736 -87.183342
9206875000 -0.873757 122.33836 -9.0905581 -72.474182 -9.0755291 -72.977974 -0.16416018 -87.21711
9206937500 -0.87175363 122.30462 -9.092618 -72.426384 -9.0840874 -72.862473 -0.16536024 -87.150711
9207000000 -0.8701579 122.27716 -9.0865126 -72.522415 -9.0879889 -72.90583 -0.16986459 -87.14991
9207062500 -0.8643676 122.29781 -9.0876093 -72.491463 -9.0863018 -72.902596 -0.17237686 -87.104523
9207125000 -0.86620045 122.26607 -9.0936728 -72.552261 -9.0895615 -72.922638 -0.17563738 -87.126335
9207187500 -0.8624844 122.24293 -9.091176 -72.548676 -9.0930157 -72.875862 -0.18138994 -87.132156
9207250000 -0.86463571 122.22945 -9.0870724 -72.488861 -9.0875607 -72.919678 -0.17501548 -87.102959
9207312500 -0.86373526 122.20505 -9.0872374 -72.4552 -9.0927734 -72.910347 -0.17892936 -87.084732
9207375000 -0.86316282 122.11695 -9.0843992 -72.520859 -9.0870028 -72.888084 -0.1822121 -87.098358
9207437500 -0.87001222 122.12699 -9.098443 -72.545227 -9.079792 -72.957832 -0.17818734 -87.09494
9207500000 -0.87006533 122.14956 -9.0885468 -72.47966 -9.076786 -72.866959 -0.1742693 -87.040833
9207562500 -0.86980361 122.11363 -9.0936289 -72.502495 -9.0782385 -72.863579 -0.18021829 -87.021088
9207625000 -0.86523789 122.0545 -9.0840101 -72.475304 -9.0806246 -72.925575 -0.17945035 -87.008507
9207687500 -0.8678081 122.08928 -9.0874805 -72.524757 -9.0888491 -72.897934 -0.18478765 -87.011482
9207750000 -0.86840427 122.07933 -9.0846157 -72.520828 -9.0806036 -72.907913 -0.17230283 -87.016479
9207812500 -0.87374884 122.08657 -9.0910091 -72.455818 -9.0806475 -72.881256 -0.16772263 -86.945969
9207875000 -0.87941784 122.0762 -9.0926094 -72.499832 -9.0739145 -73.012169 -0.16094974 -86.988525
9207937500 -0.87778044 122.06436 -9.0851803 -72.465111 -9.0787888 -72.907539 -0.16188952 -86.922058
9208000000 -0.87330538 122.07466 -9.0802898 -72.447891 -9.0752516 -73.007904 -0.16416399 -86.914314
9208062500 -0.87620634 122.0683 -9.0891571 -72.484978 -9.0850334 -72.941498 -0.17476015 -86.862221
9208125000 -0.87289697 122.07413 -9.0883741 -72.393867 -9.0825186 -72.898781 -0.17344595 -86.845566
9208187500 -0.87738812 122.01953 -9.0965128 -72.433205 -9.0805435 -72.88028 -0.17729996 -86.797623
9208250000 -0.86985868 122.02123 -9.0828772 -72.4673 -9.0786686 -72.892143 -0.18149942 -86.789909
9208312500 -0.8694281 121.99413 -9.07763 -72.471306 -9.0758648 -72.880478 -0.18194142 -86.779259
9208375000 -0.87394857 122.01437 -9.0892744 -72.45443 -9.0845032 -72.880341 -0.1863851 -86.785652
9208437500 -0.86521083 121.95694 -9.0761786 -72.464561 -9.0770216 -72.886497 -0.18149509 -86.775795
9208500000 -0.86500031 121.98479 -9.0707426 -72.420815 -9.0745096 -72.905632 -0.17987947 -86.748352
9208562500 -0.86874241 121.92989 -9.0774107 -72.448372 -9.0654631 -72.832077 -0.16815004 -86.718964
9208625000 -0.87410808 121.89862 -9.081521 -72.505371 -9.0733023 -72.894119 -0.17893261 -86.734573
9208687500 -0.87195742 121.87901 -9.0734129 -72.534859 -9.0596819 -72.876411 -0.17293073 -86.722725
9208750000 -0.87121516 121.89698 -9.0839682 -72.478859 -9.0777187 -72.932625 -0.17566936 -86.717567
9208812500 -0.86980325 121.85824 -9.0675888 -72.446419 -9.0643549 -72.911224 -0.17015903 -86.656601
9208875000 -0.86782897 121.90295 -9.0774469 -72.433174 -9.0689049 -72.922852 -0.17462887 -86.710007
9208937500 -0.87130433 121.8615 -9.0711994 -72.445351 -9.0726452 -72.849678 -0.17832084 -86.660461
9209000000 -0.86773324 121.90389 -9.0744133 -72.407448 -9.0724182 -72.889496 -0.17273641 -86.661789
9209062500 -0.87183213 121.88682 -9.0689402 -72.447281 -9.0654087 -72.848068 -0.17803748 -86.659126
9209125000 -0.87270045 121.88305 -9.066494 -72.418076 -9.0718756 -72.880623 -0.17389819 -86.639656
9209187500 -0.86931992 121.88215 -9.0779095 -72.459969 -9.0784292 -72.876335 -0.18506245 -86.60891
9209250000 -0.87077463 121.86402 -9.0721207 -72.403336 -9.0737457 -72.8964 -0.17983457 -86.554604
9209312500 -0.87222964 121.83678 -9.0711679 -72.443527 -9.0748587 -72.905113 -0.1863825 -86.557938
9209375000 -0.86688483 121.77802 -9.0694361 -72.406517 -9.0747795 -72.867668 -0.17830475 -86.504883
9209437500 -0.86692858 121.77285 -9.0657902 -72.459114 -9.0712566 -72.869926 -0.17793737 -86.539421
9209500000 -0.87088704 121.74956 -9.0666952 -72.460403 -9.0719423 -72.810127 -0.17720361 -86.470009
9209562500 -0.86900353 121.74692 -9.0666351 -72.462517 -9.0696812 -72.802589 -0.18050537 -86.442574
9209625000 -0.86497539 121.74681 -9.0615721 -72.431648 -9.0700541 -72.82473 -0.17581484 -86.440216
9209687500 -0.87268841 121.74138 -9.0730553 -72.429947 -9.0708942 -72.83754 -0.17796442 -86.424232
9209750000 -0.87704444 121.71673 -9.0738096 -72.409813 -9.05445 -72.820076 -0.16994999 -86.373566
9209812500 -0.87556553 121.70482 -9.0635242 -72.45063 -9.0494671 -72.862282 -0.16327661 -86.414299
9209875000 -0.8778373 121.6654 -9.0748119 -72.490967 -9.0616837 -72.900307 -0.16934639 -86.371742
9209937500 -0.87743962 121.67767 -9.0690241 -72.423561 -9.0511541 -72.785507 -0.16681322 -86.309967
9210000000 -0.87419087 121.68247 -9.0669765 -72.506424 -9.0549068 -72.87648 -0.16854951 -86.334106
9210062500 -0.87446034 121.6241 -9.058527 -72.426537 -9.0609579 -72.834953 -0.17419758 -86.311584
9210125000 -0.87113458 121.61247 -9.0533571 -72.43808 -9.0540142 -72.852814 -0.16275184 -86.307457
9210187500 -0.86969781 121.63452 -9.0565748 -72.43084 -9.0525637 -72.799599 -0.17033882 -86.270676
9210250000 -0.87077475 121.59167 -9.0633001 -72.403015 -9.0601397 -72.809525 -0.17509723 -86.217278
9210312500 -0.87038237 121.59767 -9.0644732 -72.408066 -9.0664244 -72.744019 -0.18055063 -86.186401
9210375000 -0.86791891 121.55957 -9.0685339 -72.432877 -9.053525 -72.75972 -0.17126803 -86.230316
9210437500 -0.87087888 121.58304 -9.0664043 -72.417191 -9.0681953 -72.802391 -0.18430835 -86.186493
9210500000 -0.86617792 121.56401 -9.0652761 -72.389191 -9.0565777 -72.813362 -0.18374379 -86.179977
9210562500 -0.86892062 121.50823 -9.0659742 -72.478378 -9.0507574 -72.779602 -0.18284361 -86.157913
9210625000 -0.862795 121.51318 -9.0653028 -72.42099 -9.0709372 -72.801384 -0.18875572 -86.172249
9210687500 -0.8647908 121.48041 -9.0655155 -72.372856 -9.0480194 -72.828995 -0.18179943 -86.15123
9210750000 -0.86328912 121.44011 -9.0636139 -72.364388 -9.0595217 -72.814049 -0.18739022 -86.107498
9210812500 -0.86786282 121.42306 -9.0622454 -72.439117 -9.0515375 -72.774384 -0.18410954 -86.065208
9210875000 -0.86769354 121.39164 -9.0534058 -72.413643 -9.0472517 -72.83062 -0.18228009 -86.097572
9210937500 -0.87110782 121.42697 -9.0657053 -72.388214 -9.0467644 -72.844597 -0.18720709 -86.094032
9211000000 -0.86285704 121.39674 -9.0541134 -72.342606 -9.0493679 -72.766808 -0.18942982 -85.972755
9211062500 -0.87178963 121.4048 -9.0511904 -72.337082 -9.0499058 -72.829575 -0.18012027 -86.080032
9211125000 -0.87770385 121.4033 -9.0532227 -72.381111 -9.0476961 -72.831566 -0.18191531 -86.069374
9211187500 -0.87668526 121.37572 -9.0564909 -72.404869 -9.0477428 -72.866364 -0.1823387 -86.064995
9211250000 -0.87553144 121.37159 -9.0567493 -72.406265 -9.0434351 -72.843132 -0.17442948 -86.086937
9211312500 -0.87790215 121.40724 -9.0496836 -72.372765 -9.0489655 -72.828583 -0.17902666 -86.058151
9211375000 -0.87274694 121.37067 -9.0501022 -72.329926 -9.0587587 -72.79068 -0.18059458 -85.97242
9211437500 -0.87626934 121.3653 -9.0513201 -72.391739 -9.0426168 -72.805977 -0.17851309 -85.936867
9211500000 -0.87135142 121.37328 -9.0471191 -72.361298 -9.0497866 -72.826683 -0.18287346 -85.910866
9211562500 -0.88031453 121.3112 -9.0618372 -72.42617 -9.0567989 -72.83696 -0.19225416 -85.93454
9211625000 -0.87873399 121.33131 -9.0516024 -72.349342 -9.0464849 -72.790756 -0.18572743 -85.877007
9211687500 -0.87524849 121.28083 -9.0488911 -72.388 -9.039135 -72.807854 -0.18568268 -85.886368
9211750000 -0.87489051 121.28539 -9.0459051 -72.303436 -9.0361614 -72.755142 -0.18364391 -85.864243
9211812500 -0.8750335 121.25768 -9.0515041 -72.310585 -9.0417814 -72.811653 -0.18984632 -85.845932
9211875000 -0.87076175 121.22536 -9.0385008 -72.319359 -9.0523148 -72.761353 -0.19235429 -85.803368
9211937500 -0.87497044 121.18562 -9.0419741 -72.403809 -9.0482655 -72.807014 -0.19282684 -85.812271
9212000000 -0.87182117 121.17974 -9.0414753 -72.45137 -9.0398922 -72.824631 -0.1794631 -85.800354
9212062500 -0.87941968 121.15974 -9.0451107 -72.394348 -9.043788 -72.794708 -0.19318794 -85.716728
9212125000 -0.88247705 121.15024 -9.0423546 -72.438454 -9.0430679 -72.726288 -0.18694659 -85.665474
9212187500 -0.88172394 121.11551 -9.0404634 -72.397995 -9.037899 -72.710663 -0.18144456 -85.664703
