!Agilent Technologies,N5242A,MY51221714,A.09.90.19
!Agilent N5242A: A.09.90.19
!Date: Saturday, March 16, 2024 08:41:21
!Correction: S11(Full 2 Port(1,2)) 
!S21(Full 2 Port(1,2)) 
!S12(Full 2 Port(1,2)) 
!S22(Full 2 Port(1,2)) 
!S2P File: Measurements: S11, S21, S12, S22:
# Hz S  dB   R 50
9200000000 -0.87172109 123.92585 -9.2372894 -72.801697 -9.227562 -73.14106 -0.14137012 -89.337654
9200062500 -0.87258762 123.93627 -9.2447309 -72.740158 -9.2412233 -73.187752 -0.1504087 -89.30352
9200125000 -0.87070209 123.87559 -9.2376928 -72.823647 -9.2259789 -73.252029 -0.14225616 -89.312477
9200187500 -0.86835951 123.90585 -9.2340279 -72.776237 -9.2389917 -73.202919 -0.15184663 -89.289169
9200250000 -0.86250615 123.86548 -9.2297916 -72.796303 -9.2224674 -73.132904 -0.14425333 -89.246025
9200312500 -0.86273468 123.85921 -9.236062 -72.798965 -9.2291956 -73.200706 -0.14664862 -89.246658
9200375000 -0.86716014 123.86304 -9.2330256 -72.764404 -9.2266521 -73.185562 -0.14829201 -89.25853
9200437500 -0.860789 123.81501 -9.2276068 -72.818993 -9.227253 -73.226852 -0.14953806 -89.271446
9200500000 -0.86435145 123.79819 -9.2251835 -72.809677 -9.216177 -73.193985 -0.15047114 -89.23188
9200562500 -0.86363322 123.80385 -9.2321787 -72.777061 -9.219141 -73.186226 -0.15175767 -89.188248
9200625000 -0.86489034 123.79516 -9.2300558 -72.758606 -9.2267714 -73.163383 -0.15751478 -89.115158
9200687500 -0.86781776 123.75389 -9.2355423 -72.770927 -9.2174673 -73.130569 -0.15840694 -89.146805
9200750000 -0.86670578 123.76292 -9.2344246 -72.73761 -9.2204161 -73.17067 -0.16095553 -89.122734
9200812500 -0.86730373 123.72002 -9.2326317 -72.745293 -9.2117004 -73.113647 -0.14977203 -89.021049
9200875000 -0.86809844 123.71952 -9.2356176 -72.742455 -9.2168684 -73.151352 -0.15576836 -89.057892
9200937500 -0.86520928 123.73713 -9.2270927 -72.683693 -9.2146473 -73.138153 -0.1581755 -89.017838
9201000000 -0.86567676 123.71328 -9.2217035 -72.713852 -9.2069759 -73.144768 -0.15418443 -89.028755
9201062500 -0.8663286 123.71411 -9.2256565 -72.73703 -9.2159996 -73.118942 -0.1555573 -89.009567
9201125000 -0.86444861 123.71655 -9.2188616 -72.733688 -9.2104006 -73.189209 -0.15576683 -88.998856
9201187500 -0.8603614 123.65379 -9.2154274 -72.733841 -9.215414 -73.136452 -0.15148133 -88.985359
9201250000 -0.86097741 123.65612 -9.2149944 -72.763885 -9.2225199 -73.145096 -0.15747158 -88.941856
9201312500 -0.86052734 123.65487 -9.2238798 -72.705513 -9.216114 -73.184067 -0.15516821 -88.990608
9201375000 -0.86603194 123.61438 -9.2255135 -72.729164 -9.2189074 -73.19297 -0.15924928 -88.98671
9201437500 -0.87302095 123.59047 -9.2323132 -72.7603 -9.2174845 -73.10408 -0.15033679 -88.915123
9201500000 -0.86530662 123.6032 -9.2178288 -72.737709 -9.2133236 -73.080093 -0.14893377 -88.931351
9201562500 -0.86613542 123.59379 -9.223217 -72.699799 -9.2161551 -73.087303 -0.15292349 -88.943024
9201625000 -0.87204111 123.55214 -9.2303104 -72.795486 -9.2216034 -73.159554 -0.15393664 -88.897705
9201687500 -0.86580652 123.56677 -9.227684 -72.69416 -9.2184706 -73.081497 -0.15511312 -88.881721
9201750000 -0.86468852 123.57607 -9.2239437 -72.716858 -9.2128792 -73.103806 -0.15395905 -88.831314
9201812500 -0.8683334 123.51989 -9.2302446 -72.723938 -9.2081509 -73.078743 -0.15651588 -88.814751
9201875000 -0.86392957 123.52138 -9.2217026 -72.694962 -9.215785 -73.095818 -0.16360918 -88.809715
9201937500 -0.8688094 123.46295 -9.2223711 -72.718826 -9.2086744 -73.107109 -0.15984367 -88.791344
9202000000 -0.85928583 123.47399 -9.2162323 -72.669991 -9.2121773 -73.085701 -0.15783197 -88.749619
9202062500 -0.86883521 123.48742 -9.2138271 -72.68174 -9.2066183 -73.091988 -0.1572077 -88.678215
9202125000 -0.86580861 123.44121 -9.2108974 -72.716766 -9.2081795 -73.0756 -0.15917574 -88.711472
9202187500 -0.86468005 123.43873 -9.2053576 -72.719421 -9.2101641 -73.156105 -0.14967997 -88.759048
9202250000 -0.86224312 123.46938 -9.209012 -72.67363 -9.2020359 -73.154999 -0.15138353 -88.725677
9202312500 -0.86223418 123.41208 -9.19874 -72.740936 -9.2184248 -73.122345 -0.16071936 -88.664886
9202375000 -0.86636341 123.43478 -9.2039289 -72.663094 -9.2084827 -73.121368 -0.15341933 -88.69355
9202437500 -0.86677843 123.40189 -9.2058992 -72.700645 -9.206357 -73.149452 -0.1577861 -88.673828
9202500000 -0.86202353 123.39219 -9.2036276 -72.661018 -9.2108841 -73.16198 -0.16189688 -88.659515
9202562500 -0.86912972 123.36027 -9.2075758 -72.737663 -9.2102346 -73.15287 -0.15945177 -88.646935
9202625000 -0.86695683 123.36262 -9.2115955 -72.722046 -9.2110405 -73.106918 -0.16801056 -88.614944
9202687500 -0.86652499 123.37327 -9.2093687 -72.669106 -9.2040005 -73.073921 -0.1651662 -88.557655
9202750000 -0.86774254 123.31463 -9.2107773 -72.677994 -9.204587 -73.106621 -0.16714552 -88.510506
9202812500 -0.86375284 123.29127 -9.2039671 -72.720802 -9.2089243 -73.058296 -0.1620561 -88.47863
9202875000 -0.8640992 123.266 -9.2069874 -72.773529 -9.2003126 -73.086311 -0.16199285 -88.510971
9202937500 -0.86167419 123.23863 -9.1960487 -72.714066 -9.2041969 -73.059372 -0.16010383 -88.462166
9203000000 -0.86288631 123.28387 -9.2010393 -72.688309 -9.1997232 -73.105209 -0.15758832 -88.47126
9203062500 -0.87076175 123.24503 -9.2075996 -72.712524 -9.1984949 -73.107834 -0.1562295 -88.479004
9203125000 -0.86184943 123.22145 -9.196372 -72.704063 -9.1999569 -73.069649 -0.16202956 -88.416817
9203187500 -0.86403871 123.20998 -9.2041235 -72.715149 -9.1977386 -73.083916 -0.15886764 -88.402985
9203250000 -0.87073642 123.19285 -9.2099075 -72.721603 -9.1975327 -73.079903 -0.15572231 -88.394516
9203312500 -0.86812794 123.21316 -9.1970186 -72.67778 -9.1989965 -73.057129 -0.1558398 -88.372437
9203375000 -0.86310416 123.20999 -9.1968412 -72.628433 -9.1884756 -73.01696 -0.15194994 -88.343864
9203437500 -0.8693915 123.17018 -9.2013998 -72.673805 -9.197793 -73.107002 -0.15708387 -88.335403
9203500000 -0.86122537 123.18496 -9.1938419 -72.673149 -9.1965981 -73.075882 -0.15896413 -88.303246
9203562500 -0.86468947 123.13211 -9.2085056 -72.734863 -9.1915798 -73.084526 -0.16107856 -88.294319
9203625000 -0.86480683 123.14227 -9.1963148 -72.70105 -9.2019463 -73.068649 -0.16392851 -88.266418
9203687500 -0.8655327 123.1123 -9.1956091 -72.731964 -9.1991377 -73.124077 -0.16198593 -88.268173
9203750000 -0.86502504 123.10754 -9.1999311 -72.672302 -9.2038975 -73.076233 -0.16773586 -88.219933
9203812500 -0.86684054 123.08706 -9.1955633 -72.681961 -9.1917591 -73.06517 -0.16683148 -88.236862
9203875000 -0.86522436 123.04246 -9.2009611 -72.650345 -9.1916142 -73.014793 -0.17256905 -88.198647
9203937500 -0.86269337 123.04771 -9.1939592 -72.699768 -9.196209 -73.106224 -0.17115203 -88.18869
9204000000 -0.86132467 123.03067 -9.1968498 -72.711136 -9.1900187 -72.99955 -0.17127216 -88.164871
9204062500 -0.86120862 123.02708 -9.205409 -72.681412 -9.1938496 -72.983612 -0.17880252 -88.119461
9204125000 -0.86432254 122.99905 -9.2014675 -72.676506 -9.1762495 -73.058395 -0.1648463 -88.168594
9204187500 -0.85887671 123.01754 -9.2068653 -72.676178 -9.1892166 -73.064705 -0.1727224 -88.108391
9204250000 -0.86193061 122.98265 -9.1904688 -72.718048 -9.1876822 -73.059212 -0.1753345 -88.106133
9204312500 -0.85879886 122.94559 -9.2048712 -72.667496 -9.1922426 -73.029694 -0.17565998 -88.052666
9204375000 -0.85812277 122.94423 -9.1950884 -72.694504 -9.1785126 -73.038147 -0.16539207 -88.059425
9204437500 -0.85970587 122.94182 -9.1913967 -72.633575 -9.178504 -73.045982 -0.16370822 -88.053619
9204500000 -0.85759044 122.95763 -9.1887732 -72.581749 -9.184638 -73.048058 -0.16065891 -88.021561
9204562500 -0.85763955 122.8767 -9.1831789 -72.632675 -9.1813116 -73.047272 -0.1569654 -87.999542
9204625000 -0.85739738 122.8836 -9.1881237 -72.650024 -9.1903992 -73.019997 -0.16281992 -87.964882
9204687500 -0.86350662 122.8824 -9.1931581 -72.688736 -9.183219 -73.036812 -0.1666459 -87.989204
9204750000 -0.85758042 122.88745 -9.1809731 -72.620659 -9.1776667 -72.990051 -0.16135931 -87.959854
9204812500 -0.86086506 122.89289 -9.1863565 -72.582253 -9.1895761 -73.032166 -0.16467319 -87.934494
9204875000 -0.86121756 122.87713 -9.1937952 -72.603111 -9.1756897 -73.024261 -0.16646525 -87.948143
9204937500 -0.86353475 122.84485 -9.1883965 -72.601563 -9.1737022 -73.038086 -0.16008087 -87.940056
9205000000 -0.86452401 122.8471 -9.1890993 -72.596848 -9.1701937 -72.977676 -0.16352622 -87.882942
9205062500 -0.86371827 122.83534 -9.182313 -72.575638 -9.1808453 -73.015244 -0.16564098 -87.843758
9205125000 -0.86555266 122.79059 -9.1843262 -72.581467 -9.1801844 -73.091858 -0.16618659 -87.843781
9205187500 -0.86768907 122.79202 -9.1768904 -72.582771 -9.1792116 -73.023186 -0.16125037 -87.853058
9205250000 -0.86566311 122.74358 -9.1791878 -72.620819 -9.1751299 -73.040176 -0.1623832 -87.842606
9205312500 -0.87007266 122.71047 -9.1867123 -72.572403 -9.1853266 -73.08622 -0.1679175 -87.840202
9205375000 -0.86821413 122.68832 -9.1794453 -72.602219 -9.1875935 -73.040855 -0.16504613 -87.790085
9205437500 -0.87169796 122.70586 -9.1819468 -72.569611 -9.1827478 -73.037552 -0.16106866 -87.792679
9205500000 -0.86461467 122.65844 -9.1757402 -72.614143 -9.1873236 -72.975113 -0.16802131 -87.785149
9205562500 -0.87138635 122.70455 -9.1747036 -72.597054 -9.1809864 -73.036736 -0.16155525 -87.783745
9205625000 -0.86120856 122.67906 -9.1759491 -72.615341 -9.1895313 -73.033791 -0.17195456 -87.757957
9205687500 -0.86661285 122.67567 -9.1770706 -72.629265 -9.1873083 -73.038284 -0.16804369 -87.769562
9205750000 -0.86401826 122.63173 -9.1733751 -72.666756 -9.1803656 -72.997452 -0.16782689 -87.68782
9205812500 -0.86444497 122.6427 -9.1870432 -72.652412 -9.1804485 -72.958862 -0.17052758 -87.643082
9205875000 -0.86441523 122.6535 -9.1831465 -72.566048 -9.1727972 -72.964821 -0.16789982 -87.656288
9205937500 -0.86630958 122.63765 -9.1861515 -72.574104 -9.1859293 -72.999069 -0.17558178 -87.636719
9206000000 -0.86021793 122.6301 -9.1783257 -72.598534 -9.1823997 -73.018478 -0.17392182 -87.614784
9206062500 -0.86631715 122.61674 -9.182477 -72.566628 -9.1828451 -72.932976 -0.17197271 -87.588036
9206125000 -0.86525846 122.58108 -9.1840982 -72.615219 -9.1773672 -72.989899 -0.17117982 -87.601875
9206187500 -0.86718667 122.61366 -9.1794224 -72.558189 -9.1712055 -72.972466 -0.16911751 -87.551659
9206250000 -0.86123419 122.55828 -9.1733665 -72.562233 -9.1782026 -72.974731 -0.16769665 -87.546349
9206312500 -0.85791981 122.58961 -9.1704378 -72.558617 -9.170085 -73.014587 -0.16689284 -87.548653
9206375000 -0.86098629 122.55505 -9.1713686 -72.535095 -9.1680298 -73.026627 -0.1667617 -87.460289
9206437500 -0.86671412 122.53167 -9.1655579 -72.580727 -9.1677942 -73.035866 -0.16394109 -87.506561
9206500000 -0.86031163 122.55825 -9.1658773 -72.58017 -9.1657591 -73.07428 -0.16752446 -87.518608
9206562500 -0.86156648 122.55208 -9.1685419 -72.58136 -9.1636591 -73.018326 -0.16205354 -87.483498
9206625000 -0.8663767 122.47836 -9.1697206 -72.530823 -9.1585636 -72.967766 -0.15834568 -87.422432
9206687500 -0.86627537 122.47523 -9.1523428 -72.548866 -9.155632 -73.005913 -0.15895256 -87.440422
9206750000 -0.86451077 122.49286 -9.1571741 -72.529663 -9.1552382 -73.016769 -0.15844697 -87.372795
9206812500 -0.86780471 122.45717 -9.1530457 -72.490021 -9.1550331 -72.964577 -0.15897803 -87.357895
9206875000 -0.86752051 122.42522 -9.1571379 -72.494041 -9.1575499 -72.954262 -0.16361938 -87.316376
9206937500 -0.86609381 122.4246 -9.1584826 -72.521286 -9.1530294 -72.999481 -0.16077562 -87.346085
9207000000 -0.86431974 122.38967 -9.164938 -72.591919 -9.1575022 -72.951073 -0.16346842 -87.300011
9207062500 -0.86674953 122.36384 -9.1616945 -72.576851 -9.1576281 -72.968475 -0.17247626 -87.290108
9207125000 -0.86177146 122.37318 -9.1535788 -72.567459 -9.1690683 -72.920654 -0.17034148 -87.292297
9207187500 -0.86137855 122.31979 -9.1741066 -72.586998 -9.1579666 -72.973526 -0.16817056 -87.278496
9207250000 -0.85934931 122.30899 -9.1671295 -72.607903 -9.1666412 -72.906013 -0.17223644 -87.240997
9207312500 -0.85981125 122.30121 -9.1640902 -72.640602 -9.1627264 -72.987167 -0.1730758 -87.257584
9207375000 -0.85648328 122.24244 -9.1573896 -72.598083 -9.1590462 -72.929321 -0.17276762 -87.240608
9207437500 -0.86249483 122.26665 -9.1632223 -72.577255 -9.1612988 -72.950775 -0.18281125 -87.232338
9207500000 -0.86869681 122.21223 -9.1506577 -72.54213 -9.1571865 -72.93943 -0.17296953 -87.197662
9207562500 -0.86807752 122.21308 -9.1584635 -72.599899 -9.1526585 -72.891792 -0.17118621 -87.176796
9207625000 -0.86700445 122.19848 -9.163002 -72.575668 -9.1521959 -72.95858 -0.1718681 -87.184708
9207687500 -0.86468261 122.15405 -9.1500492 -72.605415 -9.1493587 -73.005493 -0.16392294 -87.192696
9207750000 -0.86544764 122.19592 -9.1577921 -72.566307 -9.1461344 -72.952713 -0.15779927 -87.179993
9207812500 -0.87060815 122.16508 -9.15697 -72.605171 -9.1560831 -73.023666 -0.15940675 -87.176613
9207875000 -0.86951828 122.18631 -9.1527863 -72.539497 -9.1520004 -72.995895 -0.15963335 -87.101021
9207937500 -0.8707518 122.13062 -9.1584282 -72.560799 -9.1495457 -72.996933 -0.16024458 -87.094879
9208000000 -0.86831522 122.19984 -9.1506186 -72.488579 -9.148736 -72.955109 -0.16175047 -87.025986
9208062500 -0.87108189 122.16846 -9.1659822 -72.562836 -9.1528788 -73.032593 -0.1671285 -87.044518
9208125000 -0.86967111 122.16352 -9.1518879 -72.476089 -9.1453133 -72.995682 -0.16400449 -87.020096
9208187500 -0.87242508 122.17994 -9.1578808 -72.485703 -9.1508017 -72.908524 -0.17318892 -86.977745
9208250000 -0.86420101 122.14105 -9.1448431 -72.516296 -9.1575203 -72.846916 -0.16721712 -86.945282
9208312500 -0.86390334 122.14287 -9.1579571 -72.554146 -9.1513138 -72.914726 -0.17698027 -86.943047
9208375000 -0.8693257 122.12562 -9.1614428 -72.508377 -9.1569805 -72.93132 -0.18521766 -86.945435
9208437500 -0.86685562 122.08358 -9.147872 -72.495804 -9.1442451 -72.900276 -0.18118316 -86.894791
9208500000 -0.86299324 122.0359 -9.1492977 -72.583191 -9.1465654 -72.894531 -0.17483196 -86.883087
9208562500 -0.86784148 122.042 -9.1457615 -72.433678 -9.145175 -72.918648 -0.17338808 -86.87825
9208625000 -0.86983979 121.98658 -9.1406956 -72.57267 -9.1402292 -72.949707 -0.17319854 -86.91394
9208687500 -0.86283547 121.96826 -9.1404104 -72.601807 -9.1383667 -72.874031 -0.16592516 -86.864914
9208750000 -0.86362493 121.97021 -9.1435394 -72.531525 -9.1408796 -72.946915 -0.16721009 -86.871353
9208812500 -0.86764604 121.96049 -9.1582432 -72.570564 -9.1466312 -72.90287 -0.17720501 -86.82914
9208875000 -0.86520773 121.97162 -9.1405592 -72.544144 -9.1474781 -72.929527 -0.17306687 -86.867889
9208937500 -0.86992121 121.98727 -9.1504059 -72.544075 -9.1406851 -72.912773 -0.16903049 -86.807793
9209000000 -0.86944568 122.0133 -9.1443129 -72.480164 -9.1468792 -72.873047 -0.17241132 -86.82972
9209062500 -0.8665396 122.00505 -9.1490726 -72.496254 -9.144495 -72.913025 -0.17201871 -86.808281
9209125000 -0.8664121 122.00468 -9.1486988 -72.506889 -9.1518145 -72.91687 -0.18063137 -86.776016
9209187500 -0.86657953 122.0043 -9.1405163 -72.47924 -9.1402102 -72.922874 -0.17160037 -86.770287
9209250000 -0.86846882 121.96214 -9.1436052 -72.512932 -9.1396103 -72.847656 -0.16654685 -86.682579
9209312500 -0.86193955 121.91331 -9.1356421 -72.517479 -9.1354284 -72.866707 -0.17202874 -86.71286
9209375000 -0.86522853 121.89288 -9.130518 -72.492294 -9.1381102 -72.882202 -0.17428011 -86.695274
9209437500 -0.86008215 121.87634 -9.1328773 -72.511337 -9.1434412 -72.882378 -0.17215413 -86.624084
9209500000 -0.86723208 121.8812 -9.1410933 -72.511604 -9.1413136 -72.882774 -0.17479253 -86.587173
9209562500 -0.86856848 121.83849 -9.1397982 -72.507332 -9.1379251 -72.830788 -0.17717567 -86.601654
9209625000 -0.87292051 121.83812 -9.1434498 -72.56942 -9.1411514 -72.883308 -0.17484649 -86.596428
9209687500 -0.86812073 121.84016 -9.1369619 -72.510452 -9.1319456 -72.866623 -0.16813301 -86.572739
9209750000 -0.8699826 121.79476 -9.1439495 -72.514648 -9.1350937 -72.854408 -0.16657408 -86.544296
9209812500 -0.87183577 121.78947 -9.1300917 -72.57547 -9.1354866 -72.922737 -0.17675164 -86.583061
9209875000 -0.87103564 121.79681 -9.1436968 -72.584694 -9.126133 -72.919777 -0.16068289 -86.535507
9209937500 -0.87018883 121.75374 -9.1285172 -72.569763 -9.1323957 -72.868988 -0.1641556 -86.499435
9210000000 -0.87006485 121.76144 -9.1382761 -72.508308 -9.1303596 -72.882278 -0.16394334 -86.466728
9210062500 -0.86771244 121.74448 -9.1350918 -72.549171 -9.1284866 -72.828392 -0.16075853 -86.427811
9210125000 -0.86762631 121.74937 -9.12745 -72.527596 -9.1255751 -72.87014 -0.16013461 -86.475937
9210187500 -0.86221933 121.67812 -9.1257467 -72.520454 -9.1226568 -72.846191 -0.15891957 -86.438118
9210250000 -0.86345261 121.71326 -9.1357498 -72.457855 -9.1286354 -72.829109 -0.16612495 -86.420082
9210312500 -0.85981858 121.70869 -9.1285191 -72.535667 -9.1318741 -72.824425 -0.17456809 -86.429771
9210375000 -0.85957652 121.64989 -9.129858 -72.530815 -9.1275597 -72.854195 -0.16678406 -86.410919
9210437500 -0.85922867 121.63735 -9.1268206 -72.478722 -9.1360846 -72.790718 -0.17908053 -86.334564
9210500000 -0.86290032 121.65818 -9.1261091 -72.465744 -9.1217031 -72.865059 -0.17851876 -86.369804
9210562500 -0.86375988 121.64375 -9.1369114 -72.531853 -9.1285477 -72.811798 -0.18238142 -86.325775
9210625000 -0.85966665 121.60386 -9.134984 -72.462692 -9.1313667 -72.808189 -0.18141773 -86.295753
9210687500 -0.85572428 121.60262 -9.1272573 -72.493217 -9.1285858 -72.846909 -0.18286358 -86.296127
9210750000 -0.86157233 121.53786 -9.1350269 -72.492668 -9.1287909 -72.84935 -0.18279153 -86.277603
9210812500 -0.86365837 121.49027 -9.1260147 -72.470497 -9.1218138 -72.841911 -0.17846084 -86.246941
9210875000 -0.85705042 121.51732 -9.128953 -72.429932 -9.129406 -72.866287 -0.18791072 -86.236053
9210937500 -0.86502743 121.49551 -9.1287508 -72.452301 -9.1218777 -72.781189 -0.1834884 -86.184174
9211000000 -0.86535174 121.49005 -9.1353712 -72.474068 -9.1202078 -72.894417 -0.18287234 -86.265831
9211062500 -0.86509925 121.50539 -9.1254053 -72.434837 -9.1250114 -72.85154 -0.17966864 -86.186356
9211125000 -0.86360234 121.50468 -9.122632 -72.427101 -9.1247196 -72.860855 -0.1810329 -86.223778
9211187500 -0.87060958 121.50723 -9.1296339 -72.503555 -9.1178722 -72.89814 -0.17355381 -86.233971
9211250000 -0.87672555 121.48784 -9.1327171 -72.50853 -9.1196165 -72.882317 -0.18280341 -86.23378
9211312500 -0.87234777 121.4847 -9.1224241 -72.508995 -9.1134863 -72.924408 -0.16863678 -86.245636
9211375000 -0.87218159 121.50289 -9.1225643 -72.445587 -9.1225882 -72.894333 -0.16949177 -86.147377
9211437500 -0.87191361 121.46568 -9.1180592 -72.501717 -9.1138659 -72.840073 -0.16995165 -86.102547
9211500000 -0.8643713 121.46471 -9.1123056 -72.465569 -9.1218262 -72.876968 -0.16774015 -86.095863
9211562500 -0.87386662 121.42456 -9.1165104 -72.453934 -9.1209993 -72.816521 -0.17580028 -86.070869
9211625000 -0.87036753 121.41585 -9.1181965 -72.389923 -9.1236763 -72.826591 -0.17988889 -86.062286
9211687500 -0.86964077 121.38271 -9.1145487 -72.47496 -9.1145868 -72.798019 -0.17980158 -86.006844
9211750000 -0.86654699 121.36575 -9.1280203 -72.435593 -9.1176119 -72.790169 -0.18200192 -86.053551
9211812500 -0.8682614 121.36622 -9.1261835 -72.418373 -9.1118269 -72.814774 -0.18246087 -86.014229
9211875000 -0.87047702 121.31327 -9.1110191 -72.443245 -9.1184664 -72.764519 -0.17095242 -85.919403
9211937500 -0.87583542 121.3174 -9.1183128 -72.451546 -9.1208229 -72.810623 -0.18272214 -85.936951
9212000000 -0.87499863 121.27817 -9.1147871 -72.481628 -9.1042061 -72.779099 -0.17878905 -85.886444
9212062500 -0.87390369 121.27453 -9.1175594 -72.490448 -9.1133661 -72.816826 -0.18250959 -85.885345
9212125000 -0.87993342 121.21774 -9.1108723 -72.538071 -9.1070995 -72.78289 -0.18235579 -85.852898
9212187500 -0.87868536 121.23511 -9.1156483 -72.493935 -9.1098442 -72.801186 -0.17203036 -85.821693
