!Agilent Technologies,N5242A,MY51221714,A.09.90.19
!Agilent N5242A: A.09.90.19
!Date: Saturday, March 16, 2024 08:43:19
!Correction: S11(Full 2 Port(1,2)) 
!S21(Full 2 Port(1,2)) 
!S12(Full 2 Port(1,2)) 
!S22(Full 2 Port(1,2)) 
!S2P File: Measurements: S11, S21, S12, S22:
# Hz S  dB   R 50
9200000000 -0.87788045 123.8457 -9.1617117 -72.949356 -9.1585932 -73.324135 -0.17475922 -89.35862
9200062500 -0.88079953 123.84019 -9.164197 -72.909081 -9.1632318 -73.332909 -0.17907664 -89.325127
9200125000 -0.87923861 123.80544 -9.1653919 -72.957657 -9.1537113 -73.347 -0.17300497 -89.358597
9200187500 -0.87831312 123.82024 -9.1644106 -72.921478 -9.1560793 -73.301437 -0.17555562 -89.317139
9200250000 -0.87592608 123.81323 -9.1570063 -72.897545 -9.1646128 -73.343643 -0.1802908 -89.307884
9200312500 -0.87249172 123.74733 -9.1537189 -72.988174 -9.1542454 -73.369316 -0.17591186 -89.36953
9200375000 -0.87619489 123.77905 -9.1538515 -72.88662 -9.1539488 -73.345009 -0.17875585 -89.301003
9200437500 -0.87293351 123.73996 -9.1591187 -72.923096 -9.1440258 -73.33638 -0.17444529 -89.258896
9200500000 -0.87336594 123.78489 -9.1611004 -72.909332 -9.1417494 -73.401726 -0.17921285 -89.294365
9200562500 -0.87861347 123.74221 -9.1595383 -72.902336 -9.1471205 -73.30867 -0.18077892 -89.194588
9200625000 -0.87594664 123.69987 -9.1538401 -72.920616 -9.1359348 -73.314827 -0.17727351 -89.202293
9200687500 -0.87494129 123.67098 -9.1591663 -72.899048 -9.1426611 -73.334694 -0.18590164 -89.158928
9200750000 -0.87139213 123.67627 -9.1571236 -72.848816 -9.1448069 -73.303719 -0.18364 -89.107048
9200812500 -0.88201934 123.67335 -9.1655684 -72.827347 -9.1465559 -73.260513 -0.19162622 -89.092888
9200875000 -0.87747127 123.65668 -9.1463099 -72.897499 -9.1425285 -73.288933 -0.18430993 -89.09874
9200937500 -0.87535203 123.68919 -9.1552305 -72.806755 -9.1482677 -73.319366 -0.1966241 -89.069382
9201000000 -0.87695295 123.63181 -9.1567192 -72.882545 -9.1411591 -73.292709 -0.18732591 -89.051506
9201062500 -0.87906247 123.613 -9.1528082 -72.875404 -9.1419554 -73.314674 -0.19118015 -89.046288
9201125000 -0.87149531 123.61288 -9.1396017 -72.867447 -9.1536951 -73.289833 -0.18780541 -89.013329
9201187500 -0.87143236 123.59073 -9.1455164 -72.906982 -9.1555691 -73.302696 -0.18348908 -89.007133
9201250000 -0.87183607 123.58214 -9.1449747 -72.89151 -9.1378841 -73.314072 -0.17988136 -88.989548
9201312500 -0.87409592 123.55124 -9.1527004 -72.915062 -9.1496534 -73.297783 -0.18151301 -89.003525
9201375000 -0.87979162 123.54443 -9.1565294 -72.942886 -9.1445723 -73.311707 -0.185931 -89.00106
9201437500 -0.87944883 123.52981 -9.1518936 -72.924049 -9.1354923 -73.309525 -0.17832282 -89.019943
9201500000 -0.8824721 123.51795 -9.1520214 -72.908539 -9.1428232 -73.249847 -0.18169351 -88.925819
9201562500 -0.87711018 123.50014 -9.1442289 -72.871246 -9.1372852 -73.260033 -0.17991853 -88.937553
9201625000 -0.87665796 123.49306 -9.1466217 -72.915306 -9.1440067 -73.245193 -0.18155311 -88.933746
9201687500 -0.88006353 123.51367 -9.152216 -72.863266 -9.1448898 -73.286125 -0.18679832 -88.922577
9201750000 -0.87883753 123.46038 -9.151433 -72.873558 -9.1400213 -73.249496 -0.18253908 -88.889977
9201812500 -0.87611413 123.44766 -9.1518087 -72.857651 -9.1403809 -73.243332 -0.1920512 -88.878464
9201875000 -0.87578124 123.43305 -9.1508121 -72.886047 -9.1387796 -73.314316 -0.18591501 -88.877213
9201937500 -0.87577766 123.45004 -9.1474762 -72.882767 -9.1324816 -73.308807 -0.18614991 -88.842491
9202000000 -0.87181062 123.37437 -9.1331549 -72.894821 -9.1309471 -73.261642 -0.18668117 -88.784386
9202062500 -0.87170196 123.37147 -9.1421881 -72.858337 -9.136632 -73.245117 -0.18362749 -88.754242
9202125000 -0.87386459 123.37416 -9.1417074 -72.893944 -9.136055 -73.260124 -0.18537603 -88.770172
9202187500 -0.87389559 123.3958 -9.1310043 -72.790749 -9.1370249 -73.301521 -0.18752128 -88.779427
9202250000 -0.87464035 123.34012 -9.133419 -72.850708 -9.1328745 -73.289169 -0.18161272 -88.670479
9202312500 -0.8757509 123.33414 -9.1349964 -72.873596 -9.1370602 -73.292282 -0.18182123 -88.756096
9202375000 -0.87637919 123.34052 -9.1330099 -72.8909 -9.1380119 -73.305229 -0.18825312 -88.762184
9202437500 -0.87884367 123.27874 -9.1301966 -72.877441 -9.1269979 -73.296982 -0.18398888 -88.727303
9202500000 -0.88075435 123.28978 -9.1377029 -72.895821 -9.1348495 -73.233681 -0.19172175 -88.656967
9202562500 -0.87648714 123.2866 -9.1307259 -72.933167 -9.1386118 -73.321388 -0.19120859 -88.667244
9202625000 -0.88366753 123.27079 -9.1370964 -72.863411 -9.1328239 -73.231514 -0.19134736 -88.617744
9202687500 -0.88218153 123.26066 -9.1389179 -72.864189 -9.131299 -73.265312 -0.19842651 -88.585739
9202750000 -0.87764686 123.24079 -9.1431847 -72.89592 -9.1337337 -73.230888 -0.20308316 -88.540344
9202812500 -0.8768599 123.24454 -9.1360016 -72.883636 -9.1294641 -73.216858 -0.18977205 -88.546936
9202875000 -0.87508392 123.23764 -9.1306753 -72.828171 -9.1248903 -73.235909 -0.19195569 -88.50444
9202937500 -0.87949508 123.18252 -9.1374588 -72.862083 -9.1313028 -73.239738 -0.19033597 -88.510681
9203000000 -0.87996852 123.16173 -9.130497 -72.91523 -9.1248608 -73.252426 -0.18551128 -88.509262
9203062500 -0.87703043 123.1177 -9.1409922 -72.913445 -9.1308279 -73.262436 -0.19653448 -88.502647
9203125000 -0.87812787 123.14445 -9.1284389 -72.813286 -9.1277924 -73.240921 -0.18793176 -88.476006
9203187500 -0.87391758 123.12166 -9.1262217 -72.900444 -9.1252575 -73.217911 -0.18993147 -88.453598
9203250000 -0.88152707 123.11241 -9.1352692 -72.91407 -9.1283798 -73.266823 -0.193359 -88.429283
9203312500 -0.87972969 123.11584 -9.1270781 -72.916878 -9.1119299 -73.244301 -0.180767 -88.439896
9203375000 -0.87899512 123.12972 -9.1288929 -72.846893 -9.1265764 -73.204002 -0.18981148 -88.355362
9203437500 -0.87560815 123.08236 -9.1288319 -72.897751 -9.123415 -73.308403 -0.19005182 -88.400993
9203500000 -0.87348109 123.07581 -9.1332226 -72.862282 -9.1289787 -73.27327 -0.19126986 -88.335129
9203562500 -0.87681085 123.06261 -9.1281662 -72.865631 -9.1275997 -73.260292 -0.19655384 -88.313232
9203625000 -0.87523335 123.02858 -9.1303606 -72.846123 -9.129262 -73.250397 -0.19197893 -88.324959
9203687500 -0.87969393 123.03321 -9.1226721 -72.896736 -9.1198292 -73.270836 -0.19480935 -88.317146
9203750000 -0.87954104 123.03128 -9.1285305 -72.878136 -9.1191864 -73.193741 -0.19825594 -88.255402
9203812500 -0.87649989 122.99174 -9.1227522 -72.818604 -9.1250525 -73.28241 -0.19857772 -88.286934
9203875000 -0.8718248 122.94469 -9.1223574 -72.863037 -9.1274452 -73.206772 -0.19736908 -88.235931
9203937500 -0.87702477 122.98961 -9.1327887 -72.839836 -9.1145544 -73.173164 -0.19339082 -88.21286
9204000000 -0.87680066 122.94883 -9.1293335 -72.834312 -9.1138754 -73.183006 -0.20335898 -88.197571
9204062500 -0.87662286 122.95965 -9.132247 -72.805519 -9.1113634 -73.196808 -0.19910713 -88.19384
9204125000 -0.87091935 122.88512 -9.1188889 -72.868637 -9.113039 -73.222916 -0.20211035 -88.184952
9204187500 -0.87531281 122.91107 -9.1323681 -72.834084 -9.1120472 -73.222847 -0.20553313 -88.159805
9204250000 -0.86709344 122.92252 -9.126956 -72.762405 -9.1110277 -73.197975 -0.20413883 -88.129242
9204312500 -0.8675223 122.89659 -9.1203165 -72.827217 -9.1097517 -73.178833 -0.20344244 -88.12056
9204375000 -0.87075907 122.88501 -9.128624 -72.77861 -9.1136198 -73.188766 -0.19497901 -88.09494
9204437500 -0.8724736 122.84347 -9.1281939 -72.810989 -9.1160278 -73.232224 -0.19556782 -88.095505
9204500000 -0.86835188 122.82408 -9.1218376 -72.806061 -9.1062155 -73.156952 -0.19387256 -88.079178
9204562500 -0.87140709 122.79079 -9.1214809 -72.785706 -9.1068106 -73.136032 -0.19509549 -88.042793
9204625000 -0.86731547 122.8194 -9.1226597 -72.773163 -9.1175909 -73.185524 -0.19728434 -87.987915
9204687500 -0.86952716 122.82484 -9.1178694 -72.773888 -9.1152401 -73.215843 -0.19521835 -88.000092
9204750000 -0.86981726 122.82557 -9.1168747 -72.714943 -9.1074314 -73.228294 -0.18981612 -88.012962
9204812500 -0.87012285 122.78371 -9.1097889 -72.808578 -9.1077223 -73.198715 -0.19438602 -88.004997
9204875000 -0.87096024 122.83374 -9.1109781 -72.759285 -9.1026783 -73.218468 -0.1978465 -87.988892
9204937500 -0.87101358 122.77586 -9.1093674 -72.748711 -9.1085815 -73.189148 -0.20000292 -87.932465
9205000000 -0.87532842 122.80709 -9.1137667 -72.745224 -9.1043148 -73.211632 -0.19800162 -87.964226
9205062500 -0.87320101 122.74284 -9.1069155 -72.789864 -9.1053047 -73.189461 -0.19963007 -87.950523
9205125000 -0.8779366 122.74637 -9.1141005 -72.69368 -9.1007957 -73.203079 -0.19315664 -87.910652
9205187500 -0.87714279 122.69614 -9.1125479 -72.756538 -9.1065264 -73.190498 -0.19379114 -87.894501
9205250000 -0.88160133 122.68333 -9.1097374 -72.754807 -9.1113815 -73.214394 -0.19531894 -87.871872
9205312500 -0.8746869 122.64603 -9.102375 -72.750175 -9.1047335 -73.213478 -0.19597486 -87.882233
9205375000 -0.88550174 122.65257 -9.1057215 -72.770493 -9.0965939 -73.220734 -0.1859239 -87.845932
9205437500 -0.87757385 122.61301 -9.1107521 -72.741753 -9.1126099 -73.269341 -0.19871813 -87.842812
9205500000 -0.87592524 122.6018 -9.1045341 -72.762993 -9.1063519 -73.197906 -0.19236529 -87.82093
9205562500 -0.8799687 122.57213 -9.1088114 -72.778976 -9.1049442 -73.172096 -0.19863334 -87.778244
9205625000 -0.8716073 122.56638 -9.1031609 -72.801262 -9.1002102 -73.191925 -0.19625483 -87.764534
9205687500 -0.87690234 122.59952 -9.1108303 -72.756668 -9.1054878 -73.188728 -0.19307095 -87.759537
9205750000 -0.87843645 122.56039 -9.1059713 -72.800461 -9.1036463 -73.165123 -0.19414678 -87.712563
9205812500 -0.87382668 122.54833 -9.0966206 -72.727036 -9.1152201 -73.179245 -0.19988443 -87.770058
9205875000 -0.87323505 122.56217 -9.0976963 -72.719727 -9.1079769 -73.166771 -0.2017739 -87.718849
9205937500 -0.87827915 122.53 -9.1133366 -72.762802 -9.1093683 -73.208298 -0.20776524 -87.709557
9206000000 -0.87335992 122.55154 -9.1079893 -72.745972 -9.100915 -73.153809 -0.1975749 -87.658989
9206062500 -0.87504894 122.53798 -9.109726 -72.73629 -9.1032486 -73.152336 -0.20318021 -87.626198
9206125000 -0.8700844 122.52899 -9.0951424 -72.711746 -9.1054678 -73.162216 -0.20531121 -87.608376
9206187500 -0.86962098 122.49868 -9.1045437 -72.754227 -9.1055994 -73.091621 -0.20038211 -87.580322
9206250000 -0.87819612 122.48995 -9.1125031 -72.711945 -9.0981951 -73.139763 -0.19617204 -87.583679
9206312500 -0.86825991 122.4734 -9.0888481 -72.743462 -9.0967245 -73.17205 -0.19697475 -87.54052
9206375000 -0.87584406 122.46391 -9.1024237 -72.795898 -9.0947704 -73.199127 -0.20504774 -87.564484
9206437500 -0.87500572 122.46723 -9.1060762 -72.748451 -9.0877991 -73.182648 -0.19093436 -87.545471
9206500000 -0.86555898 122.48475 -9.0961342 -72.703987 -9.0929003 -73.165016 -0.19527295 -87.495529
9206562500 -0.87332791 122.44328 -9.0908451 -72.69104 -9.0879402 -73.195396 -0.18729042 -87.502693
9206625000 -0.88041496 122.43815 -9.0869865 -72.677544 -9.0865889 -73.175507 -0.19246683 -87.448868
9206687500 -0.87875581 122.40747 -9.0921326 -72.70446 -9.0801649 -73.172455 -0.18949232 -87.457825
9206750000 -0.88238508 122.37604 -9.0953684 -72.716705 -9.0862513 -73.171906 -0.19323911 -87.418335
9206812500 -0.87858158 122.35236 -9.0880165 -72.727646 -9.0897322 -73.114349 -0.19009863 -87.396217
9206875000 -0.88039857 122.34668 -9.0881414 -72.678322 -9.0721102 -73.177422 -0.18281646 -87.400993
9206937500 -0.87774491 122.32288 -9.0849781 -72.730438 -9.0844736 -73.135704 -0.18778116 -87.398102
9207000000 -0.87221366 122.3158 -9.0838737 -72.7658 -9.0928555 -73.189003 -0.19783778 -87.351486
9207062500 -0.874834 122.27813 -9.0934258 -72.74733 -9.0859728 -73.129929 -0.19810542 -87.307899
9207125000 -0.87397325 122.28268 -9.0950098 -72.740479 -9.0910263 -73.136169 -0.20152293 -87.287796
9207187500 -0.86723685 122.23525 -9.0866508 -72.675179 -9.0905209 -73.074516 -0.20616557 -87.266647
9207250000 -0.86684585 122.26404 -9.0963087 -72.669846 -9.0854692 -73.097633 -0.20494159 -87.25222
9207312500 -0.87395841 122.21777 -9.0924587 -72.732018 -9.0805073 -73.138382 -0.20774831 -87.269638
9207375000 -0.87801087 122.18848 -9.0936909 -72.755127 -9.0866108 -73.15995 -0.20253862 -87.256989
9207437500 -0.87426764 122.17088 -9.0906801 -72.801918 -9.0878124 -73.104187 -0.20713121 -87.25853
9207500000 -0.8759352 122.13194 -9.0896559 -72.794342 -9.0839224 -73.12413 -0.20735116 -87.232719
9207562500 -0.87920409 122.11085 -9.0873613 -72.754341 -9.0815954 -73.092033 -0.20419958 -87.232147
9207625000 -0.87578553 122.0927 -9.0913429 -72.776543 -9.0780258 -73.132149 -0.20422894 -87.227898
9207687500 -0.87922895 122.10104 -9.0982065 -72.769592 -9.0741186 -73.178879 -0.19401602 -87.24971
9207750000 -0.87733155 122.13966 -9.084075 -72.686401 -9.0800104 -73.142471 -0.19854887 -87.156754
9207812500 -0.87821949 122.08786 -9.0814915 -72.802368 -9.0666647 -73.185936 -0.18828449 -87.211044
9207875000 -0.87919474 122.08286 -9.0827303 -72.76664 -9.0779982 -73.214714 -0.19479106 -87.175537
9207937500 -0.8865608 122.11002 -9.0811605 -72.719978 -9.0776196 -73.186974 -0.1936921 -87.11702
9208000000 -0.88613671 122.09001 -9.0836763 -72.715233 -9.0801039 -73.15007 -0.19226848 -87.103104
9208062500 -0.87781745 122.10672 -9.0821905 -72.697037 -9.0821991 -73.126114 -0.20038866 -87.060982
9208125000 -0.88484043 122.06374 -9.0832272 -72.712486 -9.0784893 -73.155533 -0.20276237 -87.036598
9208187500 -0.87754941 122.03211 -9.0786276 -72.715546 -9.0704479 -73.116188 -0.2002362 -87.030235
9208250000 -0.88139886 122.06609 -9.0855942 -72.655724 -9.0774832 -73.093529 -0.21063638 -86.987892
9208312500 -0.88161439 122.03141 -9.0795231 -72.723488 -9.0762177 -73.145142 -0.20542203 -87.016319
9208375000 -0.87728763 122.0226 -9.0797443 -72.693306 -9.0769701 -73.032524 -0.20431587 -86.960884
9208437500 -0.8824724 122.02859 -9.0853128 -72.649643 -9.0758476 -73.07415 -0.20811494 -86.9552
9208500000 -0.87708843 121.93279 -9.0803223 -72.741478 -9.0637217 -73.080742 -0.20089519 -86.928833
9208562500 -0.87426311 121.92199 -9.0751619 -72.739326 -9.0701904 -73.124161 -0.20152451 -86.955368
9208625000 -0.87815148 121.94434 -9.0770531 -72.717026 -9.0798683 -73.15728 -0.20839457 -86.923531
9208687500 -0.87651664 121.87666 -9.0741701 -72.719147 -9.0680437 -73.107796 -0.20192651 -86.926193
9208750000 -0.8785885 121.87239 -9.0720806 -72.7612 -9.075635 -73.070221 -0.20696244 -86.920151
9208812500 -0.87985814 121.88376 -9.0748672 -72.693542 -9.0780525 -73.131325 -0.2015596 -86.894394
9208875000 -0.87618101 121.89616 -9.069416 -72.681732 -9.0644417 -73.104118 -0.20346451 -86.898224
9208937500 -0.87379837 121.89399 -9.0739908 -72.712151 -9.075264 -73.087967 -0.20588879 -86.869972
9209000000 -0.88119173 121.91151 -9.0761719 -72.695435 -9.0658789 -73.102158 -0.20481911 -86.863518
9209062500 -0.88068891 121.92857 -9.0750084 -72.624504 -9.0687466 -73.081116 -0.20657773 -86.827446
9209125000 -0.87673718 121.90875 -9.0755205 -72.660019 -9.0740252 -73.073845 -0.20588431 -86.842522
9209187500 -0.87958777 121.89029 -9.0618391 -72.66993 -9.073719 -73.086594 -0.20425488 -86.791878
9209250000 -0.87469488 121.88609 -9.0579166 -72.634529 -9.0594263 -73.061882 -0.20077799 -86.750565
9209312500 -0.87737602 121.83933 -9.0630045 -72.6539 -9.0634279 -73.060326 -0.20930171 -86.757057
9209375000 -0.87894267 121.80163 -9.0700932 -72.674774 -9.0722494 -73.081993 -0.20412131 -86.742485
9209437500 -0.86909199 121.77612 -9.0615997 -72.692734 -9.0751734 -72.97686 -0.19975039 -86.660065
9209500000 -0.87294626 121.76015 -9.0551586 -72.737457 -9.0713644 -73.056351 -0.20151502 -86.700623
9209562500 -0.87503767 121.75375 -9.0561399 -72.663132 -9.0716944 -72.985931 -0.20131603 -86.639671
9209625000 -0.87966317 121.74963 -9.0599203 -72.754204 -9.0673113 -73.076035 -0.1993586 -86.619797
9209687500 -0.87678766 121.72951 -9.0601282 -72.703514 -9.0617304 -73.085487 -0.19692977 -86.626228
9209750000 -0.88215995 121.71836 -9.0676088 -72.706047 -9.0620613 -72.994141 -0.20259525 -86.55864
9209812500 -0.88026005 121.72958 -9.065424 -72.694992 -9.0581312 -73.087074 -0.20429188 -86.600632
9209875000 -0.88304037 121.70221 -9.065484 -72.69381 -9.0631676 -73.078552 -0.19949354 -86.551048
9209937500 -0.88017476 121.65904 -9.0601892 -72.725487 -9.0525064 -73.0392 -0.1905141 -86.528938
9210000000 -0.87923449 121.6823 -9.0627794 -72.68705 -9.056366 -73.065025 -0.2009877 -86.537727
9210062500 -0.87612611 121.63865 -9.0538769 -72.702599 -9.0577221 -73.021133 -0.20162804 -86.484505
9210125000 -0.87443388 121.65918 -9.0594187 -72.655235 -9.0560093 -73.014671 -0.1944921 -86.460297
9210187500 -0.87420696 121.6591 -9.0576105 -72.655075 -9.0542393 -73.023781 -0.20177177 -86.43985
9210250000 -0.87539071 121.62164 -9.0552635 -72.686768 -9.0587502 -73.011917 -0.19912596 -86.427193
9210312500 -0.87733138 121.596 -9.0600882 -72.653603 -9.0593805 -72.94239 -0.20391174 -86.390434
9210375000 -0.86879647 121.61365 -9.0509291 -72.613579 -9.0553474 -73.000717 -0.20444174 -86.420097
9210437500 -0.87541121 121.58971 -9.063242 -72.662109 -9.0572691 -73.030525 -0.21137384 -86.376961
9210500000 -0.86853594 121.5651 -9.0468988 -72.641464 -9.0669184 -72.998199 -0.21096517 -86.374199
9210562500 -0.87615925 121.54449 -9.053998 -72.653481 -9.0506582 -72.984421 -0.20928165 -86.378807
9210625000 -0.86987329 121.52071 -9.0611038 -72.66523 -9.058136 -72.99276 -0.22033614 -86.337288
9210687500 -0.87889141 121.48813 -9.0614452 -72.633957 -9.053443 -73.031471 -0.21847893 -86.318771
9210750000 -0.86805987 121.47559 -9.0557289 -72.653976 -9.0578518 -72.998589 -0.21707372 -86.31781
9210812500 -0.87604326 121.476 -9.0616121 -72.640137 -9.0538492 -73.025276 -0.21219453 -86.283997
9210875000 -0.87226784 121.45977 -9.0597496 -72.579216 -9.0483341 -73.029503 -0.21078497 -86.252998
9210937500 -0.87770957 121.40301 -9.0607061 -72.609734 -9.0520029 -73.066261 -0.21908952 -86.287033
9211000000 -0.87342989 121.43098 -9.0595932 -72.595947 -9.0495691 -73.058113 -0.21204226 -86.24572
9211062500 -0.87804651 121.39302 -9.0477409 -72.669891 -9.0446386 -73.077019 -0.20850542 -86.264313
9211125000 -0.87948763 121.43005 -9.0560694 -72.61039 -9.0499172 -73.037773 -0.20937766 -86.247139
9211187500 -0.88221514 121.4053 -9.0562973 -72.624458 -9.0576363 -73.043922 -0.21327162 -86.259392
9211250000 -0.88384956 121.42411 -9.0637712 -72.69342 -9.0555744 -73.022041 -0.2087438 -86.25325
9211312500 -0.88454694 121.39606 -9.0571642 -72.659554 -9.0532284 -73.073486 -0.20830153 -86.285492
9211375000 -0.88452941 121.41901 -9.0467529 -72.621117 -9.0474024 -73.08947 -0.20523065 -86.139816
9211437500 -0.87694925 121.36779 -9.044672 -72.661781 -9.0429554 -73.038506 -0.20497844 -86.145653
9211500000 -0.8816238 121.35989 -9.0489693 -72.659554 -9.0482731 -73.025322 -0.21132429 -86.159576
9211562500 -0.88330334 121.35343 -9.0517921 -72.660301 -9.0451126 -73.034439 -0.20863979 -86.124229
9211625000 -0.88142341 121.3398 -9.0498486 -72.590141 -9.0438538 -72.978638 -0.20649447 -86.098045
9211687500 -0.88318461 121.26982 -9.0470591 -72.645477 -9.0424242 -73.012054 -0.21299842 -86.071983
9211750000 -0.88079453 121.32002 -9.0459318 -72.543381 -9.0402746 -72.958984 -0.21421112 -86.014458
9211812500 -0.87872827 121.24463 -9.0384636 -72.636192 -9.0462751 -72.955292 -0.2200748 -86.034096
9211875000 -0.88124901 121.23037 -9.0419521 -72.605316 -9.0505314 -72.970589 -0.21756254 -85.992912
9211937500 -0.88360077 121.21268 -9.041316 -72.658295 -9.0534363 -72.980148 -0.21838573 -85.963104
9212000000 -0.8827455 121.19674 -9.0423107 -72.628189 -9.045476 -72.990227 -0.21774697 -85.940323
9212062500 -0.88399583 121.19092 -9.0385571 -72.56839 -9.0335808 -72.979439 -0.21154927 -85.897072
9212125000 -0.88156366 121.15491 -9.0365753 -72.546509 -9.0381393 -72.947144 -0.21292163 -85.845695
9212187500 -0.88855773 121.12387 -9.0402622 -72.713547 -9.0379009 -72.961426 -0.21872486 -85.872589
