!Agilent Technologies,N5242A,MY51221714,A.09.90.19
!Agilent N5242A: A.09.90.19
!Date: Saturday, March 16, 2024 08:56:36
!Correction: S11(Full 2 Port(1,2)) 
!S21(Full 2 Port(1,2)) 
!S12(Full 2 Port(1,2)) 
!S22(Full 2 Port(1,2)) 
!S2P File: Measurements: S11, S21, S12, S22:
# Hz S  dB   R 50
9200000000 -1.0269672 123.57472 -8.8327732 -75.411034 -8.8295689 -75.959892 -0.30316898 -92.404007
9200062500 -1.0310541 123.53741 -8.8352365 -75.437553 -8.8305149 -75.926109 -0.29644081 -92.336578
9200125000 -1.031641 123.54037 -8.8351011 -75.382553 -8.826292 -75.933655 -0.30407608 -92.290939
9200187500 -1.0300087 123.55449 -8.8384485 -75.386551 -8.8239441 -75.959251 -0.29958797 -92.321274
9200250000 -1.025546 123.55084 -8.8343468 -75.420326 -8.823204 -75.942886 -0.2976481 -92.291702
9200312500 -1.0259966 123.5154 -8.8286695 -75.416763 -8.81604 -75.939568 -0.30039763 -92.284172
9200375000 -1.0222809 123.46555 -8.8288746 -75.410789 -8.8155642 -75.950737 -0.3077237 -92.224449
9200437500 -1.0224036 123.49444 -8.8240967 -75.441589 -8.8170738 -75.97126 -0.30190355 -92.268204
9200500000 -1.0232412 123.44151 -8.8282728 -75.434845 -8.8147755 -75.942101 -0.30827293 -92.218323
9200562500 -1.0260253 123.45087 -8.8289766 -75.455505 -8.8112288 -75.907639 -0.30487493 -92.213654
9200625000 -1.0277771 123.4511 -8.8383131 -75.393684 -8.8105526 -75.929581 -0.31315839 -92.193283
9200687500 -1.0233896 123.43596 -8.8337116 -75.372795 -8.8172169 -75.936371 -0.31116307 -92.121094
9200750000 -1.0242563 123.40371 -8.8380909 -75.352608 -8.8164492 -75.899178 -0.31433594 -92.102768
9200812500 -1.0254918 123.40926 -8.8326044 -75.377449 -8.8056564 -75.897888 -0.3128157 -92.058731
9200875000 -1.0257577 123.38838 -8.8290825 -75.376129 -8.8081417 -75.942886 -0.31583777 -92.077751
9200937500 -1.0187931 123.37827 -8.8195581 -75.391281 -8.8071928 -75.891396 -0.31453961 -92.033173
9201000000 -1.0273981 123.37017 -8.8243198 -75.3442 -8.8073416 -75.895195 -0.31582201 -92.045288
9201062500 -1.0288255 123.32963 -8.8300743 -75.331787 -8.8015032 -75.849617 -0.30432728 -92.017792
9201125000 -1.0204318 123.3367 -8.8178253 -75.353951 -8.8123703 -75.923073 -0.3105765 -91.982231
9201187500 -1.0209137 123.30789 -8.8178606 -75.375282 -8.8093481 -75.941376 -0.31708965 -92.004761
9201250000 -1.0218095 123.30715 -8.8148413 -75.366798 -8.8031569 -75.953926 -0.30911237 -91.964584
9201312500 -1.0269673 123.27475 -8.8233767 -75.32547 -8.8116779 -75.884117 -0.3157576 -91.978088
9201375000 -1.0249922 123.24133 -8.8153591 -75.411751 -8.8005848 -75.838242 -0.30686018 -91.918343
9201437500 -1.0292643 123.26659 -8.8239517 -75.377228 -8.8119602 -75.877693 -0.31232274 -91.959663
9201500000 -1.0288231 123.26795 -8.8181019 -75.415161 -8.807826 -75.899185 -0.31347984 -91.954002
9201562500 -1.02746 123.21912 -8.8225403 -75.39933 -8.8078709 -75.877861 -0.31301269 -91.955132
9201625000 -1.0298265 123.22636 -8.8179054 -75.38633 -8.8113775 -75.89669 -0.31772748 -91.946381
9201687500 -1.0252677 123.2308 -8.8215895 -75.353554 -8.8132792 -75.865601 -0.31502017 -91.900955
9201750000 -1.0245944 123.19387 -8.8220863 -75.381073 -8.8073673 -75.895256 -0.31575629 -91.87262
9201812500 -1.0234035 123.14592 -8.814889 -75.399895 -8.799284 -75.854172 -0.31059498 -91.832787
9201875000 -1.0201832 123.18238 -8.8057318 -75.366257 -8.8035793 -75.829857 -0.31503516 -91.795441
9201937500 -1.0215486 123.11777 -8.8131237 -75.378387 -8.8068762 -75.888443 -0.32135472 -91.806084
9202000000 -1.0248435 123.12871 -8.8150654 -75.360481 -8.7951117 -75.871872 -0.32340598 -91.760765
9202062500 -1.0237062 123.10379 -8.8087187 -75.356987 -8.793952 -75.869514 -0.31034529 -91.77066
9202125000 -1.0210258 123.09217 -8.8075581 -75.341568 -8.8008385 -75.876633 -0.31543759 -91.763489
9202187500 -1.0261518 123.07662 -8.8042259 -75.354568 -8.7985859 -75.937035 -0.31438777 -91.735146
9202250000 -1.0252626 123.07709 -8.8005085 -75.327133 -8.7975006 -75.861526 -0.30730614 -91.738708
9202312500 -1.0266377 123.04619 -8.7912779 -75.459557 -8.8030787 -75.970306 -0.31404135 -91.728119
9202375000 -1.0210447 123.01548 -8.7954407 -75.427269 -8.7980366 -75.874435 -0.31029913 -91.692902
9202437500 -1.0258178 123.03764 -8.797224 -75.352509 -8.8054914 -75.88163 -0.31855211 -91.6465
9202500000 -1.0268227 123.01156 -8.8098803 -75.330666 -8.7954807 -75.908516 -0.31734908 -91.637505
9202562500 -1.02687 123.02403 -8.7998819 -75.387459 -8.7941923 -75.863182 -0.3155337 -91.643776
9202625000 -1.0234405 122.96644 -8.7940674 -75.384216 -8.7938929 -75.888443 -0.30893737 -91.613922
9202687500 -1.0343567 122.96725 -8.81215 -75.410446 -8.7960463 -75.85141 -0.32150272 -91.543922
9202750000 -1.0347646 122.96091 -8.8087826 -75.364899 -8.7856445 -75.896965 -0.3223502 -91.589447
9202812500 -1.0312592 122.96823 -8.8061485 -75.344231 -8.7979527 -75.880325 -0.31894323 -91.580315
9202875000 -1.0303093 122.97313 -8.8039322 -75.322533 -8.7883644 -75.874023 -0.31898078 -91.525688
9202937500 -1.0229737 122.9012 -8.7997379 -75.324867 -8.7915659 -75.877106 -0.32079852 -91.518768
9203000000 -1.0247736 122.89345 -8.7913418 -75.412369 -8.7838306 -75.838585 -0.3143183 -91.52906
9203062500 -1.0203713 122.88882 -8.7951632 -75.329086 -8.7939024 -75.911613 -0.31941512 -91.515892
9203125000 -1.0251482 122.90088 -8.8005562 -75.390854 -8.7860727 -75.865616 -0.30837503 -91.465073
9203187500 -1.0255737 122.85083 -8.7969456 -75.333237 -8.7869329 -75.884888 -0.31436285 -91.468826
9203250000 -1.0302913 122.85508 -8.804821 -75.376862 -8.789834 -75.864723 -0.31885782 -91.425377
9203312500 -1.0297992 122.79848 -8.8001041 -75.424355 -8.781105 -75.827652 -0.32403415 -91.414055
9203375000 -1.0299062 122.81937 -8.7977171 -75.369865 -8.7870016 -75.848572 -0.31876308 -91.351746
9203437500 -1.031673 122.80882 -8.8010769 -75.39286 -8.784256 -75.86953 -0.32006744 -91.361206
9203500000 -1.0223398 122.79488 -8.795598 -75.379288 -8.7831888 -75.82708 -0.31566072 -91.328247
9203562500 -1.0274216 122.75495 -8.7943153 -75.369987 -8.7835817 -75.857185 -0.3164407 -91.323448
9203625000 -1.0238335 122.77583 -8.7903948 -75.305542 -8.7861948 -75.891899 -0.32475522 -91.331436
9203687500 -1.0265478 122.72117 -8.7916288 -75.39814 -8.7891788 -75.875374 -0.32393575 -91.298759
9203750000 -1.0258857 122.71898 -8.7930794 -75.346336 -8.7925329 -75.858559 -0.32955763 -91.320122
9203812500 -1.0267464 122.72069 -8.7867861 -75.379829 -8.7856798 -75.850502 -0.32627365 -91.274796
9203875000 -1.0276515 122.67847 -8.7869034 -75.376862 -8.7830515 -75.867493 -0.32395962 -91.229439
9203937500 -1.0281327 122.68766 -8.7916937 -75.34745 -8.7786655 -75.869377 -0.33482191 -91.24691
9204000000 -1.0205733 122.66634 -8.7906017 -75.348808 -8.7822142 -75.835274 -0.33582309 -91.212639
9204062500 -1.0247418 122.676 -8.7938194 -75.309273 -8.7683945 -75.854553 -0.33582285 -91.175934
9204125000 -1.0260988 122.67946 -8.7934875 -75.32753 -8.772768 -75.852165 -0.3356145 -91.199921
9204187500 -1.0186285 122.63693 -8.7862463 -75.34343 -8.767375 -75.844208 -0.3382974 -91.198082
9204250000 -1.0198003 122.63408 -8.7845802 -75.326828 -8.77248 -75.84343 -0.33442914 -91.174133
9204312500 -1.0215654 122.60029 -8.7939167 -75.377937 -8.7696571 -75.815659 -0.33667979 -91.102173
9204375000 -1.0252727 122.57655 -8.7884874 -75.372589 -8.7706556 -75.84761 -0.32580635 -91.095139
9204437500 -1.0193298 122.56702 -8.7863541 -75.296394 -8.7749338 -75.847641 -0.32717019 -91.087196
9204500000 -1.0179449 122.56451 -8.7731123 -75.331238 -8.7649164 -75.82235 -0.32591003 -91.081535
9204562500 -1.0177592 122.55656 -8.7804832 -75.265663 -8.7724962 -75.822983 -0.32242742 -91.01754
9204625000 -1.0146605 122.51686 -8.7713289 -75.260048 -8.7652664 -75.854897 -0.32381544 -91.038933
9204687500 -1.019547 122.51868 -8.7824898 -75.298569 -8.7658405 -75.860214 -0.32869679 -91.012077
9204750000 -1.0210692 122.47179 -8.773571 -75.388611 -8.7595434 -75.814308 -0.32025096 -91.012665
9204812500 -1.0191128 122.55125 -8.7775888 -75.268097 -8.767128 -75.82975 -0.32651487 -91.002167
9204875000 -1.019184 122.49147 -8.7705336 -75.287811 -8.7666016 -75.821297 -0.32465431 -90.970451
9204937500 -1.0277811 122.46455 -8.7812176 -75.325066 -8.7602024 -75.819389 -0.32516798 -90.973457
9205000000 -1.0249348 122.49323 -8.7799196 -75.307861 -8.764061 -75.841324 -0.32935405 -90.92099
9205062500 -1.0249534 122.47878 -8.775651 -75.263443 -8.7613049 -75.826286 -0.32368186 -90.934898
9205125000 -1.0301474 122.46706 -8.7767935 -75.263824 -8.7696934 -75.899582 -0.32964489 -90.940041
9205187500 -1.0224588 122.39131 -8.7711306 -75.286522 -8.7654934 -75.788597 -0.32701367 -90.906181
9205250000 -1.033775 122.36825 -8.7732506 -75.280876 -8.7709856 -75.820671 -0.3227137 -90.872314
9205312500 -1.0257311 122.36472 -8.7675419 -75.247215 -8.7554893 -75.826248 -0.31814563 -90.862457
9205375000 -1.0296048 122.34925 -8.7680473 -75.293022 -8.7686596 -75.866806 -0.31893787 -90.839813
9205437500 -1.0287617 122.31112 -8.7683754 -75.340172 -8.7686682 -75.789803 -0.32498479 -90.820557
9205500000 -1.0344986 122.33341 -8.7648516 -75.297218 -8.7687674 -75.82225 -0.32500592 -90.853241
9205562500 -1.0242053 122.30342 -8.7605 -75.336166 -8.7675219 -75.868126 -0.32913154 -90.830917
9205625000 -1.0291377 122.31171 -8.7751856 -75.281494 -8.7622519 -75.850533 -0.32377926 -90.795395
9205687500 -1.0242271 122.29036 -8.7612429 -75.353165 -8.7705173 -75.848175 -0.32589394 -90.775658
9205750000 -1.0288274 122.29768 -8.7590857 -75.327736 -8.7738457 -75.819931 -0.33039919 -90.776268
9205812500 -1.0240728 122.27279 -8.762476 -75.271271 -8.759613 -75.85305 -0.3267709 -90.772179
9205875000 -1.0220028 122.26263 -8.7624426 -75.29174 -8.7716475 -75.75367 -0.33161518 -90.671913
9205937500 -1.0265752 122.23235 -8.7645092 -75.303993 -8.7581015 -75.818184 -0.32698119 -90.706749
9206000000 -1.0267746 122.24315 -8.7687864 -75.234108 -8.7675161 -75.803635 -0.33598706 -90.674759
9206062500 -1.0215476 122.19115 -8.7569008 -75.318802 -8.7667952 -75.771507 -0.33101633 -90.638496
9206125000 -1.0216939 122.21462 -8.7657785 -75.284439 -8.7648897 -75.807411 -0.32942784 -90.603683
9206187500 -1.0193505 122.20448 -8.7570896 -75.308517 -8.7567139 -75.768196 -0.32488424 -90.632072
9206250000 -1.0263262 122.19826 -8.7580957 -75.250008 -8.7504864 -75.775215 -0.32424945 -90.593994
9206312500 -1.0267115 122.18736 -8.7612896 -75.295082 -8.7534456 -75.778122 -0.32501209 -90.57206
9206375000 -1.0249517 122.16169 -8.7701616 -75.304146 -8.7551775 -75.804825 -0.32898015 -90.548485
9206437500 -1.0192639 122.18341 -8.7603931 -75.274521 -8.7506247 -75.819534 -0.32923269 -90.561806
9206500000 -1.026265 122.16776 -8.7580395 -75.221947 -8.7472706 -75.829971 -0.32573578 -90.560806
9206562500 -1.0279485 122.14166 -8.7517796 -75.275902 -8.7511501 -75.818558 -0.32653445 -90.538704
9206625000 -1.0280578 122.1263 -8.7416191 -75.250061 -8.7344103 -75.826996 -0.31795645 -90.485489
9206687500 -1.0286292 122.09424 -8.7491436 -75.287071 -8.7414923 -75.826263 -0.32419765 -90.447472
9206750000 -1.0279076 122.08069 -8.7416544 -75.315201 -8.738966 -75.764374 -0.32132852 -90.412796
9206812500 -1.0296414 122.08063 -8.7433987 -75.28746 -8.7358274 -75.805664 -0.32217154 -90.441765
9206875000 -1.0307161 122.05399 -8.7482271 -75.216736 -8.7331257 -75.768723 -0.31957752 -90.412079
9206937500 -1.0282747 122.02982 -8.7445297 -75.238594 -8.7282124 -75.762131 -0.3212485 -90.369148
9207000000 -1.0291927 122.05052 -8.7461205 -75.189682 -8.7410965 -75.80352 -0.32527775 -90.38308
9207062500 -1.024821 122.01561 -8.7512312 -75.222542 -8.7472019 -75.787209 -0.33479255 -90.347618
9207125000 -1.0202385 121.95871 -8.7409668 -75.291428 -8.7377033 -75.791527 -0.33027562 -90.359032
9207187500 -1.0206013 121.94373 -8.7496204 -75.310745 -8.7379055 -75.817085 -0.3325153 -90.326996
9207250000 -1.0205427 121.92427 -8.7484865 -75.354614 -8.7485075 -75.799606 -0.33735922 -90.361732
9207312500 -1.0264633 121.90243 -8.7489338 -75.338417 -8.7392759 -75.831802 -0.33121106 -90.352577
9207375000 -1.0249738 121.86936 -8.7473783 -75.270683 -8.7403584 -75.790504 -0.33763605 -90.338287
9207437500 -1.0266142 121.8629 -8.7461672 -75.347862 -8.7385902 -75.801178 -0.331965 -90.280144
9207500000 -1.0261935 121.83216 -8.7361507 -75.340645 -8.7397938 -75.776131 -0.33991802 -90.281845
9207562500 -1.0281936 121.83604 -8.7483482 -75.384186 -8.7400703 -75.781578 -0.34150186 -90.278503
9207625000 -1.02908 121.80266 -8.7456932 -75.313782 -8.7410927 -75.770943 -0.33867723 -90.24543
9207687500 -1.0285436 121.77216 -8.7438765 -75.304916 -8.7294741 -75.778442 -0.33340427 -90.210999
9207750000 -1.0311058 121.80283 -8.7370024 -75.305717 -8.7330818 -75.782555 -0.326397 -90.234123
9207812500 -1.0346571 121.79727 -8.7450314 -75.305435 -8.7241993 -75.790443 -0.32021448 -90.23877
9207875000 -1.0347531 121.77845 -8.7306061 -75.351112 -8.7308455 -75.858322 -0.31719056 -90.193077
9207937500 -1.0330124 121.80662 -8.7340736 -75.224251 -8.7283249 -75.834496 -0.32393348 -90.154121
9208000000 -1.0369111 121.77444 -8.7452335 -75.293991 -8.7343874 -75.790421 -0.32797191 -90.073677
9208062500 -1.0354055 121.78443 -8.7415466 -75.264267 -8.7279015 -75.784363 -0.3267144 -90.097672
9208125000 -1.0374676 121.78234 -8.7441645 -75.229225 -8.7299423 -75.775421 -0.33684632 -90.102112
9208187500 -1.0296313 121.73592 -8.7359085 -75.258598 -8.7305603 -75.768547 -0.3311705 -90.061073
9208250000 -1.0294058 121.73158 -8.7371788 -75.294487 -8.7313662 -75.788963 -0.33737433 -90.014786
9208312500 -1.0328631 121.71406 -8.7433519 -75.209381 -8.73071 -75.762512 -0.33775836 -89.995949
9208375000 -1.0285615 121.73689 -8.7390223 -75.242714 -8.7324686 -75.803032 -0.34025782 -90.003029
9208437500 -1.0302804 121.68703 -8.7326632 -75.20591 -8.7333012 -75.742287 -0.34400415 -89.988579
9208500000 -1.0294979 121.69044 -8.7368679 -75.21666 -8.7225142 -75.763657 -0.33709893 -89.977325
9208562500 -1.0284098 121.61543 -8.7301226 -75.271729 -8.721118 -75.784348 -0.33601007 -89.968246
9208625000 -1.0252669 121.60998 -8.7299118 -75.344986 -8.72297 -75.746666 -0.34085065 -89.980309
9208687500 -1.033435 121.58224 -8.7308073 -75.316322 -8.7215042 -75.764435 -0.33342105 -89.921165
9208750000 -1.0309664 121.57036 -8.7280426 -75.331497 -8.7268982 -75.765381 -0.33758932 -89.919014
9208812500 -1.0315841 121.5715 -8.7312002 -75.301582 -8.7167473 -75.752602 -0.32930645 -89.923615
9208875000 -1.032739 121.56207 -8.7242966 -75.282967 -8.7224503 -75.789978 -0.33563143 -89.907249
9208937500 -1.0288992 121.5988 -8.7240105 -75.234932 -8.729578 -75.786079 -0.34607509 -89.891357
9209000000 -1.0361965 121.61301 -8.7287445 -75.238029 -8.7284079 -75.783134 -0.34192121 -89.887917
9209062500 -1.0325454 121.62446 -8.7238674 -75.260529 -8.725152 -75.753708 -0.34385079 -89.869202
9209125000 -1.0318403 121.61287 -8.7252388 -75.217865 -8.719758 -75.787735 -0.34079474 -89.867958
9209187500 -1.0292604 121.60606 -8.7208471 -75.218506 -8.7146235 -75.800087 -0.33386964 -89.841919
9209250000 -1.0288061 121.57013 -8.7216702 -75.242149 -8.7200413 -75.756905 -0.3343195 -89.799004
9209312500 -1.0246027 121.5191 -8.7218485 -75.248039 -8.7279644 -75.754471 -0.34452623 -89.779816
9209375000 -1.0266392 121.53139 -8.718564 -75.275932 -8.7199974 -75.754517 -0.33728838 -89.768921
9209437500 -1.0279684 121.49826 -8.7145157 -75.21003 -8.7236271 -75.707657 -0.34013012 -89.747864
9209500000 -1.0282358 121.48106 -8.714922 -75.278084 -8.7244196 -75.689674 -0.34146819 -89.710365
9209562500 -1.0344653 121.42623 -8.7167788 -75.286018 -8.7219925 -75.669029 -0.33887923 -89.673637
9209625000 -1.0327674 121.39984 -8.7114725 -75.286003 -8.7147207 -75.740364 -0.33629239 -89.677353
9209687500 -1.0331627 121.44106 -8.7299728 -75.268524 -8.7111797 -75.732918 -0.33352238 -89.685043
9209750000 -1.0350887 121.42371 -8.7171297 -75.248749 -8.7107267 -75.757286 -0.33180532 -89.63488
9209812500 -1.0325664 121.43333 -8.7129602 -75.283287 -8.7112551 -75.764915 -0.3337855 -89.616402
9209875000 -1.0400347 121.36764 -8.7300205 -75.312477 -8.7112198 -75.738556 -0.33186397 -89.616432
9209937500 -1.0334548 121.39499 -8.7079611 -75.236061 -8.704113 -75.678673 -0.332573 -89.551949
9210000000 -1.0335985 121.34615 -8.7077007 -75.271622 -8.7084951 -75.69223 -0.32962039 -89.550301
9210062500 -1.0382315 121.33838 -8.7119541 -75.298241 -8.7013502 -75.741638 -0.33216816 -89.565956
9210125000 -1.0285493 121.3512 -8.7095366 -75.249146 -8.7112503 -75.750282 -0.33393312 -89.566788
9210187500 -1.0289538 121.34775 -8.7122717 -75.280075 -8.7104597 -75.718628 -0.33517662 -89.524292
9210250000 -1.0290349 121.28965 -8.7101698 -75.252975 -8.7001486 -75.679413 -0.32655096 -89.468002
9210312500 -1.0246168 121.29352 -8.7123299 -75.297012 -8.7095871 -75.662422 -0.3406128 -89.494141
9210375000 -1.0285841 121.30762 -8.7042875 -75.207687 -8.7024698 -75.697243 -0.3337101 -89.442963
9210437500 -1.0272833 121.25094 -8.7093763 -75.224022 -8.7126064 -75.682701 -0.34767184 -89.45414
9210500000 -1.0287513 121.22552 -8.7114925 -75.238434 -8.6998253 -75.67244 -0.34450519 -89.450287
9210562500 -1.0236886 121.22256 -8.710289 -75.214653 -8.7043018 -75.701897 -0.34607869 -89.441376
9210625000 -1.0217193 121.16592 -8.7059231 -75.19928 -8.7072344 -75.692818 -0.3511574 -89.41758
9210687500 -1.0258455 121.20029 -8.7068081 -75.222046 -8.705636 -75.679504 -0.34573424 -89.391357
9210750000 -1.0261463 121.17499 -8.7082586 -75.153214 -8.7009449 -75.716431 -0.34886274 -89.376373
9210812500 -1.027904 121.17523 -8.7037792 -75.169128 -8.6970758 -75.765099 -0.34613454 -89.328377
9210875000 -1.0266783 121.12826 -8.7067585 -75.184746 -8.7057219 -75.73246 -0.35306898 -89.315132
9210937500 -1.0289584 121.12088 -8.7015867 -75.191826 -8.6992197 -75.685326 -0.34466916 -89.294403
9211000000 -1.028514 121.12311 -8.6961622 -75.200409 -8.6946125 -75.717041 -0.34699136 -89.310471
9211062500 -1.0344454 121.1017 -8.6987391 -75.192482 -8.6951237 -75.769989 -0.347927 -89.31826
9211125000 -1.0382358 121.09676 -8.7038212 -75.198624 -8.685688 -75.653465 -0.33717495 -89.258072
9211187500 -1.0352952 121.09588 -8.6988201 -75.225761 -8.7004747 -75.758659 -0.34444666 -89.291504
9211250000 -1.0350639 121.11077 -8.700119 -75.22113 -8.6969967 -75.813705 -0.33821529 -89.352898
9211312500 -1.0401627 121.08139 -8.6953392 -75.254402 -8.6936598 -75.779984 -0.33911604 -89.341736
9211375000 -1.0422437 121.06192 -8.7031422 -75.195244 -8.6959209 -75.707054 -0.34209111 -89.182358
9211437500 -1.0383877 121.04647 -8.7040672 -75.257446 -8.6996412 -75.749588 -0.34095156 -89.203529
9211500000 -1.0378973 121.04404 -8.6972303 -75.264984 -8.6893167 -75.748634 -0.33614898 -89.203804
9211562500 -1.0319841 121.02666 -8.6988735 -75.16848 -8.6904688 -75.666489 -0.34358811 -89.159119
9211625000 -1.0396975 120.99082 -8.7091494 -75.21582 -8.6965361 -75.674767 -0.34710529 -89.167656
9211687500 -1.0350401 120.9588 -8.6940622 -75.213867 -8.6921501 -75.674423 -0.34647137 -89.115379
9211750000 -1.034734 121.00558 -8.6940069 -75.176872 -8.6937675 -75.681091 -0.35024029 -89.145081
9211812500 -1.0388918 120.93349 -8.6929569 -75.183838 -8.6835375 -75.687645 -0.34625861 -89.089775
9211875000 -1.0426296 120.92353 -8.6997366 -75.192177 -8.6897354 -75.690796 -0.35060734 -89.061661
9211937500 -1.0368028 120.87494 -8.6836472 -75.235451 -8.678278 -75.653122 -0.35021678 -88.996315
9212000000 -1.0376627 120.85419 -8.6932983 -75.266937 -8.682559 -75.642441 -0.34871626 -88.993561
9212062500 -1.041504 120.82117 -8.677021 -75.229301 -8.6876202 -75.621262 -0.35008466 -88.948135
9212125000 -1.0415423 120.88486 -8.6905165 -75.207329 -8.6928215 -75.682045 -0.35199481 -88.970612
9212187500 -1.0409027 120.80112 -8.6882324 -75.239975 -8.6829863 -75.652412 -0.35047448 -88.904686
9212250000 -1.040809 120.80984 -8.6901026 -75.198555 -8.6969128 -75.658714 -0.35216665 -88.868515
9212312500 -1.0376042 120.80305 -8.6918602 -75.175865 -8.6864405 -75.711845 -0.35359228 -88.888603
