!Agilent Technologies,N5242A,MY51221714,A.09.90.19
!Agilent N5242A: A.09.90.19
!Date: Saturday, March 16, 2024 08:58:18
!Correction: S11(Full 2 Port(1,2)) 
!S21(Full 2 Port(1,2)) 
!S12(Full 2 Port(1,2)) 
!S22(Full 2 Port(1,2)) 
!S2P File: Measurements: S11, S21, S12, S22:
# Hz S  dB   R 50
9200000000 -1.2232131 121.9985 -8.6254578 -78.820381 -8.6249065 -79.289413 -0.48045227 -93.568726
9200062500 -1.2296293 121.99413 -8.6271744 -78.787979 -8.6129627 -79.289032 -0.4773992 -93.580002
9200125000 -1.2329998 121.99861 -8.6304665 -78.737999 -8.6207266 -79.314423 -0.47604531 -93.616081
9200187500 -1.2258271 121.99503 -8.6216593 -78.788712 -8.611515 -79.333099 -0.4777582 -93.599884
9200250000 -1.2249751 121.95833 -8.624917 -78.765121 -8.6081591 -79.308952 -0.47733703 -93.556435
9200312500 -1.2220808 121.98775 -8.6145153 -78.73735 -8.6095133 -79.319206 -0.48009443 -93.542976
9200375000 -1.222653 121.9818 -8.6122627 -78.755081 -8.6110868 -79.297005 -0.48488212 -93.551956
9200437500 -1.2170223 121.94659 -8.6167192 -78.792282 -8.6032486 -79.291931 -0.4828091 -93.503136
9200500000 -1.2198001 121.89499 -8.6119032 -78.818207 -8.5986729 -79.296875 -0.47573268 -93.495476
9200562500 -1.2231997 121.88072 -8.6113377 -78.766998 -8.5985651 -79.328827 -0.47938901 -93.46312
9200625000 -1.2200856 121.87209 -8.6207809 -78.752068 -8.5984974 -79.268059 -0.48198742 -93.442139
9200687500 -1.2266196 121.88881 -8.616847 -78.770241 -8.5996895 -79.318306 -0.49402541 -93.443825
9200750000 -1.2249079 121.83465 -8.617012 -78.789055 -8.5952969 -79.303703 -0.48797715 -93.384163
9200812500 -1.2270018 121.84849 -8.6219587 -78.741051 -8.5985909 -79.299217 -0.48711839 -93.365166
9200875000 -1.2269518 121.84344 -8.6204453 -78.748192 -8.5960188 -79.225914 -0.49359682 -93.299744
9200937500 -1.2225051 121.82189 -8.6119738 -78.718727 -8.5972662 -79.250038 -0.48811844 -93.303741
9201000000 -1.2202773 121.82001 -8.5998812 -78.642685 -8.5875425 -79.230453 -0.4817912 -93.284927
9201062500 -1.22042 121.76067 -8.6053658 -78.781387 -8.5965528 -79.270859 -0.49198136 -93.270309
9201125000 -1.2204338 121.74924 -8.5963478 -78.821785 -8.6066418 -79.310135 -0.49563265 -93.25621
9201187500 -1.2201968 121.78123 -8.6025028 -78.736855 -8.5969181 -79.24189 -0.49211773 -93.246368
9201250000 -1.2230997 121.73162 -8.600008 -78.758873 -8.5961008 -79.236038 -0.48849192 -93.212852
9201312500 -1.2231451 121.70625 -8.6018734 -78.757477 -8.592144 -79.293732 -0.48438528 -93.231705
9201375000 -1.2266372 121.68347 -8.6031857 -78.791832 -8.6022797 -79.259605 -0.48917693 -93.197174
9201437500 -1.2245381 121.70039 -8.6104336 -78.789345 -8.5963955 -79.277679 -0.49125275 -93.243767
9201500000 -1.2263137 121.70231 -8.6009588 -78.759735 -8.5953493 -79.2901 -0.48760983 -93.267509
9201562500 -1.2269279 121.71258 -8.6059351 -78.746094 -8.5935411 -79.252403 -0.48872212 -93.217903
9201625000 -1.2273 121.65769 -8.6052246 -78.732574 -8.5958424 -79.251854 -0.48348504 -93.181686
9201687500 -1.2276734 121.67912 -8.5964003 -78.746696 -8.5876827 -79.312065 -0.4832705 -93.212914
9201750000 -1.229985 121.66578 -8.6122808 -78.723953 -8.590107 -79.228951 -0.49195638 -93.131706
9201812500 -1.225121 121.61183 -8.6023579 -78.804375 -8.5945139 -79.203308 -0.49256468 -93.088303
9201875000 -1.2229558 121.59099 -8.5964928 -78.708069 -8.5890331 -79.230873 -0.49224958 -93.073326
9201937500 -1.2225068 121.55599 -8.5973463 -78.780342 -8.5889101 -79.196442 -0.49398756 -93.034286
9202000000 -1.2213254 121.55114 -8.5958767 -78.736671 -8.5834579 -79.220428 -0.48829129 -93.033546
9202062500 -1.222677 121.55592 -8.599678 -78.746666 -8.5878849 -79.244141 -0.49136531 -92.984657
9202125000 -1.2253156 121.50539 -8.5960865 -78.793869 -8.5936518 -79.199524 -0.4963488 -93.002495
9202187500 -1.2224344 121.54044 -8.5828047 -78.757607 -8.5891333 -79.251472 -0.48985848 -93.028465
9202250000 -1.2287004 121.50638 -8.5856352 -78.745888 -8.5817461 -79.240944 -0.48879609 -92.954185
9202312500 -1.222051 121.53572 -8.5745277 -78.680252 -8.584218 -79.3442 -0.48929861 -93.043999
9202375000 -1.2323357 121.49802 -8.5880566 -78.737389 -8.585537 -79.324623 -0.49362144 -93.00293
9202437500 -1.230818 121.47044 -8.589654 -78.738106 -8.5939016 -79.295784 -0.498276 -92.93203
9202500000 -1.2283052 121.46553 -8.5826149 -78.738266 -8.5803232 -79.229195 -0.49712694 -92.911888
9202562500 -1.2285545 121.49274 -8.5929689 -78.741196 -8.5829115 -79.246254 -0.498101 -92.891861
9202625000 -1.2310177 121.4537 -8.5907364 -78.734993 -8.5828066 -79.295006 -0.49505296 -92.893021
9202687500 -1.2338098 121.41922 -8.5905399 -78.751198 -8.5836678 -79.247124 -0.50231379 -92.831848
9202750000 -1.2304231 121.46275 -8.5924339 -78.72438 -8.5892439 -79.25676 -0.50484806 -92.837143
9202812500 -1.2304045 121.40368 -8.5840597 -78.745804 -8.5821152 -79.275475 -0.49904776 -92.824066
9202875000 -1.2274551 121.369 -8.5859737 -78.768097 -8.5725451 -79.296463 -0.5004977 -92.82415
9202937500 -1.2276969 121.32319 -8.5833025 -78.785362 -8.5794287 -79.233566 -0.50279528 -92.790474
9203000000 -1.2308638 121.3699 -8.5856686 -78.746178 -8.5711994 -79.317421 -0.49692994 -92.813629
9203062500 -1.2278275 121.31052 -8.5816202 -78.70118 -8.5751152 -79.239845 -0.49638599 -92.719536
9203125000 -1.2294517 121.30489 -8.5850906 -78.742325 -8.5740318 -79.196457 -0.49712047 -92.702774
9203187500 -1.2321942 121.2859 -8.5816641 -78.756607 -8.5757799 -79.256493 -0.5010404 -92.703629
9203250000 -1.2322906 121.30113 -8.5914364 -78.693794 -8.5731812 -79.250061 -0.49327356 -92.685234
9203312500 -1.2299101 121.21959 -8.5790186 -78.834595 -8.5748386 -79.294121 -0.49480933 -92.654472
9203375000 -1.2280329 121.26367 -8.5773878 -78.78183 -8.5676537 -79.260887 -0.49563128 -92.682114
9203437500 -1.2331508 121.27128 -8.5859079 -78.752487 -8.5793362 -79.264748 -0.50023884 -92.61972
9203500000 -1.2292136 121.243 -8.5795918 -78.762543 -8.5729694 -79.261009 -0.49756986 -92.610176
9203562500 -1.2322537 121.24885 -8.5860338 -78.752502 -8.5746393 -79.262794 -0.49929795 -92.583549
9203625000 -1.233519 121.19623 -8.5749321 -78.8209 -8.5714598 -79.267036 -0.49475977 -92.594658
9203687500 -1.2299101 121.21426 -8.5757675 -78.734329 -8.5772753 -79.251053 -0.51183444 -92.557426
9203750000 -1.2307187 121.16306 -8.5797386 -78.760323 -8.574131 -79.235649 -0.50448132 -92.53154
9203812500 -1.2282114 121.14808 -8.5783873 -78.742538 -8.5742712 -79.240074 -0.51290113 -92.52034
9203875000 -1.2286181 121.11405 -8.5699863 -78.773872 -8.5693865 -79.252525 -0.51107299 -92.521149
9203937500 -1.2280133 121.13721 -8.5732374 -78.756516 -8.5648355 -79.235588 -0.51731211 -92.482666
9204000000 -1.2264516 121.13674 -8.5725918 -78.760071 -8.5592756 -79.220367 -0.50843239 -92.485672
9204062500 -1.2310656 121.10609 -8.5748177 -78.719078 -8.5559397 -79.217995 -0.50787908 -92.436272
9204125000 -1.2214038 121.06833 -8.5713177 -78.781052 -8.5577869 -79.237518 -0.5104847 -92.485947
9204187500 -1.2194147 121.07144 -8.5769176 -78.785622 -8.556859 -79.256836 -0.51085097 -92.455231
9204250000 -1.2241486 121.08808 -8.5771732 -78.699615 -8.5465975 -79.226646 -0.50697452 -92.425644
9204312500 -1.2248076 121.06811 -8.5688 -78.698029 -8.560647 -79.214706 -0.51131231 -92.364319
9204375000 -1.2199037 121.0408 -8.5711403 -78.730942 -8.5598583 -79.239845 -0.50615519 -92.368744
9204437500 -1.2229929 121.0094 -8.562026 -78.687218 -8.5544825 -79.2379 -0.5056802 -92.354233
9204500000 -1.2209221 121.02402 -8.5691967 -78.674294 -8.5512486 -79.227234 -0.50159335 -92.314087
9204562500 -1.2201376 120.99873 -8.5648279 -78.676453 -8.5586271 -79.234467 -0.50367969 -92.283203
9204625000 -1.2195719 120.97189 -8.55264 -78.681427 -8.5522089 -79.191849 -0.49436277 -92.253136
9204687500 -1.2218977 120.94016 -8.5636787 -78.698479 -8.5467339 -79.174637 -0.50046188 -92.277718
9204750000 -1.224555 120.96813 -8.562314 -78.656868 -8.5605602 -79.280235 -0.50779557 -92.279617
9204812500 -1.227758 120.93468 -8.5634079 -78.701286 -8.5425406 -79.179054 -0.50503945 -92.221375
9204875000 -1.2259517 120.93081 -8.5600653 -78.70723 -8.5520487 -79.25605 -0.50491202 -92.259987
9204937500 -1.2283977 120.92628 -8.5550604 -78.682281 -8.5478201 -79.18457 -0.51097929 -92.202492
9205000000 -1.22979 120.91528 -8.568491 -78.686371 -8.5447712 -79.177742 -0.50486588 -92.204132
9205062500 -1.228112 120.90411 -8.5622835 -78.680183 -8.5492668 -79.196228 -0.50412709 -92.206154
9205125000 -1.2371994 120.8847 -8.556633 -78.715866 -8.5417242 -79.256233 -0.50246739 -92.201927
9205187500 -1.2261045 120.86704 -8.5482178 -78.689781 -8.5482893 -79.216225 -0.50049686 -92.160774
9205250000 -1.2338654 120.80367 -8.552187 -78.705032 -8.5502739 -79.246536 -0.50193304 -92.152534
9205312500 -1.2348107 120.82059 -8.5536375 -78.617294 -8.5526228 -79.268181 -0.50686079 -92.167152
9205375000 -1.2382281 120.7691 -8.5490103 -78.661819 -8.5520611 -79.268799 -0.50438792 -92.143684
9205437500 -1.2358818 120.75636 -8.5562296 -78.683968 -8.550889 -79.286301 -0.50782788 -92.129799
9205500000 -1.2307392 120.78297 -8.5505829 -78.673416 -8.5516443 -79.216011 -0.50639445 -92.084702
9205562500 -1.23358 120.7322 -8.5523157 -78.697472 -8.5539341 -79.248459 -0.50886905 -92.097755
9205625000 -1.2292439 120.74058 -8.5508738 -78.690773 -8.5570726 -79.207146 -0.50751853 -92.053947
9205687500 -1.2286106 120.75401 -8.5479221 -78.709724 -8.5494385 -79.276382 -0.508816 -92.07663
9205750000 -1.2355536 120.72996 -8.5544491 -78.709648 -8.5425463 -79.210495 -0.50226247 -92.072418
9205812500 -1.2267785 120.72193 -8.5407438 -78.727943 -8.5456982 -79.228661 -0.51098841 -92.035103
9205875000 -1.2264754 120.73937 -8.5517931 -78.676651 -8.5524578 -79.218216 -0.51178926 -91.994667
9205937500 -1.2289425 120.7111 -8.5502377 -78.695572 -8.5446825 -79.247063 -0.5124684 -91.942154
9206000000 -1.2308174 120.64512 -8.5490713 -78.69426 -8.5467834 -79.135635 -0.50881201 -91.882629
9206062500 -1.2284846 120.68552 -8.5504551 -78.653946 -8.5494518 -79.224892 -0.51230556 -91.920799
9206125000 -1.2295858 120.68514 -8.5458393 -78.66877 -8.5423212 -79.220871 -0.51073593 -91.896965
9206187500 -1.2331042 120.66615 -8.5386562 -78.671974 -8.5401316 -79.244797 -0.51126438 -91.898727
9206250000 -1.225425 120.60925 -8.5337486 -78.735344 -8.5398512 -79.238258 -0.50813413 -91.860031
9206312500 -1.2261459 120.61478 -8.5390291 -78.716034 -8.5379648 -79.219742 -0.50905943 -91.847076
9206375000 -1.2288355 120.59653 -8.5368452 -78.678978 -8.5310001 -79.268181 -0.50968409 -91.858147
9206437500 -1.2332982 120.59692 -8.544363 -78.69622 -8.5297976 -79.249146 -0.50350267 -91.863083
9206500000 -1.2290965 120.58919 -8.5394325 -78.684555 -8.5292225 -79.233429 -0.507191 -91.812172
9206562500 -1.2322443 120.5708 -8.5364523 -78.687683 -8.5214262 -79.260239 -0.50089055 -91.81591
9206625000 -1.2324952 120.53622 -8.5237532 -78.672424 -8.5195837 -79.195007 -0.49677238 -91.766365
9206687500 -1.2379203 120.54842 -8.5279512 -78.695717 -8.5208559 -79.232651 -0.497715 -91.755463
9206750000 -1.2297276 120.52205 -8.5268269 -78.693764 -8.5218029 -79.186699 -0.49762198 -91.680008
9206812500 -1.2381864 120.51071 -8.5276489 -78.652519 -8.5124407 -79.246605 -0.5029282 -91.713455
9206875000 -1.2373421 120.47473 -8.5270519 -78.671631 -8.512989 -79.210869 -0.49761739 -91.650688
9206937500 -1.2364132 120.44044 -8.5261459 -78.700356 -8.5153666 -79.228142 -0.50463694 -91.679565
9207000000 -1.2335609 120.46846 -8.5255632 -78.703651 -8.5267878 -79.202667 -0.50594813 -91.625412
9207062500 -1.2265584 120.41479 -8.5218534 -78.726143 -8.5137291 -79.199371 -0.50703388 -91.642975
9207125000 -1.2287339 120.41795 -8.5304012 -78.711372 -8.5285301 -79.18367 -0.51288414 -91.626411
9207187500 -1.2301426 120.3881 -8.5286198 -78.661575 -8.5290899 -79.191841 -0.51953632 -91.582169
9207250000 -1.2241334 120.36991 -8.535059 -78.692169 -8.5272017 -79.186813 -0.52002364 -91.582664
9207312500 -1.2263876 120.34653 -8.5326996 -78.719337 -8.5269022 -79.198196 -0.52438927 -91.608406
9207375000 -1.229985 120.26401 -8.526926 -78.720291 -8.5353851 -79.224953 -0.52195102 -91.604729
9207437500 -1.2306218 120.29865 -8.5266666 -78.699989 -8.5178528 -79.211044 -0.51761347 -91.55468
9207500000 -1.2355596 120.30997 -8.5269318 -78.707909 -8.5210876 -79.230835 -0.52043676 -91.589172
9207562500 -1.2335807 120.26989 -8.5197382 -78.679657 -8.5152035 -79.203369 -0.51989925 -91.549248
9207625000 -1.2358434 120.22888 -8.523634 -78.785683 -8.5114355 -79.231674 -0.52162063 -91.524734
9207687500 -1.2323068 120.25126 -8.5236435 -78.684494 -8.5145702 -79.213188 -0.51621199 -91.532982
9207750000 -1.2387407 120.27782 -8.5201778 -78.686874 -8.515564 -79.18708 -0.51446712 -91.486221
9207812500 -1.2370907 120.21032 -8.5206261 -78.77739 -8.512332 -79.26403 -0.50739616 -91.492538
9207875000 -1.2412049 120.22539 -8.5179071 -78.718384 -8.5166931 -79.21508 -0.50945908 -91.455681
9207937500 -1.2404574 120.23573 -8.522007 -78.669998 -8.5203543 -79.23304 -0.51032043 -91.401001
9208000000 -1.2379222 120.26417 -8.5142317 -78.64772 -8.5185785 -79.24794 -0.50775456 -91.400055
9208062500 -1.2385714 120.19527 -8.51756 -78.684616 -8.5155182 -79.200569 -0.51510853 -91.36425
9208125000 -1.2407874 120.18708 -8.5141487 -78.735245 -8.5115261 -79.208412 -0.51521099 -91.327766
9208187500 -1.2326372 120.1977 -8.5097075 -78.653191 -8.5171137 -79.243515 -0.51713055 -91.328407
9208250000 -1.241749 120.16817 -8.523284 -78.691696 -8.5088329 -79.189339 -0.52021784 -91.274437
9208312500 -1.2344837 120.16171 -8.5161324 -78.648399 -8.5148935 -79.163437 -0.52507895 -91.238876
9208375000 -1.2348509 120.14574 -8.5192156 -78.714355 -8.5155926 -79.137192 -0.53282607 -91.279114
9208437500 -1.2347661 120.14294 -8.5167494 -78.673004 -8.5114851 -79.170509 -0.52292681 -91.234116
9208500000 -1.2356132 120.08527 -8.5085068 -78.766319 -8.5074005 -79.177948 -0.51776248 -91.255478
9208562500 -1.2369995 120.10661 -8.5095921 -78.720512 -8.5026855 -79.17897 -0.52032208 -91.216118
9208625000 -1.2376748 120.0547 -8.5143042 -78.664627 -8.5096359 -79.179749 -0.52277339 -91.215271
9208687500 -1.2375646 120.02557 -8.504056 -78.757973 -8.5055523 -79.23452 -0.51522857 -91.242455
9208750000 -1.2381341 119.99052 -8.5110445 -78.762863 -8.5075817 -79.249275 -0.52295572 -91.199013
9208812500 -1.2389774 119.99303 -8.5110254 -78.692184 -8.5041866 -79.214081 -0.52666289 -91.181664
9208875000 -1.2331837 120.01389 -8.4990091 -78.744438 -8.4993887 -79.189766 -0.52239382 -91.209312
9208937500 -1.241922 120.03368 -8.5050964 -78.749153 -8.5046282 -79.166954 -0.51894712 -91.143585
9209000000 -1.2406255 120.04102 -8.5066805 -78.659653 -8.4981337 -79.190315 -0.51755774 -91.195908
9209062500 -1.2473829 120.02805 -8.5050449 -78.693886 -8.5023174 -79.178169 -0.52356255 -91.138107
9209125000 -1.2423019 120.02787 -8.5022049 -78.683212 -8.4969053 -79.183556 -0.51911402 -91.106155
9209187500 -1.2403843 119.99982 -8.5093918 -78.682846 -8.4993525 -79.188675 -0.52109534 -91.088951
9209250000 -1.236499 119.98717 -8.5019646 -78.644707 -8.4953251 -79.136078 -0.52118188 -91.077751
9209312500 -1.2369051 119.97513 -8.4862394 -78.61657 -8.5004835 -79.158852 -0.52357489 -91.074722
9209375000 -1.2340586 119.94518 -8.4977388 -78.641472 -8.5062027 -79.135353 -0.52251679 -91.031105
9209437500 -1.2354261 119.9101 -8.4921417 -78.641205 -8.4950199 -79.183395 -0.52234834 -91.000694
9209500000 -1.2366103 119.90372 -8.4978361 -78.699615 -8.5029726 -79.193649 -0.5240733 -90.973824
9209562500 -1.2369366 119.89377 -8.4989977 -78.659889 -8.4990034 -79.157654 -0.52097827 -90.942238
9209625000 -1.2399054 119.84645 -8.4975338 -78.738922 -8.4919777 -79.159737 -0.51741737 -90.936737
9209687500 -1.2416389 119.8446 -8.4950361 -78.746796 -8.4987478 -79.169098 -0.52516001 -90.914886
9209750000 -1.2419239 119.82508 -8.4988022 -78.741928 -8.4934053 -79.165649 -0.5200755 -90.917923
9209812500 -1.2425441 119.81654 -8.4904995 -78.741478 -8.4965878 -79.175209 -0.52051204 -90.904427
9209875000 -1.2431906 119.82484 -8.5025301 -78.71508 -8.4868717 -79.191559 -0.51823866 -90.854073
9209937500 -1.2368475 119.78044 -8.4894495 -78.729286 -8.4869337 -79.198853 -0.51153481 -90.873085
9210000000 -1.2454389 119.79729 -8.4992437 -78.739525 -8.4918365 -79.166557 -0.52262723 -90.856041
9210062500 -1.2412766 119.75948 -8.4885187 -78.700127 -8.4798613 -79.147049 -0.51105344 -90.811646
9210125000 -1.2397326 119.73954 -8.4954548 -78.674675 -8.4851122 -79.183258 -0.51666141 -90.817299
9210187500 -1.2392987 119.7596 -8.4894371 -78.7024 -8.4858999 -79.129433 -0.51832277 -90.800056
9210250000 -1.2386643 119.74495 -8.4937258 -78.700783 -8.4869041 -79.146233 -0.52475989 -90.776649
9210312500 -1.2342693 119.73138 -8.4843473 -78.68486 -8.4790106 -79.109665 -0.52019054 -90.725151
9210375000 -1.2296493 119.69778 -8.4872532 -78.656227 -8.4911766 -79.094254 -0.52586681 -90.739204
9210437500 -1.2347789 119.71662 -8.4877443 -78.663498 -8.4812279 -79.105019 -0.52635425 -90.696327
9210500000 -1.2362282 119.67323 -8.4893188 -78.672218 -8.48277 -79.095604 -0.53041619 -90.649574
9210562500 -1.231748 119.66969 -8.4836779 -78.655266 -8.4822359 -79.139313 -0.53221893 -90.677406
9210625000 -1.23575 119.63858 -8.4888916 -78.676849 -8.481328 -79.104019 -0.52918386 -90.657639
9210687500 -1.2356564 119.61062 -8.4901514 -78.688538 -8.4818954 -79.165916 -0.5308457 -90.709465
9210750000 -1.238248 119.61839 -8.4943094 -78.666176 -8.4761944 -79.1856 -0.53010517 -90.612358
9210812500 -1.2364058 119.58695 -8.4866495 -78.717247 -8.476819 -79.109558 -0.53720659 -90.595978
9210875000 -1.2347597 119.54177 -8.4829435 -78.654495 -8.4777832 -79.194046 -0.53873032 -90.617493
9210937500 -1.2377412 119.55553 -8.4865551 -78.646439 -8.4809093 -79.125885 -0.53575462 -90.526024
9211000000 -1.2411345 119.5485 -8.4911184 -78.61261 -8.4765425 -79.198601 -0.53586876 -90.59111
9211062500 -1.2385379 119.50904 -8.4758835 -78.643219 -8.4726171 -79.213593 -0.53138375 -90.609261
9211125000 -1.2419358 119.54693 -8.4779377 -78.655647 -8.4808521 -79.1493 -0.5324204 -90.56414
9211187500 -1.2417578 119.48895 -8.4764013 -78.69767 -8.4788437 -79.186119 -0.53001225 -90.579857
9211250000 -1.2414895 119.50865 -8.4860945 -78.70256 -8.4714832 -79.175468 -0.52707076 -90.575157
9211312500 -1.2516712 119.52496 -8.4775839 -78.743591 -8.4748793 -79.185471 -0.52611667 -90.568413
9211375000 -1.2476314 119.51537 -8.475441 -78.662285 -8.4785938 -79.153564 -0.52627653 -90.467392
9211437500 -1.248332 119.48411 -8.4823189 -78.73867 -8.4683361 -79.216164 -0.52602309 -90.506981
9211500000 -1.2446587 119.48595 -8.4750748 -78.618568 -8.4757824 -79.175827 -0.52426648 -90.467644
9211562500 -1.2448411 119.44246 -8.4774876 -78.675697 -8.4736795 -79.138695 -0.53036201 -90.419868
9211625000 -1.2477397 119.43845 -8.4744596 -78.666504 -8.4654007 -79.158882 -0.53248221 -90.433449
9211687500 -1.2453481 119.40291 -8.4677982 -78.706497 -8.4686565 -79.129959 -0.53739661 -90.418243
9211750000 -1.2450306 119.40052 -8.4678993 -78.668137 -8.4594831 -79.137482 -0.52750123 -90.43264
9211812500 -1.2477927 119.3504 -8.4815741 -78.6483 -8.4727049 -79.156235 -0.53769636 -90.355118
9211875000 -1.2472205 119.35984 -8.4757547 -78.665741 -8.4787779 -79.14183 -0.54515165 -90.373535
9211937500 -1.2453532 119.30871 -8.4636717 -78.707153 -8.474576 -79.126198 -0.53754032 -90.284348
9212000000 -1.243268 119.29118 -8.4637194 -78.685249 -8.4711666 -79.094124 -0.53998584 -90.275787
9212062500 -1.2485886 119.28393 -8.4670992 -78.708084 -8.4621525 -79.1064 -0.53864795 -90.260712
9212125000 -1.2553061 119.25764 -8.4625597 -78.638084 -8.468174 -79.082825 -0.53735226 -90.166649
9212187500 -1.247188 119.24503 -8.4630785 -78.735481 -8.4687824 -79.102707 -0.53864831 -90.191002
9212250000 -1.2522533 119.2068 -8.4630222 -78.70504 -8.458807 -79.123756 -0.54033303 -90.199402
9212312500 -1.248932 119.22075 -8.464674 -78.659256 -8.4574089 -79.112427 -0.53441364 -90.164658
