!Agilent Technologies,N5242A,MY51221714,A.09.90.19
!Agilent N5242A: A.09.90.19
!Date: Saturday, March 16, 2024 08:54:05
!Correction: S11(Full 2 Port(1,2)) 
!S21(Full 2 Port(1,2)) 
!S12(Full 2 Port(1,2)) 
!S22(Full 2 Port(1,2)) 
!S2P File: Measurements: S11, S21, S12, S22:
# Hz S  dB   R 50
9200000000 -1.1928083 122.16205 -8.639864 -78.708878 -8.6240892 -79.196198 -0.46591172 -93.832939
9200062500 -1.2004672 122.10183 -8.6392832 -78.722305 -8.6315918 -79.183327 -0.47429371 -93.859238
9200125000 -1.1945614 122.14739 -8.6347971 -78.646446 -8.6266975 -79.178596 -0.46258822 -93.826088
9200187500 -1.1952319 122.1216 -8.6323624 -78.716766 -8.6259832 -79.216431 -0.46885759 -93.860985
9200250000 -1.1919241 122.10321 -8.6352673 -78.660446 -8.6165133 -79.200195 -0.46590239 -93.81311
9200312500 -1.1963645 122.05453 -8.6338243 -78.725388 -8.6113529 -79.225281 -0.47013766 -93.791618
9200375000 -1.1974268 122.10478 -8.635582 -78.709503 -8.61514 -79.238441 -0.46488881 -93.803535
9200437500 -1.1930516 122.06578 -8.6340828 -78.700333 -8.6201687 -79.212921 -0.47106701 -93.79583
9200500000 -1.1916229 122.01009 -8.625205 -78.742081 -8.6197681 -79.21563 -0.47376493 -93.752579
9200562500 -1.1938664 122.00191 -8.6337805 -78.789864 -8.6186457 -79.185516 -0.47441533 -93.735123
9200625000 -1.1913257 122.01271 -8.6292629 -78.712509 -8.6058817 -79.23819 -0.47663403 -93.720161
9200687500 -1.2002658 122.00832 -8.6293745 -78.650627 -8.6109209 -79.185707 -0.4776383 -93.677696
9200750000 -1.1985958 121.99749 -8.6322117 -78.621162 -8.6063108 -79.14315 -0.48484537 -93.607475
9200812500 -1.1934842 121.96285 -8.6353111 -78.648048 -8.6094351 -79.164536 -0.47958493 -93.594208
9200875000 -1.1892439 121.97255 -8.6276598 -78.593346 -8.6059484 -79.186882 -0.4879134 -93.569321
9200937500 -1.1958127 121.94841 -8.6318827 -78.626221 -8.6038237 -79.116081 -0.47922438 -93.516205
9201000000 -1.1943864 121.95281 -8.6198044 -78.644653 -8.6072435 -79.209198 -0.48218933 -93.594025
9201062500 -1.194189 121.91162 -8.6150045 -78.691307 -8.6122847 -79.144196 -0.48250377 -93.557587
9201125000 -1.196573 121.89627 -8.6285782 -78.657265 -8.6075964 -79.155373 -0.47926483 -93.540962
9201187500 -1.1885394 121.8929 -8.6087103 -78.673668 -8.6074724 -79.119438 -0.48050711 -93.482437
9201250000 -1.1906168 121.87149 -8.6132116 -78.696617 -8.6091375 -79.196388 -0.48330173 -93.487946
9201312500 -1.1942616 121.82922 -8.6140776 -78.708931 -8.6142626 -79.159531 -0.4838565 -93.491646
9201375000 -1.1979843 121.85484 -8.6260309 -78.731636 -8.6160355 -79.195396 -0.48634982 -93.480843
9201437500 -1.1955618 121.81792 -8.6175089 -78.680183 -8.6108437 -79.158195 -0.48190865 -93.481216
9201500000 -1.2009583 121.82105 -8.6215706 -78.691727 -8.6094465 -79.202614 -0.4816834 -93.483582
9201562500 -1.2006298 121.82932 -8.6253099 -78.640625 -8.6052561 -79.11235 -0.47634846 -93.451897
9201625000 -1.1994046 121.79601 -8.6246328 -78.672691 -8.6021805 -79.160461 -0.47497007 -93.478516
9201687500 -1.192243 121.81776 -8.6212921 -78.692154 -8.6138487 -79.166733 -0.48858353 -93.449791
9201750000 -1.1950434 121.77296 -8.6193104 -78.72171 -8.6127043 -79.143257 -0.49067047 -93.403229
9201812500 -1.1918163 121.75875 -8.6167021 -78.73568 -8.6069183 -79.159492 -0.48610073 -93.363037
9201875000 -1.1935712 121.73613 -8.6196365 -78.664864 -8.6058922 -79.194931 -0.48818058 -93.336845
9201937500 -1.1955698 121.71714 -8.6119776 -78.685707 -8.6041803 -79.118652 -0.48487198 -93.292465
9202000000 -1.1892169 121.71621 -8.6057529 -78.645271 -8.5990515 -79.170013 -0.48036313 -93.313118
9202062500 -1.1925577 121.68369 -8.6122007 -78.680618 -8.6073236 -79.179192 -0.49106613 -93.280861
9202125000 -1.196594 121.67601 -8.6141062 -78.65554 -8.6034746 -79.105179 -0.48276845 -93.240288
9202187500 -1.191214 121.66023 -8.6051903 -78.647308 -8.5959463 -79.197426 -0.47731322 -93.271454
9202250000 -1.1970271 121.6522 -8.5997782 -78.703613 -8.6011477 -79.202477 -0.48542485 -93.313202
9202312500 -1.195057 121.63077 -8.5990925 -78.64476 -8.5925846 -79.222733 -0.47697589 -93.232956
9202375000 -1.1956525 121.61625 -8.5990334 -78.671577 -8.6065826 -79.141472 -0.48808885 -93.163353
9202437500 -1.1938546 121.6349 -8.5977182 -78.685356 -8.600049 -79.211426 -0.4878535 -93.228165
9202500000 -1.2011507 121.59469 -8.6062317 -78.662987 -8.5931063 -79.121086 -0.49124289 -93.152039
9202562500 -1.1967748 121.60753 -8.6042767 -78.714218 -8.6014519 -79.205544 -0.48969042 -93.211388
9202625000 -1.1993543 121.59543 -8.6067848 -78.609055 -8.5982046 -79.135399 -0.49245653 -93.130089
9202687500 -1.1986638 121.57504 -8.6099482 -78.693016 -8.5994959 -79.138969 -0.49617943 -93.089691
9202750000 -1.1984873 121.58418 -8.6028538 -78.672615 -8.6004658 -79.114502 -0.4992716 -93.114502
9202812500 -1.1965104 121.54307 -8.60707 -78.675209 -8.6060734 -79.132256 -0.49656641 -93.10643
9202875000 -1.1925833 121.54063 -8.5983295 -78.671677 -8.5986767 -79.221863 -0.49199972 -93.095306
9202937500 -1.2017593 121.49512 -8.6037102 -78.692566 -8.5937824 -79.131584 -0.49089542 -92.991699
9203000000 -1.1923651 121.45193 -8.5913725 -78.68959 -8.5918484 -79.200531 -0.49707481 -93.007561
9203062500 -1.1985116 121.44669 -8.5962915 -78.703575 -8.5932999 -79.180199 -0.49530968 -93.033745
9203125000 -1.1977181 121.39383 -8.5955725 -78.755104 -8.5808334 -79.162315 -0.49103871 -93.023026
9203187500 -1.1964012 121.4053 -8.5951843 -78.73217 -8.5824976 -79.217392 -0.4926036 -92.994087
9203250000 -1.1916533 121.44289 -8.5958214 -78.639183 -8.585844 -79.131134 -0.4831382 -92.903603
9203312500 -1.1977971 121.38391 -8.594593 -78.69355 -8.5925789 -79.115509 -0.48998252 -92.903465
9203375000 -1.1967767 121.41576 -8.5918741 -78.675301 -8.5918865 -79.193733 -0.48878494 -92.932396
9203437500 -1.1961508 121.3912 -8.5871029 -78.695839 -8.586545 -79.210625 -0.48782122 -92.922241
9203500000 -1.1934466 121.37453 -8.5901804 -78.727325 -8.5837259 -79.173897 -0.49357376 -92.851517
9203562500 -1.1950302 121.35189 -8.5894756 -78.715401 -8.5884705 -79.224709 -0.49438733 -92.889
9203625000 -1.2013543 121.32434 -8.5946608 -78.730156 -8.5888195 -79.144325 -0.49631509 -92.827385
9203687500 -1.1935718 121.35706 -8.5853844 -78.638725 -8.5915165 -79.21563 -0.49822673 -92.844223
9203750000 -1.2021594 121.28743 -8.5885258 -78.695084 -8.5838366 -79.214119 -0.49806327 -92.844498
9203812500 -1.1977457 121.30125 -8.5838804 -78.690338 -8.5873098 -79.163536 -0.5018751 -92.764389
9203875000 -1.1985214 121.25382 -8.5902758 -78.726814 -8.5853138 -79.130432 -0.50530487 -92.793777
9203937500 -1.1983243 121.26585 -8.5915327 -78.696304 -8.5733089 -79.164742 -0.49441192 -92.798882
9204000000 -1.1933484 121.2509 -8.5822954 -78.68132 -8.5751114 -79.069061 -0.50222564 -92.709656
9204062500 -1.191636 121.21556 -8.5927668 -78.653595 -8.5816669 -79.156464 -0.51110917 -92.709297
9204125000 -1.1931264 121.20473 -8.5851164 -78.660172 -8.5702467 -79.154755 -0.50691223 -92.716011
9204187500 -1.1889416 121.20006 -8.5854769 -78.703651 -8.5629892 -79.143257 -0.50421 -92.719124
9204250000 -1.1911799 121.22213 -8.5837536 -78.673065 -8.5609436 -79.132248 -0.50403547 -92.67363
9204312500 -1.1896811 121.19745 -8.583149 -78.689407 -8.5812902 -79.128357 -0.51274151 -92.639488
9204375000 -1.1970739 121.19807 -8.5890627 -78.658401 -8.5656548 -79.163277 -0.49849752 -92.650665
9204437500 -1.1869551 121.17294 -8.5794792 -78.639702 -8.5781612 -79.117416 -0.50494188 -92.599739
9204500000 -1.1906692 121.11774 -8.5787497 -78.629349 -8.5687389 -79.137779 -0.49862057 -92.605766
9204562500 -1.1882933 121.11739 -8.5796585 -78.604164 -8.5668116 -79.101318 -0.49295422 -92.530083
9204625000 -1.191584 121.07909 -8.569912 -78.650848 -8.5657587 -79.144836 -0.49318144 -92.541916
9204687500 -1.1903385 121.08487 -8.5773611 -78.714554 -8.5679665 -79.11824 -0.50162125 -92.528297
9204750000 -1.1979077 121.10187 -8.5771465 -78.646675 -8.5625057 -79.181038 -0.49751681 -92.51799
9204812500 -1.192939 121.09095 -8.5751562 -78.672432 -8.5662594 -79.156349 -0.50346935 -92.556297
9204875000 -1.2012961 121.07147 -8.5816174 -78.635262 -8.5673761 -79.14048 -0.50355756 -92.471764
9204937500 -1.1969794 121.04326 -8.574048 -78.651016 -8.5674953 -79.037437 -0.49954411 -92.430695
9205000000 -1.1986496 121.10766 -8.5815649 -78.598709 -8.5604954 -79.111359 -0.50015181 -92.471115
9205062500 -1.1999727 121.03941 -8.5746346 -78.572166 -8.5534067 -79.171967 -0.49986643 -92.481079
9205125000 -1.2022479 121.005 -8.572155 -78.584381 -8.5655165 -79.122643 -0.50280774 -92.433594
9205187500 -1.204241 120.95609 -8.5735779 -78.642433 -8.5642204 -79.143929 -0.49833688 -92.415352
9205250000 -1.2032583 120.96812 -8.5705185 -78.616249 -8.5614109 -79.185295 -0.49329048 -92.424034
9205312500 -1.2103088 120.91904 -8.5671978 -78.634239 -8.5651541 -79.164764 -0.49401045 -92.38842
9205375000 -1.2020161 120.90144 -8.5658169 -78.613747 -8.5734758 -79.165993 -0.49834329 -92.388634
9205437500 -1.2041759 120.88718 -8.5655451 -78.657288 -8.5671291 -79.136253 -0.50247455 -92.356949
9205500000 -1.2010504 120.87058 -8.5598278 -78.617043 -8.5637064 -79.150551 -0.49413359 -92.367287
9205562500 -1.2017567 120.88255 -8.5655584 -78.635468 -8.5676098 -79.172318 -0.50248641 -92.345337
9205625000 -1.1999686 120.86726 -8.5644627 -78.657013 -8.5697603 -79.117897 -0.50071955 -92.326752
9205687500 -1.2061231 120.84444 -8.569869 -78.617577 -8.5651836 -79.078705 -0.50134254 -92.305367
9205750000 -1.2041816 120.84698 -8.5697107 -78.660339 -8.5620556 -79.084595 -0.50288367 -92.299759
9205812500 -1.2042542 120.8275 -8.5680304 -78.658188 -8.5589561 -79.071999 -0.50217873 -92.286461
9205875000 -1.195173 120.82019 -8.5581598 -78.696449 -8.5656605 -79.115013 -0.50840378 -92.253418
9205937500 -1.1978757 120.81596 -8.5643368 -78.59285 -8.5689001 -79.130882 -0.50465423 -92.250092
9206000000 -1.1984499 120.79559 -8.5668526 -78.625435 -8.5576715 -79.112747 -0.50384629 -92.217636
9206062500 -1.196355 120.76385 -8.5504398 -78.671448 -8.5568638 -79.103256 -0.49854496 -92.162781
9206125000 -1.1991986 120.79455 -8.5586538 -78.644501 -8.5553398 -79.118774 -0.50522119 -92.191582
9206187500 -1.1929175 120.74492 -8.5479212 -78.611389 -8.5537443 -79.094322 -0.50009376 -92.155251
9206250000 -1.1987438 120.7856 -8.5563316 -78.611137 -8.5557127 -79.097618 -0.50601858 -92.113113
9206312500 -1.1957917 120.74445 -8.5574436 -78.629105 -8.5565767 -79.185905 -0.51119328 -92.139732
9206375000 -1.1952219 120.74825 -8.5514269 -78.649765 -8.5378485 -79.189247 -0.50389171 -92.129303
9206437500 -1.1972537 120.75404 -8.5476599 -78.639969 -8.5484819 -79.155159 -0.50037307 -92.133408
9206500000 -1.1955292 120.75629 -8.5420227 -78.621338 -8.5391293 -79.110313 -0.49493861 -92.063751
9206562500 -1.2018182 120.69492 -8.5458708 -78.621635 -8.5427418 -79.149979 -0.49803528 -92.05304
9206625000 -1.2004763 120.68406 -8.5444012 -78.596489 -8.5382357 -79.136971 -0.4928228 -91.977692
9206687500 -1.2020031 120.65953 -8.5427113 -78.572594 -8.5366497 -79.104538 -0.48851457 -92.009544
9206750000 -1.2061962 120.66109 -8.5463543 -78.579346 -8.5390873 -79.143417 -0.49680415 -91.946213
9206812500 -1.2075117 120.63916 -8.5484028 -78.546692 -8.5314674 -79.13176 -0.49467236 -91.961273
9206875000 -1.2057638 120.61739 -8.537282 -78.58532 -8.523675 -79.107857 -0.48621204 -91.935486
9206937500 -1.2037548 120.6123 -8.5415516 -78.586716 -8.5263901 -79.112511 -0.49714077 -91.917282
9207000000 -1.203272 120.58374 -8.5394821 -78.57222 -8.5373268 -79.138542 -0.50576985 -91.924232
9207062500 -1.1975693 120.54419 -8.5330296 -78.644722 -8.5358553 -79.098305 -0.50141418 -91.858215
9207125000 -1.1903102 120.56133 -8.537179 -78.586288 -8.5403385 -79.069221 -0.50774717 -91.884697
9207187500 -1.1918603 120.50096 -8.5311441 -78.688469 -8.5420885 -79.116722 -0.5056147 -91.891457
9207250000 -1.1938837 120.5006 -8.53936 -78.651772 -8.5467672 -79.087189 -0.51443255 -91.900322
9207312500 -1.196472 120.50969 -8.5431433 -78.604271 -8.5310745 -79.06385 -0.50650597 -91.846245
9207375000 -1.200369 120.465 -8.5386 -78.625122 -8.5334196 -79.087639 -0.51206744 -91.837669
9207437500 -1.1965209 120.4062 -8.5364733 -78.645546 -8.5383501 -79.061493 -0.51182407 -91.801826
9207500000 -1.2007608 120.41014 -8.5381155 -78.686737 -8.5250816 -79.110069 -0.50771368 -91.806221
9207562500 -1.2050912 120.3613 -8.5380058 -78.671249 -8.5294447 -79.142921 -0.512869 -91.832596
9207625000 -1.2042364 120.38385 -8.5395651 -78.656792 -8.5161991 -79.087357 -0.5064401 -91.758774
9207687500 -1.2038612 120.35474 -8.5349751 -78.703209 -8.5251818 -79.140831 -0.50585121 -91.811714
9207750000 -1.2037181 120.3393 -8.5329847 -78.671143 -8.5271635 -79.1586 -0.50352198 -91.788788
9207812500 -1.2056489 120.35271 -8.5308008 -78.662827 -8.5352507 -79.094406 -0.50645441 -91.740517
9207875000 -1.2039716 120.36861 -8.5307741 -78.657768 -8.5272694 -79.17749 -0.50267214 -91.738747
9207937500 -1.2054654 120.38242 -8.5367031 -78.622749 -8.5275669 -79.189232 -0.498431 -91.691216
9208000000 -1.2098736 120.35821 -8.526535 -78.597061 -8.5264416 -79.192764 -0.49826628 -91.680054
9208062500 -1.207155 120.33455 -8.5308971 -78.614723 -8.5344152 -79.129105 -0.50922984 -91.621376
9208125000 -1.2067295 120.34995 -8.5361423 -78.591057 -8.5245018 -79.162598 -0.5054422 -91.633499
9208187500 -1.2042896 120.29664 -8.5318871 -78.593689 -8.5231323 -79.093369 -0.51096565 -91.585205
9208250000 -1.2042381 120.30452 -8.5334997 -78.57428 -8.5263767 -79.074928 -0.51534557 -91.543434
9208312500 -1.2013487 120.27772 -8.5265741 -78.546944 -8.5302 -79.088287 -0.51330024 -91.550583
9208375000 -1.205533 120.28112 -8.5303936 -78.653786 -8.532939 -79.086472 -0.52112079 -91.534088
9208437500 -1.209662 120.27369 -8.5276413 -78.597862 -8.5175285 -79.092171 -0.51005155 -91.529259
9208500000 -1.2060541 120.23532 -8.5311785 -78.602722 -8.5202913 -79.096962 -0.51417929 -91.564331
9208562500 -1.2056881 120.22107 -8.5199118 -78.655266 -8.5180626 -79.08342 -0.51270854 -91.470314
9208625000 -1.2061675 120.19039 -8.5250845 -78.608009 -8.5170822 -79.150749 -0.51148081 -91.469315
9208687500 -1.2067684 120.14864 -8.5262213 -78.69207 -8.5040598 -79.101326 -0.50092179 -91.510811
9208750000 -1.2081262 120.12688 -8.5159168 -78.659973 -8.511261 -79.103371 -0.50700861 -91.459763
9208812500 -1.199921 120.13319 -8.5147247 -78.634384 -8.5121756 -79.127281 -0.50970972 -91.489586
9208875000 -1.2057531 120.14498 -8.5166531 -78.608688 -8.5159121 -79.11969 -0.50591689 -91.42186
9208937500 -1.2036244 120.18056 -8.5211058 -78.577698 -8.5124598 -79.08181 -0.51118594 -91.400581
9209000000 -1.2077606 120.16206 -8.522543 -78.602654 -8.506526 -79.04203 -0.51132703 -91.419884
9209062500 -1.2043014 120.15695 -8.5119543 -78.607071 -8.5136538 -79.072533 -0.51035589 -91.388252
9209125000 -1.2060995 120.17436 -8.5214167 -78.59713 -8.5133495 -79.109764 -0.51610839 -91.385918
9209187500 -1.2022874 120.1836 -8.5221882 -78.563904 -8.5208807 -79.118935 -0.51634079 -91.368141
9209250000 -1.2062361 120.15454 -8.5120583 -78.580368 -8.5154915 -79.096703 -0.51208395 -91.392426
9209312500 -1.2043391 120.08054 -8.5093241 -78.603256 -8.5248346 -79.07682 -0.5168488 -91.285446
9209375000 -1.2036521 120.09039 -8.5080395 -78.619858 -8.5155764 -79.074448 -0.51519793 -91.305809
9209437500 -1.202957 120.05215 -8.4998007 -78.612778 -8.5116844 -79.106201 -0.52006316 -91.265175
9209500000 -1.1998268 120.0155 -8.5027323 -78.574081 -8.5213976 -79.1436 -0.52089703 -91.263756
9209562500 -1.2062824 120.03478 -8.51371 -78.57325 -8.5154934 -79.055367 -0.51905715 -91.222221
9209625000 -1.2071617 120.00105 -8.512578 -78.61454 -8.5100861 -79.0998 -0.51507831 -91.177841
9209687500 -1.2111945 119.99528 -8.5035601 -78.650246 -8.5089741 -79.10981 -0.51482743 -91.216614
9209750000 -1.2100621 119.98174 -8.5082779 -78.6026 -8.5077639 -79.108681 -0.51360869 -91.187126
9209812500 -1.204834 119.98304 -8.5004883 -78.665451 -8.5022335 -79.092804 -0.50700665 -91.166496
9209875000 -1.2103977 119.95016 -8.5092382 -78.640541 -8.5013371 -79.083664 -0.51050162 -91.139992
9209937500 -1.2096385 119.94663 -8.508997 -78.665413 -8.504777 -79.087746 -0.5106765 -91.151489
9210000000 -1.2110567 119.95085 -8.5023308 -78.615334 -8.4927244 -79.06839 -0.50835443 -91.116325
9210062500 -1.2095889 119.91206 -8.5078678 -78.640419 -8.5007105 -79.093315 -0.51549351 -91.091919
9210125000 -1.1990075 119.8996 -8.4946594 -78.612473 -8.4998503 -79.073242 -0.50738561 -91.035873
9210187500 -1.2025778 119.8796 -8.4965639 -78.600494 -8.4995832 -79.058487 -0.5113467 -91.058647
9210250000 -1.2059913 119.84824 -8.5041142 -78.581627 -8.4956579 -79.035355 -0.51044816 -91.041878
9210312500 -1.2033776 119.8843 -8.4957867 -78.528954 -8.4901438 -78.958298 -0.50733948 -90.976082
9210375000 -1.2013763 119.84462 -8.5034199 -78.570984 -8.5016317 -79.037117 -0.51755559 -91.011475
9210437500 -1.206355 119.81223 -8.4989653 -78.609688 -8.5059538 -78.999466 -0.52383131 -90.977455
9210500000 -1.208506 119.81521 -8.5026836 -78.60405 -8.4958429 -79.044891 -0.52004606 -90.979149
9210562500 -1.2007335 119.82283 -8.5038309 -78.579857 -8.4976606 -79.035294 -0.51996428 -90.936127
9210625000 -1.1989675 119.77697 -8.4977827 -78.563515 -8.4994755 -79.015068 -0.52862275 -90.925087
9210687500 -1.2016574 119.75043 -8.5081253 -78.598907 -8.5110188 -79.059875 -0.53440362 -90.96019
9210750000 -1.1999058 119.75647 -8.4934349 -78.574348 -8.4910917 -79.065758 -0.5285989 -90.909508
9210812500 -1.2056441 119.70441 -8.5048428 -78.579758 -8.5012684 -79.043365 -0.53315723 -90.889717
9210875000 -1.2030907 119.68732 -8.4994869 -78.567825 -8.4877863 -79.021957 -0.52447641 -90.869438
9210937500 -1.202147 119.67139 -8.4984932 -78.534599 -8.4937153 -79.124306 -0.52992707 -90.857613
9211000000 -1.206468 119.6649 -8.500639 -78.602959 -8.4936275 -79.069649 -0.52629906 -90.822594
9211062500 -1.2082047 119.66183 -8.4943628 -78.576469 -8.4881887 -79.080917 -0.52489972 -90.829643
9211125000 -1.2108179 119.63627 -8.4954529 -78.656517 -8.4903889 -79.097099 -0.52765703 -90.842743
9211187500 -1.2164508 119.66295 -8.5004997 -78.612053 -8.4899321 -79.111259 -0.52372557 -90.863968
9211250000 -1.2165723 119.64563 -8.4906006 -78.618637 -8.4839945 -79.098427 -0.51895684 -90.858055
9211312500 -1.2133251 119.62664 -8.4922876 -78.658806 -8.4878235 -79.08725 -0.51594073 -90.862206
9211375000 -1.2103145 119.64835 -8.4923706 -78.593994 -8.4857779 -79.069054 -0.51608545 -90.728432
9211437500 -1.2146161 119.59602 -8.4991665 -78.664612 -8.4903193 -79.076637 -0.5221023 -90.720444
9211500000 -1.2146398 119.60515 -8.4898758 -78.655914 -8.4856148 -79.069595 -0.52214146 -90.735512
9211562500 -1.2154255 119.56205 -8.482914 -78.659012 -8.4816017 -79.051094 -0.51964039 -90.723083
9211625000 -1.2149125 119.58646 -8.4952269 -78.55632 -8.4867659 -79.081818 -0.52873945 -90.695923
9211687500 -1.2154138 119.5649 -8.4912462 -78.599083 -8.4778948 -79.001221 -0.52239645 -90.636559
9211750000 -1.2087549 119.50832 -8.4825525 -78.55584 -8.4843292 -78.989838 -0.53134561 -90.665184
9211812500 -1.2126561 119.4889 -8.4787245 -78.600098 -8.4829082 -79.053261 -0.52607018 -90.659653
9211875000 -1.2182589 119.47715 -8.4849596 -78.664047 -8.4764414 -79.03289 -0.52660167 -90.580811
9211937500 -1.2218088 119.46848 -8.4781866 -78.635139 -8.4766655 -79.033409 -0.5233655 -90.588593
9212000000 -1.2173792 119.41606 -8.470583 -78.605217 -8.4840527 -79.055519 -0.53091836 -90.583298
9212062500 -1.2170528 119.43353 -8.4767485 -78.607071 -8.4731817 -79.061066 -0.52386266 -90.543007
9212125000 -1.2223301 119.40071 -8.4776964 -78.634224 -8.4767914 -79.049576 -0.52946103 -90.492058
9212187500 -1.2229611 119.38376 -8.469903 -78.624451 -8.4762478 -79.083519 -0.53125626 -90.497505
9212250000 -1.2193408 119.36689 -8.4738808 -78.613441 -8.4688549 -78.988144 -0.52598786 -90.436951
9212312500 -1.2142336 119.33351 -8.4665308 -78.657143 -8.4724617 -79.062683 -0.5275746 -90.475929
