!Agilent Technologies,N5242A,MY51221714,A.09.90.19
!Agilent N5242A: A.09.90.19
!Date: Saturday, March 16, 2024 08:55:18
!Correction: S11(Full 2 Port(1,2)) 
!S21(Full 2 Port(1,2)) 
!S12(Full 2 Port(1,2)) 
!S22(Full 2 Port(1,2)) 
!S2P File: Measurements: S11, S21, S12, S22:
# Hz S  dB   R 50
9200000000 -1.8928887 119.6048 -8.219985 -88.44001 -8.214222 -88.859848 -1.0751872 -95.442505
9200062500 -1.8979473 119.60944 -8.2223577 -88.398064 -8.2138662 -88.918137 -1.0758008 -95.453979
9200125000 -1.8947614 119.60932 -8.2209463 -88.439186 -8.2183218 -88.955864 -1.0772567 -95.439842
9200187500 -1.8913822 119.6152 -8.2216978 -88.392677 -8.2056332 -88.950691 -1.0777359 -95.465553
9200250000 -1.8935158 119.61276 -8.2152729 -88.371239 -8.2129765 -88.908409 -1.0831345 -95.426491
9200312500 -1.8935419 119.59552 -8.2196054 -88.421913 -8.2120018 -88.918076 -1.0775145 -95.388336
9200375000 -1.8916382 119.59319 -8.2204361 -88.420593 -8.2054491 -88.923576 -1.0827376 -95.400208
9200437500 -1.8905559 119.54451 -8.2226229 -88.417122 -8.2098083 -88.917648 -1.0870397 -95.366272
9200500000 -1.8957447 119.55553 -8.213233 -88.36705 -8.1996546 -88.895279 -1.0834682 -95.319557
9200562500 -1.8908317 119.4976 -8.2121525 -88.433151 -8.1944904 -88.934113 -1.0808803 -95.33522
9200625000 -1.8962535 119.52589 -8.215951 -88.429207 -8.2007961 -88.941566 -1.0852178 -95.28093
9200687500 -1.8958002 119.50308 -8.2194567 -88.42347 -8.1976442 -88.930099 -1.0932422 -95.274376
9200750000 -1.8969663 119.47001 -8.2096243 -88.315659 -8.1955185 -88.893044 -1.0897861 -95.209137
9200812500 -1.9032168 119.44997 -8.226346 -88.34845 -8.1983881 -88.933701 -1.0976894 -95.224182
9200875000 -1.8962487 119.42509 -8.2097216 -88.363785 -8.1967821 -88.874908 -1.1005521 -95.133087
9200937500 -1.8982097 119.43011 -8.2108421 -88.36174 -8.1921492 -88.897141 -1.0916569 -95.152649
9201000000 -1.8951919 119.40152 -8.2049999 -88.370506 -8.1945152 -88.909004 -1.0965297 -95.144676
9201062500 -1.8974289 119.43374 -8.2033377 -88.343857 -8.1939783 -88.886345 -1.0968448 -95.084862
9201125000 -1.8938732 119.37096 -8.2112465 -88.414261 -8.1987047 -88.901917 -1.0963773 -95.077553
9201187500 -1.8929586 119.36118 -8.2048674 -88.402 -8.1988697 -88.920479 -1.0963454 -95.076767
9201250000 -1.8962773 119.36739 -8.2096119 -88.377777 -8.1993389 -88.909088 -1.098912 -95.06897
9201312500 -1.8937508 119.30696 -8.1939363 -88.443909 -8.1946468 -88.924232 -1.0912473 -95.089226
9201375000 -1.8979182 119.33755 -8.2043934 -88.439491 -8.1940832 -88.936417 -1.0898619 -95.075714
9201437500 -1.900274 119.29044 -8.2061863 -88.466263 -8.1919737 -88.890335 -1.0926222 -95.063057
9201500000 -1.9078864 119.31305 -8.2050543 -88.44017 -8.1935196 -88.927742 -1.0895962 -95.087425
9201562500 -1.9077169 119.32547 -8.2163801 -88.380585 -8.1924267 -88.895859 -1.0887918 -95.045609
9201625000 -1.9009262 119.34092 -8.1996765 -88.410927 -8.1979847 -88.886772 -1.0961816 -95.012154
9201687500 -1.9031944 119.28109 -8.2017212 -88.421173 -8.1932783 -88.938812 -1.103186 -95.048508
9201750000 -1.9029508 119.23637 -8.1981239 -88.452652 -8.1907244 -88.91008 -1.096586 -94.966904
9201812500 -1.9043792 119.20596 -8.2012768 -88.393776 -8.1885977 -88.872604 -1.0979773 -94.924988
9201875000 -1.8981489 119.20657 -8.1993256 -88.424904 -8.1909199 -88.878319 -1.0972598 -94.935493
9201937500 -1.90312 119.23791 -8.1972198 -88.40815 -8.1778402 -88.889015 -1.0991746 -94.896446
9202000000 -1.8995401 119.18097 -8.1998339 -88.474785 -8.1730928 -88.913544 -1.0961956 -94.888931
9202062500 -1.8983047 119.13908 -8.1895351 -88.404709 -8.1836653 -88.940834 -1.1001681 -94.845695
9202125000 -1.8986269 119.16455 -8.1903429 -88.458679 -8.1843357 -88.872849 -1.0972418 -94.797569
9202187500 -1.9077383 119.14202 -8.1971245 -88.434555 -8.1917629 -88.924286 -1.1017345 -94.859642
9202250000 -1.8996265 119.11691 -8.1788502 -88.472786 -8.184639 -88.939278 -1.1007504 -94.862038
9202312500 -1.904101 119.11176 -8.1845407 -88.467728 -8.188962 -88.915718 -1.0941721 -94.809143
9202375000 -1.9021479 119.11755 -8.1758347 -88.433968 -8.1858139 -88.925644 -1.1019254 -94.802628
9202437500 -1.9049889 119.10276 -8.1840611 -88.46167 -8.1833572 -88.934868 -1.0973725 -94.79628
9202500000 -1.9101936 119.07944 -8.1877375 -88.400032 -8.1833115 -88.930283 -1.1043044 -94.72934
9202562500 -1.9070679 119.0782 -8.1890478 -88.458939 -8.1830568 -88.978844 -1.1032274 -94.779488
9202625000 -1.9122856 119.0745 -8.1914577 -88.454529 -8.1792116 -88.925003 -1.1103102 -94.727211
9202687500 -1.9073502 119.06358 -8.1920271 -88.396523 -8.1767817 -88.941177 -1.1091374 -94.711304
9202750000 -1.9093311 119.05366 -8.1901617 -88.414986 -8.172533 -88.905266 -1.1095675 -94.64045
9202812500 -1.9108456 119.01806 -8.1898556 -88.433891 -8.1776066 -88.941788 -1.1073017 -94.650101
9202875000 -1.9070952 118.98711 -8.1934204 -88.452766 -8.1772432 -88.945313 -1.1096091 -94.642876
9202937500 -1.9072325 118.97519 -8.1872807 -88.441544 -8.1740637 -88.894791 -1.1120341 -94.602264
9203000000 -1.9108089 118.9344 -8.188097 -88.528152 -8.1675863 -88.976051 -1.1114368 -94.618286
9203062500 -1.9090552 118.93795 -8.1843081 -88.481499 -8.1730518 -88.967705 -1.1082109 -94.62925
9203125000 -1.9042029 118.88115 -8.1797018 -88.505219 -8.1731472 -88.928673 -1.1125838 -94.561195
9203187500 -1.9097244 118.93124 -8.1821184 -88.475029 -8.171957 -88.960342 -1.1076349 -94.54245
9203250000 -1.9073181 118.87417 -8.1787586 -88.469696 -8.1632681 -88.92144 -1.1021236 -94.491516
9203312500 -1.9077818 118.87095 -8.1754341 -88.479904 -8.1684923 -88.955345 -1.1042767 -94.509178
9203375000 -1.911703 118.88538 -8.176178 -88.470291 -8.1687593 -88.933022 -1.1108812 -94.475098
9203437500 -1.9085962 118.8855 -8.1733341 -88.492386 -8.1640701 -88.948914 -1.1042296 -94.477097
9203500000 -1.9036499 118.83817 -8.1734295 -88.507217 -8.1675539 -88.906891 -1.1126137 -94.427162
9203562500 -1.9087143 118.84351 -8.1813431 -88.485916 -8.1676245 -88.956474 -1.104969 -94.430649
9203625000 -1.9138244 118.80727 -8.1837502 -88.502037 -8.1743574 -88.925613 -1.1169293 -94.419357
9203687500 -1.9088942 118.82162 -8.1636686 -88.490387 -8.172452 -88.971794 -1.1133957 -94.412712
9203750000 -1.9131994 118.78902 -8.1752911 -88.544449 -8.1759195 -88.9795 -1.1191473 -94.413734
9203812500 -1.9144802 118.75412 -8.1786594 -88.482506 -8.1705379 -88.933159 -1.1242665 -94.393723
9203875000 -1.9074087 118.74041 -8.1658087 -88.48423 -8.1659641 -88.908791 -1.1207919 -94.361511
9203937500 -1.9081488 118.7263 -8.1642246 -88.493591 -8.1726646 -88.930885 -1.1290281 -94.334084
9204000000 -1.9081423 118.75259 -8.173624 -88.481842 -8.1612825 -88.922592 -1.1313916 -94.351974
9204062500 -1.9153303 118.70302 -8.1756887 -88.465683 -8.1582794 -88.943253 -1.1249063 -94.300507
9204125000 -1.9011484 118.70023 -8.1665869 -88.474945 -8.1646843 -88.946404 -1.1292909 -94.293526
9204187500 -1.9041331 118.70417 -8.1726618 -88.476837 -8.1511335 -88.94059 -1.1284328 -94.26844
9204250000 -1.9040943 118.64056 -8.1733494 -88.496605 -8.1498575 -88.962776 -1.1278483 -94.253296
9204312500 -1.9083707 118.68684 -8.1715298 -88.452873 -8.1551304 -89.010887 -1.1249433 -94.270668
9204375000 -1.9084634 118.65388 -8.1673231 -88.453598 -8.1502018 -88.982346 -1.1198603 -94.236931
9204437500 -1.9050758 118.6265 -8.1702232 -88.474281 -8.1548977 -88.954102 -1.1191618 -94.177086
9204500000 -1.9065404 118.60334 -8.1619196 -88.481094 -8.1506157 -88.993942 -1.1217204 -94.189423
9204562500 -1.9045899 118.5648 -8.1614943 -88.504272 -8.1559887 -88.950584 -1.1195997 -94.152557
9204625000 -1.9057924 118.57471 -8.1622248 -88.448448 -8.1517487 -89.008553 -1.1205974 -94.143135
9204687500 -1.9045628 118.59727 -8.1479006 -88.447342 -8.1480017 -88.941246 -1.1175203 -94.134102
9204750000 -1.9103464 118.55158 -8.1612101 -88.466057 -8.1480074 -89.02877 -1.1169715 -94.122284
9204812500 -1.9128129 118.56404 -8.1632557 -88.444321 -8.152832 -88.986588 -1.1254767 -94.094803
9204875000 -1.9102405 118.56178 -8.1524467 -88.478539 -8.1584024 -88.92598 -1.1310641 -94.051559
9204937500 -1.9126133 118.55312 -8.1592722 -88.472198 -8.1475611 -88.979332 -1.1264768 -94.076874
9205000000 -1.9143018 118.49892 -8.1617107 -88.503601 -8.1474771 -88.974602 -1.126164 -94.091637
9205062500 -1.9126002 118.48782 -8.1478615 -88.459152 -8.1403065 -88.943398 -1.1260484 -94.020424
9205125000 -1.9150102 118.46395 -8.1515036 -88.491051 -8.1460876 -89.035751 -1.1225111 -94.062119
9205187500 -1.9191928 118.46786 -8.1429129 -88.441307 -8.1469088 -88.986145 -1.1193063 -94.010468
9205250000 -1.9230253 118.43233 -8.1564722 -88.440086 -8.1425524 -88.992287 -1.122038 -94.027039
9205312500 -1.9181918 118.42158 -8.1481838 -88.431297 -8.1486788 -88.997185 -1.1228912 -93.97245
9205375000 -1.9225644 118.37829 -8.1446381 -88.462234 -8.1439619 -89.006233 -1.1229924 -93.970978
9205437500 -1.920206 118.35453 -8.1516285 -88.464508 -8.1478262 -88.952782 -1.1214104 -93.972763
9205500000 -1.9245024 118.36307 -8.1512165 -88.483971 -8.1429901 -88.9795 -1.1274233 -93.928543
9205562500 -1.9138318 118.30951 -8.144145 -88.527496 -8.1427555 -88.959961 -1.1180372 -93.896896
9205625000 -1.9195203 118.37504 -8.151228 -88.508942 -8.1527424 -88.97538 -1.1279464 -93.905991
9205687500 -1.9189348 118.33677 -8.1500645 -88.50573 -8.1479807 -88.978607 -1.1243404 -93.887856
9205750000 -1.9135556 118.34069 -8.146369 -88.505798 -8.1442518 -89.004944 -1.1271836 -93.881714
9205812500 -1.9160644 118.28854 -8.1385479 -88.55246 -8.142499 -88.971161 -1.1286296 -93.857094
9205875000 -1.9159362 118.34456 -8.1368065 -88.508209 -8.1417551 -89.03421 -1.1322618 -93.860359
9205937500 -1.9143593 118.33086 -8.1394634 -88.479927 -8.1389446 -89.003792 -1.1319811 -93.826614
9206000000 -1.9198726 118.27245 -8.143528 -88.533508 -8.1375227 -89.022621 -1.1300592 -93.747093
9206062500 -1.9147408 118.30625 -8.1418171 -88.456268 -8.1399307 -88.969582 -1.1330295 -93.761261
9206125000 -1.9221795 118.26649 -8.147439 -88.495781 -8.137002 -88.965958 -1.1340762 -93.737946
9206187500 -1.9175028 118.27209 -8.1430244 -88.511574 -8.1393003 -89.000038 -1.1322713 -93.728539
9206250000 -1.9173164 118.27873 -8.1367741 -88.490646 -8.137188 -89.00692 -1.1361977 -93.722153
9206312500 -1.9148037 118.24402 -8.1398067 -88.497589 -8.1321754 -89.059853 -1.1306875 -93.72847
9206375000 -1.9171442 118.23183 -8.1298285 -88.508911 -8.1285534 -88.992836 -1.1229088 -93.669182
9206437500 -1.9227201 118.20312 -8.141571 -88.50338 -8.1329813 -88.991516 -1.1325297 -93.639145
9206500000 -1.9189559 118.2213 -8.1273069 -88.447052 -8.1192684 -89.035469 -1.1240871 -93.675087
9206562500 -1.923051 118.17662 -8.1246204 -88.499619 -8.1236172 -89.073936 -1.1230572 -93.649849
9206625000 -1.9282055 118.17603 -8.1266203 -88.504898 -8.1223211 -89.049347 -1.126241 -93.603714
9206687500 -1.9276463 118.10966 -8.1278267 -88.52356 -8.125432 -88.992668 -1.1218832 -93.571533
9206750000 -1.927107 118.13078 -8.1228065 -88.484375 -8.1237049 -89.001961 -1.1286659 -93.560547
9206812500 -1.9334157 118.08588 -8.1208334 -88.469009 -8.1169825 -88.994293 -1.1224736 -93.513855
9206875000 -1.9320982 118.09982 -8.1233397 -88.475471 -8.1079044 -89.017372 -1.1258609 -93.495872
9206937500 -1.9268426 118.10933 -8.1159763 -88.418129 -8.1109324 -88.976868 -1.1255659 -93.46402
9207000000 -1.9243596 118.04707 -8.1252241 -88.534866 -8.11485 -88.97998 -1.1340473 -93.451393
9207062500 -1.919368 118.02592 -8.1204071 -88.486221 -8.1207609 -89.009186 -1.1409801 -93.485313
9207125000 -1.9208862 118.01455 -8.1214399 -88.526657 -8.1240292 -89.00563 -1.13038 -93.443214
9207187500 -1.9180747 117.98764 -8.1199865 -88.565842 -8.1192865 -89.000526 -1.1349988 -93.445496
9207250000 -1.9244695 117.95348 -8.1175871 -88.551956 -8.1161747 -89.004616 -1.1400667 -93.405632
9207312500 -1.9246154 117.96977 -8.1227999 -88.530533 -8.1219883 -88.96804 -1.1445271 -93.390823
9207375000 -1.9238763 117.93301 -8.119133 -88.540184 -8.1147299 -89.039963 -1.1410064 -93.412857
9207437500 -1.928197 117.9323 -8.1216946 -88.582138 -8.1153402 -89.034134 -1.1434158 -93.421646
9207500000 -1.9215689 117.87879 -8.1138678 -88.616577 -8.1135502 -88.966049 -1.1406999 -93.398697
9207562500 -1.9266521 117.84031 -8.1190882 -88.609818 -8.1188021 -89.047607 -1.1483111 -93.417915
9207625000 -1.9265854 117.87035 -8.1210489 -88.570656 -8.1187344 -89.106003 -1.1531705 -93.381836
9207687500 -1.9269812 117.83797 -8.112278 -88.570061 -8.1080503 -89.010452 -1.1382725 -93.36026
9207750000 -1.9272418 117.84774 -8.1192389 -88.561417 -8.1155539 -89.011429 -1.1339893 -93.286644
9207812500 -1.9358493 117.83507 -8.1159248 -88.553551 -8.1058693 -89.057083 -1.1339866 -93.330383
9207875000 -1.9342836 117.83329 -8.1165724 -88.537544 -8.1109447 -89.042633 -1.1380268 -93.254898
9207937500 -1.934451 117.82417 -8.1069469 -88.564774 -8.1074629 -89.07637 -1.134488 -93.251915
9208000000 -1.9346575 117.84891 -8.1109133 -88.539124 -8.1037445 -89.060577 -1.1317925 -93.220306
9208062500 -1.9329756 117.82389 -8.1124973 -88.526482 -8.099453 -89.120049 -1.1339154 -93.247459
9208125000 -1.934432 117.80607 -8.1157436 -88.520531 -8.1053553 -89.041412 -1.1425577 -93.158684
9208187500 -1.9338646 117.79836 -8.1034966 -88.541817 -8.1161146 -89.035614 -1.1463503 -93.153069
9208250000 -1.9342066 117.81258 -8.111413 -88.520782 -8.1163387 -89.039436 -1.1534833 -93.138718
9208312500 -1.9326395 117.75359 -8.1164532 -88.54493 -8.1183643 -89.063995 -1.1582221 -93.136887
9208375000 -1.9327055 117.72594 -8.1121922 -88.558281 -8.1040611 -88.951324 -1.1541729 -93.050896
9208437500 -1.9331357 117.73036 -8.1078053 -88.556938 -8.1083775 -88.989067 -1.1515174 -93.095795
9208500000 -1.9333074 117.70997 -8.1061707 -88.540848 -8.1072826 -89.010536 -1.1500123 -93.074844
9208562500 -1.9318951 117.71008 -8.1127453 -88.539757 -8.1085348 -89.040573 -1.1528444 -93.052773
9208625000 -1.9320188 117.62501 -8.1029282 -88.600082 -8.095933 -89.099556 -1.1505808 -93.079742
9208687500 -1.932627 117.617 -8.1021566 -88.585701 -8.1020193 -89.043884 -1.1425588 -93.059166
9208750000 -1.9343839 117.60992 -8.0940266 -88.644073 -8.0890265 -89.033401 -1.1398218 -93.023735
9208812500 -1.937896 117.62376 -8.1028996 -88.590645 -8.0985003 -89.083191 -1.1429434 -93.074074
9208875000 -1.9385737 117.61217 -8.0993319 -88.564026 -8.098403 -89.076897 -1.1526612 -93.005653
9208937500 -1.9378855 117.6273 -8.0986042 -88.599373 -8.0940189 -89.054779 -1.1516827 -93.007286
9209000000 -1.9348683 117.61109 -8.1031752 -88.618202 -8.1004467 -89.033417 -1.1543133 -92.967819
9209062500 -1.934168 117.66112 -8.0951128 -88.557846 -8.0946321 -89.033958 -1.1432643 -92.937248
9209125000 -1.9360375 117.61799 -8.0980806 -88.522842 -8.0909214 -89.079659 -1.1444168 -93.01358
9209187500 -1.94078 117.61797 -8.0926685 -88.609039 -8.0888519 -89.040848 -1.1500467 -92.933342
9209250000 -1.9364071 117.60669 -8.0918074 -88.550858 -8.0945959 -89.062073 -1.1526425 -92.923203
9209312500 -1.9383439 117.56986 -8.0873709 -88.534966 -8.0936832 -88.984627 -1.156124 -92.878326
9209375000 -1.9337243 117.54484 -8.0920486 -88.563011 -8.0954933 -89.03624 -1.154502 -92.862617
9209437500 -1.9349308 117.4965 -8.081316 -88.607986 -8.0934935 -89.025276 -1.1516111 -92.831665
9209500000 -1.939056 117.54181 -8.0858717 -88.528679 -8.0853071 -88.995338 -1.1519153 -92.827316
9209562500 -1.9337471 117.47794 -8.0881577 -88.604095 -8.0914631 -89.039848 -1.1530598 -92.831772
9209625000 -1.9428838 117.49147 -8.0878353 -88.586189 -8.0805359 -89.057686 -1.1494098 -92.801193
9209687500 -1.9477227 117.43967 -8.0895052 -88.606026 -8.0863895 -89.059341 -1.1479751 -92.770226
9209750000 -1.9427005 117.44811 -8.0824184 -88.621696 -8.0890837 -89.021774 -1.1472011 -92.736282
9209812500 -1.9438436 117.41635 -8.0890245 -88.633934 -8.0859337 -89.062233 -1.1488889 -92.72316
9209875000 -1.942301 117.43196 -8.0903807 -88.655251 -8.0813751 -89.102592 -1.1492444 -92.716354
9209937500 -1.9378177 117.41805 -8.0827093 -88.647293 -8.081357 -89.093727 -1.1485707 -92.687981
9210000000 -1.9497546 117.37346 -8.0918512 -88.568687 -8.0788202 -89.077126 -1.1505475 -92.657005
9210062500 -1.9379503 117.39519 -8.0844431 -88.539398 -8.071537 -89.051094 -1.144485 -92.649078
9210125000 -1.942418 117.36265 -8.0863619 -88.608765 -8.0872059 -89.063393 -1.1601371 -92.662453
9210187500 -1.938769 117.37099 -8.0777187 -88.616203 -8.0727196 -89.045044 -1.1500899 -92.628647
9210250000 -1.9402328 117.36351 -8.0830755 -88.602409 -8.0709782 -88.977989 -1.1521275 -92.560806
9210312500 -1.940235 117.35791 -8.083416 -88.559692 -8.0785236 -89.088554 -1.1525279 -92.600998
9210375000 -1.9400692 117.31798 -8.0775738 -88.578133 -8.0748634 -89.009048 -1.1535155 -92.582336
9210437500 -1.9376563 117.31801 -8.0740528 -88.570168 -8.0769148 -88.988319 -1.162647 -92.556488
9210500000 -1.943049 117.24853 -8.0856409 -88.641243 -8.075449 -89.067818 -1.1658663 -92.563858
9210562500 -1.9383371 117.22797 -8.0873566 -88.589897 -8.0853186 -89.080246 -1.1771902 -92.53804
9210625000 -1.9314488 117.23178 -8.0790701 -88.594223 -8.0807838 -89.081703 -1.1686885 -92.514374
9210687500 -1.9383506 117.21704 -8.0853577 -88.605659 -8.0813379 -89.103661 -1.1692255 -92.529686
9210750000 -1.937678 117.18479 -8.0813408 -88.593353 -8.0831146 -89.080284 -1.1791589 -92.487816
9210812500 -1.9358066 117.18243 -8.0709696 -88.638428 -8.0705891 -89.074509 -1.1654392 -92.46772
9210875000 -1.9428831 117.13168 -8.0777092 -88.574158 -8.0744267 -89.038223 -1.1727287 -92.410645
9210937500 -1.9472139 117.11214 -8.0811892 -88.614609 -8.0658598 -89.114662 -1.1724371 -92.441368
9211000000 -1.9456712 117.1147 -8.0760784 -88.581123 -8.0689392 -89.051331 -1.1695241 -92.405556
9211062500 -1.9446915 117.07832 -8.0685072 -88.614273 -8.0663147 -89.0868 -1.1682373 -92.387115
9211125000 -1.9522939 117.14098 -8.0845909 -88.593712 -8.0689383 -89.13871 -1.1684912 -92.432785
9211187500 -1.950538 117.11425 -8.0759583 -88.583443 -8.0671072 -89.141113 -1.1664091 -92.434052
9211250000 -1.9553764 117.07761 -8.0688906 -88.688065 -8.0675879 -89.146011 -1.1617106 -92.458565
9211312500 -1.9520264 117.1203 -8.0694256 -88.65654 -8.0653763 -89.147209 -1.1557833 -92.434326
9211375000 -1.952742 117.10881 -8.0633373 -88.665245 -8.0690765 -89.06723 -1.165525 -92.335312
9211437500 -1.9525477 117.08629 -8.0612249 -88.678093 -8.0657873 -89.080696 -1.1623708 -92.293144
9211500000 -1.9458799 117.06525 -8.0651608 -88.61026 -8.0721092 -89.11467 -1.1719429 -92.301193
9211562500 -1.9500442 117.04991 -8.0616417 -88.619164 -8.0621138 -89.10144 -1.1692392 -92.244583
9211625000 -1.9521444 117.06032 -8.064086 -88.616638 -8.0587044 -89.121834 -1.1715248 -92.287178
9211687500 -1.9531013 117.02402 -8.0667877 -88.631874 -8.0714197 -89.144386 -1.1785229 -92.261879
9211750000 -1.9522409 116.99356 -8.063693 -88.673767 -8.0632944 -89.10022 -1.1814359 -92.248154
9211812500 -1.9507498 116.99128 -8.0606356 -88.648178 -8.0609531 -89.10807 -1.1768063 -92.232048
9211875000 -1.9570242 116.92866 -8.0681372 -88.645264 -8.0662336 -89.021393 -1.1785437 -92.14624
9211937500 -1.9558198 116.94852 -8.0604849 -88.642296 -8.0610113 -89.122452 -1.1761529 -92.172676
9212000000 -1.9623121 116.8719 -8.056448 -88.685387 -8.0571165 -89.112129 -1.178688 -92.107315
9212062500 -1.9576514 116.84246 -8.0512981 -88.724136 -8.0563183 -89.094238 -1.1774402 -92.117851
9212125000 -1.9598449 116.86585 -8.0543098 -88.653549 -8.0555859 -89.02314 -1.1668134 -92.023003
9212187500 -1.9627833 116.82416 -8.0545826 -88.685219 -8.0545082 -89.094193 -1.1822112 -92.071991
9212250000 -1.9551444 116.83057 -8.0526247 -88.625526 -8.0511522 -89.09726 -1.1755613 -92.028259
9212312500 -1.9616735 116.80188 -8.0589447 -88.659904 -8.0452728 -89.074127 -1.1790081 -92.015724
9212375000 -1.9591553 116.80978 -8.0541725 -88.623474 -8.0495129 -89.159187 -1.1793841 -92.027405
9212437500 -1.9558824 116.8154 -8.0561752 -88.617249 -8.0554276 -89.066643 -1.1807538 -91.968361
