!Agilent Technologies,N5242A,MY51221714,A.09.90.19
!Agilent N5242A: A.09.90.19
!Date: Saturday, March 16, 2024 08:59:52
!Correction: S11(Full 2 Port(1,2)) 
!S21(Full 2 Port(1,2)) 
!S12(Full 2 Port(1,2)) 
!S22(Full 2 Port(1,2)) 
!S2P File: Measurements: S11, S21, S12, S22:
# Hz S  dB   R 50
9200000000 -0.82699639 127.40604 -9.1882391 -69.784088 -9.1797771 -70.274063 -0.0916164 -88.067337
9200062500 -0.82448971 127.38197 -9.1921434 -69.776649 -9.1800261 -70.321472 -0.0868394 -88.075386
9200125000 -0.82463008 127.38907 -9.1875534 -69.744888 -9.1740589 -70.249626 -0.086565614 -88.029686
9200187500 -0.8246637 127.34985 -9.1830091 -69.722717 -9.1732683 -70.286903 -0.088914044 -88.067665
9200250000 -0.81917191 127.34858 -9.1854486 -69.694664 -9.1745901 -70.231148 -0.08556857 -87.991562
9200312500 -0.82156175 127.34489 -9.1856213 -69.777954 -9.1652279 -70.242401 -0.088552237 -87.987442
9200375000 -0.8187775 127.30481 -9.1852226 -69.741035 -9.1591311 -70.205231 -0.085179232 -87.95536
9200437500 -0.81366813 127.3063 -9.1785097 -69.76899 -9.168231 -70.266594 -0.087547764 -87.957268
9200500000 -0.81551045 127.27466 -9.1722383 -69.77462 -9.1663122 -70.263062 -0.087480016 -87.962746
9200562500 -0.81708503 127.28436 -9.1834726 -69.785316 -9.1694365 -70.285255 -0.095263317 -87.953262
9200625000 -0.81831896 127.30858 -9.181242 -69.740768 -9.1626368 -70.299324 -0.091931261 -87.909279
9200687500 -0.82245725 127.24324 -9.1869831 -69.750832 -9.1594973 -70.235146 -0.085874267 -87.845451
9200750000 -0.81990921 127.23682 -9.181818 -69.684303 -9.1659966 -70.251984 -0.093468733 -87.848953
9200812500 -0.82307667 127.23434 -9.1826067 -69.683495 -9.1584339 -70.239189 -0.09103594 -87.818718
9200875000 -0.81985867 127.24557 -9.1790533 -69.677437 -9.164875 -70.217033 -0.10364062 -87.744774
9200937500 -0.81905401 127.21904 -9.1766424 -69.620338 -9.1686859 -70.241043 -0.10496502 -87.780777
9201000000 -0.81671762 127.16231 -9.1814346 -69.705795 -9.1690092 -70.201836 -0.10258918 -87.746056
9201062500 -0.81545895 127.18818 -9.1711102 -69.679565 -9.1610231 -70.175957 -0.095683068 -87.686096
9201125000 -0.81709725 127.16336 -9.173871 -69.70652 -9.1511192 -70.278999 -0.091633417 -87.771721
9201187500 -0.81541616 127.15248 -9.1746969 -69.658012 -9.160737 -70.203468 -0.093115531 -87.689552
9201250000 -0.81446451 127.12471 -9.1666412 -69.677574 -9.1615429 -70.190758 -0.097292766 -87.681091
9201312500 -0.82200676 127.12424 -9.1761789 -69.685959 -9.1604729 -70.247864 -0.096078143 -87.692024
9201375000 -0.82188946 127.11094 -9.1787415 -69.662224 -9.1626577 -70.240334 -0.092506453 -87.715721
9201437500 -0.81312996 127.094 -9.1670599 -69.76104 -9.1630144 -70.269714 -0.096407533 -87.708778
9201500000 -0.81984991 127.03928 -9.166255 -69.766808 -9.1706638 -70.224823 -0.094570607 -87.692383
9201562500 -0.82057494 127.07905 -9.1708956 -69.715332 -9.1589632 -70.247658 -0.092463709 -87.693268
9201625000 -0.81838304 127.08205 -9.1788864 -69.685226 -9.1685886 -70.17569 -0.093742602 -87.618645
9201687500 -0.81964862 127.08472 -9.1780987 -69.670708 -9.1637068 -70.259697 -0.099194199 -87.626953
9201750000 -0.81958652 127.03297 -9.1752863 -69.68354 -9.1630802 -70.121658 -0.091089398 -87.559967
9201812500 -0.82346261 127.00184 -9.1741371 -69.704613 -9.1547527 -70.215324 -0.09396641 -87.555771
9201875000 -0.8195864 126.97945 -9.1732273 -69.667465 -9.158308 -70.198074 -0.10068297 -87.564056
9201937500 -0.81888038 126.97453 -9.1681309 -69.655952 -9.1522875 -70.150475 -0.09778633 -87.527725
9202000000 -0.81957179 126.95461 -9.1714659 -69.701073 -9.1568136 -70.196045 -0.10255066 -87.513474
9202062500 -0.8123039 126.92676 -9.1602898 -69.684364 -9.1559753 -70.172691 -0.093427025 -87.466438
9202125000 -0.81598699 126.90315 -9.1592016 -69.738899 -9.1538038 -70.198441 -0.095865063 -87.456276
9202187500 -0.81662774 126.92055 -9.1578226 -69.667244 -9.1502876 -70.21273 -0.096339226 -87.463203
9202250000 -0.81996804 126.86443 -9.160718 -69.688965 -9.159646 -70.223991 -0.092501961 -87.430077
9202312500 -0.82054824 126.90079 -9.1565294 -69.71949 -9.1569862 -70.222084 -0.097084425 -87.435974
9202375000 -0.81966895 126.9542 -9.1555147 -69.554871 -9.1508207 -70.213234 -0.095257483 -87.417473
9202437500 -0.81485826 126.88905 -9.1570721 -69.675316 -9.166132 -70.223335 -0.10241775 -87.393806
9202500000 -0.81775254 126.86734 -9.1573305 -69.576027 -9.1584349 -70.173836 -0.098123267 -87.352333
9202562500 -0.82116991 126.86603 -9.162261 -69.702736 -9.1570349 -70.203827 -0.10150652 -87.34288
9202625000 -0.82061535 126.84645 -9.1642027 -69.660683 -9.1529846 -70.173935 -0.10173494 -87.331772
9202687500 -0.82023007 126.83507 -9.1620312 -69.627251 -9.149332 -70.147392 -0.098462559 -87.273453
9202750000 -0.82429868 126.78479 -9.1630001 -69.628761 -9.1392002 -70.177887 -0.099575579 -87.287727
9202812500 -0.81709844 126.79349 -9.1609383 -69.661423 -9.1425123 -70.201935 -0.10092264 -87.278992
9202875000 -0.81486017 126.78831 -9.1532679 -69.677025 -9.140151 -70.185799 -0.097030438 -87.247864
9202937500 -0.81957012 126.73485 -9.1620541 -69.683609 -9.1544151 -70.171066 -0.11319721 -87.252312
9203000000 -0.81706017 126.73546 -9.1552458 -69.678001 -9.1458836 -70.153603 -0.093363494 -87.184143
9203062500 -0.82130504 126.71908 -9.1531057 -69.73143 -9.1464443 -70.156059 -0.10088922 -87.199181
9203125000 -0.80879498 126.72263 -9.150795 -69.631966 -9.1530075 -70.164719 -0.103572 -87.149902
9203187500 -0.81782478 126.68913 -9.1654062 -69.689346 -9.1473894 -70.192604 -0.096251838 -87.117294
9203250000 -0.82085675 126.70159 -9.158289 -69.653961 -9.1463928 -70.215454 -0.09801504 -87.170639
9203312500 -0.82007891 126.67553 -9.1549892 -69.697693 -9.144865 -70.143913 -0.092474513 -87.102226
9203375000 -0.81412333 126.66747 -9.1595201 -69.589157 -9.1443415 -70.124596 -0.094401352 -87.055969
9203437500 -0.81801593 126.66251 -9.1528358 -69.7061 -9.1458921 -70.162651 -0.098689981 -87.109474
9203500000 -0.8148278 126.64468 -9.1508541 -69.676346 -9.1482983 -70.209724 -0.096881643 -87.044701
9203562500 -0.81730938 126.66407 -9.1593008 -69.637192 -9.1421785 -70.159683 -0.10003376 -87.030319
9203625000 -0.81535923 126.61446 -9.1497517 -69.633789 -9.1498642 -70.181877 -0.11069009 -87.014915
9203687500 -0.82268655 126.62597 -9.1596584 -69.650063 -9.1485586 -70.161606 -0.10533179 -87.001732
9203750000 -0.81372452 126.5639 -9.1507778 -69.639465 -9.1497383 -70.145279 -0.10826229 -86.969223
9203812500 -0.8177985 126.54662 -9.1478796 -69.67598 -9.148119 -70.114601 -0.1065976 -86.936676
9203875000 -0.82263327 126.55025 -9.1537771 -69.622772 -9.142767 -70.162949 -0.10949032 -86.95977
9203937500 -0.81363821 126.5629 -9.1469259 -69.616425 -9.1389112 -70.17524 -0.11473991 -86.92923
9204000000 -0.81720662 126.52595 -9.1534128 -69.609184 -9.1317387 -70.102295 -0.11451122 -86.94223
9204062500 -0.81392938 126.47742 -9.1547832 -69.649445 -9.1423874 -70.06044 -0.11501803 -86.893745
9204125000 -0.80849594 126.50633 -9.1451445 -69.658745 -9.1383238 -70.128845 -0.12033252 -86.873436
9204187500 -0.8152926 126.51557 -9.1539669 -69.547745 -9.1296339 -70.118263 -0.11471517 -86.846809
9204250000 -0.81118566 126.48617 -9.1516876 -69.583145 -9.1367683 -70.129837 -0.11813679 -86.846375
9204312500 -0.8109417 126.4826 -9.1520071 -69.609879 -9.1309385 -70.075897 -0.11178445 -86.8134
9204375000 -0.81015015 126.42055 -9.1489258 -69.637436 -9.1321211 -70.097649 -0.1061429 -86.786865
9204437500 -0.81052577 126.40916 -9.1497984 -69.621552 -9.1321745 -70.112793 -0.10676928 -86.780167
9204500000 -0.80791754 126.40052 -9.1422873 -69.581184 -9.1379824 -70.125633 -0.10725529 -86.752937
9204562500 -0.80903715 126.40871 -9.1425657 -69.519203 -9.1373405 -70.115501 -0.10128762 -86.754219
9204625000 -0.81223673 126.38087 -9.144269 -69.562515 -9.1275663 -70.121773 -0.093613461 -86.728401
9204687500 -0.80764341 126.38054 -9.1363144 -69.569122 -9.1309795 -70.083778 -0.10084703 -86.655525
9204750000 -0.80900252 126.33791 -9.1385565 -69.588837 -9.1232891 -70.136574 -0.10319837 -86.70134
9204812500 -0.81371832 126.36566 -9.1493578 -69.574471 -9.1265154 -70.03891 -0.10586981 -86.643738
9204875000 -0.81791115 126.34383 -9.1476011 -69.556419 -9.122797 -70.130608 -0.10723021 -86.68589
9204937500 -0.81386191 126.34509 -9.1408415 -69.570969 -9.1299 -70.081779 -0.10813039 -86.654778
9205000000 -0.81453019 126.33794 -9.1429224 -69.535706 -9.1285734 -70.102928 -0.10764469 -86.651222
9205062500 -0.81978714 126.30743 -9.140667 -69.584763 -9.13062 -70.069321 -0.10415736 -86.6203
9205125000 -0.81402099 126.27934 -9.1416006 -69.556404 -9.129591 -70.122314 -0.10556848 -86.642265
9205187500 -0.82074475 126.27095 -9.1386318 -69.539726 -9.1348486 -70.1371 -0.10622395 -86.620811
9205250000 -0.81855321 126.23903 -9.1351118 -69.578178 -9.1324215 -70.127251 -0.10412627 -86.560371
9205312500 -0.828915 126.1815 -9.1441584 -69.594925 -9.133131 -70.136765 -0.10599716 -86.556099
9205375000 -0.81678444 126.20462 -9.1342812 -69.509491 -9.1333961 -70.116615 -0.10039403 -86.533432
9205437500 -0.81487709 126.20742 -9.1320801 -69.507607 -9.127861 -70.077156 -0.0961814 -86.512215
9205500000 -0.81887281 126.2015 -9.1282663 -69.550148 -9.1266937 -70.115173 -0.10189012 -86.546715
9205562500 -0.82270163 126.1516 -9.144166 -69.572037 -9.1334362 -70.092407 -0.10705954 -86.467979
9205625000 -0.81609094 126.18831 -9.1315193 -69.494453 -9.1413918 -70.029602 -0.10797361 -86.474976
9205687500 -0.8188104 126.15693 -9.1390944 -69.562477 -9.135561 -70.079681 -0.10973782 -86.458641
9205750000 -0.81620729 126.15422 -9.1335993 -69.552528 -9.1316566 -70.087669 -0.10578867 -86.473526
9205812500 -0.81191826 126.13927 -9.1379681 -69.541962 -9.1315212 -70.073975 -0.10429655 -86.432846
9205875000 -0.81283796 126.12095 -9.13556 -69.554459 -9.1356239 -70.043053 -0.10686807 -86.391769
9205937500 -0.81895834 126.14112 -9.1502228 -69.529358 -9.1330204 -70.039619 -0.10850051 -86.396126
9206000000 -0.8105368 126.09653 -9.1270542 -69.52137 -9.1344347 -70.048271 -0.11002404 -86.312859
9206062500 -0.81462204 126.06987 -9.1291571 -69.551895 -9.1269684 -70.037323 -0.10768021 -86.314331
9206125000 -0.81364387 126.09012 -9.1366482 -69.538246 -9.1241426 -70.08551 -0.10447458 -86.327087
9206187500 -0.81171155 126.07079 -9.1308975 -69.522301 -9.1198807 -70.038475 -0.1056213 -86.249603
9206250000 -0.81151855 126.07832 -9.1325607 -69.507233 -9.1205034 -70.034576 -0.10778922 -86.259262
9206312500 -0.81464577 126.07315 -9.1328087 -69.507568 -9.1171083 -70.057037 -0.0986996 -86.24955
9206375000 -0.81493175 126.02285 -9.1320715 -69.544724 -9.1148157 -70.004379 -0.10297364 -86.223
9206437500 -0.80994838 126.04919 -9.1159897 -69.460632 -9.121892 -70.089195 -0.10878331 -86.220039
9206500000 -0.81680596 126.00652 -9.132206 -69.507149 -9.1167412 -70.084869 -0.10643408 -86.253067
9206562500 -0.81265479 125.98531 -9.1223297 -69.497673 -9.1051197 -70.101616 -0.099541061 -86.165794
9206625000 -0.820373 126.01697 -9.1203327 -69.460167 -9.1083813 -70.072182 -0.093936741 -86.175552
9206687500 -0.82373071 126.0111 -9.1252804 -69.410484 -9.1039572 -70.112328 -0.095285006 -86.201126
9206750000 -0.82187152 125.95518 -9.1122646 -69.506516 -9.1024504 -70.012848 -0.092112653 -86.062805
9206812500 -0.8202523 125.96825 -9.1141071 -69.478043 -9.1096115 -70.025978 -0.094472013 -86.052399
9206875000 -0.82413954 125.93294 -9.1229973 -69.448013 -9.0970459 -70.036476 -0.092831165 -86.072517
9206937500 -0.81818831 125.9229 -9.1197691 -69.468521 -9.1033058 -70.02243 -0.10092511 -86.048584
9207000000 -0.81559837 125.92405 -9.1243 -69.400627 -9.1104584 -70.038574 -0.10289099 -86.03582
9207062500 -0.81125897 125.86084 -9.1144075 -69.451653 -9.113286 -70.061844 -0.10962117 -86.082504
9207125000 -0.80920357 125.86084 -9.1209936 -69.480461 -9.1164732 -70.001511 -0.11602859 -86.023674
9207187500 -0.80853587 125.81102 -9.1200314 -69.476273 -9.1134605 -70.023674 -0.11315382 -86.03923
9207250000 -0.80541128 125.80318 -9.1055841 -69.510231 -9.1183796 -70.007645 -0.11084711 -86.001358
9207312500 -0.81590587 125.78268 -9.1270723 -69.518105 -9.1210012 -70.036575 -0.11801216 -86.009422
9207375000 -0.81514823 125.73682 -9.1150293 -69.572334 -9.1090288 -69.995628 -0.10745074 -85.990738
9207437500 -0.81103897 125.7203 -9.1091337 -69.492027 -9.109314 -70.010323 -0.11185806 -85.965904
9207500000 -0.81610113 125.73093 -9.1231785 -69.527779 -9.1141634 -70.00943 -0.11705241 -85.956337
9207562500 -0.81285167 125.70306 -9.1179543 -69.518448 -9.1110983 -70.030861 -0.11688108 -85.970116
9207625000 -0.81650209 125.71437 -9.1209164 -69.499573 -9.1066294 -70.010658 -0.11795653 -85.928627
9207687500 -0.81504601 125.63683 -9.1102009 -69.556511 -9.1040983 -69.962639 -0.10478096 -85.891464
9207750000 -0.81908911 125.6573 -9.1121578 -69.543839 -9.1058111 -70.034988 -0.10566712 -85.865143
9207812500 -0.81954634 125.67754 -9.1075249 -69.518295 -9.1057367 -70.050346 -0.10552224 -85.894218
9207875000 -0.82054871 125.66584 -9.1134195 -69.480957 -9.1006861 -70.052727 -0.09749864 -85.857689
9207937500 -0.82361782 125.67986 -9.1183805 -69.517838 -9.1113625 -70.032265 -0.10733109 -85.832077
9208000000 -0.82265031 125.67808 -9.1139336 -69.457718 -9.105381 -70.055573 -0.098204404 -85.794968
9208062500 -0.81605172 125.6585 -9.1042852 -69.478889 -9.1047812 -70.023491 -0.1091475 -85.731873
9208125000 -0.82011944 125.6294 -9.1123161 -69.455513 -9.1112823 -69.962265 -0.11047585 -85.751328
9208187500 -0.81511724 125.67422 -9.1141796 -69.361778 -9.1002779 -70.003929 -0.10849571 -85.703545
9208250000 -0.81662983 125.63529 -9.1131821 -69.435303 -9.113245 -70.005341 -0.1167144 -85.717667
9208312500 -0.81699759 125.62083 -9.1137943 -69.398247 -9.1054487 -69.985367 -0.11439828 -85.696114
9208375000 -0.81960356 125.61675 -9.1230564 -69.431717 -9.1086273 -69.959099 -0.12099072 -85.675903
9208437500 -0.81090003 125.59321 -9.1092834 -69.405197 -9.1070833 -69.998055 -0.11976425 -85.680595
9208500000 -0.81121087 125.5771 -9.1053476 -69.451012 -9.095643 -69.975449 -0.11151574 -85.623604
9208562500 -0.81795126 125.50903 -9.106616 -69.402206 -9.0966311 -69.945122 -0.11085997 -85.603615
9208625000 -0.81737417 125.49779 -9.103631 -69.484154 -9.1002293 -69.975777 -0.11551081 -85.610664
9208687500 -0.8169353 125.47664 -9.1037388 -69.495895 -9.1038733 -70.007927 -0.11661027 -85.652351
9208750000 -0.82119203 125.44852 -9.1034527 -69.490021 -9.0968294 -69.946503 -0.10681999 -85.572487
9208812500 -0.81975311 125.40725 -9.1059399 -69.510902 -9.1004829 -69.977379 -0.10346242 -85.591415
9208875000 -0.81198937 125.45994 -9.1022263 -69.434868 -9.1052017 -69.962433 -0.10724005 -85.601028
9208937500 -0.81304806 125.48679 -9.0975504 -69.486496 -9.1004181 -69.944237 -0.10799429 -85.533363
9209000000 -0.81389642 125.50851 -9.1013193 -69.48455 -9.1001453 -70.005127 -0.10832489 -85.602127
9209062500 -0.82164675 125.48476 -9.1080246 -69.433655 -9.0949574 -69.92231 -0.11067104 -85.526001
9209125000 -0.81439281 125.47733 -9.0999184 -69.43103 -9.1100683 -69.886452 -0.11934786 -85.499008
9209187500 -0.8145346 125.49832 -9.0970678 -69.399078 -9.0905571 -69.962852 -0.11063889 -85.524048
9209250000 -0.81394523 125.46238 -9.0907841 -69.39798 -9.1041269 -69.976219 -0.11246366 -85.498497
9209312500 -0.81216329 125.42702 -9.0926399 -69.460289 -9.1045866 -69.937897 -0.11319179 -85.437851
9209375000 -0.8127287 125.3895 -9.0940924 -69.459129 -9.1016321 -69.958748 -0.11654047 -85.428543
9209437500 -0.81383538 125.37157 -9.0921602 -69.429413 -9.1007509 -69.92408 -0.11414015 -85.400299
9209500000 -0.81372541 125.36576 -9.0909376 -69.477264 -9.0997829 -69.918808 -0.1114362 -85.379814
9209562500 -0.81639349 125.33191 -9.0891552 -69.496742 -9.09688 -69.910217 -0.11437103 -85.359009
9209625000 -0.81802529 125.31129 -9.0910845 -69.413429 -9.0942526 -69.952881 -0.10928326 -85.273796
9209687500 -0.82209522 125.28983 -9.0941458 -69.434837 -9.090414 -69.941124 -0.10499669 -85.326172
9209750000 -0.82048362 125.31371 -9.1019487 -69.457565 -9.090126 -69.921585 -0.10827815 -85.273933
9209812500 -0.82280397 125.32265 -9.1035824 -69.466049 -9.0921268 -69.947418 -0.10610937 -85.248886
9209875000 -0.81709504 125.304 -9.1014719 -69.446365 -9.0834532 -69.924576 -0.10128281 -85.217346
9209937500 -0.81755817 125.27576 -9.0891476 -69.453743 -9.0939989 -69.896347 -0.11201573 -85.201645
9210000000 -0.81094992 125.23189 -9.0878029 -69.451424 -9.087183 -69.862404 -0.10331332 -85.181862
9210062500 -0.81232035 125.24516 -9.094264 -69.392349 -9.0920038 -69.903336 -0.10661458 -85.201149
9210125000 -0.81361413 125.17763 -9.0936069 -69.464851 -9.0839462 -69.910194 -0.10616089 -85.187508
9210187500 -0.81327683 125.23438 -9.0893126 -69.405159 -9.0833302 -69.874962 -0.10419007 -85.160606
9210250000 -0.81144369 125.23714 -9.0825691 -69.432968 -9.0824194 -69.881866 -0.10180313 -85.13414
9210312500 -0.80933237 125.18211 -9.0874176 -69.427185 -9.0820475 -69.873802 -0.11143582 -85.0998
9210375000 -0.81432462 125.18751 -9.0931215 -69.388069 -9.0795279 -69.911797 -0.10643527 -85.136703
9210437500 -0.81058306 125.13916 -9.0909147 -69.38356 -9.0947199 -69.887306 -0.11941641 -85.091644
9210500000 -0.80617636 125.1788 -9.0923109 -69.375717 -9.0975037 -69.868637 -0.12063022 -85.046364
9210562500 -0.81265843 125.15453 -9.0964947 -69.34861 -9.0854168 -69.864708 -0.1189582 -85.042412
9210625000 -0.80769169 125.09016 -9.0911961 -69.340874 -9.082633 -69.891342 -0.11530231 -85.030098
9210687500 -0.80788481 125.09194 -9.0939302 -69.371269 -9.090704 -69.880501 -0.12132014 -85.003845
9210750000 -0.80696118 125.05799 -9.1010685 -69.375351 -9.085104 -69.887787 -0.12685153 -85.01091
9210812500 -0.81523329 125.05358 -9.093749 -69.361946 -9.0750265 -69.826012 -0.11569685 -84.99575
9210875000 -0.81256431 125.07323 -9.0916891 -69.310196 -9.0835581 -69.883057 -0.12400599 -84.961563
9210937500 -0.81400818 125.02164 -9.0882378 -69.409698 -9.081624 -69.890617 -0.12618925 -84.998772
9211000000 -0.81319153 124.9932 -9.0947905 -69.324684 -9.0850916 -69.847054 -0.12431184 -84.907028
9211062500 -0.81449729 124.99977 -9.0679655 -69.41188 -9.0758095 -69.877914 -0.11482633 -84.934158
9211125000 -0.81385726 124.98767 -9.0913258 -69.381371 -9.0807152 -69.911003 -0.12072269 -84.965157
9211187500 -0.81426024 124.98859 -9.0794334 -69.425446 -9.0810051 -69.879593 -0.11651368 -84.971756
9211250000 -0.82067579 125.00262 -9.081336 -69.380882 -9.0803461 -69.930069 -0.10995736 -84.992493
9211312500 -0.8199535 124.98241 -9.0935392 -69.395287 -9.0768509 -70.012428 -0.10945771 -85.038284
9211375000 -0.82142299 124.97516 -9.0808716 -69.411263 -9.0786371 -69.875504 -0.11309745 -84.825653
9211437500 -0.82384402 124.94834 -9.0891314 -69.437798 -9.0791054 -69.890228 -0.11323873 -84.833488
9211500000 -0.82415426 124.93068 -9.0961199 -69.396194 -9.0794792 -69.853653 -0.11484271 -84.825478
9211562500 -0.82053906 124.9285 -9.0795584 -69.409561 -9.0774851 -69.846367 -0.1175368 -84.801498
9211625000 -0.82062101 124.93982 -9.0938597 -69.342888 -9.0837126 -69.849953 -0.12263787 -84.772659
9211687500 -0.81553274 124.88055 -9.08463 -69.335121 -9.0730572 -69.815384 -0.12093005 -84.766846
9211750000 -0.81199127 124.87082 -9.0818596 -69.357559 -9.0766382 -69.83638 -0.12025459 -84.762611
9211812500 -0.81599063 124.82674 -9.0779171 -69.43721 -9.0790901 -69.847366 -0.12338656 -84.764305
9211875000 -0.81975299 124.86569 -9.0706911 -69.304352 -9.074029 -69.8815 -0.11818436 -84.716904
9211937500 -0.81860179 124.81335 -9.0841675 -69.343163 -9.0768585 -69.816566 -0.11975585 -84.687401
9212000000 -0.82281607 124.77603 -9.0763426 -69.367172 -9.0772047 -69.826218 -0.1232891 -84.644691
9212062500 -0.82284915 124.76071 -9.080162 -69.440468 -9.0768175 -69.87661 -0.11952092 -84.640091
9212125000 -0.82366461 124.76107 -9.0754633 -69.391197 -9.0750513 -69.80732 -0.1216879 -84.545227
9212187500 -0.82323873 124.72834 -9.0784159 -69.388405 -9.0690432 -69.792656 -0.1226235 -84.559753
