!Agilent Technologies,N5242A,MY51221714,A.09.90.19
!Agilent N5242A: A.09.90.19
!Date: Tuesday, March 26, 2024 16:44:05
!Correction: S11(Full 2 Port(1,2)) 
!S21(Full 2 Port(1,2)) 
!S12(Full 2 Port(1,2)) 
!S22(Full 2 Port(1,2)) 
!S2P File: Measurements: S11, S21, S12, S22:
# Hz S  dB   R 50
9200000000 -1.0310133 137.51726 -9.0264187 -72.828979 -9.0074825 -73.603806 -0.018868169 -103.59178
9200062500 -1.0250599 137.51799 -9.0082426 -72.780037 -9.0094519 -73.578072 -0.015467591 -103.53426
9200125000 -1.0272315 137.49683 -9.011342 -72.741867 -9.004859 -73.575005 -0.025761602 -103.52781
9200187500 -1.0334171 137.48114 -9.0181513 -72.78717 -9.0118809 -73.607254 -0.0098001957 -103.46323
9200250000 -1.0219605 137.43188 -9.0125942 -72.836693 -9.0137091 -73.527229 -0.011736139 -103.5593
9200312500 -1.0320481 137.45757 -9.0102224 -72.77858 -9.0134192 -73.582153 -0.021937862 -103.50809
9200375000 -1.0241796 137.39938 -9.0103455 -72.771606 -9.0092955 -73.717125 -0.017369982 -103.49184
9200437500 -1.0266137 137.44214 -9.0136137 -72.840652 -9.00284 -73.616562 -0.012389324 -103.43916
9200500000 -1.0295683 137.37784 -9.0228214 -72.845299 -9.0054674 -73.493347 -0.019624403 -103.43188
9200562500 -1.0202004 137.37975 -9.0082216 -72.785057 -9.0188751 -73.617035 -0.018542951 -103.51122
9200625000 -1.0293678 137.39418 -9.0125494 -72.762199 -8.9997845 -73.550072 -0.020988785 -103.40964
9200687500 -1.0169617 137.37895 -9.0094175 -72.741776 -9.0099859 -73.546669 -0.023850575 -103.36149
9200750000 -1.0273931 137.314 -9.0133524 -72.857491 -9.0016527 -73.545578 -0.017672228 -103.35795
9200812500 -1.0382193 137.34538 -9.0253162 -72.734032 -9.0096779 -73.541977 -0.029857889 -103.32806
9200875000 -1.0219718 137.42026 -9.0032358 -72.788834 -9.0168324 -73.538063 -0.028422859 -103.31046
9200937500 -1.0280459 137.3175 -9.0202665 -72.811462 -9.0074749 -73.596619 -0.019613355 -103.31181
9201000000 -1.0199326 137.30449 -9.0113678 -72.840416 -8.9986086 -73.525642 -0.016635621 -103.30634
9201062500 -1.0207974 137.26721 -9.0126305 -72.781021 -9.002264 -73.527588 -0.020598527 -103.22528
9201125000 -1.0315397 137.27341 -9.0099878 -72.764381 -9.0028667 -73.593109 -0.021638876 -103.23743
9201187500 -1.03088 137.22377 -9.0105801 -72.770035 -8.9971399 -73.526573 -0.033369947 -103.14243
9201250000 -1.0368304 137.28067 -9.0154324 -72.715385 -8.9991264 -73.482262 -0.02372325 -103.17702
9201312500 -1.0387264 137.18993 -9.0045948 -72.793068 -8.9970694 -73.51828 -0.017268751 -103.23347
9201375000 -1.0388192 137.22969 -9.0117741 -72.72081 -9.0112906 -73.467033 -0.034884892 -103.14245
9201437500 -1.0282754 137.19727 -9.0123739 -72.727715 -9.0102863 -73.529121 -0.02743079 -103.22831
9201500000 -1.0341921 137.20807 -9.0137177 -72.770699 -9.0007229 -73.544968 -0.023423512 -103.19099
9201562500 -1.0337347 137.15088 -9.0153017 -72.776199 -9.0167408 -73.509697 -0.037908621 -103.15197
9201625000 -1.0340927 137.189 -9.0077505 -72.744995 -8.9814634 -73.51413 -0.028051317 -103.10792
9201687500 -1.0339684 137.17305 -8.9954443 -72.68161 -9.0049753 -73.49192 -0.031942949 -102.97869
9201750000 -1.0262663 137.11987 -8.9992113 -72.759727 -8.9821157 -73.53656 -0.017136114 -103.05077
9201812500 -1.0234581 137.12476 -9.0080185 -72.780449 -8.9958277 -73.522995 -0.030737493 -103.14469
9201875000 -1.0254285 137.07893 -8.9933462 -72.770187 -8.9960127 -73.51606 -0.022563048 -102.99361
9201937500 -1.0426605 137.05502 -9.0086575 -72.790146 -8.9947939 -73.516014 -0.021792181 -103.03236
9202000000 -1.0325017 137.06477 -8.9990425 -72.728874 -8.9888659 -73.609436 -0.02394636 -103.01458
9202062500 -1.0327504 137.07779 -8.9938354 -72.745171 -8.9852839 -73.567879 -0.021900086 -102.99093
9202125000 -1.0291959 137.0941 -9.0138702 -72.753899 -8.9947557 -73.436241 -0.031698346 -102.9825
9202187500 -1.0287083 137.07806 -8.9993105 -72.760498 -8.9887152 -73.50058 -0.017967828 -102.93437
9202250000 -1.0288297 137.03859 -8.9999208 -72.764999 -9.0001841 -73.468475 -0.036946964 -102.89645
9202312500 -1.0278957 137.02472 -9.0026484 -72.72628 -8.9882536 -73.530365 -0.023738895 -102.91357
9202375000 -1.0307797 136.9801 -9.0005951 -72.751457 -8.9868097 -73.48243 -0.03180021 -102.84698
9202437500 -1.0293014 137.01213 -9.0003252 -72.710747 -8.9912729 -73.518661 -0.028417405 -102.93651
9202500000 -1.0397739 136.96037 -9.0073481 -72.785042 -9.0043392 -73.490829 -0.033659991 -102.93578
9202562500 -1.0298107 136.94481 -8.9931765 -72.696342 -8.9924107 -73.459824 -0.031404287 -102.87769
9202625000 -1.0284195 137.02992 -8.9990969 -72.77552 -8.9835291 -73.505104 -0.031739093 -102.83989
9202687500 -1.0282831 136.93225 -8.9906673 -72.792801 -8.9923496 -73.502045 -0.029289706 -102.79417
9202750000 -1.0258505 136.88213 -8.9850912 -72.765343 -8.9792252 -73.539604 -0.020728156 -102.81792
9202812500 -1.0320127 136.90704 -9.001461 -72.725082 -8.9747181 -73.497696 -0.023038134 -102.7561
9202875000 -1.0290087 136.90244 -8.9957342 -72.715233 -8.9887266 -73.456314 -0.027757371 -102.7527
9202937500 -1.0321987 136.85905 -8.9939804 -72.816452 -8.9725761 -73.451454 -0.018526817 -102.74775
9203000000 -1.0348579 136.89503 -8.9940958 -72.735901 -8.9859056 -73.46138 -0.030540606 -102.71373
9203062500 -1.027283 136.84505 -8.9850054 -72.729134 -8.983345 -73.428955 -0.039744094 -102.70853
9203125000 -1.0237767 136.78935 -8.9825411 -72.717842 -8.9692726 -73.528999 -0.025279799 -102.72402
9203187500 -1.0227965 136.82874 -8.9928064 -72.739136 -8.9776583 -73.490913 -0.027304826 -102.69645
9203250000 -1.0263897 136.80241 -8.9862728 -72.734909 -8.9785099 -73.43399 -0.025726419 -102.6667
9203312500 -1.0371839 136.8161 -8.993 -72.712906 -8.9761648 -73.47673 -0.019012796 -102.64698
9203375000 -1.0356539 136.78137 -8.9945164 -72.717201 -8.9748459 -73.453362 -0.023687474 -102.6362
9203437500 -1.0338445 136.808 -9.0017662 -72.725876 -8.9816408 -73.424179 -0.029505195 -102.65199
9203500000 -1.0338004 136.76021 -8.9819241 -72.717194 -8.9753752 -73.464958 -0.02788832 -102.59698
9203562500 -1.0408559 136.76724 -8.9992876 -72.758286 -8.9868994 -73.517624 -0.041690528 -102.6741
9203625000 -1.0295469 136.78726 -8.9946499 -72.713272 -8.9912987 -73.432884 -0.034671858 -102.64885
9203687500 -1.0364827 136.7001 -8.9926605 -72.73336 -8.9886417 -73.405327 -0.035883915 -102.5054
9203750000 -1.0327095 136.71938 -8.9925623 -72.667709 -8.9809465 -73.43277 -0.022795223 -102.50095
9203812500 -1.0349059 136.69611 -8.9799309 -72.739899 -8.9772034 -73.432251 -0.031666212 -102.47413
9203875000 -1.0277778 136.67371 -8.9864511 -72.665909 -8.9810438 -73.470573 -0.045896087 -102.48402
9203937500 -1.0360199 136.67735 -8.9790678 -72.764671 -8.9742107 -73.437126 -0.025716884 -102.49933
9204000000 -1.0329617 136.68964 -8.974782 -72.657814 -8.9794111 -73.484398 -0.028482968 -102.47663
9204062500 -1.0303963 136.6597 -8.9744272 -72.671448 -8.9606047 -73.449486 -0.029064676 -102.44195
9204125000 -1.0342649 136.64616 -8.9831619 -72.711945 -8.9658279 -73.468071 -0.027840136 -102.41674
9204187500 -1.0376277 136.5616 -8.9845457 -72.739204 -8.9744816 -73.497696 -0.034498259 -102.45886
9204250000 -1.0348107 136.61763 -8.9734879 -72.745621 -8.9673557 -73.459747 -0.033955663 -102.46196
9204312500 -1.0312957 136.64955 -8.9798965 -72.626648 -8.9780169 -73.452576 -0.04466984 -102.32185
9204375000 -1.0222886 136.54916 -8.9811287 -72.702957 -8.9730692 -73.454025 -0.034794513 -102.44205
9204437500 -1.0501606 136.61836 -8.993494 -72.660233 -8.9703617 -73.407837 -0.029722225 -102.34123
9204500000 -1.0408431 136.60048 -8.974741 -72.69445 -8.9785404 -73.53421 -0.035105661 -102.42653
9204562500 -1.0358626 136.5363 -8.9819622 -72.766136 -8.9671021 -73.42569 -0.019501606 -102.34262
9204625000 -1.0276959 136.54808 -8.9754829 -72.695366 -8.9615393 -73.497223 -0.030770931 -102.32225
9204687500 -1.033591 136.52267 -8.9797306 -72.68428 -8.9710035 -73.433243 -0.038198818 -102.28363
9204750000 -1.0436097 136.4881 -8.9782181 -72.641403 -8.9783783 -73.428818 -0.049643807 -102.28551
9204812500 -1.0264735 136.47223 -8.9702625 -72.66938 -8.9692297 -73.43177 -0.028314695 -102.23852
9204875000 -1.035432 136.54436 -8.9708424 -72.660873 -8.9810019 -73.424408 -0.031892683 -102.24132
9204937500 -1.032268 136.47479 -8.9722052 -72.68428 -8.9687443 -73.456619 -0.02468681 -102.25179
9205000000 -1.0215003 136.44322 -8.9699039 -72.620651 -8.9632807 -73.418549 -0.042793166 -102.20291
9205062500 -1.0365691 136.42136 -8.981452 -72.706551 -8.9492769 -73.422707 -0.035050213 -102.14531
9205125000 -1.0329713 136.39641 -8.9715719 -72.662277 -8.9607935 -73.439095 -0.032653328 -102.12427
9205187500 -1.0365756 136.43927 -8.9669495 -72.627686 -8.9691553 -73.394028 -0.041080296 -102.1262
9205250000 -1.0320535 136.36748 -8.9771242 -72.750221 -8.9744692 -73.42617 -0.04161679 -102.18951
9205312500 -1.0296403 136.44397 -8.9632444 -72.610291 -8.954113 -73.415436 -0.037379872 -102.16204
9205375000 -1.0339189 136.37758 -8.9654646 -72.642578 -8.9564877 -73.390366 -0.029670099 -102.07934
9205437500 -1.0293281 136.37234 -8.9634724 -72.596077 -8.9504414 -73.353302 -0.030749938 -102.05563
9205500000 -1.0415089 136.29251 -8.9716749 -72.639099 -8.957674 -73.45755 -0.028669676 -102.0345
9205562500 -1.0379962 136.31792 -8.9644547 -72.664574 -8.9629135 -73.424858 -0.03283599 -102.0062
9205625000 -1.0400288 136.30304 -8.9732714 -72.616013 -8.9584541 -73.380722 -0.038756054 -101.96657
9205687500 -1.0299475 136.32854 -8.9604464 -72.61071 -8.9574404 -73.417313 -0.041565191 -101.9798
9205750000 -1.0328848 136.25914 -8.9650326 -72.69355 -8.9581537 -73.426956 -0.035414055 -101.98861
9205812500 -1.0377268 136.25464 -8.9547482 -72.68354 -8.9578972 -73.451683 -0.037902854 -101.91167
9205875000 -1.0301324 136.25777 -8.9589024 -72.655014 -8.9584446 -73.351837 -0.031834725 -101.97849
9205937500 -1.0361913 136.20847 -8.9576788 -72.736633 -8.9482851 -73.349411 -0.035471734 -101.93417
9206000000 -1.0366206 136.24312 -8.9474249 -72.59726 -8.9463339 -73.380379 -0.024703937 -101.85239
9206062500 -1.0300038 136.2005 -8.9548798 -72.692314 -8.9508295 -73.435196 -0.035357162 -101.93246
9206125000 -1.0326525 136.21022 -8.9610748 -72.620819 -8.9393225 -73.374146 -0.035709564 -101.86651
9206187500 -1.0302211 136.21826 -8.9472256 -72.646042 -8.9516392 -73.399811 -0.028580489 -101.85251
9206250000 -1.0360439 136.13593 -8.9573231 -72.672562 -8.9468327 -73.313271 -0.03908398 -101.84408
9206312500 -1.0285689 136.10988 -8.9542656 -72.642891 -8.9545622 -73.48822 -0.045098931 -101.88494
9206375000 -1.0409772 136.14249 -8.956233 -72.673531 -8.9448824 -73.367554 -0.026009325 -101.84729
9206437500 -1.0345229 136.09784 -8.963459 -72.738106 -8.9517679 -73.435661 -0.041860979 -101.87579
9206500000 -1.0391791 136.1127 -8.9711494 -72.701576 -8.957037 -73.331184 -0.049629934 -101.80569
9206562500 -1.0343673 136.09444 -8.9652729 -72.71582 -8.9515724 -73.34285 -0.03789356 -101.83556
9206625000 -1.036417 136.02925 -8.9451857 -72.645973 -8.9555559 -73.458069 -0.044726521 -101.80796
9206687500 -1.037863 136.08739 -8.9613972 -72.63047 -8.9500093 -73.430382 -0.034779236 -101.81463
9206750000 -1.0339091 136.05365 -8.9392729 -72.605995 -8.9493818 -73.329491 -0.041202169 -101.74345
9206812500 -1.0312564 136.09511 -8.9508181 -72.607651 -8.9464359 -73.428879 -0.031890772 -101.76827
9206875000 -1.0357066 136.05396 -8.9656391 -72.650757 -8.9415913 -73.403343 -0.038835082 -101.66572
9206937500 -1.0342958 136.03265 -8.9553232 -72.623276 -8.952405 -73.419624 -0.044877835 -101.6666
9207000000 -1.0348976 136.01134 -8.9606171 -72.640457 -8.953229 -73.347733 -0.045565903 -101.66858
9207062500 -1.0325062 136.03244 -8.9452085 -72.563667 -8.9375372 -73.324028 -0.037112273 -101.53941
9207125000 -1.0404246 135.97043 -8.9430914 -72.612617 -8.9431534 -73.408188 -0.037344109 -101.561
9207187500 -1.0324216 135.95335 -8.9481783 -72.675476 -8.9477682 -73.389389 -0.045720626 -101.63481
9207250000 -1.0385585 135.90631 -8.9419985 -72.666862 -8.9433851 -73.359337 -0.040473729 -101.64611
9207312500 -1.0275664 135.94412 -8.9475985 -72.656349 -8.9430494 -73.29319 -0.043922387 -101.54609
9207375000 -1.0420142 135.89899 -8.9485388 -72.59967 -8.9335203 -73.371849 -0.040803306 -101.5364
9207437500 -1.0286094 135.97186 -8.9462605 -72.561615 -8.9553595 -73.373962 -0.041002054 -101.57462
9207500000 -1.046097 135.94496 -8.9579563 -72.622475 -8.9359293 -73.318268 -0.051996808 -101.52492
9207562500 -1.0370628 135.91113 -8.9474554 -72.636681 -8.9345369 -73.276398 -0.045110609 -101.49887
9207625000 -1.0371721 135.86406 -8.9421825 -72.607216 -8.9369335 -73.385429 -0.038796593 -101.451
9207687500 -1.0372992 135.88614 -8.9371071 -72.592644 -8.9363947 -73.357063 -0.035194241 -101.47437
9207750000 -1.0370988 135.84726 -8.9454088 -72.526772 -8.9399147 -73.349129 -0.03876644 -101.43573
9207812500 -1.0393587 135.84845 -8.9536409 -72.570595 -8.9421473 -73.365944 -0.04940325 -101.43768
9207875000 -1.0312233 135.83864 -8.9400253 -72.558716 -8.9305935 -73.343201 -0.037289336 -101.41771
9207937500 -1.0415593 135.79962 -8.9490232 -72.574715 -8.9305773 -73.375 -0.045943242 -101.43213
9208000000 -1.0434576 135.80183 -8.9411669 -72.600594 -8.9286385 -73.299133 -0.035751723 -101.34602
9208062500 -1.0404776 135.79037 -8.9512568 -72.571617 -8.9324913 -73.315132 -0.044517037 -101.34004
9208125000 -1.0383142 135.73297 -8.9387808 -72.661316 -8.937048 -73.363281 -0.041703705 -101.39034
9208187500 -1.0329189 135.78516 -8.9434338 -72.623802 -8.9431391 -73.287941 -0.050248835 -101.29964
9208250000 -1.0445323 135.77339 -8.9485435 -72.550545 -8.9357462 -73.309128 -0.045409858 -101.30109
9208312500 -1.040813 135.71985 -8.9443579 -72.624893 -8.9208384 -73.286118 -0.041612025 -101.32367
9208375000 -1.0376658 135.71762 -8.9316006 -72.619629 -8.9373436 -73.322746 -0.047336403 -101.25267
9208437500 -1.035285 135.63696 -8.938674 -72.659004 -8.930028 -73.314133 -0.049938548 -101.26845
9208500000 -1.037428 135.6839 -8.9359837 -72.565239 -8.9414654 -73.34568 -0.052848455 -101.25929
9208562500 -1.0452235 135.72186 -8.9311562 -72.567093 -8.9321022 -73.349663 -0.046384349 -101.23922
9208625000 -1.0362707 135.63603 -8.9311037 -72.515778 -8.9294872 -73.251198 -0.047902383 -101.23391
9208687500 -1.0339997 135.61414 -8.9266911 -72.627045 -8.9177847 -73.330833 -0.037199654 -101.18609
9208750000 -1.026659 135.66901 -8.9253473 -72.575439 -8.9239359 -73.288986 -0.046357263 -101.16859
9208812500 -1.0379252 135.68475 -8.9314966 -72.548416 -8.9285946 -73.330063 -0.047967631 -101.18322
9208875000 -1.0343225 135.58324 -8.9304886 -72.644478 -8.9315548 -73.291626 -0.041318044 -101.10295
9208937500 -1.0416008 135.62524 -8.9318771 -72.58419 -8.9242601 -73.235954 -0.046175111 -101.09075
9209000000 -1.0337574 135.58519 -8.9431953 -72.603218 -8.9200182 -73.234604 -0.050803736 -101.13673
9209062500 -1.0397282 135.5952 -8.9338322 -72.48336 -8.9283085 -73.305367 -0.051089879 -101.1048
9209125000 -1.0392195 135.54793 -8.9311047 -72.528534 -8.9144077 -73.298538 -0.040708426 -101.05005
9209187500 -1.0341569 135.55434 -8.9157314 -72.562569 -8.9300098 -73.250259 -0.047395214 -101.06969
9209250000 -1.0286618 135.50462 -8.9259949 -72.587173 -8.9215002 -73.395859 -0.04349193 -100.96941
9209312500 -1.0326337 135.44524 -8.9329243 -72.586037 -8.9200125 -73.277718 -0.053881593 -101.04102
9209375000 -1.0313002 135.48714 -8.9293804 -72.571297 -8.9338827 -73.215698 -0.05511314 -101.02914
9209437500 -1.0440339 135.46289 -8.9354391 -72.572342 -8.9233065 -73.35939 -0.045855075 -100.95443
9209500000 -1.0371176 135.4176 -8.9240894 -72.67556 -8.924118 -73.347496 -0.056251336 -100.99919
9209562500 -1.0475837 135.48 -8.933322 -72.542152 -8.9204607 -73.244057 -0.053580564 -100.91206
9209625000 -1.0410104 135.42592 -8.9139204 -72.557159 -8.9125223 -73.265793 -0.04078187 -100.87859
9209687500 -1.0462368 135.3999 -8.9233561 -72.600281 -8.9204702 -73.312241 -0.048784342 -100.88412
9209750000 -1.0338402 135.4295 -8.90732 -72.633339 -8.9228401 -73.323128 -0.043002069 -100.96185
9209812500 -1.036552 135.39581 -8.9279766 -72.504501 -8.9210825 -73.248863 -0.055404536 -100.83672
9209875000 -1.032969 135.37393 -8.9185963 -72.528557 -8.9099054 -73.299644 -0.051654965 -100.88517
9209937500 -1.0400597 135.4597 -8.9308891 -72.506935 -8.9219513 -73.284576 -0.057550505 -100.9427
9210000000 -1.0294684 135.38289 -8.9138737 -72.498314 -8.9097948 -73.247513 -0.058326788 -100.82944
9210062500 -1.0464852 135.3797 -8.9300432 -72.555214 -8.9140148 -73.271698 -0.058963478 -100.82232
9210125000 -1.0338937 135.30983 -8.9235649 -72.599533 -8.9169769 -73.211853 -0.05985488 -100.79263
9210187500 -1.0394677 135.311 -8.919179 -72.521194 -8.9087181 -73.301353 -0.050501768 -100.73673
9210250000 -1.0378375 135.35686 -8.9216766 -72.497643 -8.9172726 -73.222473 -0.060095415 -100.79636
9210312500 -1.0453904 135.31816 -8.9186554 -72.51123 -8.9156189 -73.338036 -0.055394325 -100.77457
9210375000 -1.039613 135.31789 -8.924077 -72.53981 -8.9101191 -73.255562 -0.046671174 -100.65758
9210437500 -1.0302713 135.27548 -8.9261904 -72.513908 -8.9132376 -73.327431 -0.048048243 -100.73352
9210500000 -1.0327605 135.2626 -8.917881 -72.554749 -8.9032269 -73.271553 -0.047122244 -100.74632
9210562500 -1.0384432 135.23953 -8.918292 -72.536125 -8.9214182 -73.268936 -0.059620693 -100.62514
9210625000 -1.0369595 135.24243 -8.9279881 -72.548866 -8.9099035 -73.29953 -0.055750102 -100.72327
9210687500 -1.0350058 135.26971 -8.9127846 -72.523613 -8.9129705 -73.299774 -0.062719151 -100.62803
9210750000 -1.039055 135.22008 -8.915369 -72.604233 -8.9049788 -73.288986 -0.050916232 -100.66619
9210812500 -1.0430959 135.15167 -8.9109879 -72.625618 -8.9062033 -73.176468 -0.059871361 -100.58302
9210875000 -1.0387267 135.20438 -8.9182205 -72.481682 -8.8996572 -73.2192 -0.047646165 -100.60681
9210937500 -1.0309 135.17848 -8.9230919 -72.492012 -8.9124842 -73.254272 -0.061399098 -100.62743
9211000000 -1.0358816 135.21014 -8.9050589 -72.481865 -8.9019432 -73.258682 -0.04951676 -100.60995
9211062500 -1.0370737 135.16347 -8.9087954 -72.47506 -8.9084816 -73.22464 -0.058639031 -100.53854
9211125000 -1.0320678 135.09608 -8.908185 -72.553291 -8.910429 -73.227722 -0.053690985 -100.5064
9211187500 -1.0418768 135.10637 -8.9083462 -72.488029 -8.897481 -73.202438 -0.05828293 -100.48985
9211250000 -1.0410473 135.09863 -8.9064865 -72.535416 -8.9085045 -73.125931 -0.056019042 -100.45982
9211312500 -1.0423158 135.12685 -8.9058619 -72.445381 -8.9031935 -73.273399 -0.058985315 -100.52398
9211375000 -1.0354658 135.02403 -8.9049425 -72.572212 -8.8971252 -73.269096 -0.058620706 -100.44065
9211437500 -1.036858 135.0388 -8.8973284 -72.459656 -8.8965998 -73.206154 -0.057693493 -100.39442
9211500000 -1.0418181 135.05113 -8.9084415 -72.483612 -8.9019976 -73.257278 -0.052999668 -100.44291
9211562500 -1.0458405 135.06647 -8.9139681 -72.48349 -8.8954172 -73.241554 -0.059150502 -100.42944
9211625000 -1.0464512 134.99255 -8.9070292 -72.520432 -8.8929329 -73.273788 -0.048294362 -100.43893
9211687500 -1.0435461 135.04811 -8.9111185 -72.524918 -8.8983192 -73.246277 -0.060583461 -100.35902
9211750000 -1.0393755 134.97305 -8.9070101 -72.486031 -8.8957434 -73.175354 -0.05387542 -100.30666
9211812500 -1.0430005 135.00331 -8.9132299 -72.489693 -8.8987646 -73.242561 -0.06788259 -100.3757
9211875000 -1.0443732 134.92314 -8.9061699 -72.524872 -8.8949232 -73.193199 -0.050045572 -100.31267
9211937500 -1.0403907 134.95566 -8.9081039 -72.49453 -8.8927021 -73.205849 -0.064406022 -100.2856
9212000000 -1.0378195 134.89746 -8.8984861 -72.506622 -8.8934278 -73.221291 -0.063445613 -100.2549
9212062500 -1.0454906 134.91612 -8.9105339 -72.499222 -8.9011974 -73.229706 -0.072493158 -100.30727
9212125000 -1.0394574 134.89119 -8.8982744 -72.497223 -8.9031906 -73.187988 -0.063038692 -100.2235
9212187500 -1.0329016 134.91357 -8.8820953 -72.451637 -8.8844471 -73.15612 -0.065550677 -100.175
