!Agilent Technologies,N5242A,MY51221714,A.09.90.19
!Agilent N5242A: A.09.90.19
!Date: Tuesday, March 26, 2024 16:45:13
!Correction: S11(Full 2 Port(1,2)) 
!S21(Full 2 Port(1,2)) 
!S12(Full 2 Port(1,2)) 
!S22(Full 2 Port(1,2)) 
!S2P File: Measurements: S11, S21, S12, S22:
# Hz S  dB   R 50
9200000000 -1.008952 137.88451 -9.1235504 -72.997528 -9.115098 -73.826271 -0.017253747 -104.29024
9200062500 -1.0125874 137.882 -9.1215248 -73.03141 -9.1223917 -73.738884 -0.015852243 -104.19345
9200125000 -1.0143726 137.85451 -9.1160202 -72.950287 -9.1048889 -73.695511 -0.014365165 -104.13657
9200187500 -1.0193822 137.9003 -9.1223288 -72.916344 -9.1116257 -73.756004 -0.0033059635 -104.13951
9200250000 -1.0046676 137.81461 -9.1147366 -73.05397 -9.1213751 -73.738441 -0.0092764981 -104.16325
9200312500 -1.0196922 137.85611 -9.1257591 -72.998611 -9.1178427 -73.708122 -0.020801689 -104.11927
9200375000 -1.0111815 137.81589 -9.1275101 -72.981056 -9.106225 -73.791313 -0.0077996859 -104.13025
9200437500 -1.0109344 137.80849 -9.1168222 -73.001877 -9.0981455 -73.731804 -0.00079992152 -104.11713
9200500000 -1.0126579 137.76263 -9.1204929 -72.97921 -9.1059313 -73.651131 -0.017626455 -104.0154
9200562500 -1.0086178 137.77623 -9.1075888 -73.012161 -9.115099 -73.696236 -0.020465765 -104.08082
9200625000 -1.012254 137.76604 -9.1163292 -72.952072 -9.1030741 -73.718971 -0.011699447 -104.06339
9200687500 -1.0066196 137.74876 -9.113308 -72.943214 -9.1158609 -73.729553 -0.018126354 -104.0038
9200750000 -1.0078361 137.69435 -9.1072731 -73.028557 -9.1040173 -73.673782 -0.012719943 -104.04581
9200812500 -1.0214686 137.72961 -9.1179037 -72.92981 -9.1148205 -73.722122 -0.025732122 -103.9999
9200875000 -1.0088042 137.8082 -9.1164465 -72.959297 -9.1135473 -73.657051 -0.022052485 -104.03228
9200937500 -1.012213 137.72311 -9.1144753 -73.013039 -9.1007452 -73.69487 -0.0076326537 -103.9708
9201000000 -1.011229 137.67551 -9.1169567 -73.046577 -9.100317 -73.731247 -0.01327292 -103.96719
9201062500 -1.0150044 137.66336 -9.1077929 -72.988319 -9.0993576 -73.691719 -0.020110788 -103.94445
9201125000 -1.0173441 137.67348 -9.1090622 -72.90461 -9.1031208 -73.72374 -0.0087657729 -103.91688
9201187500 -1.0144248 137.63193 -9.1129055 -72.932915 -9.0935478 -73.744637 -0.020401159 -103.88762
9201250000 -1.0184623 137.65236 -9.0991631 -72.95192 -9.1086206 -73.651436 -0.02170288 -103.82423
9201312500 -1.0222445 137.66959 -9.1083364 -72.941635 -9.1006689 -73.766785 -0.0072305147 -103.90631
9201375000 -1.020543 137.60402 -9.1159458 -72.914444 -9.1085005 -73.675468 -0.027699478 -103.83173
9201437500 -1.0094332 137.63246 -9.1150179 -72.924828 -9.1057882 -73.646164 -0.022264019 -103.87691
9201500000 -1.0220901 137.61206 -9.114399 -72.966331 -9.1069927 -73.678734 -0.022237362 -103.8553
9201562500 -1.019915 137.56195 -9.1167326 -72.965828 -9.1094809 -73.680611 -0.027729344 -103.81161
9201625000 -1.0148007 137.55147 -9.1066999 -72.937553 -9.0945616 -73.676987 -0.025543407 -103.74303
9201687500 -1.0256076 137.53229 -9.0956478 -72.889206 -9.0985956 -73.661217 -0.020898608 -103.71786
9201750000 -1.0160419 137.48865 -9.1117373 -72.937408 -9.0921764 -73.66571 -0.0093769338 -103.7172
9201812500 -1.0091395 137.49739 -9.1025915 -72.991585 -9.102355 -73.657288 -0.023038993 -103.79505
9201875000 -1.0139292 137.46573 -9.097353 -72.977455 -9.100194 -73.681259 -0.0094132237 -103.65514
9201937500 -1.0270132 137.4234 -9.1119223 -72.934563 -9.0986652 -73.722328 -0.017245574 -103.71825
9202000000 -1.0163362 137.45786 -9.1020536 -72.912209 -9.0909376 -73.708839 -0.010151801 -103.6825
9202062500 -1.0172969 137.44307 -9.0911036 -72.959991 -9.0913391 -73.708183 -0.010182017 -103.64376
9202125000 -1.0209067 137.47716 -9.1187954 -72.901207 -9.1033754 -73.623146 -0.02437754 -103.65954
9202187500 -1.0138822 137.4731 -9.1039095 -72.97747 -9.0933876 -73.689186 -0.013824485 -103.58149
9202250000 -1.0162126 137.42799 -9.1023388 -72.827011 -9.0854578 -73.604828 -0.021328116 -103.5648
9202312500 -1.0128391 137.41064 -9.1031265 -72.921898 -9.0896931 -73.719948 -0.018307816 -103.61951
9202375000 -1.0181282 137.40868 -9.1095486 -72.902702 -9.084384 -73.644218 -0.023771025 -103.52734
9202437500 -1.0159234 137.4023 -9.1042957 -72.989098 -9.0961475 -73.671211 -0.016757527 -103.60131
9202500000 -1.0220172 137.36967 -9.0993662 -72.952766 -9.105197 -73.668816 -0.023920113 -103.61268
9202562500 -1.0140669 137.37471 -9.1048393 -72.870911 -9.093833 -73.610703 -0.027839476 -103.54641
9202625000 -1.014335 137.36011 -9.101716 -72.958664 -9.0861301 -73.655602 -0.018480813 -103.48661
9202687500 -1.0172112 137.36093 -9.1005716 -72.879898 -9.086751 -73.620972 -0.013322394 -103.4416
9202750000 -1.0092214 137.27818 -9.0873384 -72.947693 -9.0866976 -73.664879 -0.021544028 -103.47684
9202812500 -1.0158662 137.31384 -9.0998926 -72.956993 -9.0804605 -73.686813 -0.011012708 -103.4293
9202875000 -1.0096581 137.28825 -9.0935984 -72.865036 -9.07868 -73.620689 -0.020408809 -103.39314
9202937500 -1.0138909 137.26656 -9.0974112 -72.976334 -9.0830154 -73.554817 -0.016268974 -103.41127
9203000000 -1.0159751 137.29855 -9.0962839 -72.90052 -9.0814323 -73.67466 -0.020933213 -103.38578
9203062500 -1.0192562 137.21696 -9.0977793 -72.927917 -9.0848331 -73.610703 -0.028116174 -103.41757
9203125000 -1.0147846 137.20171 -9.0985394 -72.913818 -9.0742054 -73.660316 -0.020841451 -103.36833
9203187500 -1.0114217 137.24117 -9.097847 -72.876511 -9.0762968 -73.63456 -0.01871006 -103.36609
9203250000 -1.0174471 137.15773 -9.0840054 -72.921326 -9.077714 -73.670769 -0.019420119 -103.34039
9203312500 -1.0233606 137.2171 -9.0953588 -72.893135 -9.0769758 -73.669243 -0.012068943 -103.31729
9203375000 -1.0108434 137.16489 -9.0887241 -72.914299 -9.0775719 -73.60421 -0.019055704 -103.27003
9203437500 -1.0239909 137.21632 -9.102725 -72.940292 -9.0825481 -73.64859 -0.021153478 -103.30921
9203500000 -1.0182602 137.15294 -9.0953741 -72.942963 -9.0841589 -73.621849 -0.014522674 -103.2691
9203562500 -1.0256025 137.14124 -9.1034317 -72.888062 -9.0917568 -73.718567 -0.03651049 -103.34161
9203625000 -1.0211165 137.108 -9.0968351 -73.026451 -9.0785131 -73.648697 -0.025022462 -103.34007
9203687500 -1.0217553 137.09314 -9.1028824 -72.914261 -9.0826263 -73.658623 -0.029049821 -103.24547
9203750000 -1.0146593 137.06886 -9.0870113 -72.877617 -9.0823841 -73.613693 -0.018391665 -103.19719
9203812500 -1.0189203 137.07631 -9.0824776 -72.976723 -9.0790462 -73.65683 -0.024820168 -103.16058
9203875000 -1.0146929 137.07527 -9.0950394 -72.909134 -9.0823803 -73.649925 -0.04445098 -103.21561
9203937500 -1.0229954 137.04926 -9.0823984 -72.853073 -9.0817423 -73.559227 -0.025315983 -103.14723
9204000000 -1.0151271 137.06343 -9.0749617 -72.883278 -9.0751839 -73.644005 -0.023674035 -103.14429
9204062500 -1.0113041 137.03787 -9.0856609 -72.895355 -9.0649872 -73.621552 -0.026067618 -103.13577
9204125000 -1.0233598 137.00374 -9.0882788 -72.854538 -9.0688047 -73.639374 -0.016520174 -103.1002
9204187500 -1.0244839 136.97206 -9.0895185 -72.890991 -9.0794344 -73.681351 -0.033912797 -103.06712
9204250000 -1.0210116 137.02342 -9.0796814 -72.805206 -9.0656042 -73.591347 -0.018848993 -103.08467
9204312500 -1.0121082 137.02527 -9.0791254 -72.7939 -9.0734921 -73.699089 -0.030610485 -102.98433
9204375000 -1.0126867 136.95831 -9.0924664 -72.891815 -9.0725861 -73.581078 -0.029396428 -103.07226
9204437500 -1.0283601 136.99913 -9.0832167 -72.90387 -9.0782557 -73.560844 -0.026060943 -102.97832
9204500000 -1.0200789 136.93343 -9.0861979 -72.912888 -9.0881929 -73.598328 -0.030173382 -103.05366
9204562500 -1.0184722 136.92049 -9.0754423 -73.007072 -9.0702534 -73.658066 -0.020726999 -103.05582
9204625000 -1.0131564 136.92055 -9.087636 -72.795586 -9.0631723 -73.650688 -0.027883474 -102.9103
9204687500 -1.014931 136.9225 -9.087779 -72.857697 -9.0719538 -73.587685 -0.028073065 -102.92828
9204750000 -1.025625 136.8642 -9.0769863 -72.773903 -9.0711441 -73.618736 -0.036848206 -102.92068
9204812500 -1.0132024 136.8423 -9.0788441 -72.806007 -9.0838518 -73.593925 -0.033130534 -102.89746
9204875000 -1.0131531 136.93788 -9.0721798 -72.843597 -9.084178 -73.544548 -0.028842811 -102.92884
9204937500 -1.0201933 136.82521 -9.080327 -72.939926 -9.0657072 -73.630623 -0.02107482 -102.88468
9205000000 -1.0094517 136.791 -9.0801468 -72.870605 -9.0682573 -73.490158 -0.042812504 -102.83791
9205062500 -1.019917 136.80513 -9.0762606 -72.873123 -9.0542164 -73.600143 -0.024288608 -102.82871
9205125000 -1.0168167 136.80315 -9.072587 -72.804337 -9.0603304 -73.598099 -0.029515447 -102.79874
9205187500 -1.0178124 136.83151 -9.0759058 -72.825249 -9.0718384 -73.585495 -0.034080282 -102.76038
9205250000 -1.0143908 136.76299 -9.0752802 -72.879303 -9.0727892 -73.572205 -0.035037991 -102.84927
9205312500 -1.0144646 136.83963 -9.0636368 -72.825249 -9.0732269 -73.567001 -0.033849794 -102.79671
9205375000 -1.0162219 136.7126 -9.0662374 -72.867073 -9.0636187 -73.538322 -0.022306554 -102.72237
9205437500 -1.016048 136.75624 -9.0651646 -72.809509 -9.0614805 -73.580566 -0.023749905 -102.76974
9205500000 -1.0228385 136.67026 -9.0623512 -72.80732 -9.0641003 -73.662071 -0.023844646 -102.65527
9205562500 -1.018537 136.7162 -9.0679169 -72.895943 -9.0630932 -73.567329 -0.025340429 -102.64023
9205625000 -1.0268908 136.7168 -9.0834255 -72.830833 -9.0599375 -73.581749 -0.032114469 -102.65116
9205687500 -1.0128465 136.71243 -9.0609961 -72.811325 -9.0557928 -73.580986 -0.030591825 -102.60615
9205750000 -1.0191418 136.66675 -9.0577364 -72.831558 -9.056057 -73.630524 -0.025925327 -102.64607
9205812500 -1.0185149 136.62134 -9.0571699 -72.825661 -9.0600843 -73.595093 -0.029856304 -102.60253
9205875000 -1.0082734 136.62059 -9.0547476 -72.853828 -9.0718784 -73.548882 -0.03438136 -102.66501
9205937500 -1.0229446 136.63707 -9.065815 -72.841896 -9.0528574 -73.552589 -0.032013029 -102.57457
9206000000 -1.0204014 136.59613 -9.047123 -72.822121 -9.0553236 -73.590759 -0.022679094 -102.5662
9206062500 -1.0178884 136.61455 -9.0626602 -72.850029 -9.0546579 -73.576859 -0.027010247 -102.57185
9206125000 -1.0224878 136.57817 -9.0679512 -72.835854 -9.0512505 -73.5214 -0.028435687 -102.50558
9206187500 -1.0209177 136.58992 -9.0573778 -72.847511 -9.0466003 -73.602104 -0.020478223 -102.56467
9206250000 -1.0256444 136.54507 -9.0716877 -72.851692 -9.0452375 -73.50248 -0.022854254 -102.52145
9206312500 -1.0162168 136.47679 -9.0578718 -72.862511 -9.0560904 -73.646057 -0.02112978 -102.52739
9206375000 -1.0166938 136.56697 -9.0637178 -72.793045 -9.049057 -73.481804 -0.028835027 -102.47863
9206437500 -1.0158831 136.4886 -9.0592899 -72.833771 -9.0573692 -73.533005 -0.033993125 -102.50939
9206500000 -1.0204566 136.47797 -9.0604086 -72.839401 -9.0463924 -73.513618 -0.032886151 -102.45169
9206562500 -1.0229481 136.52577 -9.0719938 -72.877853 -9.0498266 -73.596413 -0.030546654 -102.5027
9206625000 -1.0221184 136.43274 -9.0583115 -72.835045 -9.0548038 -73.603645 -0.031493917 -102.46153
9206687500 -1.0207688 136.44646 -9.0598173 -72.882698 -9.0520582 -73.566299 -0.028273029 -102.44734
9206750000 -1.0183328 136.46262 -9.0532131 -72.806786 -9.0517607 -73.543106 -0.032896798 -102.42565
9206812500 -1.0129902 136.44124 -9.0486031 -72.808418 -9.0450687 -73.535912 -0.023170203 -102.42136
9206875000 -1.0213586 136.4456 -9.060174 -72.800659 -9.0497513 -73.481529 -0.0403383 -102.30096
9206937500 -1.0167652 136.43161 -9.0500221 -72.814034 -9.0562649 -73.569191 -0.03991504 -102.3168
9207000000 -1.0229737 136.41977 -9.0626402 -72.810936 -9.0535345 -73.540909 -0.036815044 -102.33463
9207062500 -1.0190669 136.41705 -9.0567274 -72.703728 -9.0491028 -73.515915 -0.038549006 -102.22553
9207125000 -1.02911 136.34401 -9.0477734 -72.782227 -9.0469437 -73.543503 -0.036578946 -102.27071
9207187500 -1.02144 136.32753 -9.0460882 -72.823242 -9.0476751 -73.558693 -0.035051659 -102.28733
9207250000 -1.0207752 136.3546 -9.0485716 -72.784538 -9.0521183 -73.445549 -0.029648663 -102.27194
9207312500 -1.0147831 136.32114 -9.0502367 -72.81646 -9.0406427 -73.496544 -0.025301594 -102.24831
9207375000 -1.0287575 136.32782 -9.0566921 -72.780472 -9.0451279 -73.49601 -0.033364795 -102.17784
9207437500 -1.0149939 136.36229 -9.0441198 -72.752892 -9.0630245 -73.540459 -0.043871555 -102.22528
9207500000 -1.021229 136.32042 -9.0507336 -72.810333 -9.0366697 -73.486206 -0.041880909 -102.17039
9207562500 -1.0126297 136.31607 -9.0445566 -72.77829 -9.0345325 -73.46904 -0.029537192 -102.15794
9207625000 -1.0220579 136.25124 -9.0521984 -72.709427 -9.0436754 -73.527985 -0.038643967 -102.06181
9207687500 -1.0232339 136.29347 -9.0475826 -72.7808 -9.0483427 -73.518738 -0.039211728 -102.14075
9207750000 -1.0229892 136.26671 -9.0477381 -72.818176 -9.0360374 -73.469513 -0.029895404 -102.11919
9207812500 -1.0225275 136.26117 -9.0467596 -72.7882 -9.0372639 -73.474182 -0.041419853 -102.10797
9207875000 -1.0147303 136.22417 -9.0478325 -72.774208 -9.0321178 -73.52285 -0.035607062 -102.09248
9207937500 -1.0235171 136.15587 -9.0548534 -72.792099 -9.0401497 -73.567093 -0.040103626 -102.12928
9208000000 -1.0240456 136.19781 -9.0455236 -72.776703 -9.0494089 -73.456444 -0.034015365 -102.00455
9208062500 -1.0248096 136.1711 -9.0463953 -72.731339 -9.0325584 -73.5168 -0.035247277 -102.04095
9208125000 -1.0248116 136.15811 -9.0577679 -72.803154 -9.0371447 -73.5597 -0.03547902 -102.01702
9208187500 -1.0096489 136.15178 -9.0363359 -72.806282 -9.0485363 -73.440025 -0.041853592 -101.98097
9208250000 -1.0287973 136.18755 -9.0495119 -72.701187 -9.0277491 -73.53862 -0.036107928 -102.01612
9208312500 -1.0218906 136.13708 -9.0553513 -72.721176 -9.0254755 -73.449577 -0.035356235 -101.94328
9208375000 -1.0250711 136.12679 -9.0408897 -72.799973 -9.0377893 -73.537086 -0.043833282 -101.88988
9208437500 -1.0241406 136.04533 -9.0474892 -72.76712 -9.0324478 -73.430267 -0.045017179 -101.90923
9208500000 -1.0250709 136.04962 -9.0470362 -72.773964 -9.0322466 -73.482407 -0.037738796 -101.92023
9208562500 -1.023567 136.10814 -9.0392332 -72.714661 -9.0351086 -73.475456 -0.038071528 -101.91557
9208625000 -1.0137246 136.02609 -9.0268612 -72.765968 -9.0307074 -73.443054 -0.049022831 -101.86934
9208687500 -1.0129929 136.05649 -9.0311823 -72.751717 -9.0325289 -73.481247 -0.029297588 -101.86904
9208750000 -1.0179975 136.05963 -9.0366173 -72.696877 -9.0310879 -73.458519 -0.038842678 -101.85608
9208812500 -1.026467 136.09956 -9.0357361 -72.771927 -9.0334873 -73.462318 -0.035664309 -101.79222
9208875000 -1.0226291 136.00604 -9.0373325 -72.76664 -9.0386286 -73.447243 -0.038867209 -101.76821
9208937500 -1.0193186 136.00172 -9.027216 -72.762085 -9.0248489 -73.382019 -0.029730944 -101.71544
9209000000 -1.0211877 135.98163 -9.046258 -72.716141 -9.0330982 -73.40641 -0.049793605 -101.79613
9209062500 -1.0228056 135.98491 -9.027422 -72.718094 -9.0406847 -73.419861 -0.044677887 -101.70031
9209125000 -1.0263209 135.95045 -9.0398436 -72.788879 -9.0236025 -73.467117 -0.035127576 -101.70984
9209187500 -1.0220981 135.97865 -9.0320807 -72.753777 -9.0288229 -73.433693 -0.045910809 -101.70692
9209250000 -1.0192486 135.89107 -9.0285292 -72.750359 -9.0182743 -73.524757 -0.039592873 -101.60305
9209312500 -1.022242 135.83122 -9.0392008 -72.761757 -9.0242596 -73.478401 -0.048867319 -101.6774
9209375000 -1.016118 135.89561 -9.0338497 -72.742844 -9.0266943 -73.375778 -0.044074565 -101.68178
9209437500 -1.0296981 135.83226 -9.0418272 -72.748978 -9.0280552 -73.514816 -0.041136149 -101.62451
9209500000 -1.0181081 135.85876 -9.0232782 -72.716782 -9.0215874 -73.428268 -0.037980944 -101.55842
9209562500 -1.0247957 135.91592 -9.0422192 -72.700562 -9.0279074 -73.451195 -0.047737986 -101.55753
9209625000 -1.0228969 135.78218 -9.0319786 -72.79364 -9.0202265 -73.483406 -0.039175373 -101.56152
9209687500 -1.0240424 135.7542 -9.0316305 -72.717033 -9.0293474 -73.434166 -0.047047731 -101.55309
9209750000 -1.023579 135.76543 -9.0236988 -72.814484 -9.03477 -73.407425 -0.03796342 -101.56304
9209812500 -1.0206718 135.77534 -9.0339098 -72.747467 -9.0280952 -73.412033 -0.046574045 -101.49668
9209875000 -1.0177836 135.82784 -9.0305653 -72.668671 -9.0174398 -73.501465 -0.048928514 -101.55787
9209937500 -1.0262369 135.87061 -9.0441132 -72.665398 -9.033246 -73.462914 -0.046059743 -101.56537
9210000000 -1.0138481 135.78259 -9.0229292 -72.688911 -9.0126457 -73.414818 -0.051672567 -101.46195
9210062500 -1.0285997 135.7856 -9.0307293 -72.707428 -9.0059109 -73.435951 -0.03866601 -101.46619
9210125000 -1.0171838 135.7225 -9.0244551 -72.673668 -9.0176754 -73.402908 -0.044828221 -101.45132
9210187500 -1.0230241 135.76164 -9.0258961 -72.666054 -9.0174894 -73.419968 -0.049270187 -101.44267
9210250000 -1.0222269 135.74481 -9.0251274 -72.69043 -9.020422 -73.402336 -0.057054006 -101.42351
9210312500 -1.0245793 135.70174 -9.020318 -72.680916 -9.0179052 -73.462799 -0.04929059 -101.43799
9210375000 -1.0232753 135.76128 -9.0174675 -72.62841 -9.0188389 -73.427933 -0.050033558 -101.35178
9210437500 -1.0219728 135.65329 -9.0315371 -72.663834 -9.006671 -73.456558 -0.035002951 -101.4222
9210500000 -1.021603 135.63022 -9.0141315 -72.775024 -9.001009 -73.461311 -0.029750729 -101.39421
9210562500 -1.0269527 135.65305 -9.0303297 -72.647072 -9.0179005 -73.443817 -0.048697554 -101.32043
9210625000 -1.0245456 135.66127 -9.0233736 -72.66571 -9.0146208 -73.376305 -0.046422783 -101.34698
9210687500 -1.0152211 135.65898 -9.0148964 -72.675308 -9.0152607 -73.502274 -0.051218826 -101.33747
9210750000 -1.0229391 135.5768 -9.0156641 -72.756172 -9.0007191 -73.419296 -0.046206824 -101.28761
9210812500 -1.0224692 135.58803 -9.0255842 -72.684097 -9.0081387 -73.356628 -0.053772438 -101.24399
9210875000 -1.0210494 135.58685 -9.0233288 -72.645309 -9.0068808 -73.379677 -0.057748053 -101.27109
9210937500 -1.025799 135.57788 -9.0239801 -72.687576 -9.0122404 -73.314041 -0.052149523 -101.18881
9211000000 -1.0210664 135.56323 -9.0136366 -72.682945 -9.0093861 -73.407654 -0.040175319 -101.26154
9211062500 -1.021456 135.56236 -9.0202684 -72.601753 -9.0062971 -73.343323 -0.047224198 -101.19827
9211125000 -1.0215183 135.51271 -9.0133505 -72.672279 -9.0082121 -73.307472 -0.042786974 -101.14193
9211187500 -1.0282357 135.54453 -9.0226307 -72.625023 -9.0093966 -73.35582 -0.04875597 -101.15776
9211250000 -1.0274819 135.48399 -9.0044537 -72.74025 -9.0097246 -73.355804 -0.03774948 -101.15324
9211312500 -1.0250903 135.48958 -9.0206909 -72.722061 -9.0066366 -73.368568 -0.055348162 -101.14117
9211375000 -1.0182227 135.41364 -9.0085955 -72.708305 -9.0128727 -73.404884 -0.057425883 -101.10316
9211437500 -1.0200329 135.44333 -9.0062847 -72.650848 -9.0089884 -73.414825 -0.054241855 -101.0978
9211500000 -1.0237973 135.4621 -9.0121384 -72.676079 -9.0130081 -73.408447 -0.046869479 -101.13795
9211562500 -1.0319529 135.45084 -9.0208826 -72.697319 -9.0010986 -73.387985 -0.055717487 -101.10304
9211625000 -1.0260892 135.40781 -9.0048103 -72.757858 -8.9912424 -73.440086 -0.045092769 -101.0896
9211687500 -1.0263549 135.47488 -9.0147457 -72.591782 -9.0006313 -73.364159 -0.050828386 -100.99685
9211750000 -1.0239483 135.36168 -9.0110941 -72.6987 -9.0034733 -73.370766 -0.051413521 -100.95819
9211812500 -1.0253768 135.37323 -9.0171986 -72.659004 -9.0013332 -73.379288 -0.058010343 -101.01535
9211875000 -1.0265077 135.33124 -9.0065231 -72.69445 -8.9902916 -73.346779 -0.046539273 -100.9533
9211937500 -1.0220498 135.38373 -9.004343 -72.674889 -8.9975424 -73.409935 -0.059900641 -101.01639
9212000000 -1.0293602 135.28462 -9.0121517 -72.734802 -8.9957685 -73.365074 -0.053149037 -100.91655
9212062500 -1.0247903 135.2868 -9.0071335 -72.596191 -8.9990349 -73.308517 -0.060299903 -100.87802
9212125000 -1.0209666 135.2243 -8.998744 -72.707703 -9.0045815 -73.387993 -0.053671788 -100.90108
9212187500 -1.0125347 135.30838 -8.9974957 -72.588043 -8.9906597 -73.342514 -0.063490957 -100.86371
