!Agilent Technologies,N5242A,MY51221714,A.09.90.19
!Agilent N5242A: A.09.90.19
!Date: Tuesday, March 26, 2024 16:46:34
!Correction: S11(Full 2 Port(1,2)) 
!S21(Full 2 Port(1,2)) 
!S12(Full 2 Port(1,2)) 
!S22(Full 2 Port(1,2)) 
!S2P File: Measurements: S11, S21, S12, S22:
# Hz S  dB   R 50
9200000000 -1.0133324 137.55667 -9.1857214 -73.003616 -9.1605577 -73.764847 0.0050015198 -103.79865
9200062500 -1.0109926 137.59174 -9.1727896 -73.04155 -9.1779041 -73.751755 0.0029730666 -103.76023
9200125000 -1.0141081 137.52948 -9.171731 -72.931541 -9.1610641 -73.73436 -0.00066680164 -103.73615
9200187500 -1.0236498 137.59631 -9.188283 -72.901146 -9.1618834 -73.779747 0.014482906 -103.72944
9200250000 -1.0123038 137.56464 -9.1765423 -72.914528 -9.1565847 -73.714371 0.011887808 -103.75323
9200312500 -1.0166116 137.51936 -9.1791296 -73.002899 -9.1706991 -73.717384 0.0072068446 -103.70879
9200375000 -1.013545 137.49265 -9.1698332 -72.976448 -9.1662235 -73.775742 0.0064382814 -103.66985
9200437500 -1.0149262 137.51935 -9.1723385 -72.983932 -9.1668034 -73.725349 0.011894395 -103.64114
9200500000 -1.0149204 137.45157 -9.1714525 -73.026344 -9.1646471 -73.687431 0.0039663962 -103.65235
9200562500 -1.0164411 137.46068 -9.1693783 -72.969452 -9.1735106 -73.766655 0.011547601 -103.73311
9200625000 -1.0243022 137.45168 -9.1759872 -72.974365 -9.1600971 -73.745338 5.0136274e-005 -103.62094
9200687500 -1.0038472 137.4343 -9.1729383 -72.985901 -9.181344 -73.714897 0.0066091367 -103.59866
9200750000 -1.020228 137.37619 -9.1855526 -73.033905 -9.1582651 -73.665108 0.0071619172 -103.59704
9200812500 -1.0332822 137.43401 -9.1899347 -72.87397 -9.1658688 -73.675262 -0.0036826192 -103.51984
9200875000 -1.0095074 137.48979 -9.1647406 -72.945671 -9.1709995 -73.660667 -0.0009143207 -103.60867
9200937500 -1.0150644 137.40379 -9.175725 -72.946411 -9.1555939 -73.66507 0.014023853 -103.54954
9201000000 -1.011886 137.38737 -9.1780252 -73.007416 -9.1646814 -73.692047 0.00017556229 -103.53398
9201062500 -1.0101312 137.34824 -9.1586485 -72.997002 -9.1566038 -73.701324 0.0010337362 -103.47334
9201125000 -1.0160882 137.3681 -9.1682978 -72.890335 -9.1652737 -73.684792 0.0027737233 -103.44802
9201187500 -1.0195539 137.27069 -9.170145 -72.969414 -9.1583929 -73.673653 -0.00065456983 -103.39061
9201250000 -1.0217178 137.30733 -9.1600094 -72.895355 -9.1659212 -73.6446 -0.0028261046 -103.38793
9201312500 -1.0234675 137.28764 -9.1679544 -72.982056 -9.162466 -73.709824 0.0060938154 -103.48513
9201375000 -1.0286438 137.30602 -9.1767931 -72.910614 -9.1619577 -73.653763 -0.0048511359 -103.38693
9201437500 -1.018747 137.28752 -9.1792231 -72.915215 -9.1674032 -73.726357 -0.0072426763 -103.50061
9201500000 -1.0196556 137.27264 -9.1659698 -72.964684 -9.1610422 -73.729424 0.0010746083 -103.44385
9201562500 -1.0161064 137.25679 -9.1723509 -72.876457 -9.1634369 -73.620537 -0.0091319159 -103.32346
9201625000 -1.0165839 137.23584 -9.1602125 -72.913689 -9.1620321 -73.642525 -0.014926718 -103.30511
9201687500 -1.0293896 137.2278 -9.1693039 -72.826393 -9.1551762 -73.602692 -0.0014436666 -103.22816
9201750000 -1.0204083 137.20999 -9.17169 -72.991859 -9.1555967 -73.687073 0.0080529116 -103.32346
9201812500 -1.0103179 137.20331 -9.1563797 -72.883461 -9.1578827 -73.685219 -0.0089208614 -103.34458
9201875000 -1.0166316 137.17325 -9.1656704 -72.970329 -9.1550159 -73.72747 0.0065383078 -103.26276
9201937500 -1.0237237 137.11186 -9.158186 -72.899567 -9.1475573 -73.697258 0.012447049 -103.28226
9202000000 -1.0184814 137.16205 -9.1533661 -72.861435 -9.1539259 -73.748436 0.0020530305 -103.25407
9202062500 -1.025447 137.14371 -9.1580858 -72.932732 -9.1489115 -73.693779 0.0046017114 -103.19666
9202125000 -1.0268714 137.18214 -9.1768942 -72.90303 -9.1577959 -73.658867 -0.0056284345 -103.26389
9202187500 -1.0260621 137.12964 -9.1634216 -72.977257 -9.1467104 -73.624809 -0.0032776713 -103.12837
9202250000 -1.0211219 137.10187 -9.161335 -72.9245 -9.1600971 -73.595764 -0.004390724 -103.14677
9202312500 -1.0175083 137.11926 -9.1579456 -72.858841 -9.1450577 -73.678047 -0.0018412505 -103.15668
9202375000 -1.0194827 137.04059 -9.1716385 -72.986443 -9.1419897 -73.653473 -0.00014318892 -103.11003
9202437500 -1.019647 137.12073 -9.1524239 -72.88916 -9.1534824 -73.669769 -0.00090708432 -103.13001
9202500000 -1.0326333 137.06401 -9.1663046 -72.937836 -9.1627331 -73.613472 -0.0039587105 -103.11999
9202562500 -1.0096068 137.0694 -9.1596727 -72.853508 -9.1600523 -73.637749 -0.0098816557 -103.11671
9202625000 -1.0250252 137.07295 -9.1610146 -72.928932 -9.1462908 -73.627953 -0.0090538748 -103.06462
9202687500 -1.0249321 137.03917 -9.1621752 -72.881905 -9.1351833 -73.613441 0.0079930704 -103.01402
9202750000 -1.0114951 136.96826 -9.1469812 -72.899277 -9.1345682 -73.684967 -0.0033350689 -103.03635
9202812500 -1.0225595 136.98343 -9.1615486 -72.906677 -9.1294956 -73.680023 0.0044763368 -103.01762
9202875000 -1.0115193 136.98915 -9.1502953 -72.821396 -9.143918 -73.588013 -0.011103777 -102.99852
9202937500 -1.0160375 136.97034 -9.1557207 -72.946159 -9.1368513 -73.618904 -0.0019771121 -102.9682
9203000000 -1.0214307 136.98482 -9.1503792 -72.934677 -9.1413097 -73.626404 -0.0039413432 -102.93636
9203062500 -1.0183156 136.89949 -9.1513138 -72.94133 -9.1461 -73.626884 -0.0088899918 -102.97144
9203125000 -1.0150517 136.91705 -9.1393528 -72.882561 -9.130208 -73.642303 -0.0013526123 -102.95341
9203187500 -1.012259 136.87941 -9.1621485 -72.957199 -9.1362038 -73.661423 -0.0054096733 -102.91828
9203250000 -1.0221189 136.89005 -9.1539526 -72.932487 -9.142602 -73.631958 -0.0039870869 -102.91722
9203312500 -1.0265837 136.87015 -9.1543617 -72.905716 -9.1408138 -73.691353 0.0080725709 -102.89389
9203375000 -1.0195535 136.88628 -9.1471548 -72.84864 -9.13241 -73.6194 0.0013935078 -102.85476
9203437500 -1.0276457 136.85901 -9.1617594 -72.981308 -9.1403303 -73.608696 -0.0013884695 -102.88146
9203500000 -1.0190367 136.88156 -9.143899 -72.901199 -9.1369276 -73.639526 0.0020897209 -102.83853
9203562500 -1.0305666 136.82106 -9.1588173 -72.865204 -9.1475067 -73.61232 -0.016755164 -102.83743
9203625000 -1.0226812 136.81416 -9.1498623 -72.986732 -9.1413622 -73.633957 -0.011017398 -102.90026
9203687500 -1.0251863 136.76422 -9.1572151 -72.981712 -9.1442423 -73.584251 -0.0094287945 -102.74387
9203750000 -1.0172604 136.76315 -9.1471281 -72.824005 -9.1408558 -73.530991 0.0043810192 -102.68757
9203812500 -1.0215287 136.78357 -9.1494427 -72.904007 -9.135416 -73.66481 -0.011026364 -102.75464
9203875000 -1.0197771 136.77907 -9.1549072 -72.884148 -9.135643 -73.630058 -0.019925248 -102.75156
9203937500 -1.0226663 136.76338 -9.1399698 -72.861801 -9.1315718 -73.582657 -0.0027442831 -102.74044
9204000000 -1.0202862 136.77205 -9.1435509 -72.804871 -9.1395674 -73.630165 -0.0025709644 -102.68195
9204062500 -1.016344 136.75723 -9.140584 -72.860855 -9.1213722 -73.637383 -0.0065242322 -102.67174
9204125000 -1.0206888 136.73976 -9.1364431 -72.823853 -9.1296921 -73.667145 -0.00099117041 -102.66509
9204187500 -1.0287687 136.66705 -9.1456623 -72.885803 -9.1363306 -73.677986 -0.01676554 -102.64007
9204250000 -1.0274253 136.70787 -9.136754 -72.830154 -9.1285381 -73.615021 -0.0029114932 -102.66309
9204312500 -1.0218642 136.65546 -9.1290197 -72.837349 -9.125165 -73.601227 -0.0062233629 -102.57597
9204375000 -1.0137273 136.65479 -9.1440544 -72.836464 -9.132308 -73.590469 -0.010141144 -102.61485
9204437500 -1.0316312 136.68083 -9.1400433 -72.887085 -9.1286678 -73.540878 0.0014740516 -102.56758
9204500000 -1.0318801 136.65518 -9.1445665 -72.897064 -9.1441212 -73.667313 -0.011852745 -102.62319
9204562500 -1.023682 136.61411 -9.1482277 -72.997093 -9.1328487 -73.595467 -0.0003713468 -102.61622
9204625000 -1.0149136 136.61732 -9.1351118 -72.775124 -9.1230078 -73.604843 -0.003360433 -102.50292
9204687500 -1.0228209 136.56552 -9.1399422 -72.787056 -9.1272993 -73.581856 -0.0037144665 -102.47192
9204750000 -1.0354062 136.58415 -9.1439257 -72.788284 -9.1292229 -73.559402 -0.021806095 -102.50626
9204812500 -1.0170703 136.5843 -9.1348772 -72.763474 -9.1276016 -73.577148 -0.012081876 -102.50684
9204875000 -1.0209304 136.61778 -9.1345263 -72.786812 -9.1429977 -73.555344 -0.013928193 -102.49173
9204937500 -1.0216753 136.51869 -9.1358013 -72.858879 -9.1225004 -73.62973 -0.0078454223 -102.41721
9205000000 -1.0158547 136.50862 -9.131566 -72.703468 -9.1209574 -73.537689 -0.019760136 -102.39162
9205062500 -1.0189042 136.47316 -9.1335974 -72.896126 -9.110404 -73.570015 -0.010800916 -102.36278
9205125000 -1.0237588 136.48088 -9.1383324 -72.828812 -9.1284494 -73.516083 -0.014467229 -102.31683
9205187500 -1.0261213 136.53294 -9.1328077 -72.79435 -9.1206036 -73.523872 -0.013700737 -102.35265
9205250000 -1.0160763 136.43913 -9.1282349 -72.883514 -9.12889 -73.512062 -0.017211463 -102.40557
9205312500 -1.0229729 136.48396 -9.1193419 -72.780403 -9.125124 -73.527115 -0.013566937 -102.32993
9205375000 -1.0191743 136.42332 -9.1280289 -72.851738 -9.1208992 -73.522408 -0.0038024108 -102.25579
9205437500 -1.0159831 136.45027 -9.1194735 -72.75782 -9.1139545 -73.522751 -0.011279739 -102.30965
9205500000 -1.0278306 136.35997 -9.1270885 -72.814156 -9.1200619 -73.582779 -0.0048566391 -102.22569
9205562500 -1.024546 136.39896 -9.1220064 -72.836731 -9.1100321 -73.603828 -0.0064333053 -102.29922
9205625000 -1.0304451 136.39607 -9.1351118 -72.801567 -9.1076336 -73.610649 -0.0090716528 -102.20959
9205687500 -1.0211202 136.40219 -9.1236496 -72.766457 -9.1145763 -73.562386 -0.014208316 -102.18449
9205750000 -1.0247465 136.36304 -9.1221809 -72.799828 -9.1081295 -73.562508 -0.0061774463 -102.21162
9205812500 -1.0272279 136.30557 -9.1179218 -72.845123 -9.1326437 -73.543587 -0.01011009 -102.17402
9205875000 -1.0157632 136.37579 -9.1313677 -72.815598 -9.1179485 -73.536232 -0.017592588 -102.23022
9205937500 -1.0213863 136.31677 -9.1211643 -72.85836 -9.1075096 -73.493446 -0.017268399 -102.10954
9206000000 -1.0242968 136.30414 -9.1135445 -72.774559 -9.114171 -73.54895 -0.0048191482 -102.14327
9206062500 -1.0197905 136.32512 -9.124712 -72.810585 -9.1175909 -73.52562 -0.011381506 -102.16549
9206125000 -1.0239868 136.27873 -9.1202374 -72.837479 -9.1095734 -73.437614 -0.011687652 -102.00978
9206187500 -1.0221117 136.27264 -9.1163874 -72.814987 -9.1069918 -73.595955 -0.005380908 -102.1236
9206250000 -1.0215226 136.24144 -9.1225433 -72.834198 -9.1115723 -73.490883 -0.0087436391 -102.05449
9206312500 -1.0185033 136.2061 -9.1159964 -72.838165 -9.1118898 -73.557358 -0.010575812 -102.05756
9206375000 -1.0229903 136.22716 -9.1250477 -72.784775 -9.1068449 -73.43499 -0.0072637568 -102.03952
9206437500 -1.0218735 136.19806 -9.1200552 -72.805321 -9.1173487 -73.537239 -0.019445388 -102.05812
9206500000 -1.0275002 136.20203 -9.1306458 -72.810204 -9.1121492 -73.474487 -0.022053687 -102.01115
9206562500 -1.0231081 136.17986 -9.1237249 -72.91465 -9.1117287 -73.48307 -0.01961961 -102.0581
9206625000 -1.0245031 136.11661 -9.110692 -72.851082 -9.1036062 -73.552208 -0.0092544835 -101.97508
9206687500 -1.0267687 136.14981 -9.1233149 -72.888588 -9.098073 -73.518204 -0.0065390789 -102.00227
9206750000 -1.0195322 136.15686 -9.1089373 -72.826744 -9.119318 -73.481674 -0.015967423 -101.93133
9206812500 -1.0208673 136.19638 -9.1204329 -72.765213 -9.1111965 -73.593277 -0.011146302 -102.03036
9206875000 -1.0255227 136.1304 -9.1073132 -72.815933 -9.0951223 -73.471161 -0.0074156225 -101.86555
9206937500 -1.0209219 136.11192 -9.1140938 -72.773605 -9.105978 -73.477478 -0.017340207 -101.8752
9207000000 -1.0236455 136.12726 -9.1247854 -72.752289 -9.1119461 -73.557884 -0.01939912 -101.92651
9207062500 -1.0181241 136.06877 -9.1063404 -72.816521 -9.1046286 -73.48484 -0.018163336 -101.80405
9207125000 -1.0337224 136.06627 -9.1011 -72.769539 -9.0978832 -73.479202 -0.011002013 -101.80326
9207187500 -1.0186948 136.03821 -9.1030054 -72.832115 -9.0996084 -73.478645 -0.020038836 -101.84543
9207250000 -1.0179595 136.01178 -9.1018906 -72.783112 -9.1149912 -73.519287 -0.017221324 -101.87083
9207312500 -1.0128059 136.00183 -9.0911932 -72.803314 -9.0951061 -73.509094 -0.0071462905 -101.83292
9207375000 -1.02672 135.98872 -9.1090717 -72.773186 -9.0962543 -73.521896 -0.018042181 -101.76109
9207437500 -1.0232646 136.08427 -9.1079769 -72.74926 -9.1124592 -73.439407 -0.016761998 -101.76854
9207500000 -1.0270098 136.00108 -9.1128178 -72.772217 -9.0909357 -73.422821 -0.024191666 -101.69601
9207562500 -1.0154834 135.99422 -9.1034889 -72.817734 -9.0981436 -73.447876 -0.018430419 -101.71783
9207625000 -1.0271661 135.92488 -9.1061211 -72.698967 -9.1002588 -73.454376 -0.017222552 -101.62919
9207687500 -1.0265352 135.95651 -9.108427 -72.766495 -9.0956774 -73.492157 -0.011612128 -101.68578
9207750000 -1.0256966 135.95717 -9.0988398 -72.770836 -9.088232 -73.476967 -0.010055771 -101.69707
9207812500 -1.021675 135.96091 -9.1101055 -72.716537 -9.0907841 -73.46254 -0.018497312 -101.64015
9207875000 -1.0235178 135.93025 -9.1171179 -72.721649 -9.0950308 -73.546318 -0.0091076987 -101.62672
9207937500 -1.0241143 135.87471 -9.1036949 -72.740097 -9.1022243 -73.525497 -0.023598548 -101.64286
9208000000 -1.0297059 135.87125 -9.0970573 -72.788422 -9.0860415 -73.452263 -0.012106217 -101.60992
9208062500 -1.029092 135.87575 -9.1099653 -72.741737 -9.1017284 -73.453171 -0.025296789 -101.59743
9208125000 -1.0278814 135.82335 -9.0976171 -72.743195 -9.0922155 -73.488869 -0.014823939 -101.54328
9208187500 -1.0254594 135.86122 -9.1112051 -72.737556 -9.0988455 -73.472488 -0.02363888 -101.57762
9208250000 -1.0364909 135.8867 -9.1145611 -72.704765 -9.092144 -73.504852 -0.016071137 -101.50303
9208312500 -1.0232724 135.86501 -9.10425 -72.729004 -9.091794 -73.530243 -0.012724485 -101.57597
9208375000 -1.0315984 135.80353 -9.0942936 -72.768318 -9.0826273 -73.501404 -0.018817054 -101.47375
9208437500 -1.0233707 135.74199 -9.1077995 -72.739594 -9.0967312 -73.389374 -0.025013542 -101.44427
9208500000 -1.0260813 135.72916 -9.1011038 -72.716095 -9.0824194 -73.46669 -0.014350315 -101.45108
9208562500 -1.0292991 135.78308 -9.0979786 -72.757942 -9.091198 -73.497345 -0.022532487 -101.4866
9208625000 -1.022585 135.69135 -9.0812712 -72.747086 -9.084403 -73.430801 -0.023844415 -101.44867
9208687500 -1.0184062 135.74529 -9.0825663 -72.73304 -9.0863991 -73.480415 -0.013563105 -101.41103
9208750000 -1.024231 135.7384 -9.1003084 -72.716644 -9.0836496 -73.444542 -0.020516258 -101.38877
9208812500 -1.0304726 135.78191 -9.1046028 -72.668259 -9.0945492 -73.484062 -0.023092011 -101.34694
9208875000 -1.0262812 135.69363 -9.092329 -72.774902 -9.0868864 -73.40126 -0.017754462 -101.30303
9208937500 -1.0298052 135.703 -9.0866137 -72.73204 -9.0784988 -73.383003 -0.018024337 -101.32872
9209000000 -1.0219808 135.68303 -9.0993614 -72.734016 -9.08006 -73.448936 -0.024945315 -101.36109
9209062500 -1.0305905 135.67587 -9.1094103 -72.666573 -9.086133 -73.441948 -0.025546238 -101.29426
9209125000 -1.0275174 135.61461 -9.0934143 -72.785553 -9.0837307 -73.447601 -0.014391257 -101.29653
9209187500 -1.0269409 135.63354 -9.087986 -72.679893 -9.0893478 -73.383102 -0.021497669 -101.25362
9209250000 -1.022365 135.60368 -9.0845165 -72.709984 -9.0700321 -73.48941 -0.020171268 -101.16894
9209312500 -1.025701 135.53418 -9.0963736 -72.772606 -9.0814829 -73.470894 -0.030109191 -101.2987
9209375000 -1.017924 135.591 -9.0964069 -72.687195 -9.0853004 -73.338699 -0.029685916 -101.20896
9209437500 -1.030319 135.51761 -9.0863361 -72.688454 -9.0761662 -73.468613 -0.024690161 -101.17323
9209500000 -1.0249608 135.54912 -9.0904665 -72.758026 -9.0795202 -73.452316 -0.024504218 -101.18077
9209562500 -1.032178 135.55379 -9.093997 -72.69323 -9.0830688 -73.417938 -0.03919429 -101.12275
9209625000 -1.0257345 135.50188 -9.077178 -72.695694 -9.0736475 -73.44603 -0.019140318 -101.11201
9209687500 -1.0245427 135.46017 -9.0678911 -72.713181 -9.0786028 -73.397957 -0.028097492 -101.09266
9209750000 -1.0221732 135.49759 -9.0777473 -72.735832 -9.0748091 -73.425827 -0.016105711 -101.14246
9209812500 -1.0232345 135.49132 -9.0891123 -72.640434 -9.0807571 -73.455063 -0.029384922 -101.07
9209875000 -1.0224055 135.49223 -9.0788107 -72.739243 -9.0837336 -73.407883 -0.027393498 -101.09042
9209937500 -1.024359 135.54022 -9.09657 -72.679558 -9.0909405 -73.401001 -0.037215564 -101.13557
9210000000 -1.019015 135.47208 -9.0732889 -72.686813 -9.0755501 -73.371338 -0.037169367 -100.98312
9210062500 -1.0313745 135.44775 -9.084959 -72.70919 -9.0693617 -73.436569 -0.027379612 -101.04565
9210125000 -1.0198256 135.38728 -9.0804243 -72.698334 -9.0741472 -73.345222 -0.02278162 -100.98915
9210187500 -1.026599 135.43462 -9.0823555 -72.675606 -9.0716467 -73.381248 -0.024571216 -100.98512
9210250000 -1.0291798 135.44397 -9.0818777 -72.712708 -9.0706949 -73.393387 -0.02953174 -101.02806
9210312500 -1.0289137 135.41066 -9.0754757 -72.617043 -9.0790863 -73.415108 -0.035000045 -100.97655
9210375000 -1.0239222 135.41443 -9.0768309 -72.587135 -9.0622854 -73.385208 -0.025000114 -100.89119
9210437500 -1.0240815 135.35239 -9.0885782 -72.681297 -9.067977 -73.504356 -0.022258187 -100.98755
9210500000 -1.0214139 135.33395 -9.0680895 -72.694534 -9.0724802 -73.411308 -0.023367522 -100.94204
9210562500 -1.0248904 135.27629 -9.0800428 -72.697296 -9.0635891 -73.418091 -0.022852665 -100.88426
9210625000 -1.0199379 135.31918 -9.0827293 -72.624641 -9.0645475 -73.29071 -0.026514763 -100.86083
9210687500 -1.0248601 135.30536 -9.0739584 -72.667702 -9.0724516 -73.417061 -0.033210002 -100.81122
9210750000 -1.0222104 135.28618 -9.0738497 -72.694275 -9.0638027 -73.386436 -0.0232813 -100.85194
9210812500 -1.0303054 135.27959 -9.0757465 -72.710388 -9.061161 -73.320503 -0.034412187 -100.7739
9210875000 -1.0329858 135.2589 -9.0889215 -72.659294 -9.0716705 -73.353302 -0.036598012 -100.84486
9210937500 -1.0237378 135.29115 -9.0751162 -72.692841 -9.0650139 -73.409073 -0.03239096 -100.81956
9211000000 -1.023857 135.2617 -9.076993 -72.671532 -9.0685949 -73.390747 -0.028144071 -100.84185
9211062500 -1.021791 135.25168 -9.0775442 -72.629135 -9.0653019 -73.32489 -0.028925458 -100.77277
9211125000 -1.0206578 135.22234 -9.0619478 -72.648827 -9.0689478 -73.38607 -0.027550882 -100.74237
9211187500 -1.0351956 135.21706 -9.0707874 -72.650917 -9.0604448 -73.284805 -0.031188624 -100.72794
9211250000 -1.0307178 135.23758 -9.0561953 -72.653633 -9.0658951 -73.351814 -0.027201248 -100.69127
9211312500 -1.0275334 135.22243 -9.0732889 -72.599663 -9.0628929 -73.422035 -0.030644979 -100.76503
9211375000 -1.0279691 135.11221 -9.070035 -72.664215 -9.0624752 -73.421097 -0.033303589 -100.65204
9211437500 -1.0236968 135.18239 -9.0608597 -72.57325 -9.0554161 -73.390175 -0.028681336 -100.61964
9211500000 -1.0284886 135.08781 -9.0687914 -72.664963 -9.0603046 -73.359146 -0.030347839 -100.69958
9211562500 -1.0337312 135.16087 -9.0761423 -72.662636 -9.0514202 -73.338684 -0.03236362 -100.63259
9211625000 -1.0283327 135.11331 -9.0695314 -72.728096 -9.0557156 -73.407646 -0.027155304 -100.62782
9211687500 -1.0343603 135.14513 -9.0731916 -72.636147 -9.0546207 -73.334991 -0.034119535 -100.57148
9211750000 -1.0273293 135.0732 -9.0614367 -72.620071 -9.0605202 -73.412476 -0.030188523 -100.59751
9211812500 -1.0296663 135.07562 -9.0822372 -72.706879 -9.060154 -73.362129 -0.03776034 -100.59652
9211875000 -1.0332642 135.02368 -9.0710583 -72.686974 -9.0584135 -73.287842 -0.02943561 -100.49158
9211937500 -1.0256689 135.05719 -9.0642071 -72.711853 -9.0534534 -73.364716 -0.035054132 -100.54473
9212000000 -1.0261796 134.9574 -9.0550241 -72.645195 -9.0532475 -73.38501 -0.03494915 -100.48975
9212062500 -1.0243521 134.99374 -9.0612316 -72.608559 -9.055357 -73.377632 -0.039043557 -100.52404
9212125000 -1.0232867 134.9581 -9.0562 -72.664825 -9.0632257 -73.372368 -0.029873474 -100.4872
9212187500 -1.0193567 134.98297 -9.0498066 -72.609566 -9.0386963 -73.347092 -0.03052976 -100.47076
