!Agilent Technologies,N5242A,MY51221714,A.09.90.19
!Agilent N5242A: A.09.90.19
!Date: Tuesday, March 26, 2024 16:47:30
!Correction: S11(Full 2 Port(1,2)) 
!S21(Full 2 Port(1,2)) 
!S12(Full 2 Port(1,2)) 
!S22(Full 2 Port(1,2)) 
!S2P File: Measurements: S11, S21, S12, S22:
# Hz S  dB   R 50
9200000000 -1.1794397 136.75391 -9.2454624 -75.08036 -9.2293072 -75.821571 -0.084426671 -105.0762
9200062500 -1.1788679 136.77473 -9.241642 -75.101982 -9.2292194 -75.833374 -0.072343886 -105.08643
9200125000 -1.1791397 136.74541 -9.2332678 -75.069893 -9.2192822 -75.781494 -0.082864501 -105.05908
9200187500 -1.1819502 136.75641 -9.2352858 -75.036911 -9.2317219 -75.865334 -0.071596786 -105.04887
9200250000 -1.1726735 136.72859 -9.2228289 -75.131851 -9.2223234 -75.805473 -0.074081227 -105.07271
9200312500 -1.1862332 136.69792 -9.2360306 -75.158089 -9.2240191 -75.828972 -0.083080389 -105.04911
9200375000 -1.1831307 136.66615 -9.2334595 -75.100204 -9.2313614 -75.925461 -0.075285643 -105.02347
9200437500 -1.174036 136.70753 -9.2276382 -75.082466 -9.2224627 -75.820747 -0.075778358 -104.97034
9200500000 -1.1801142 136.67337 -9.2381887 -75.075462 -9.2268667 -75.694107 -0.085578643 -104.9491
9200562500 -1.1790305 136.68967 -9.2395878 -75.077438 -9.2273302 -75.8181 -0.077451453 -105.01264
9200625000 -1.1853617 136.62428 -9.2367001 -75.069351 -9.2212973 -75.802467 -0.079752803 -104.91676
9200687500 -1.1792818 136.61623 -9.2409983 -75.097969 -9.2270432 -75.860069 -0.078183167 -104.93086
9200750000 -1.1799009 136.55803 -9.2228394 -75.108551 -9.2271862 -75.7873 -0.082019247 -104.91779
9200812500 -1.194966 136.59125 -9.2351112 -75.057991 -9.2245941 -75.802658 -0.094723895 -104.90882
9200875000 -1.1725457 136.66054 -9.222086 -75.086357 -9.2233114 -75.835388 -0.086688057 -104.93629
9200937500 -1.1860064 136.58107 -9.2452412 -75.104958 -9.2259665 -75.772392 -0.079602711 -104.81175
9201000000 -1.1782849 136.54828 -9.2280626 -75.158539 -9.2178631 -75.832153 -0.080392465 -104.90582
9201062500 -1.1780609 136.52904 -9.2191591 -75.039902 -9.2190313 -75.823463 -0.07792227 -104.83334
9201125000 -1.1822928 136.52104 -9.2237968 -75.044991 -9.224206 -75.866844 -0.082066633 -104.83572
9201187500 -1.180025 136.47516 -9.2273417 -75.07901 -9.2284946 -75.792435 -0.090764895 -104.73128
9201250000 -1.1873447 136.57507 -9.2254639 -75.035423 -9.223629 -75.761925 -0.088290952 -104.75282
9201312500 -1.1924735 136.51141 -9.2322378 -75.030235 -9.2122507 -75.827507 -0.078187473 -104.77065
9201375000 -1.1908137 136.48999 -9.2305746 -74.985558 -9.2200508 -75.692047 -0.088942684 -104.7065
9201437500 -1.1790663 136.44833 -9.2243309 -75.061432 -9.2250013 -75.816902 -0.088996746 -104.79377
9201500000 -1.1832064 136.47823 -9.2239008 -75.01413 -9.2291002 -75.671028 -0.088702321 -104.68831
9201562500 -1.1833874 136.40334 -9.2274294 -75.003105 -9.2241011 -75.727882 -0.10244589 -104.69112
9201625000 -1.1829903 136.41261 -9.2194071 -75.07196 -9.205452 -75.748589 -0.091280282 -104.62215
9201687500 -1.1888003 136.41147 -9.2184982 -74.953873 -9.2084951 -75.747353 -0.075043283 -104.64383
9201750000 -1.1825335 136.40141 -9.2165012 -75.008018 -9.2078362 -75.863113 -0.07396014 -104.65321
9201812500 -1.1753795 136.38681 -9.2140465 -75.063347 -9.2217445 -75.79509 -0.09470655 -104.69093
9201875000 -1.1819055 136.36028 -9.2101269 -75.100426 -9.2103643 -75.807899 -0.081007302 -104.61909
9201937500 -1.1895703 136.31984 -9.221446 -75.020828 -9.2092829 -75.769592 -0.08179111 -104.58585
9202000000 -1.1869216 136.33591 -9.2075939 -74.938469 -9.2118559 -75.841148 -0.085131153 -104.55807
9202062500 -1.1884657 136.30978 -9.2127123 -75.024658 -9.2082872 -75.82856 -0.0793363 -104.53834
9202125000 -1.1871908 136.36757 -9.2323542 -75.023727 -9.2243843 -75.754547 -0.10026279 -104.57781
9202187500 -1.184257 136.34529 -9.2286081 -75.068008 -9.2257977 -75.75312 -0.093561798 -104.45284
9202250000 -1.1815767 136.27142 -9.2143784 -75.054398 -9.2034616 -75.709763 -0.088005707 -104.48575
9202312500 -1.1811221 136.30949 -9.2161455 -74.966003 -9.2025146 -75.789276 -0.083967336 -104.52495
9202375000 -1.1814392 136.24408 -9.2136364 -75.030396 -9.2042885 -75.766197 -0.090666018 -104.44267
9202437500 -1.183741 136.28679 -9.2115793 -74.987343 -9.2026186 -75.793564 -0.080432072 -104.50802
9202500000 -1.1958841 136.21338 -9.2255363 -75.064003 -9.2099466 -75.708893 -0.0878236 -104.43493
9202562500 -1.1778985 136.22473 -9.2089844 -75.017166 -9.2045937 -75.711945 -0.095819838 -104.44263
9202625000 -1.1861073 136.23944 -9.2131386 -75.075005 -9.2006693 -75.754204 -0.087263875 -104.36382
9202687500 -1.1865875 136.20964 -9.2048979 -75.030533 -9.2021399 -75.725449 -0.078526087 -104.32446
9202750000 -1.1726174 136.12167 -9.1998672 -75.077209 -9.2010164 -75.756989 -0.08483772 -104.38948
9202812500 -1.187834 136.14932 -9.2217731 -75.011307 -9.1944408 -75.75367 -0.079035953 -104.31712
9202875000 -1.1801734 136.1512 -9.2069197 -74.993484 -9.1927538 -75.726189 -0.083120629 -104.2594
9202937500 -1.1799567 136.14035 -9.2074127 -75.071655 -9.1975365 -75.703491 -0.083864883 -104.29996
9203000000 -1.185222 136.15794 -9.208931 -75.032043 -9.1941071 -75.718651 -0.087549172 -104.24213
9203062500 -1.1823786 136.11086 -9.2070999 -75.065491 -9.2078056 -75.725342 -0.099775776 -104.26994
9203125000 -1.1825625 136.07573 -9.2063847 -75.057846 -9.202425 -75.771698 -0.090964235 -104.26365
9203187500 -1.1812021 136.07558 -9.207737 -75.05867 -9.191081 -75.787506 -0.088459708 -104.27645
9203250000 -1.1855348 136.05904 -9.2021427 -75.05793 -9.2007952 -75.710403 -0.091469221 -104.22704
9203312500 -1.188875 136.09703 -9.2070684 -75.034843 -9.1953516 -75.869095 -0.079198696 -104.23299
9203375000 -1.1816647 136.0889 -9.1994047 -74.991463 -9.1898756 -75.781006 -0.077518836 -104.20548
9203437500 -1.1870357 136.04897 -9.2053022 -75.056007 -9.1950226 -75.727562 -0.087650545 -104.16758
9203500000 -1.1813996 136.01741 -9.2027855 -75.030472 -9.1965446 -75.720497 -0.089889735 -104.17521
9203562500 -1.189612 136.04675 -9.2094078 -74.913696 -9.2092237 -75.751488 -0.10179268 -104.20984
9203625000 -1.1884125 136.00342 -9.2066565 -75.013084 -9.2039156 -75.705887 -0.097485825 -104.18165
9203687500 -1.1842571 135.94786 -9.1999416 -75.015732 -9.1943836 -75.76368 -0.09360791 -104.11791
9203750000 -1.1895218 135.9969 -9.2049551 -74.990135 -9.1974077 -75.763374 -0.082976721 -104.09039
9203812500 -1.1865023 135.9832 -9.18995 -75.039261 -9.1886473 -75.773048 -0.091608159 -104.11107
9203875000 -1.1851904 135.94618 -9.2039032 -74.979599 -9.1966972 -75.694626 -0.10518904 -104.05723
9203937500 -1.1885402 135.92764 -9.1946535 -74.990578 -9.1968355 -75.693092 -0.090177432 -104.07487
9204000000 -1.185969 135.94736 -9.1909094 -74.935608 -9.1898384 -75.723595 -0.091028586 -103.9885
9204062500 -1.1770967 135.93053 -9.1895647 -74.954086 -9.1838894 -75.665283 -0.092808247 -104.01073
9204125000 -1.1849903 135.89058 -9.1927233 -75.024612 -9.1842222 -75.711845 -0.086378232 -103.93941
9204187500 -1.1917486 135.82939 -9.2022028 -75.04039 -9.194478 -75.766922 -0.10325912 -103.97982
9204250000 -1.1855184 135.88246 -9.1820669 -75.002937 -9.1848536 -75.711906 -0.08572831 -104.0016
9204312500 -1.1913282 135.89334 -9.1967449 -74.964203 -9.1923018 -75.774605 -0.093065716 -103.90118
9204375000 -1.1782684 135.7997 -9.197875 -75.019966 -9.1939383 -75.751358 -0.099407539 -103.97506
9204437500 -1.1899421 135.85907 -9.2003574 -75.023232 -9.1999712 -75.685173 -0.096576847 -103.89088
9204500000 -1.1923872 135.81674 -9.1902456 -74.977463 -9.1938429 -75.712456 -0.10021283 -103.90637
9204562500 -1.1871234 135.78923 -9.1933823 -75.053596 -9.185154 -75.735962 -0.088949054 -103.95077
9204625000 -1.1760964 135.76846 -9.1819334 -75.005562 -9.1812286 -75.749344 -0.092542782 -103.82294
9204687500 -1.189436 135.79672 -9.1889009 -74.924973 -9.1783342 -75.717934 -0.09143728 -103.84366
9204750000 -1.1930761 135.78236 -9.187232 -74.94754 -9.1966343 -75.737595 -0.11387949 -103.82239
9204812500 -1.1812084 135.74757 -9.1807117 -74.931236 -9.1808758 -75.774086 -0.089419089 -103.82117
9204875000 -1.1898347 135.79697 -9.1832066 -74.962013 -9.1923599 -75.677559 -0.094535172 -103.81512
9204937500 -1.1840079 135.73015 -9.1774569 -74.9879 -9.17766 -75.762245 -0.083423488 -103.8046
9205000000 -1.1874969 135.6835 -9.1958761 -74.915276 -9.1769161 -75.701668 -0.10828091 -103.71587
9205062500 -1.1881546 135.66472 -9.1901875 -75.02887 -9.1756792 -75.719223 -0.096811265 -103.72622
9205125000 -1.1871728 135.70055 -9.182147 -74.941147 -9.1778851 -75.67794 -0.091664471 -103.6859
9205187500 -1.1923118 135.7292 -9.1991987 -74.872482 -9.1851797 -75.698418 -0.10196049 -103.71832
9205250000 -1.1893914 135.64583 -9.1957197 -74.969543 -9.1855268 -75.638374 -0.10563799 -103.7255
9205312500 -1.188372 135.70999 -9.1799154 -74.841507 -9.1759901 -75.67804 -0.1020176 -103.70188
9205375000 -1.1899661 135.63423 -9.1799307 -74.958084 -9.1802502 -75.707802 -0.098121844 -103.66776
9205437500 -1.1793374 135.58026 -9.1706028 -74.942749 -9.1716537 -75.66909 -0.094071545 -103.6749
9205500000 -1.1932157 135.53853 -9.1709547 -74.994942 -9.1744556 -75.687584 -0.092920847 -103.51965
9205562500 -1.1959268 135.58336 -9.1765223 -74.93811 -9.1783695 -75.714073 -0.097251892 -103.61542
9205625000 -1.1968895 135.56891 -9.1823378 -74.956345 -9.176054 -75.675529 -0.10194094 -103.53322
9205687500 -1.1890255 135.59506 -9.1806622 -74.916183 -9.1555166 -75.787514 -0.088362001 -103.53664
9205750000 -1.1866016 135.51334 -9.1716099 -74.958916 -9.1787205 -75.65712 -0.097762652 -103.48711
9205812500 -1.1943475 135.47906 -9.1749134 -74.96637 -9.1764097 -75.709846 -0.094719872 -103.47346
9205875000 -1.1830947 135.56049 -9.1858873 -74.903015 -9.1745501 -75.664764 -0.094865635 -103.521
9205937500 -1.1896455 135.49008 -9.1796532 -75.003357 -9.1723957 -75.615379 -0.10412803 -103.43439
9206000000 -1.1954049 135.50929 -9.1712046 -74.872551 -9.169199 -75.692123 -0.096423611 -103.43903
9206062500 -1.190199 135.5056 -9.1752739 -74.998245 -9.1685371 -75.730347 -0.10122885 -103.49553
9206125000 -1.185212 135.46169 -9.1773357 -74.93222 -9.1630793 -75.629684 -0.10046227 -103.40913
9206187500 -1.1860124 135.47488 -9.1706562 -74.909592 -9.1675434 -75.678108 -0.093987472 -103.43458
9206250000 -1.1880732 135.41382 -9.1697607 -74.95491 -9.1683941 -75.603607 -0.099808075 -103.42338
9206312500 -1.1851044 135.37392 -9.1713123 -74.922173 -9.1686106 -75.855865 -0.094589472 -103.48891
9206375000 -1.1928347 135.40695 -9.1702824 -74.916199 -9.1595659 -75.563957 -0.08905191 -103.3559
9206437500 -1.1857587 135.40622 -9.1705923 -74.967216 -9.1690178 -75.71344 -0.1046944 -103.41526
9206500000 -1.19283 135.3775 -9.1801262 -74.932404 -9.1653433 -75.625404 -0.10730359 -103.36637
9206562500 -1.1909261 135.34952 -9.1775064 -75.073349 -9.174509 -75.697151 -0.10215814 -103.43179
9206625000 -1.190258 135.29698 -9.1669922 -74.92952 -9.1581392 -75.738243 -0.094573461 -103.3523
9206687500 -1.191934 135.33119 -9.1712122 -75.022614 -9.1561832 -75.741997 -0.092440426 -103.37595
9206750000 -1.1918908 135.34151 -9.1689358 -74.959541 -9.1644583 -75.598282 -0.10175536 -103.29375
9206812500 -1.1827593 135.37149 -9.1713533 -74.892891 -9.1656885 -75.712219 -0.097388506 -103.35587
9206875000 -1.1885427 135.33084 -9.1732044 -74.959442 -9.1518173 -75.571144 -0.09213192 -103.17779
9206937500 -1.1883944 135.29497 -9.1718054 -74.892143 -9.1647892 -75.641304 -0.10265549 -103.27276
9207000000 -1.1923698 135.29314 -9.1724787 -74.92881 -9.1670656 -75.68544 -0.10862207 -103.20299
9207062500 -1.1878632 135.26755 -9.1625662 -74.914612 -9.1617918 -75.618378 -0.10527726 -103.08702
9207125000 -1.2006601 135.25713 -9.157999 -74.983612 -9.1608019 -75.670593 -0.10212357 -103.13393
9207187500 -1.1849304 135.21082 -9.158639 -74.999046 -9.1547165 -75.65799 -0.10046603 -103.19621
9207250000 -1.1868331 135.19687 -9.165967 -74.968079 -9.1599302 -75.714523 -0.09933883 -103.22581
9207312500 -1.1865271 135.19861 -9.1666708 -74.929276 -9.1519947 -75.595291 -0.089709647 -103.1087
9207375000 -1.199273 135.13837 -9.1739731 -74.996521 -9.1617289 -75.67083 -0.10760501 -103.07912
9207437500 -1.1874063 135.23659 -9.164793 -74.879211 -9.1753521 -75.639915 -0.11196554 -103.09872
9207500000 -1.19464 135.16756 -9.166297 -74.919075 -9.142909 -75.538704 -0.10511194 -103.01131
9207562500 -1.1856145 135.15323 -9.1562128 -75.03875 -9.1470108 -75.612022 -0.10378968 -103.11007
9207625000 -1.1939363 135.12317 -9.1652746 -74.849472 -9.1493225 -75.628662 -0.10191624 -102.96616
9207687500 -1.1923962 135.17374 -9.1567049 -74.885834 -9.1462612 -75.655098 -0.09819676 -103.02785
9207750000 -1.1906189 135.09854 -9.1502161 -74.863304 -9.1464529 -75.639069 -0.095441006 -103.01314
9207812500 -1.1919454 135.08052 -9.1591511 -74.95192 -9.143362 -75.588936 -0.10637585 -102.98479
9207875000 -1.189905 135.09894 -9.1605721 -74.921837 -9.1478586 -75.708382 -0.09889508 -103.02493
9207937500 -1.1949543 135.02763 -9.1654205 -74.87291 -9.1571665 -75.666252 -0.11504763 -102.99217
9208000000 -1.1947693 135.04655 -9.1563292 -74.901245 -9.1448908 -75.611885 -0.097316198 -102.92738
9208062500 -1.1967391 135.07401 -9.1688786 -74.860794 -9.1462917 -75.624008 -0.11476037 -102.92746
9208125000 -1.1901069 135.00235 -9.1527309 -74.920105 -9.1543579 -75.622055 -0.1137748 -102.90437
9208187500 -1.1866118 135.02251 -9.1511564 -74.892464 -9.1530685 -75.608307 -0.10311323 -102.93774
9208250000 -1.1971346 135.02324 -9.1501417 -74.872688 -9.1438322 -75.641861 -0.10733055 -102.86729
9208312500 -1.1911457 135.00034 -9.1616659 -74.906693 -9.1369801 -75.596252 -0.10425982 -102.82498
9208375000 -1.195531 135.01225 -9.1456985 -74.857651 -9.1429081 -75.632462 -0.10520978 -102.81913
9208437500 -1.1986202 134.90514 -9.1658812 -74.923157 -9.1453362 -75.58873 -0.11393484 -102.8374
9208500000 -1.1938791 134.92204 -9.149189 -74.891884 -9.1333876 -75.676323 -0.098293066 -102.83212
9208562500 -1.2003139 134.94804 -9.1500015 -74.90567 -9.1459007 -75.624786 -0.10293572 -102.77846
9208625000 -1.1903857 134.89941 -9.1473207 -74.844292 -9.1397247 -75.603424 -0.1116943 -102.76685
9208687500 -1.1823941 134.86693 -9.1306524 -74.905586 -9.1350098 -75.653877 -0.095837884 -102.79952
9208750000 -1.1950915 134.92291 -9.1495476 -74.886398 -9.1322775 -75.561905 -0.10595788 -102.72672
9208812500 -1.2033086 134.95502 -9.1583033 -74.877594 -9.141449 -75.637955 -0.10662071 -102.7371
9208875000 -1.1984468 134.85828 -9.1491117 -74.867813 -9.1388197 -75.587715 -0.10516999 -102.6794
9208937500 -1.195816 134.87895 -9.1435566 -74.886902 -9.1348314 -75.545029 -0.10727923 -102.66797
9209000000 -1.1917684 134.86914 -9.154088 -74.866081 -9.1353188 -75.600082 -0.11844633 -102.70752
9209062500 -1.1959783 134.86201 -9.1517086 -74.870392 -9.1435823 -75.611412 -0.11060841 -102.65621
9209125000 -1.1978836 134.81972 -9.1440105 -74.916702 -9.1362638 -75.62252 -0.10466614 -102.60291
9209187500 -1.1962601 134.82156 -9.1467552 -74.823051 -9.1449289 -75.591217 -0.11279765 -102.60837
9209250000 -1.1866182 134.74606 -9.1416826 -74.916115 -9.1377058 -75.601021 -0.11552938 -102.51791
9209312500 -1.1982063 134.69833 -9.146493 -74.926682 -9.1399307 -75.631538 -0.11980585 -102.60906
9209375000 -1.1821368 134.75949 -9.1302748 -74.894012 -9.1409388 -75.540413 -0.11078515 -102.5533
9209437500 -1.2026808 134.70042 -9.1398659 -74.892769 -9.137599 -75.616989 -0.11133075 -102.50528
9209500000 -1.2021028 134.70964 -9.1465282 -74.954117 -9.1317768 -75.600739 -0.10797664 -102.48408
9209562500 -1.2006011 134.68643 -9.1398401 -74.880226 -9.1323261 -75.58242 -0.11766271 -102.45386
9209625000 -1.194716 134.69464 -9.1443863 -74.812943 -9.1214762 -75.589607 -0.10134067 -102.46408
9209687500 -1.1980168 134.62766 -9.1393814 -74.866066 -9.1293087 -75.498108 -0.11265125 -102.41157
9209750000 -1.1934083 134.63873 -9.1326218 -74.944412 -9.1467285 -75.515663 -0.10445275 -102.4549
9209812500 -1.1954669 134.62236 -9.1424704 -74.845917 -9.1356955 -75.626129 -0.11048117 -102.46448
9209875000 -1.1927441 134.69324 -9.1344376 -74.847107 -9.127533 -75.559471 -0.1165245 -102.45262
9209937500 -1.1940155 134.74223 -9.1449947 -74.798294 -9.1433735 -75.606537 -0.12321639 -102.44739
9210000000 -1.1840599 134.62262 -9.1263123 -74.817802 -9.1258783 -75.515633 -0.12599128 -102.29606
9210062500 -1.2013098 134.62672 -9.146101 -74.889771 -9.1283569 -75.55883 -0.1152367 -102.40549
9210125000 -1.1920495 134.58461 -9.1331978 -74.8423 -9.1156178 -75.529083 -0.11032678 -102.33571
9210187500 -1.1974566 134.63327 -9.1339388 -74.853783 -9.1227007 -75.564758 -0.11839552 -102.33558
9210250000 -1.195895 134.59192 -9.1276674 -74.894577 -9.1196156 -75.517578 -0.11457158 -102.3269
9210312500 -1.2014972 134.57446 -9.1298475 -74.788017 -9.1305466 -75.647057 -0.11640044 -102.35402
9210375000 -1.1917779 134.58438 -9.1228895 -74.808937 -9.1262617 -75.516853 -0.1149805 -102.19894
9210437500 -1.1903309 134.50325 -9.1258688 -74.878479 -9.1182146 -75.576675 -0.10288753 -102.29475
9210500000 -1.1925516 134.52467 -9.1287298 -74.825447 -9.1162806 -75.516968 -0.10400279 -102.24827
9210562500 -1.1965342 134.48602 -9.1232986 -74.790794 -9.1180382 -75.613899 -0.11592034 -102.2457
9210625000 -1.1881521 134.51358 -9.1261749 -74.808731 -9.1263247 -75.54628 -0.11945195 -102.26752
9210687500 -1.1999925 134.48668 -9.1327496 -74.877258 -9.1284857 -75.619484 -0.12582463 -102.21659
9210750000 -1.2004236 134.47618 -9.1363468 -74.875816 -9.1137266 -75.560196 -0.1133374 -102.19338
9210812500 -1.2010335 134.42937 -9.1332531 -74.89534 -9.1111794 -75.490509 -0.11723877 -102.15982
9210875000 -1.1949909 134.42801 -9.1306715 -74.866364 -9.1163406 -75.462914 -0.12225096 -102.15788
9210937500 -1.1926321 134.48415 -9.1246567 -74.864044 -9.1172371 -75.541565 -0.11923444 -102.17876
9211000000 -1.1951052 134.43869 -9.1266489 -74.828888 -9.116004 -75.535561 -0.11003852 -102.14128
9211062500 -1.1949805 134.42067 -9.1281252 -74.754021 -9.1273279 -75.517273 -0.13361202 -102.10935
9211125000 -1.1944689 134.3504 -9.1192417 -74.834869 -9.1093664 -75.531036 -0.11337864 -102.04385
9211187500 -1.1995357 134.38129 -9.1209354 -74.870819 -9.1036587 -75.53466 -0.12022991 -102.02928
9211250000 -1.2040603 134.38196 -9.1231985 -74.829559 -9.1225557 -75.499733 -0.12323443 -102.05569
9211312500 -1.1972706 134.35986 -9.1170626 -74.817207 -9.1087017 -75.500916 -0.11971655 -102.0722
9211375000 -1.193298 134.27498 -9.1173391 -74.81971 -9.1143808 -75.580971 -0.12315836 -101.99683
9211437500 -1.1993006 134.33348 -9.118041 -74.820869 -9.1128693 -75.540176 -0.12447071 -101.97112
9211500000 -1.200753 134.28387 -9.1196527 -74.825348 -9.1153908 -75.505241 -0.11813065 -102.01756
9211562500 -1.2032874 134.33177 -9.1343966 -74.858696 -9.1026688 -75.566231 -0.11971121 -102.03507
9211625000 -1.195148 134.2805 -9.1169243 -74.800613 -9.1062899 -75.594215 -0.11909432 -101.98149
9211687500 -1.2034366 134.29364 -9.1275473 -74.82251 -9.1099854 -75.562012 -0.12072714 -101.96188
9211750000 -1.2045734 134.21562 -9.1131248 -74.825005 -9.1058607 -75.520203 -0.11643514 -101.86639
9211812500 -1.1991678 134.20264 -9.1207914 -74.858582 -9.1105108 -75.472656 -0.12403445 -101.8661
9211875000 -1.2034079 134.21188 -9.1206675 -74.829765 -9.0957232 -75.480232 -0.11468995 -101.83167
9211937500 -1.1968163 134.22212 -9.1196852 -74.81208 -9.1095953 -75.510437 -0.12702754 -101.84674
9212000000 -1.2024075 134.147 -9.1178408 -74.799583 -9.1002407 -75.607323 -0.12968643 -101.85333
9212062500 -1.1954582 134.1248 -9.1065683 -74.83287 -9.1072798 -75.535965 -0.12510546 -101.84563
9212125000 -1.2028049 134.07721 -9.1123781 -74.86734 -9.1239262 -75.551178 -0.12060691 -101.816
9212187500 -1.1906582 134.16423 -9.1074171 -74.745567 -9.1034184 -75.499931 -0.13019194 -101.77897
9212250000 -1.1913126 134.12111 -9.103611 -74.815643 -9.102253 -75.538467 -0.11600563 -101.76443
