!Agilent Technologies,N5242A,MY51221714,A.09.90.19
!Agilent N5242A: A.09.90.19
!Date: Tuesday, March 26, 2024 16:49:14
!Correction: S11(Full 2 Port(1,2)) 
!S21(Full 2 Port(1,2)) 
!S12(Full 2 Port(1,2)) 
!S22(Full 2 Port(1,2)) 
!S2P File: Measurements: S11, S21, S12, S22:
# Hz S  dB   R 50
9200000000 -1.0794153 137.5451 -9.2291794 -74.051537 -9.1949472 -74.759293 -0.057438053 -104.6657
9200062500 -1.0760399 137.51459 -9.2102222 -74.101868 -9.2157803 -74.705116 -0.063090578 -104.58912
9200125000 -1.0762962 137.52251 -9.2007933 -73.95134 -9.2001982 -74.744751 -0.05848068 -104.58881
9200187500 -1.0858507 137.52303 -9.2160053 -74.027542 -9.2003345 -74.831284 -0.049424324 -104.63873
9200250000 -1.0756348 137.48303 -9.2105875 -74.035744 -9.2146349 -74.713852 -0.057421546 -104.58585
9200312500 -1.080271 137.5085 -9.2161312 -74.05706 -9.2028847 -74.775459 -0.060100738 -104.63033
9200375000 -1.0770444 137.43878 -9.2120647 -73.980919 -9.2044134 -74.845055 -0.045865644 -104.5379
9200437500 -1.0739669 137.43033 -9.2043324 -73.98941 -9.1932888 -74.765831 -0.049035147 -104.54226
9200500000 -1.0720325 137.41689 -9.2100716 -74.014099 -9.2045612 -74.708778 -0.058103807 -104.52576
9200562500 -1.0751929 137.42752 -9.2078905 -74.019966 -9.2021265 -74.74678 -0.050990257 -104.56227
9200625000 -1.0767858 137.40758 -9.2144928 -74.077713 -9.2048578 -74.765091 -0.060173143 -104.48957
9200687500 -1.0715288 137.43115 -9.2064295 -73.981613 -9.2086029 -74.724831 -0.057397153 -104.45358
9200750000 -1.0804931 137.35843 -9.219841 -74.047546 -9.2123823 -74.722206 -0.061009556 -104.44516
9200812500 -1.0881968 137.35962 -9.2037191 -73.957367 -9.1978226 -74.742195 -0.066130526 -104.45008
9200875000 -1.076564 137.44104 -9.2130871 -73.9496 -9.2117729 -74.699486 -0.067310952 -104.4308
9200937500 -1.0747904 137.3399 -9.216239 -74.05381 -9.2001066 -74.684464 -0.052566871 -104.35649
9201000000 -1.0726604 137.3132 -9.2101746 -74.075737 -9.1946354 -74.74353 -0.054592926 -104.41254
9201062500 -1.0757972 137.32654 -9.2005358 -73.958328 -9.1924915 -74.748573 -0.05662581 -104.39207
9201125000 -1.0737737 137.32344 -9.202013 -73.949028 -9.2091379 -74.703812 -0.059085928 -104.31911
9201187500 -1.0803983 137.26024 -9.2074633 -74.001038 -9.1980534 -74.714317 -0.067077272 -104.27524
9201250000 -1.0823606 137.31361 -9.2079611 -73.979179 -9.203783 -74.705887 -0.069524288 -104.26762
9201312500 -1.0880284 137.27425 -9.2126102 -73.926636 -9.1932697 -74.7183 -0.04978947 -104.3044
9201375000 -1.0935472 137.24348 -9.2176809 -73.934357 -9.2090349 -74.641846 -0.070017993 -104.23216
9201437500 -1.0835315 137.23897 -9.2175789 -74.03846 -9.2044125 -74.682419 -0.066822298 -104.345
9201500000 -1.0818406 137.22253 -9.2085981 -73.996475 -9.1997557 -74.763214 -0.06992726 -104.32574
9201562500 -1.0806 137.18642 -9.2073488 -73.952789 -9.2037535 -74.669395 -0.070003763 -104.24451
9201625000 -1.0760794 137.1955 -9.199111 -73.947701 -9.1848917 -74.727638 -0.066939361 -104.19364
9201687500 -1.085224 137.17955 -9.1993275 -73.855087 -9.202693 -74.669296 -0.071872756 -104.10078
9201750000 -1.0805185 137.15498 -9.2041464 -73.963326 -9.1895313 -74.672798 -0.055666123 -104.15208
9201812500 -1.0787842 137.17989 -9.2044706 -73.973114 -9.1966867 -74.636864 -0.075053528 -104.19591
9201875000 -1.080961 137.13351 -9.1896744 -73.940079 -9.1901798 -74.707771 -0.055978965 -104.10376
9201937500 -1.0898912 137.05994 -9.2043705 -73.988365 -9.1967659 -74.720985 -0.06093673 -104.14687
9202000000 -1.0776159 137.10561 -9.1841755 -73.921387 -9.1895666 -74.714134 -0.06204807 -104.09157
9202062500 -1.0874602 137.11838 -9.1944876 -74.020966 -9.1882973 -74.693344 -0.063134544 -104.05573
9202125000 -1.0887877 137.10367 -9.222518 -73.973305 -9.1914978 -74.657959 -0.073482111 -104.10846
9202187500 -1.0811348 137.11716 -9.1965208 -73.947723 -9.1934071 -74.663467 -0.054908339 -104.02119
9202250000 -1.0886859 137.06361 -9.1979351 -73.941673 -9.1882868 -74.629074 -0.068115674 -104.02341
9202312500 -1.0803666 137.09561 -9.203618 -73.896431 -9.1864414 -74.661263 -0.07222379 -104.03559
9202375000 -1.0845655 136.97957 -9.2063799 -73.975243 -9.179863 -74.620018 -0.066858537 -103.91735
9202437500 -1.0799763 137.05597 -9.1923809 -73.977814 -9.1959438 -74.694794 -0.063894421 -104.04417
9202500000 -1.0860332 136.99141 -9.1917229 -74.031731 -9.2010107 -74.633202 -0.069657631 -104.00675
9202562500 -1.075071 136.99471 -9.198842 -73.959656 -9.1979694 -74.630211 -0.077105552 -104.00303
9202625000 -1.0809726 137.04124 -9.1895952 -73.971199 -9.187705 -74.67466 -0.068638332 -103.9397
9202687500 -1.0858883 136.97664 -9.1912537 -73.877022 -9.1799755 -74.637054 -0.056601807 -103.84029
9202750000 -1.0805765 136.91525 -9.1868572 -73.940636 -9.1783714 -74.63607 -0.05476832 -103.91908
9202812500 -1.0881802 136.94844 -9.1998987 -73.937515 -9.1768894 -74.69529 -0.061796729 -103.89025
9202875000 -1.0766511 136.90799 -9.1894512 -73.967766 -9.1848164 -74.651199 -0.068601891 -103.84214
9202937500 -1.0770946 136.93282 -9.1836586 -73.979042 -9.1695185 -74.702324 -0.058319524 -103.88663
9203000000 -1.0811385 136.96616 -9.1797352 -73.944069 -9.1846256 -74.711792 -0.067075752 -103.79819
9203062500 -1.0804427 136.8772 -9.1863041 -73.911179 -9.1828537 -74.616554 -0.068829 -103.79794
9203125000 -1.0783931 136.86153 -9.1912985 -73.957588 -9.1760349 -74.693115 -0.067823574 -103.80711
9203187500 -1.0788782 136.85269 -9.1915035 -74.016655 -9.1684284 -74.723717 -0.068122961 -103.78806
9203250000 -1.0759982 136.81859 -9.1777029 -73.9216 -9.1705399 -74.63681 -0.061574236 -103.77567
9203312500 -1.0904071 136.85536 -9.1926594 -74.015472 -9.1754017 -74.687325 -0.061734971 -103.75173
9203375000 -1.078128 136.82249 -9.1827354 -73.939117 -9.176219 -74.659439 -0.065460734 -103.71679
9203437500 -1.0896556 136.7999 -9.1916332 -73.991356 -9.1808958 -74.715965 -0.067761481 -103.76871
9203500000 -1.0803233 136.80812 -9.1687317 -73.942642 -9.1792135 -74.66391 -0.065026507 -103.71994
9203562500 -1.0909562 136.80876 -9.1992245 -73.967491 -9.1899395 -74.648193 -0.084256358 -103.73831
9203625000 -1.0855639 136.78879 -9.1870575 -73.997757 -9.1820745 -74.615608 -0.077452995 -103.73158
9203687500 -1.0859588 136.70129 -9.1873627 -74.013054 -9.1906986 -74.631439 -0.078052461 -103.6606
9203750000 -1.0858233 136.74448 -9.1803303 -73.871513 -9.177393 -74.647041 -0.060757291 -103.63492
9203812500 -1.0865077 136.7417 -9.1757574 -73.908798 -9.1772003 -74.655937 -0.072967 -103.60457
9203875000 -1.0800205 136.75089 -9.174592 -73.891487 -9.180748 -74.607765 -0.081767 -103.61443
9203937500 -1.0825775 136.72935 -9.1720448 -73.90596 -9.1787987 -74.63221 -0.059200231 -103.58951
9204000000 -1.0857174 136.71477 -9.1725492 -73.931938 -9.1777058 -74.62561 -0.070577912 -103.53643
9204062500 -1.0769022 136.72704 -9.1786098 -73.890236 -9.1702261 -74.63488 -0.075274132 -103.54063
9204125000 -1.0882746 136.67657 -9.1871462 -73.887444 -9.1620388 -74.662895 -0.06498991 -103.53304
9204187500 -1.0923402 136.62016 -9.1882915 -73.888428 -9.1735392 -74.63546 -0.074349873 -103.51434
9204250000 -1.0856599 136.67476 -9.1692114 -73.854591 -9.1616364 -74.660004 -0.065521941 -103.56969
9204312500 -1.088169 136.6891 -9.1796942 -73.810707 -9.1605892 -74.64505 -0.067022793 -103.41939
9204375000 -1.0782857 136.63823 -9.1731625 -73.867546 -9.165946 -74.589645 -0.064527616 -103.47221
9204437500 -1.0966171 136.65112 -9.1744013 -73.91806 -9.1661682 -74.571404 -0.064400539 -103.42433
9204500000 -1.0887287 136.6225 -9.1709471 -73.908798 -9.1741657 -74.615135 -0.073432617 -103.46969
9204562500 -1.0821925 136.55577 -9.1702261 -73.978859 -9.1638956 -74.684219 -0.060377419 -103.47442
9204625000 -1.0830476 136.55867 -9.1722536 -73.850243 -9.161355 -74.659927 -0.073153809 -103.37447
9204687500 -1.0821006 136.56044 -9.1666899 -73.861267 -9.1619587 -74.586472 -0.064469017 -103.37497
9204750000 -1.0886501 136.54231 -9.1699257 -73.86998 -9.1629248 -74.647316 -0.075226963 -103.37263
9204812500 -1.0781285 136.50224 -9.1730404 -73.847084 -9.1676102 -74.641808 -0.067974396 -103.38068
9204875000 -1.0837923 136.57158 -9.1667366 -73.826469 -9.1887722 -74.598244 -0.079090305 -103.3629
9204937500 -1.086332 136.51161 -9.170393 -73.957993 -9.1638746 -74.657745 -0.069603607 -103.35478
9205000000 -1.0752102 136.44917 -9.1708775 -73.843445 -9.160676 -74.557137 -0.083539933 -103.24624
9205062500 -1.0825158 136.46877 -9.1663246 -73.880402 -9.1526566 -74.554024 -0.075056627 -103.23721
9205125000 -1.0842292 136.46715 -9.1813955 -73.848267 -9.1632042 -74.589874 -0.078753397 -103.18835
9205187500 -1.087459 136.48572 -9.1747856 -73.82045 -9.1600361 -74.599052 -0.075779885 -103.21414
9205250000 -1.082122 136.41434 -9.1600733 -73.929314 -9.1673832 -74.598167 -0.083975486 -103.30943
9205312500 -1.0850526 136.46944 -9.1630011 -73.830948 -9.1655741 -74.531799 -0.080593072 -103.21903
9205375000 -1.0825497 136.36653 -9.1575069 -73.896545 -9.1586447 -74.532776 -0.068341389 -103.13544
9205437500 -1.0781422 136.38708 -9.1567583 -73.843079 -9.1612091 -74.61512 -0.073697321 -103.20892
9205500000 -1.0948961 136.27255 -9.1628761 -73.897202 -9.1563196 -74.613594 -0.063468769 -103.11087
9205562500 -1.0878937 136.37505 -9.1535797 -73.894173 -9.1560173 -74.617455 -0.064334139 -103.08952
9205625000 -1.0935639 136.38821 -9.1625319 -73.826881 -9.1527691 -74.547638 -0.07397873 -103.06242
9205687500 -1.0814093 136.38582 -9.1586466 -73.890564 -9.1561432 -74.626152 -0.075613655 -103.08222
9205750000 -1.0855467 136.27559 -9.1635332 -73.949371 -9.1577349 -74.601379 -0.067579031 -103.05727
9205812500 -1.0903138 136.29404 -9.151103 -73.894569 -9.1615801 -74.610878 -0.073126912 -103.05734
9205875000 -1.0806611 136.31532 -9.1497335 -73.88163 -9.1646147 -74.51857 -0.077377513 -103.07697
9205937500 -1.0819514 136.23541 -9.1582022 -73.924805 -9.1491909 -74.557472 -0.078085199 -103.00443
9206000000 -1.0849178 136.286 -9.1519823 -73.829498 -9.1590462 -74.591286 -0.077703848 -102.99921
9206062500 -1.0813729 136.27571 -9.1581926 -73.926682 -9.1488504 -74.573578 -0.077833205 -103.01725
9206125000 -1.0830561 136.26256 -9.1497746 -73.852913 -9.1403666 -74.487518 -0.078870408 -102.87887
9206187500 -1.0814601 136.24922 -9.1547508 -73.838379 -9.1433992 -74.569824 -0.063670933 -102.94057
9206250000 -1.0928096 136.20775 -9.1660261 -73.891701 -9.1462231 -74.521263 -0.07680697 -102.96783
9206312500 -1.080979 136.18248 -9.1582804 -73.801041 -9.1539307 -74.70594 -0.073859125 -102.95988
9206375000 -1.0913216 136.192 -9.1566277 -73.844124 -9.1441441 -74.54348 -0.076490648 -102.95077
9206437500 -1.081054 136.15053 -9.1581469 -73.815445 -9.1354437 -74.626083 -0.07171952 -102.93085
9206500000 -1.0890887 136.16498 -9.1511517 -73.795784 -9.1414003 -74.557076 -0.077994749 -102.89136
9206562500 -1.0866473 136.14922 -9.1567516 -73.952438 -9.1422005 -74.571243 -0.075864002 -102.93964
9206625000 -1.0876347 136.03329 -9.1404791 -73.881119 -9.1511631 -74.632156 -0.078125067 -102.89346
9206687500 -1.0885732 136.1337 -9.1634674 -73.832153 -9.1416817 -74.579475 -0.074528486 -102.88683
9206750000 -1.0873175 136.10553 -9.1508417 -73.834724 -9.1410923 -74.556953 -0.074806914 -102.89754
9206812500 -1.0834123 136.11787 -9.1563215 -73.815536 -9.1474457 -74.569695 -0.074989691 -102.88258
9206875000 -1.0951744 136.09372 -9.1567955 -73.835373 -9.1415119 -74.543785 -0.069821589 -102.71638
9206937500 -1.0909382 136.09679 -9.154108 -73.855789 -9.1490841 -74.574203 -0.090285577 -102.76728
9207000000 -1.0809846 136.09729 -9.1442022 -73.799553 -9.1500177 -74.599457 -0.078413978 -102.76266
9207062500 -1.0873034 136.01143 -9.151967 -73.852264 -9.134202 -74.579124 -0.078634448 -102.66442
9207125000 -1.0952569 135.99423 -9.1415176 -73.85833 -9.1338472 -74.585014 -0.077022582 -102.69024
9207187500 -1.0881655 136.01338 -9.1329851 -73.852615 -9.1423044 -74.618607 -0.075904988 -102.75832
9207250000 -1.0855393 136.00981 -9.1444674 -73.79232 -9.1443529 -74.516228 -0.072559454 -102.72654
9207312500 -1.0832765 135.94414 -9.149682 -73.914635 -9.1345215 -74.535942 -0.075337648 -102.68131
9207375000 -1.0972502 135.92781 -9.1592331 -73.851685 -9.1318455 -74.569923 -0.07600186 -102.66824
9207437500 -1.086328 135.99716 -9.155714 -73.804146 -9.1454363 -74.527107 -0.079186425 -102.61967
9207500000 -1.0847293 136.02298 -9.1452026 -73.857803 -9.132412 -74.488884 -0.088135615 -102.62719
9207562500 -1.0847417 135.90648 -9.1391773 -73.90284 -9.1270638 -74.511337 -0.082251482 -102.63815
9207625000 -1.0857091 135.88214 -9.1369781 -73.800316 -9.1437178 -74.578766 -0.080991961 -102.54162
9207687500 -1.0897768 135.90005 -9.1333418 -73.830505 -9.1335316 -74.493202 -0.077969812 -102.54841
9207750000 -1.0890585 135.91293 -9.1392622 -73.782547 -9.1307554 -74.525497 -0.077807747 -102.53458
9207812500 -1.0874219 135.88655 -9.1483736 -73.85833 -9.130743 -74.545799 -0.085516311 -102.54935
9207875000 -1.0847689 135.88203 -9.1499376 -73.772942 -9.1413431 -74.587456 -0.080176942 -102.54691
9207937500 -1.0921587 135.82457 -9.1496544 -73.780228 -9.13342 -74.527573 -0.082748294 -102.52909
9208000000 -1.0972767 135.80927 -9.1382999 -73.906097 -9.1215992 -74.522362 -0.073220186 -102.47106
9208062500 -1.0925958 135.84196 -9.1414032 -73.799095 -9.1268282 -74.532333 -0.077052824 -102.46513
9208125000 -1.0884708 135.7903 -9.1404667 -73.834312 -9.1245461 -74.540024 -0.074105553 -102.45113
9208187500 -1.0832729 135.81914 -9.1376104 -73.74987 -9.1367168 -74.527184 -0.0888744 -102.4599
9208250000 -1.0945914 135.78024 -9.1416807 -73.789993 -9.1245928 -74.558533 -0.081360862 -102.45589
9208312500 -1.0832977 135.81454 -9.1442728 -73.741302 -9.114233 -74.525269 -0.083964564 -102.42055
9208375000 -1.0926535 135.80049 -9.1342621 -73.779999 -9.1229458 -74.501076 -0.078342676 -102.33296
9208437500 -1.0955663 135.69209 -9.1373272 -73.811852 -9.1335735 -74.488602 -0.093040675 -102.33093
9208500000 -1.088985 135.68762 -9.1281281 -73.82312 -9.1263771 -74.553131 -0.083765738 -102.38094
9208562500 -1.0895259 135.75595 -9.1291742 -73.772629 -9.1225576 -74.568634 -0.079209223 -102.34423
9208625000 -1.0868979 135.65649 -9.129612 -73.765503 -9.133956 -74.490829 -0.094631933 -102.35512
9208687500 -1.0805501 135.68216 -9.1226416 -73.869041 -9.127284 -74.535088 -0.083280548 -102.34069
9208750000 -1.0871041 135.70239 -9.1310987 -73.796928 -9.1244316 -74.50351 -0.083835803 -102.30034
9208812500 -1.0929301 135.71317 -9.1383543 -73.780807 -9.1206274 -74.503464 -0.082381271 -102.2522
9208875000 -1.0883032 135.62016 -9.1211987 -73.81218 -9.1276112 -74.476639 -0.083648242 -102.22091
9208937500 -1.0933169 135.62782 -9.1321573 -73.824211 -9.1229134 -74.452888 -0.089050226 -102.1778
9209000000 -1.0854434 135.63731 -9.1373396 -73.783768 -9.1232891 -74.521561 -0.091938086 -102.24069
9209062500 -1.0910181 135.60835 -9.1240644 -73.755585 -9.1198244 -74.523033 -0.083147645 -102.19798
9209125000 -1.09408 135.60083 -9.1196203 -73.796127 -9.1280584 -74.498451 -0.080508955 -102.16997
9209187500 -1.0904291 135.59319 -9.126194 -73.77681 -9.1265287 -74.426041 -0.086180642 -102.16257
9209250000 -1.0846834 135.58952 -9.1254005 -73.729469 -9.118084 -74.527367 -0.089671373 -102.06801
9209312500 -1.0924897 135.48166 -9.130825 -73.854164 -9.1170092 -74.526726 -0.096108682 -102.11781
9209375000 -1.0835414 135.56517 -9.1234264 -73.714577 -9.126852 -74.42614 -0.098091349 -102.09064
9209437500 -1.0961635 135.49162 -9.1280346 -73.777779 -9.1177044 -74.528938 -0.082692116 -102.05608
9209500000 -1.0873972 135.51196 -9.1190672 -73.829369 -9.12045 -74.488556 -0.089810319 -102.03655
9209562500 -1.0916525 135.49759 -9.1294556 -73.777443 -9.1288738 -74.463737 -0.10315958 -101.96359
9209625000 -1.0857035 135.44806 -9.1136408 -73.765602 -9.1229525 -74.505272 -0.086284459 -102.02551
9209687500 -1.0915501 135.41002 -9.1207695 -73.799164 -9.1203461 -74.452652 -0.092384048 -101.98569
9209750000 -1.0959585 135.43274 -9.1213226 -73.901428 -9.1072369 -74.465736 -0.075197905 -101.99769
9209812500 -1.0888711 135.40877 -9.114686 -73.75708 -9.1160831 -74.489723 -0.08830937 -101.94434
9209875000 -1.0881325 135.42786 -9.1195145 -73.784424 -9.1118889 -74.488403 -0.087720692 -101.9496
9209937500 -1.0894544 135.46086 -9.1318455 -73.800323 -9.1278553 -74.448326 -0.099306747 -102.0246
9210000000 -1.085856 135.40599 -9.1206875 -73.731285 -9.1016998 -74.468643 -0.097598992 -101.89285
9210062500 -1.0922809 135.42709 -9.1206999 -73.791382 -9.1165009 -74.535683 -0.095309384 -101.94048
9210125000 -1.0872505 135.38361 -9.1269445 -73.722969 -9.107789 -74.430824 -0.090456463 -101.84298
9210187500 -1.0915886 135.4059 -9.1221828 -73.762939 -9.1117229 -74.525459 -0.096824683 -101.88625
9210250000 -1.0900793 135.397 -9.1256971 -73.760918 -9.1076174 -74.413467 -0.099628292 -101.85855
9210312500 -1.0945325 135.34319 -9.1193571 -73.676453 -9.1087217 -74.480919 -0.094052382 -101.81348
9210375000 -1.0893493 135.37627 -9.1206408 -73.730339 -9.1105957 -74.432243 -0.093008853 -101.76081
9210437500 -1.0841482 135.30914 -9.1234751 -73.71006 -9.1090326 -74.499786 -0.086414792 -101.85361
9210500000 -1.0895334 135.26181 -9.1157331 -73.801041 -9.1073828 -74.465858 -0.080943502 -101.80958
9210562500 -1.0925108 135.26956 -9.1127329 -73.747688 -9.1054401 -74.493271 -0.093498796 -101.77377
9210625000 -1.0907397 135.30794 -9.1262693 -73.72216 -9.1170835 -74.447281 -0.088047005 -101.83533
9210687500 -1.0900464 135.29294 -9.1201077 -73.710342 -9.1084442 -74.464363 -0.096859656 -101.71938
9210750000 -1.0885712 135.24052 -9.1079311 -73.841263 -9.106617 -74.432076 -0.094964482 -101.73833
9210812500 -1.0969155 135.20148 -9.117034 -73.814346 -9.1086435 -74.388557 -0.098451898 -101.69942
9210875000 -1.0896046 135.24284 -9.1127939 -73.716972 -9.1016798 -74.427765 -0.10110747 -101.73734
9210937500 -1.0905778 135.23715 -9.1098633 -73.727821 -9.1045952 -74.333054 -0.096560359 -101.6506
9211000000 -1.0863558 135.21809 -9.1031742 -73.685654 -9.1026287 -74.428978 -0.089742631 -101.70294
9211062500 -1.0900441 135.21976 -9.0998783 -73.666901 -9.1029301 -74.399063 -0.097731344 -101.6305
9211125000 -1.0825843 135.1716 -9.1013021 -73.784111 -9.0957623 -74.528244 -0.092046276 -101.68696
9211187500 -1.1013887 135.16008 -9.1028328 -73.666931 -9.1051426 -74.452515 -0.096710563 -101.63622
9211250000 -1.0976487 135.16342 -9.1065254 -73.774452 -9.101963 -74.405167 -0.0927196 -101.57992
9211312500 -1.0915202 135.14711 -9.1149244 -73.690857 -9.1049223 -74.427917 -0.1001535 -101.62006
9211375000 -1.0933371 135.04509 -9.1025028 -73.756859 -9.0990963 -74.451263 -0.10212474 -101.5248
9211437500 -1.0929645 135.09314 -9.1038666 -73.655807 -9.0981417 -74.460266 -0.099318482 -101.51751
9211500000 -1.099942 135.0957 -9.1072903 -73.804672 -9.0914421 -74.4888 -0.090826288 -101.56641
9211562500 -1.0963123 135.08041 -9.110033 -73.778435 -9.0990191 -74.40979 -0.1022443 -101.53226
9211625000 -1.0932204 135.03784 -9.1052189 -73.755859 -9.094676 -74.509987 -0.092963897 -101.53304
9211687500 -1.0987395 135.07178 -9.0996351 -73.71006 -9.097312 -74.401314 -0.098760642 -101.44553
9211750000 -1.0927713 135.01852 -9.0984001 -73.724754 -9.098465 -74.425583 -0.092905946 -101.41511
9211812500 -1.0981861 135.03757 -9.1142492 -73.697945 -9.0932331 -74.352364 -0.1064271 -101.42863
9211875000 -1.0955697 135.03415 -9.0968008 -73.70919 -9.0919228 -74.37439 -0.091689207 -101.35365
9211937500 -1.0881574 135.03287 -9.100255 -73.739265 -9.0965424 -74.380051 -0.1061628 -101.39354
9212000000 -1.0975935 134.92482 -9.0960083 -73.725769 -9.0819988 -74.406136 -0.099051252 -101.36501
9212062500 -1.0962958 134.95917 -9.1031532 -73.690041 -9.0887461 -74.402748 -0.10346043 -101.35706
9212125000 -1.0897355 134.88997 -9.0856056 -73.757202 -9.0943327 -74.417831 -0.097329378 -101.3567
9212187500 -1.0864666 134.93404 -9.0854321 -73.64769 -9.0789738 -74.396576 -0.097397983 -101.32535
9212250000 -1.0949757 134.89059 -9.0958309 -73.741486 -9.0767107 -74.424942 -0.093704276 -101.35255
