!Agilent Technologies,N5242A,MY51221714,A.09.90.19
!Agilent N5242A: A.09.90.19
!Date: Tuesday, March 26, 2024 16:48:23
!Correction: S11(Full 2 Port(1,2)) 
!S21(Full 2 Port(1,2)) 
!S12(Full 2 Port(1,2)) 
!S22(Full 2 Port(1,2)) 
!S2P File: Measurements: S11, S21, S12, S22:
# Hz S  dB   R 50
9200000000 -1.0095557 138.12843 -9.2317276 -72.951248 -9.2122746 -73.676468 -0.0054897494 -104.2758
9200062500 -1.0108544 138.10716 -9.2277279 -73.002258 -9.2155838 -73.734322 0.0033308049 -104.24667
9200125000 -1.0074694 138.09549 -9.2180481 -72.983643 -9.2038441 -73.691856 -0.0087341107 -104.22809
9200187500 -1.0144385 138.13338 -9.2295475 -72.88089 -9.2180328 -73.716469 0.0094613591 -104.17413
9200250000 -1.0033526 138.05882 -9.2138338 -72.943993 -9.2196617 -73.716057 0.0014988063 -104.24629
9200312500 -1.0146784 138.06505 -9.225523 -72.96505 -9.2068939 -73.767006 0.00065459654 -104.2343
9200375000 -1.0090861 138.04533 -9.2193356 -72.998482 -9.2095585 -73.799507 0.0050877165 -104.17722
9200437500 -1.0079455 138.05077 -9.2269459 -73.032867 -9.2108727 -73.748306 0.0027544852 -104.16476
9200500000 -0.99992794 138.00081 -9.2230644 -73.010468 -9.2113743 -73.676483 -0.0090805665 -104.12345
9200562500 -1.0048376 137.99005 -9.2122908 -72.929077 -9.218338 -73.692078 0.0006521988 -104.15664
9200625000 -1.0136507 138.0493 -9.223012 -72.981087 -9.2043324 -73.684242 -0.0021077136 -104.1021
9200687500 -1.0030937 138.00679 -9.2100811 -72.922722 -9.213027 -73.685333 -0.00061995437 -104.06431
9200750000 -1.0068396 137.90205 -9.2190151 -72.985527 -9.2162132 -73.634918 -0.0060383943 -104.08195
9200812500 -1.0187083 137.94498 -9.2198381 -73.016235 -9.215045 -73.732841 -0.015356435 -104.07094
9200875000 -1.0026983 138.03539 -9.2038898 -72.953552 -9.2219076 -73.677078 -0.0072068754 -104.09166
9200937500 -1.0102181 137.92873 -9.2141657 -72.95118 -9.2066212 -73.634789 0.0010733348 -103.99762
9201000000 -1.0075643 137.91411 -9.2182922 -73.061493 -9.2024593 -73.751472 -0.0032001662 -104.0612
9201062500 -1.0125922 137.87872 -9.2104836 -72.968361 -9.2019501 -73.739334 -0.0018004596 -103.99312
9201125000 -1.0083892 137.90218 -9.2084179 -72.953255 -9.2062759 -73.725304 -0.0043007215 -103.93578
9201187500 -1.011618 137.81429 -9.2226496 -72.93264 -9.1993408 -73.657066 -0.014232751 -103.85867
9201250000 -1.0142087 137.87811 -9.2108669 -72.917694 -9.2108364 -73.664322 -0.010025957 -103.88074
9201312500 -1.0249625 137.81024 -9.2066269 -72.965317 -9.2077599 -73.69593 -0.0079822121 -103.95116
9201375000 -1.0172676 137.83543 -9.2212219 -72.90274 -9.2057858 -73.656807 -0.0099166753 -103.91187
9201437500 -1.0086247 137.82805 -9.2177801 -72.87957 -9.2040768 -73.639969 -0.0054028635 -103.89972
9201500000 -1.0136223 137.83347 -9.2179899 -72.903282 -9.2155809 -73.613289 -0.0069044009 -103.87639
9201562500 -1.008811 137.78337 -9.2232771 -72.922646 -9.2088604 -73.6689 -0.020035328 -103.85243
9201625000 -1.0081278 137.8154 -9.2128563 -72.89843 -9.1907606 -73.610298 -0.0072334162 -103.75577
9201687500 -1.0143185 137.7522 -9.1997595 -72.822632 -9.2043972 -73.584488 -0.007854362 -103.69724
9201750000 -1.0101751 137.77501 -9.2093077 -72.907005 -9.1939564 -73.743004 -0.0033260812 -103.78278
9201812500 -1.0082848 137.74905 -9.2046347 -72.928871 -9.2044268 -73.612129 -0.016547108 -103.81927
9201875000 -1.0139918 137.70567 -9.2026711 -72.930885 -9.1947746 -73.683662 -4.8580627e-005 -103.72514
9201937500 -1.0183733 137.6703 -9.2136307 -72.90377 -9.2059803 -73.687576 -0.0061437394 -103.78419
9202000000 -1.0122665 137.70691 -9.2046556 -72.922165 -9.1963205 -73.70314 -0.0031012085 -103.69431
9202062500 -1.01206 137.68646 -9.1963539 -72.96962 -9.1951485 -73.737801 -0.0022708555 -103.7064
9202125000 -1.016981 137.67397 -9.2179222 -72.957123 -9.1999512 -73.59333 -0.014847331 -103.70834
9202187500 -1.0107282 137.65694 -9.2004509 -72.979347 -9.2041836 -73.597794 -0.009063554 -103.61174
9202250000 -1.0137688 137.65605 -9.2029915 -72.920258 -9.1977777 -73.57563 -0.011168633 -103.6506
9202312500 -1.0085303 137.65906 -9.2083063 -72.872208 -9.1799507 -73.751724 -0.0049206982 -103.68327
9202375000 -1.0088893 137.63231 -9.1965046 -72.882195 -9.1879025 -73.62439 -0.0025542586 -103.56904
9202437500 -1.0066068 137.61305 -9.1985855 -72.903694 -9.1919785 -73.623146 0.00032147925 -103.64024
9202500000 -1.0157971 137.64423 -9.2011881 -72.923592 -9.1993132 -73.618126 -0.0080452794 -103.62916
9202562500 -0.99956805 137.55363 -9.194356 -72.914734 -9.1966171 -73.576286 -0.019296359 -103.57166
9202625000 -1.0132589 137.62856 -9.1988964 -72.876442 -9.1856508 -73.612061 -0.0053662318 -103.54504
9202687500 -1.012145 137.58008 -9.192132 -72.885773 -9.1910906 -73.662094 -0.0012383105 -103.52696
9202750000 -1.005066 137.506 -9.1891403 -72.945786 -9.1836424 -73.612953 -0.010673395 -103.51221
9202812500 -1.0075833 137.53154 -9.1975431 -72.918045 -9.1831541 -73.710846 -0.0080499072 -103.49784
9202875000 -1.0077051 137.50706 -9.1924772 -72.890091 -9.1870871 -73.631142 -0.0050876956 -103.4276
9202937500 -1.0066251 137.50294 -9.1951618 -72.950188 -9.182538 -73.567886 -0.0049935663 -103.47984
9203000000 -1.0167627 137.52762 -9.1986179 -72.932426 -9.1860552 -73.63755 -0.010337576 -103.39572
9203062500 -1.0128018 137.43445 -9.1916838 -72.943062 -9.1832876 -73.588028 -0.010876537 -103.49927
9203125000 -1.005661 137.43498 -9.1854153 -72.914253 -9.1775913 -73.551277 -0.0079936134 -103.39149
9203187500 -1.0131977 137.48579 -9.2071857 -72.878471 -9.1721878 -73.647583 -0.0075465715 -103.40146
9203250000 -1.0142559 137.38393 -9.2018108 -72.920006 -9.1868973 -73.540802 -0.0097182011 -103.32668
9203312500 -1.0190212 137.42662 -9.19804 -72.895813 -9.181077 -73.658989 -0.0012118988 -103.35001
9203375000 -1.00741 137.42 -9.1884298 -72.873268 -9.1721649 -73.608795 -0.0053172102 -103.33027
9203437500 -1.0161288 137.41757 -9.1859665 -72.904495 -9.1909714 -73.614471 -0.010349717 -103.34228
9203500000 -1.0104654 137.35532 -9.1990614 -72.898964 -9.1851683 -73.670914 -0.0060935048 -103.35915
9203562500 -1.0266039 137.41647 -9.2018995 -72.842285 -9.195344 -73.648613 -0.020664142 -103.35654
9203625000 -1.0105525 137.3486 -9.2004461 -72.940788 -9.1826153 -73.587051 -0.012101821 -103.35233
9203687500 -1.0240893 137.31113 -9.2057934 -72.916214 -9.1984177 -73.583832 -0.023437029 -103.27707
9203750000 -1.0165502 137.34047 -9.1965427 -72.908058 -9.1777325 -73.610962 -0.0052003921 -103.25976
9203812500 -1.0148128 137.32835 -9.1826353 -72.788956 -9.1739435 -73.573311 -0.012660434 -103.18626
9203875000 -1.0139954 137.31517 -9.1890125 -72.874168 -9.1771011 -73.604935 -0.024694381 -103.2331
9203937500 -1.017822 137.29021 -9.1877193 -72.880745 -9.1706886 -73.598503 -0.0065605319 -103.22224
9204000000 -1.0109162 137.29648 -9.172123 -72.866798 -9.1909218 -73.632263 -0.014527617 -103.18528
9204062500 -1.0092871 137.27882 -9.1851845 -72.838501 -9.1771345 -73.620781 -0.015299855 -103.16872
9204125000 -1.0179485 137.2802 -9.183506 -72.899979 -9.1755819 -73.618782 -0.0070103169 -103.17556
9204187500 -1.0177338 137.2169 -9.1909018 -72.850647 -9.1786757 -73.583504 -0.010306126 -103.11288
9204250000 -1.0193869 137.25891 -9.1830759 -72.893539 -9.1700726 -73.633995 -0.01033761 -103.16035
9204312500 -1.0123863 137.22023 -9.1825666 -72.856247 -9.1736746 -73.6026 -0.01585432 -103.00795
9204375000 -1.0029368 137.19843 -9.1721916 -72.861351 -9.1698256 -73.665619 -0.012813261 -103.14032
9204437500 -1.0190624 137.24046 -9.1767187 -72.830269 -9.1763811 -73.575073 -0.010591601 -103.07387
9204500000 -1.0164895 137.20599 -9.1758194 -72.886345 -9.1853228 -73.636314 -0.01677184 -103.08817
9204562500 -1.014719 137.14664 -9.1788349 -72.951599 -9.1753845 -73.58725 -0.0033614966 -103.13914
9204625000 -1.0096351 137.16078 -9.1867599 -72.801598 -9.1799192 -73.587852 -0.018806171 -102.94205
9204687500 -1.0152272 137.12646 -9.188385 -72.826706 -9.1684103 -73.606873 -0.016184665 -102.95574
9204750000 -1.0198771 137.11172 -9.1739235 -72.839554 -9.1738567 -73.584938 -0.025610369 -103.00775
9204812500 -1.0059983 137.10652 -9.179554 -72.7939 -9.1674109 -73.554123 -0.0090234969 -102.94964
9204875000 -1.0167999 137.15125 -9.1789398 -72.879913 -9.1890631 -73.575783 -0.021255875 -102.92574
9204937500 -1.0165416 137.07039 -9.1732092 -72.851982 -9.1615677 -73.567032 -0.0051757134 -102.92279
9205000000 -1.0070693 137.04915 -9.1804867 -72.824036 -9.1629066 -73.506226 -0.02090366 -102.88412
9205062500 -1.0142083 137.04301 -9.187562 -72.873611 -9.1569099 -73.615089 -0.022162143 -102.86579
9205125000 -1.0117154 137.07228 -9.164855 -72.764168 -9.1646624 -73.509598 -0.014033982 -102.7969
9205187500 -1.0147576 137.0414 -9.1750622 -72.781837 -9.1666183 -73.537689 -0.017783077 -102.84447
9205250000 -1.0144068 137.00124 -9.1792879 -72.857086 -9.1741686 -73.582375 -0.027794167 -102.90071
9205312500 -1.0154824 137.06516 -9.1674309 -72.75325 -9.1711798 -73.563431 -0.02117148 -102.8722
9205375000 -1.0128921 136.94742 -9.1650944 -72.805634 -9.1727142 -73.520058 -0.010353131 -102.77572
9205437500 -1.0101151 136.97931 -9.1699705 -72.819344 -9.1603489 -73.521255 -0.01331611 -102.7948
9205500000 -1.0205425 136.89543 -9.1725798 -72.845535 -9.1602659 -73.556442 -0.010335167 -102.71124
9205562500 -1.0219306 136.94278 -9.1618967 -72.845032 -9.1651421 -73.602577 -0.010285407 -102.75375
9205625000 -1.0176256 136.92386 -9.1675024 -72.779945 -9.1619349 -73.556679 -0.019216167 -102.69645
9205687500 -1.0114979 136.97984 -9.1655226 -72.748619 -9.1605873 -73.612434 -0.021409167 -102.70528
9205750000 -1.0135944 136.89806 -9.1606045 -72.766762 -9.1533165 -73.558838 -0.0024223027 -102.67066
9205812500 -1.0164571 136.85867 -9.1590137 -72.876968 -9.1689672 -73.492989 -0.017943149 -102.60627
9205875000 -1.0113229 136.9174 -9.1725521 -72.758942 -9.1608553 -73.485191 -0.014861786 -102.68387
9205937500 -1.0086889 136.86108 -9.1617203 -72.867775 -9.1536827 -73.497353 -0.014479372 -102.62273
9206000000 -1.0183109 136.84282 -9.1609278 -72.774742 -9.1598206 -73.557487 -0.01110814 -102.59416
9206062500 -1.0116954 136.85927 -9.1618481 -72.902328 -9.1567383 -73.522919 -0.014779542 -102.64279
9206125000 -1.0121791 136.81364 -9.1619768 -72.798103 -9.1643982 -73.468178 -0.030062215 -102.55598
9206187500 -1.0178034 136.84451 -9.1685333 -72.822845 -9.1497688 -73.548721 -0.0083276285 -102.61806
9206250000 -1.018895 136.77594 -9.1647491 -72.845573 -9.1526814 -73.537796 -0.016395884 -102.57645
9206312500 -1.0107667 136.71082 -9.1498089 -72.838341 -9.1589909 -73.648933 -0.014569398 -102.59385
9206375000 -1.0167034 136.77026 -9.1621418 -72.813957 -9.1540031 -73.488121 -0.015026778 -102.55556
9206437500 -1.0145911 136.7363 -9.1646843 -72.749817 -9.157958 -73.535141 -0.017990716 -102.57528
9206500000 -1.0195781 136.72588 -9.1686144 -72.824089 -9.1566362 -73.467857 -0.026174353 -102.51485
9206562500 -1.0098461 136.72502 -9.1539669 -72.913994 -9.1615973 -73.534904 -0.020448549 -102.55603
9206625000 -1.0191926 136.66054 -9.1571169 -72.829857 -9.1522484 -73.625687 -0.016323494 -102.53031
9206687500 -1.0202388 136.70456 -9.1708431 -72.900581 -9.1490564 -73.549057 -0.013821617 -102.5191
9206750000 -1.0160303 136.72034 -9.1563883 -72.798943 -9.1513481 -73.437225 -0.022805588 -102.43481
9206812500 -1.0157269 136.70244 -9.1682301 -72.743553 -9.1618719 -73.608688 -0.020069351 -102.46888
9206875000 -1.0192597 136.66458 -9.1550798 -72.796051 -9.147727 -73.481766 -0.016878579 -102.34575
9206937500 -1.0153447 136.68887 -9.1603117 -72.686287 -9.1570997 -73.501259 -0.019887401 -102.33762
9207000000 -1.0177784 136.63315 -9.1564655 -72.833214 -9.1580353 -73.51606 -0.020858491 -102.39449
9207062500 -1.0180256 136.62498 -9.1648788 -72.763527 -9.1440887 -73.476868 -0.02360623 -102.23397
9207125000 -1.0241616 136.56573 -9.1414433 -72.825165 -9.1466866 -73.543045 -0.019759627 -102.30189
9207187500 -1.0118297 136.5948 -9.1471252 -72.809029 -9.1566181 -73.487267 -0.024496226 -102.30064
9207250000 -1.0160077 136.63858 -9.1489506 -72.724159 -9.1518431 -73.515564 -0.018218078 -102.35255
9207312500 -1.012872 136.5661 -9.1551542 -72.790024 -9.1404667 -73.453125 -0.013660392 -102.29533
9207375000 -1.0263519 136.50964 -9.1628523 -72.867485 -9.1396656 -73.493668 -0.023951011 -102.22543
9207437500 -1.0101485 136.60211 -9.1468201 -72.718208 -9.1647444 -73.428345 -0.026765171 -102.21213
9207500000 -1.0200205 136.57736 -9.1542463 -72.726875 -9.128417 -73.426697 -0.034204938 -102.2205
9207562500 -1.0136603 136.53938 -9.1514502 -72.791718 -9.1385822 -73.453819 -0.026542529 -102.2381
9207625000 -1.0164117 136.46213 -9.1472502 -72.659134 -9.1379671 -73.490593 -0.020441448 -102.15575
9207687500 -1.0210196 136.48163 -9.1474733 -72.845657 -9.1483946 -73.484657 -0.017059164 -102.21254
9207750000 -1.0158763 136.48738 -9.1512718 -72.777603 -9.136447 -73.445755 -0.014387419 -102.18629
9207812500 -1.009793 136.48009 -9.1520281 -72.740486 -9.1385164 -73.456917 -0.029010002 -102.14267
9207875000 -1.0150806 136.45517 -9.1531696 -72.747932 -9.1320305 -73.496742 -0.013049232 -102.12656
9207937500 -1.0202597 136.43152 -9.1529341 -72.747574 -9.1485052 -73.521767 -0.028377404 -102.15257
9208000000 -1.0238924 136.4261 -9.1392469 -72.785683 -9.1409597 -73.431274 -0.011707819 -102.06579
9208062500 -1.0177768 136.42549 -9.1476021 -72.743385 -9.1436577 -73.459839 -0.030089142 -102.02161
9208125000 -1.01642 136.41309 -9.1444454 -72.757484 -9.1433229 -73.466484 -0.022438433 -102.02367
9208187500 -1.019519 136.42516 -9.145298 -72.728111 -9.1338377 -73.431549 -0.021912213 -102.02419
9208250000 -1.0238855 136.35141 -9.1555586 -72.723152 -9.132596 -73.4235 -0.029571746 -102.02326
9208312500 -1.0144423 136.37762 -9.1535616 -72.752998 -9.1332741 -73.463593 -0.022259515 -101.99244
9208375000 -1.0200595 136.38818 -9.1440134 -72.749283 -9.1431599 -73.48774 -0.027033774 -101.97409
9208437500 -1.0243044 136.28992 -9.1445227 -72.792351 -9.1355772 -73.361816 -0.029592784 -101.9633
9208500000 -1.0180258 136.30879 -9.139924 -72.754517 -9.1371174 -73.487801 -0.026541455 -101.97504
9208562500 -1.0232112 136.31944 -9.1314354 -72.758179 -9.1355658 -73.459221 -0.023039989 -101.91576
9208625000 -1.0156255 136.29155 -9.1322546 -72.641777 -9.130765 -73.397041 -0.031561352 -101.94798
9208687500 -1.0104789 136.28404 -9.1236029 -72.723289 -9.1344185 -73.481041 -0.023101287 -101.88538
9208750000 -1.0170236 136.2851 -9.1350651 -72.698105 -9.1284761 -73.392517 -0.030490998 -101.85613
9208812500 -1.0219483 136.34256 -9.1438942 -72.731499 -9.133708 -73.508423 -0.023882058 -101.8923
9208875000 -1.0183872 136.20549 -9.1319008 -72.815292 -9.1410036 -73.422218 -0.034619503 -101.84156
9208937500 -1.0221921 136.22026 -9.1306877 -72.768738 -9.1275978 -73.445366 -0.02498501 -101.84239
9209000000 -1.013364 136.25056 -9.1473227 -72.710136 -9.1322937 -73.398651 -0.033201415 -101.84479
9209062500 -1.020893 136.19231 -9.135828 -72.726837 -9.1380062 -73.465462 -0.02674148 -101.79453
9209125000 -1.0237482 136.19989 -9.1371078 -72.712791 -9.1169758 -73.435768 -0.018885277 -101.79085
9209187500 -1.0181705 136.1748 -9.1328316 -72.696556 -9.1370773 -73.421883 -0.034404855 -101.78347
9209250000 -1.0063189 136.1375 -9.1256943 -72.720131 -9.1218901 -73.461601 -0.032142505 -101.65352
9209312500 -1.0170282 136.07071 -9.1261606 -72.759872 -9.1218195 -73.480461 -0.030082395 -101.75562
9209375000 -1.0107198 136.15846 -9.1376982 -72.641594 -9.128871 -73.405655 -0.030567303 -101.75459
9209437500 -1.0222853 136.10649 -9.1348982 -72.687798 -9.1244688 -73.456505 -0.022465225 -101.65298
9209500000 -1.016246 136.11658 -9.1326542 -72.757813 -9.1274433 -73.413269 -0.027757876 -101.63465
9209562500 -1.0233451 136.09962 -9.149436 -72.694336 -9.124506 -73.359558 -0.033812631 -101.60969
9209625000 -1.0220019 136.06831 -9.1335688 -72.648697 -9.1228542 -73.42704 -0.027285777 -101.62278
9209687500 -1.0214036 136.00043 -9.1359529 -72.715378 -9.1263962 -73.338341 -0.029593911 -101.59331
9209750000 -1.0159607 136.03279 -9.1225462 -72.77681 -9.1261444 -73.409088 -0.021733114 -101.62
9209812500 -1.0189731 136.02658 -9.1300507 -72.655823 -9.1284475 -73.407463 -0.025771154 -101.57861
9209875000 -1.0122131 136.05899 -9.1215115 -72.658577 -9.1169758 -73.379227 -0.032900207 -101.58238
9209937500 -1.0214293 136.09012 -9.1304722 -72.648666 -9.1204748 -73.39949 -0.02765137 -101.6128
9210000000 -1.0106252 136.02197 -9.1235514 -72.596024 -9.1108408 -73.416473 -0.039715867 -101.50544
9210062500 -1.0231802 136.0153 -9.1257982 -72.727654 -9.1184168 -73.369705 -0.034540609 -101.51821
9210125000 -1.0165353 135.95595 -9.1310034 -72.728127 -9.1060801 -73.351318 -0.031940334 -101.50663
9210187500 -1.0226258 135.97783 -9.1261253 -72.670341 -9.1195984 -73.431854 -0.03478498 -101.5088
9210250000 -1.021027 135.93321 -9.1249952 -72.707855 -9.1151905 -73.349754 -0.035476457 -101.46889
9210312500 -1.0248353 135.97452 -9.1292124 -72.64415 -9.1090002 -73.507401 -0.033130921 -101.50184
9210375000 -1.0146621 135.97475 -9.1274014 -72.623024 -9.1157227 -73.353745 -0.031512626 -101.37585
9210437500 -1.0101159 135.91055 -9.1219873 -72.637589 -9.1143665 -73.472633 -0.030410672 -101.48439
9210500000 -1.0133177 135.90117 -9.1256475 -72.739082 -9.1048861 -73.422287 -0.021089571 -101.44135
9210562500 -1.0162774 135.86462 -9.11549 -72.656952 -9.1090393 -73.44445 -0.033006672 -101.40327
9210625000 -1.0176505 135.90027 -9.1337404 -72.690742 -9.1122732 -73.315704 -0.036639988 -101.39684
9210687500 -1.0134721 135.89581 -9.1119852 -72.650192 -9.1172504 -73.485847 -0.041729055 -101.38161
9210750000 -1.0174654 135.85519 -9.1222515 -72.698402 -9.1133986 -73.421082 -0.027579356 -101.35098
9210812500 -1.0233811 135.80637 -9.124135 -72.694489 -9.1174231 -73.31768 -0.039841607 -101.30565
9210875000 -1.0244141 135.85187 -9.125349 -72.663818 -9.1081924 -73.34214 -0.039343376 -101.32642
9210937500 -1.0185622 135.83394 -9.1220465 -72.661728 -9.1098366 -73.353294 -0.037405189 -101.29166
9211000000 -1.0189012 135.80382 -9.116437 -72.653641 -9.1230602 -73.366714 -0.04000283 -101.27358
9211062500 -1.0154221 135.78572 -9.1110125 -72.628456 -9.1064939 -73.31501 -0.037426986 -101.28073
9211125000 -1.0142374 135.75114 -9.1151552 -72.639053 -9.1015215 -73.311562 -0.031127814 -101.23228
9211187500 -1.0217808 135.73067 -9.1081924 -72.642044 -9.1059656 -73.312027 -0.039933857 -101.1908
9211250000 -1.0194236 135.74602 -9.1166458 -72.655975 -9.1166592 -73.327065 -0.034963053 -101.20316
9211312500 -1.0130037 135.74248 -9.1126118 -72.604668 -9.1150446 -73.363785 -0.038683776 -101.19799
9211375000 -1.0185294 135.65166 -9.1149445 -72.654373 -9.1088009 -73.37149 -0.039585557 -101.08835
9211437500 -1.0207222 135.73279 -9.1151457 -72.560738 -9.1028147 -73.38932 -0.037390061 -101.14413
9211500000 -1.0235727 135.65245 -9.1145687 -72.63755 -9.1202316 -73.355881 -0.039522476 -101.16287
9211562500 -1.0201149 135.69482 -9.1140585 -72.721748 -9.1120377 -73.380028 -0.049600936 -101.17271
9211625000 -1.0193423 135.63551 -9.1043949 -72.698601 -9.0957632 -73.374832 -0.030725157 -101.09895
9211687500 -1.0241349 135.68349 -9.1227512 -72.642693 -9.1100931 -73.387711 -0.047548711 -101.07634
9211750000 -1.0195351 135.62883 -9.1112766 -72.588081 -9.1067505 -73.363762 -0.039294612 -101.0639
9211812500 -1.0226985 135.64584 -9.1196709 -72.595833 -9.1038799 -73.321915 -0.04412736 -101.06727
9211875000 -1.0294082 135.61156 -9.1193142 -72.608994 -9.1034737 -73.355347 -0.043534461 -101.00908
9211937500 -1.0196439 135.57526 -9.1110439 -72.633057 -9.100769 -73.32872 -0.043941278 -101.0231
9212000000 -1.0163954 135.53102 -9.111146 -72.598488 -9.0944452 -73.353455 -0.034215122 -101.00108
9212062500 -1.0167106 135.53635 -9.1045427 -72.622429 -9.1016779 -73.341904 -0.043354344 -101.0196
9212125000 -1.0180129 135.49628 -9.10357 -72.714661 -9.1103525 -73.327454 -0.038651664 -100.91415
9212187500 -1.013062 135.51596 -9.1036072 -72.556221 -9.095396 -73.312302 -0.04383887 -100.92693
