!Agilent Technologies,N5242A,MY51221714,A.09.90.19
!Agilent N5242A: A.09.90.19
!Date: Tuesday, March 26, 2024 16:51:02
!Correction: S11(Full 2 Port(1,2)) 
!S21(Full 2 Port(1,2)) 
!S12(Full 2 Port(1,2)) 
!S22(Full 2 Port(1,2)) 
!S2P File: Measurements: S11, S21, S12, S22:
# Hz S  dB   R 50
9200000000 -1.0495403 137.30939 -9.1721153 -73.782639 -9.1521349 -74.436554 -0.041157745 -104.35357
9200062500 -1.051635 137.33025 -9.1687498 -73.748947 -9.1625023 -74.403351 -0.035837136 -104.31456
9200125000 -1.0491802 137.28477 -9.1697598 -73.714142 -9.1514378 -74.440666 -0.042169657 -104.24767
9200187500 -1.0506868 137.34029 -9.1547203 -73.624367 -9.1487293 -74.492859 -0.022886166 -104.27218
9200250000 -1.0398085 137.25987 -9.1519079 -73.74292 -9.1593819 -74.443092 -0.037661277 -104.28452
9200312500 -1.0452666 137.24774 -9.1682091 -73.751007 -9.1590166 -74.462891 -0.042143542 -104.32548
9200375000 -1.0493655 137.23988 -9.1616764 -73.685013 -9.1495113 -74.51812 -0.03203579 -104.24306
9200437500 -1.0467201 137.23366 -9.1649408 -73.74205 -9.1515236 -74.456009 -0.035651837 -104.20747
9200500000 -1.050125 137.1994 -9.1634798 -73.690742 -9.153985 -74.399666 -0.040557325 -104.19831
9200562500 -1.0458462 137.14987 -9.1582384 -73.74324 -9.1543188 -74.445396 -0.033388365 -104.23326
9200625000 -1.0558199 137.18243 -9.1600113 -73.750557 -9.148057 -74.45932 -0.040774804 -104.19761
9200687500 -1.0468901 137.1716 -9.1639261 -73.653069 -9.163744 -74.422157 -0.041968193 -104.1292
9200750000 -1.0479877 137.12491 -9.1570902 -73.752968 -9.1424694 -74.374542 -0.035459518 -104.18795
9200812500 -1.0629528 137.13954 -9.1635275 -73.675034 -9.159009 -74.428185 -0.054904744 -104.11041
9200875000 -1.0468249 137.15225 -9.1549826 -73.723846 -9.1489391 -74.341545 -0.041964956 -104.14791
9200937500 -1.0476 137.13588 -9.1611948 -73.736298 -9.1380081 -74.397942 -0.031457897 -104.06393
9201000000 -1.0507371 137.08656 -9.1590004 -73.761894 -9.1461697 -74.439545 -0.033238698 -104.07374
9201062500 -1.0492733 137.10741 -9.152792 -73.69989 -9.1416903 -74.426048 -0.038013931 -104.02498
9201125000 -1.0427276 137.09775 -9.1450863 -73.701416 -9.1499062 -74.432045 -0.04426688 -104.03439
9201187500 -1.0561467 137.05513 -9.1544333 -73.641014 -9.1420383 -74.398682 -0.043132808 -103.93716
9201250000 -1.0518706 137.07744 -9.1485634 -73.705627 -9.1503773 -74.394562 -0.040650811 -103.9796
9201312500 -1.0588188 137.05251 -9.1592007 -73.663406 -9.1480265 -74.427162 -0.036486953 -104.0171
9201375000 -1.0570241 137.03664 -9.1588984 -73.606323 -9.1419401 -74.317841 -0.051176831 -103.92598
9201437500 -1.0539175 137.05202 -9.1548424 -73.650826 -9.139616 -74.333336 -0.039469682 -103.98425
9201500000 -1.0525796 137.03868 -9.1527262 -73.659142 -9.1429663 -74.44664 -0.043274499 -104.0287
9201562500 -1.0496346 136.98444 -9.1570511 -73.65139 -9.1506844 -74.420715 -0.050893687 -103.95227
9201625000 -1.0506004 136.96971 -9.1490784 -73.672066 -9.1361179 -74.378738 -0.050582729 -103.85005
9201687500 -1.0573986 136.98778 -9.1422539 -73.574722 -9.1343946 -74.406578 -0.03373545 -103.81097
9201750000 -1.0473351 136.94588 -9.1436386 -73.649864 -9.1405993 -74.404221 -0.036310632 -103.83858
9201812500 -1.0473962 136.94678 -9.1560755 -73.657341 -9.1394138 -74.426895 -0.052363057 -103.91811
9201875000 -1.0463326 136.90846 -9.1330233 -73.701538 -9.1388264 -74.423897 -0.040491819 -103.79154
9201937500 -1.0600106 136.8647 -9.1418982 -73.696136 -9.1366796 -74.40786 -0.040432476 -103.81509
9202000000 -1.0559047 136.88985 -9.1449318 -73.676605 -9.1405401 -74.407967 -0.037610985 -103.75642
9202062500 -1.0574014 136.86687 -9.13241 -73.704391 -9.1272879 -74.429276 -0.034409285 -103.77937
9202125000 -1.0617816 136.92181 -9.1627378 -73.694366 -9.132616 -74.373192 -0.048760835 -103.81076
9202187500 -1.0537645 136.87425 -9.1531267 -73.728767 -9.138052 -74.379921 -0.046070009 -103.71346
9202250000 -1.059096 136.87041 -9.1533642 -73.676323 -9.1280527 -74.348724 -0.047843043 -103.68745
9202312500 -1.0509073 136.8598 -9.1460228 -73.637413 -9.1395454 -74.390099 -0.045674659 -103.74245
9202375000 -1.0559019 136.79047 -9.1512556 -73.673965 -9.1294403 -74.399551 -0.049486566 -103.66762
9202437500 -1.0529196 136.84874 -9.141674 -73.622185 -9.1373444 -74.356575 -0.041707087 -103.72815
9202500000 -1.0621862 136.81143 -9.1498976 -73.711533 -9.1432924 -74.405487 -0.04912851 -103.70881
9202562500 -1.0447624 136.76094 -9.1368189 -73.654205 -9.1467085 -74.340195 -0.057592317 -103.69173
9202625000 -1.052624 136.8172 -9.1432056 -73.611359 -9.1313677 -74.399124 -0.045783851 -103.63687
9202687500 -1.055397 136.77776 -9.1460953 -73.650986 -9.1339664 -74.355652 -0.043770816 -103.5632
9202750000 -1.0450943 136.68546 -9.130065 -73.677635 -9.1291714 -74.399162 -0.047676835 -103.61259
9202812500 -1.0609347 136.69838 -9.1457109 -73.687439 -9.1177912 -74.375267 -0.038873013 -103.5309
9202875000 -1.052956 136.68211 -9.1421833 -73.620667 -9.1338091 -74.391197 -0.048385445 -103.56618
9202937500 -1.051481 136.7308 -9.1422014 -73.703896 -9.127862 -74.340553 -0.045921914 -103.52399
9203000000 -1.0579991 136.7485 -9.1476707 -73.640419 -9.1312847 -74.356644 -0.045593075 -103.4513
9203062500 -1.0524876 136.67197 -9.1343765 -73.70768 -9.1267147 -74.292343 -0.056522876 -103.49785
9203125000 -1.0544001 136.67705 -9.1350126 -73.658119 -9.1187944 -74.385719 -0.046934597 -103.49622
9203187500 -1.0527709 136.6653 -9.14083 -73.627449 -9.1219749 -74.418526 -0.053416427 -103.46614
9203250000 -1.0564575 136.63332 -9.1396933 -73.628342 -9.1227007 -74.332916 -0.04088759 -103.4687
9203312500 -1.0617132 136.64149 -9.1292887 -73.630058 -9.1213789 -74.376038 -0.040761724 -103.46431
9203375000 -1.0544573 136.59557 -9.141613 -73.656097 -9.1163139 -74.37397 -0.03569629 -103.4174
9203437500 -1.0587831 136.61514 -9.1402626 -73.670746 -9.123539 -74.317406 -0.05166968 -103.45822
9203500000 -1.0485046 136.58646 -9.1359339 -73.653328 -9.1215954 -74.339378 -0.039418891 -103.40931
9203562500 -1.0610937 136.58046 -9.1441698 -73.646996 -9.1321068 -74.362534 -0.059633274 -103.41749
9203625000 -1.0611064 136.58237 -9.1470842 -73.703087 -9.1245041 -74.306091 -0.046931688 -103.46146
9203687500 -1.059721 136.49478 -9.138135 -73.65596 -9.1300611 -74.305962 -0.057359289 -103.34698
9203750000 -1.0601629 136.49165 -9.1386232 -73.605179 -9.1156998 -74.301407 -0.029289873 -103.28334
9203812500 -1.0599947 136.54373 -9.1218767 -73.655106 -9.1277151 -74.339478 -0.05397084 -103.29276
9203875000 -1.0554901 136.5058 -9.1260252 -73.568207 -9.1199083 -74.293518 -0.057405017 -103.30618
9203937500 -1.0593227 136.48953 -9.1277342 -73.67865 -9.1224356 -74.293678 -0.04781143 -103.30762
9204000000 -1.0547504 136.51097 -9.1188478 -73.600105 -9.1233835 -74.34623 -0.04893712 -103.26598
9204062500 -1.0520022 136.47575 -9.1211109 -73.594902 -9.1081533 -74.39476 -0.050585896 -103.26749
9204125000 -1.0572567 136.45583 -9.1202459 -73.561203 -9.1191454 -74.321121 -0.042193554 -103.21471
9204187500 -1.0565603 136.40625 -9.1282768 -73.575745 -9.1274586 -74.328377 -0.061802648 -103.16059
9204250000 -1.0585572 136.44972 -9.1151352 -73.662788 -9.1164227 -74.312485 -0.045315474 -103.21545
9204312500 -1.0543768 136.44106 -9.1220379 -73.536354 -9.1095104 -74.3442 -0.054658614 -103.11223
9204375000 -1.0453118 136.38397 -9.1177006 -73.617104 -9.118227 -74.286667 -0.049662393 -103.19221
9204437500 -1.0635221 136.41089 -9.1247129 -73.682053 -9.107111 -74.272484 -0.042642169 -103.11667
9204500000 -1.0581001 136.3756 -9.1106272 -73.650978 -9.1215296 -74.304024 -0.051011972 -103.12576
9204562500 -1.0547583 136.33145 -9.1246233 -73.739693 -9.116046 -74.298706 -0.041728429 -103.11687
9204625000 -1.0497177 136.37469 -9.1227055 -73.579506 -9.1045609 -74.344376 -0.048215479 -103.03985
9204687500 -1.0555456 136.32437 -9.1271152 -73.579803 -9.1064873 -74.329422 -0.048409682 -103.07233
9204750000 -1.0587826 136.36725 -9.1148119 -73.527222 -9.1119175 -74.338669 -0.054834604 -103.06536
9204812500 -1.0456246 136.29515 -9.1085663 -73.573692 -9.1039066 -74.264862 -0.046497308 -103.01763
9204875000 -1.0537293 136.30273 -9.1099501 -73.615784 -9.1315632 -74.275948 -0.058808919 -103.05202
9204937500 -1.0529075 136.2879 -9.1091471 -73.652328 -9.1028328 -74.289413 -0.038915638 -102.9976
9205000000 -1.0538275 136.23241 -9.1254501 -73.543671 -9.101675 -74.264137 -0.062065434 -102.98476
9205062500 -1.0524569 136.19991 -9.1193333 -73.669327 -9.100811 -74.333115 -0.057227854 -102.98164
9205125000 -1.0564584 136.24466 -9.1195669 -73.544441 -9.1090984 -74.224876 -0.056598008 -102.90243
9205187500 -1.0582314 136.27702 -9.1173201 -73.49456 -9.1090403 -74.31855 -0.061910316 -102.92973
9205250000 -1.0511221 136.19724 -9.1206503 -73.625389 -9.1170158 -74.303688 -0.065516219 -102.96898
9205312500 -1.0528607 136.25935 -9.1043911 -73.54081 -9.1068144 -74.248398 -0.062794484 -102.89781
9205375000 -1.0579705 136.18649 -9.1148653 -73.52742 -9.1155615 -74.315018 -0.050750155 -102.85896
9205437500 -1.0525581 136.20213 -9.0988874 -73.514511 -9.0979404 -74.302315 -0.050085355 -102.90643
9205500000 -1.0622735 136.11484 -9.1066942 -73.567253 -9.0998487 -74.293259 -0.051047828 -102.81667
9205562500 -1.0604964 136.13417 -9.1001816 -73.642723 -9.1121111 -74.315659 -0.058611356 -102.84161
9205625000 -1.0605161 136.12718 -9.1136503 -73.563156 -9.098527 -74.285378 -0.060005289 -102.78891
9205687500 -1.0510237 136.2066 -9.1088715 -73.49456 -9.094738 -74.374344 -0.050286777 -102.80544
9205750000 -1.0533077 136.08615 -9.0965414 -73.514603 -9.1094933 -74.277061 -0.054684106 -102.75811
9205812500 -1.0608777 136.06688 -9.0999699 -73.581795 -9.1081266 -74.287041 -0.059274793 -102.74799
9205875000 -1.0545623 136.12543 -9.1154251 -73.454559 -9.100584 -74.237617 -0.055104069 -102.7708
9205937500 -1.0535196 136.04382 -9.1013851 -73.600937 -9.093853 -74.198074 -0.054651141 -102.66376
9206000000 -1.0569938 136.04604 -9.0982885 -73.536201 -9.0988102 -74.233658 -0.049972203 -102.64893
9206062500 -1.0523233 136.06328 -9.1043768 -73.599129 -9.1000805 -74.280975 -0.061863322 -102.75042
9206125000 -1.0583827 136.02602 -9.1053982 -73.562408 -9.1042604 -74.186798 -0.062683597 -102.60802
9206187500 -1.0555984 136.02382 -9.0885506 -73.516579 -9.0869722 -74.289207 -0.051262707 -102.65284
9206250000 -1.0600209 135.97696 -9.121459 -73.598404 -9.0926361 -74.210251 -0.049994484 -102.63367
9206312500 -1.0541909 135.94829 -9.0950012 -73.583656 -9.0857792 -74.397408 -0.045396503 -102.71767
9206375000 -1.0587941 135.95329 -9.101572 -73.508148 -9.0896101 -74.19175 -0.049674321 -102.60839
9206437500 -1.0522096 135.92012 -9.1058264 -73.586891 -9.0999279 -74.297752 -0.064782627 -102.60892
9206500000 -1.0617386 135.92834 -9.1066866 -73.549568 -9.0929527 -74.231033 -0.06651888 -102.62836
9206562500 -1.0609521 135.93042 -9.1040783 -73.642166 -9.0865507 -74.181175 -0.052617937 -102.57932
9206625000 -1.0571445 135.85837 -9.0905857 -73.565948 -9.1025229 -74.300468 -0.063539028 -102.54268
9206687500 -1.0615014 135.89339 -9.1002712 -73.538872 -9.0916405 -74.331306 -0.048019219 -102.6265
9206750000 -1.0601903 135.92154 -9.0909243 -73.545227 -9.0853224 -74.249352 -0.058563564 -102.52892
9206812500 -1.058897 135.88071 -9.1024046 -73.543175 -9.0956793 -74.283867 -0.050983939 -102.53664
9206875000 -1.0595206 135.87614 -9.1039305 -73.583382 -9.0922184 -74.196014 -0.05835887 -102.41038
9206937500 -1.0607067 135.8342 -9.1047792 -73.519844 -9.0929308 -74.229012 -0.062138706 -102.39039
9207000000 -1.0572152 135.81598 -9.0932693 -73.588478 -9.0894299 -74.258011 -0.058238164 -102.45374
9207062500 -1.0564382 135.81004 -9.0946703 -73.583412 -9.0893488 -74.194122 -0.05841276 -102.33026
9207125000 -1.0625103 135.80087 -9.0903244 -73.596985 -9.0907555 -74.263573 -0.054358039 -102.35347
9207187500 -1.0576533 135.75748 -9.0928183 -73.617729 -9.0876245 -74.243935 -0.055224057 -102.43715
9207250000 -1.0582268 135.80634 -9.0936527 -73.539322 -9.0918932 -74.222672 -0.049643375 -102.47383
9207312500 -1.0477099 135.75136 -9.085638 -73.596069 -9.0810356 -74.22509 -0.050843365 -102.36446
9207375000 -1.0588468 135.7216 -9.0931263 -73.556335 -9.0865316 -74.285347 -0.05992645 -102.31675
9207437500 -1.0558283 135.77499 -9.0964088 -73.48848 -9.0965261 -74.162895 -0.058689699 -102.29471
9207500000 -1.0622889 135.74754 -9.0970669 -73.518333 -9.0803194 -74.166649 -0.071290419 -102.2943
9207562500 -1.0545104 135.74918 -9.0946074 -73.533424 -9.0806646 -74.140892 -0.061760861 -102.28821
9207625000 -1.0601311 135.6579 -9.0868397 -73.515244 -9.0863171 -74.215729 -0.057932138 -102.21468
9207687500 -1.0596324 135.7097 -9.0902262 -73.516937 -9.086175 -74.199104 -0.056880236 -102.24751
9207750000 -1.060761 135.69919 -9.0810356 -73.489983 -9.0735884 -74.238632 -0.047851175 -102.2464
9207812500 -1.0612974 135.66153 -9.0947456 -73.56411 -9.080267 -74.222748 -0.063627675 -102.23569
9207875000 -1.0595599 135.67337 -9.0935602 -73.451447 -9.0788221 -74.257782 -0.058543228 -102.18677
9207937500 -1.0612458 135.61543 -9.0904884 -73.480415 -9.0842171 -74.260956 -0.066611767 -102.22234
9208000000 -1.0651178 135.57202 -9.0872335 -73.602974 -9.0913916 -74.16748 -0.067245394 -102.11835
9208062500 -1.0681552 135.58511 -9.0843639 -73.541451 -9.0815716 -74.187881 -0.063877918 -102.15105
9208125000 -1.0629258 135.57834 -9.0933819 -73.563393 -9.085598 -74.253311 -0.064184919 -102.13068
9208187500 -1.0573493 135.61546 -9.0859184 -73.512604 -9.0776014 -74.205597 -0.060738172 -102.12327
9208250000 -1.0677373 135.56749 -9.0892143 -73.41893 -9.075633 -74.224525 -0.062562689 -102.1095
9208312500 -1.0562856 135.56595 -9.0941191 -73.466637 -9.0648069 -74.178947 -0.06030862 -102.07899
9208375000 -1.0599092 135.53682 -9.0834084 -73.507637 -9.078331 -74.149902 -0.068256542 -102.01323
9208437500 -1.0671977 135.44075 -9.0935888 -73.540276 -9.074564 -74.11628 -0.073195256 -102.0168
9208500000 -1.0678368 135.48122 -9.0998049 -73.448112 -9.079546 -74.196198 -0.059763346 -102.00809
9208562500 -1.0650414 135.53491 -9.0819883 -73.507072 -9.0723438 -74.158157 -0.062857457 -101.99866
9208625000 -1.0521455 135.42215 -9.0624304 -73.504677 -9.0652637 -74.072273 -0.068907969 -101.97639
9208687500 -1.054949 135.43726 -9.0727596 -73.580421 -9.0718555 -74.208054 -0.059133235 -101.98351
9208750000 -1.0584744 135.43849 -9.0814075 -73.522896 -9.0718107 -74.145599 -0.063474104 -101.97271
9208812500 -1.0631167 135.49113 -9.0790634 -73.549568 -9.0698271 -74.21244 -0.064546816 -101.95164
9208875000 -1.0603752 135.4292 -9.0770102 -73.491096 -9.0814848 -74.182205 -0.06528376 -101.89964
9208937500 -1.0656974 135.42802 -9.0787039 -73.518059 -9.0692348 -74.180862 -0.066754498 -101.88663
9209000000 -1.0539973 135.38477 -9.075983 -73.502991 -9.0669031 -74.149673 -0.070158511 -101.92345
9209062500 -1.0631925 135.37474 -9.0710764 -73.44738 -9.0675077 -74.164543 -0.061787248 -101.9022
9209125000 -1.0729094 135.4158 -9.083725 -73.539322 -9.0627966 -74.177605 -0.059532937 -101.82138
9209187500 -1.0591332 135.35243 -9.0640087 -73.493721 -9.0746155 -74.122513 -0.063499652 -101.82533
9209250000 -1.0566528 135.32048 -9.0699072 -73.498375 -9.0621519 -74.242691 -0.068862155 -101.76306
9209312500 -1.0620348 135.25261 -9.077816 -73.497955 -9.0640306 -74.217079 -0.073882632 -101.82317
9209375000 -1.0541034 135.32825 -9.0730286 -73.480423 -9.0748234 -74.129135 -0.08010257 -101.79324
9209437500 -1.0686699 135.28279 -9.0814199 -73.431297 -9.0572071 -74.24247 -0.063891321 -101.76011
9209500000 -1.0602149 135.25977 -9.0675364 -73.521713 -9.0623522 -74.216438 -0.060285073 -101.7383
9209562500 -1.0692147 135.26579 -9.0764208 -73.463501 -9.0644321 -74.142685 -0.071532555 -101.68826
9209625000 -1.0579911 135.24489 -9.0676212 -73.463852 -9.0541382 -74.180801 -0.06223733 -101.72663
9209687500 -1.064912 135.18936 -9.0679169 -73.495667 -9.0642843 -74.094955 -0.071717009 -101.66343
9209750000 -1.0642562 135.21095 -9.0553236 -73.58989 -9.0604305 -74.163353 -0.053584121 -101.70023
9209812500 -1.0642986 135.16563 -9.0693636 -73.472137 -9.0583801 -74.165138 -0.067876853 -101.65011
9209875000 -1.0623415 135.22159 -9.0575428 -73.457199 -9.0607224 -74.137772 -0.071642205 -101.65713
9209937500 -1.0634958 135.27901 -9.0780077 -73.460709 -9.0609102 -74.150612 -0.063632026 -101.69141
9210000000 -1.0537933 135.1846 -9.0585833 -73.473991 -9.060956 -74.167656 -0.084046252 -101.60862
9210062500 -1.0652431 135.19724 -9.074645 -73.464867 -9.0442514 -74.148308 -0.06527371 -101.60568
9210125000 -1.0575287 135.14276 -9.0690928 -73.472931 -9.0468216 -74.079369 -0.068652213 -101.54652
9210187500 -1.0681437 135.19189 -9.0663319 -73.443901 -9.0428314 -74.142456 -0.063319787 -101.56825
9210250000 -1.0584824 135.19107 -9.0617495 -73.496933 -9.0475168 -74.097511 -0.071335025 -101.52586
9210312500 -1.0615225 135.1055 -9.0593023 -73.436134 -9.0662022 -74.198189 -0.073106863 -101.56047
9210375000 -1.0608826 135.15765 -9.0743093 -73.464951 -9.0594702 -74.077835 -0.074186884 -101.42811
9210437500 -1.0538317 135.06209 -9.0680389 -73.45726 -9.0606604 -74.172974 -0.068804115 -101.52937
9210500000 -1.0560843 135.07034 -9.0597477 -73.423325 -9.0550394 -74.138687 -0.065872855 -101.49366
9210562500 -1.0643007 135.06294 -9.0588102 -73.424393 -9.0567741 -74.171036 -0.078660652 -101.45967
9210625000 -1.0614766 135.05737 -9.0595055 -73.408989 -9.056324 -74.045181 -0.070217669 -101.43644
9210687500 -1.0547832 135.05353 -9.0537853 -73.450592 -9.0566454 -74.179192 -0.076343149 -101.438
9210750000 -1.071299 135.03258 -9.0644598 -73.488869 -9.0448599 -74.07634 -0.065571792 -101.3635
9210812500 -1.0671865 134.99539 -9.0633125 -73.487785 -9.0490036 -74.10833 -0.077311143 -101.38171
9210875000 -1.0612286 135.01668 -9.0610542 -73.403069 -9.0436697 -74.079872 -0.075044014 -101.40643
9210937500 -1.0617254 135.03578 -9.0580311 -73.444916 -9.0588493 -74.073059 -0.082097687 -101.39284
9211000000 -1.0651079 134.99979 -9.0598059 -73.382515 -9.0498123 -74.119347 -0.074706957 -101.34031
9211062500 -1.0607724 134.98482 -9.0608969 -73.365311 -9.0492725 -74.045891 -0.076439589 -101.29227
9211125000 -1.0612797 134.93462 -9.0535069 -73.468437 -9.0410833 -74.1493 -0.070642158 -101.34115
9211187500 -1.0717896 134.94804 -9.0601463 -73.402542 -9.044961 -74.099838 -0.078166574 -101.28513
9211250000 -1.0711099 134.95349 -9.0588274 -73.417725 -9.0504475 -74.080627 -0.062530696 -101.27643
9211312500 -1.0589018 134.92334 -9.0503702 -73.446938 -9.0430632 -74.079903 -0.079039246 -101.29702
9211375000 -1.064541 134.84583 -9.0567694 -73.451126 -9.0378361 -74.148819 -0.071976066 -101.25422
9211437500 -1.060783 134.87334 -9.0453434 -73.433388 -9.0427351 -74.145927 -0.070976064 -101.25316
9211500000 -1.0684849 134.84213 -9.0556803 -73.449196 -9.0440826 -74.143234 -0.068763345 -101.26291
9211562500 -1.0710142 134.89211 -9.0667887 -73.429871 -9.0318327 -74.172768 -0.077743813 -101.24277
9211625000 -1.0619509 134.81454 -9.0482111 -73.429543 -9.0411654 -74.149376 -0.072231188 -101.22267
9211687500 -1.0649859 134.88673 -9.0522575 -73.412216 -9.046443 -74.102722 -0.079622075 -101.13617
9211750000 -1.0684525 134.83054 -9.0519257 -73.39679 -9.0462275 -74.063637 -0.070584394 -101.08527
9211812500 -1.0689038 134.80888 -9.0644121 -73.403297 -9.0412912 -74.06794 -0.086927444 -101.14753
9211875000 -1.0695169 134.76468 -9.0507689 -73.397812 -9.0326519 -74.01535 -0.074669711 -101.0318
9211937500 -1.0579113 134.77556 -9.0462456 -73.417732 -9.0442696 -74.074127 -0.082321554 -101.07019
9212000000 -1.0634433 134.68179 -9.0433855 -73.429375 -9.0336752 -74.07933 -0.080182254 -101.06961
9212062500 -1.0622302 134.68834 -9.0380955 -73.413788 -9.0336552 -74.070503 -0.074995071 -101.11584
9212125000 -1.0610707 134.66556 -9.0421267 -73.443649 -9.0552387 -74.125771 -0.081365809 -101.02503
9212187500 -1.0564622 134.76553 -9.0393763 -73.307274 -9.0357552 -74.102104 -0.090503193 -101.01158
