!Agilent Technologies,N5242A,MY51221714,A.09.90.19
!Agilent N5242A: A.09.90.19
!Date: Tuesday, March 26, 2024 16:50:09
!Correction: S11(Full 2 Port(1,2)) 
!S21(Full 2 Port(1,2)) 
!S12(Full 2 Port(1,2)) 
!S22(Full 2 Port(1,2)) 
!S2P File: Measurements: S11, S21, S12, S22:
# Hz S  dB   R 50
9200000000 -1.0105463 137.84941 -9.2298937 -73.066071 -9.2102566 -73.807457 -0.0033111488 -104.14444
9200062500 -1.0078878 137.86644 -9.224225 -73.072136 -9.2234249 -73.796082 -0.006701489 -104.06506
9200125000 -1.0069544 137.86462 -9.2193546 -72.984962 -9.2132578 -73.739639 -0.012195768 -104.03558
9200187500 -1.0105705 137.81575 -9.2198277 -72.975586 -9.215517 -73.804451 0.0015628281 -104.00603
9200250000 -1.0044945 137.79102 -9.2161217 -73.043861 -9.2126312 -73.713631 -0.0024362686 -104.03674
9200312500 -1.0078002 137.80275 -9.2208929 -73.020592 -9.2230225 -73.781395 -0.011883444 -103.99648
9200375000 -1.0097423 137.78157 -9.2120037 -73.043663 -9.2151232 -73.861336 0.00041906192 -104.01763
9200437500 -1.0072894 137.78279 -9.2170553 -73.067703 -9.2069664 -73.780174 0.0024154785 -104.02466
9200500000 -1.0092871 137.74016 -9.2259998 -73.057068 -9.2057848 -73.734306 -0.0091970395 -103.93906
9200562500 -1.0009099 137.76317 -9.2133026 -73.016106 -9.2125044 -73.823784 -0.00032454586 -103.96562
9200625000 -1.0051399 137.72894 -9.2122183 -73.022209 -9.2019758 -73.741524 -0.0033980608 -103.92038
9200687500 -1.0037252 137.70996 -9.2219839 -72.999428 -9.2153568 -73.741913 -0.0065617845 -103.87157
9200750000 -1.0065856 137.68108 -9.2144079 -73.039101 -9.2077751 -73.731712 -0.0031144379 -103.89236
9200812500 -1.0179842 137.6955 -9.2183905 -73.029404 -9.2126532 -73.793404 -0.023397679 -103.91476
9200875000 -1.0010104 137.79195 -9.2145281 -72.97197 -9.2124138 -73.718224 -0.020891447 -103.87271
9200937500 -1.0091681 137.68594 -9.2230635 -73.011116 -9.2092628 -73.734421 -0.0017668165 -103.83135
9201000000 -1.0056406 137.64151 -9.2153578 -73.087189 -9.2069368 -73.797501 -0.008244724 -103.89003
9201062500 -1.0099242 137.65109 -9.2109585 -73.00518 -9.2066689 -73.759056 -0.0094153518 -103.79209
9201125000 -1.0094632 137.65558 -9.2235641 -72.918694 -9.2138252 -73.647545 -0.014128457 -103.73827
9201187500 -1.0104604 137.53368 -9.2054176 -73.00798 -9.2037735 -73.704689 -0.012192428 -103.67869
9201250000 -1.0099099 137.61887 -9.2112579 -72.956932 -9.21877 -73.748604 -0.016995613 -103.74834
9201312500 -1.0221434 137.59302 -9.2220402 -72.936905 -9.2071304 -73.76516 -0.0091465861 -103.73328
9201375000 -1.0163743 137.5596 -9.2207403 -73.003761 -9.2109594 -73.647591 -0.018940356 -103.662
9201437500 -1.0101006 137.59071 -9.2259302 -72.905045 -9.2051268 -73.733864 -0.014845056 -103.77452
9201500000 -1.0143582 137.57288 -9.2262144 -73.006119 -9.2064562 -73.714195 -0.011913133 -103.73194
9201562500 -1.0151172 137.51974 -9.2231722 -72.999245 -9.211132 -73.766159 -0.020641351 -103.70085
9201625000 -1.0075387 137.52092 -9.206109 -72.966675 -9.1934757 -73.662659 -0.014177809 -103.59793
9201687500 -1.0158526 137.52007 -9.2089996 -72.982063 -9.2065792 -73.676414 -0.015303046 -103.52484
9201750000 -1.0076233 137.4828 -9.2113171 -73.011177 -9.2020206 -73.752937 -0.0052904477 -103.61431
9201812500 -1.0089079 137.49489 -9.2146912 -72.971535 -9.1997871 -73.74073 -0.017123939 -103.66438
9201875000 -1.0083791 137.47896 -9.2034445 -72.980682 -9.2006664 -73.7155 -0.0084942738 -103.52209
9201937500 -1.0220212 137.4398 -9.2196035 -72.928482 -9.2046099 -73.799484 -0.012484772 -103.5936
9202000000 -1.0123023 137.46069 -9.202919 -72.948936 -9.1937761 -73.725769 -0.0057207518 -103.51616
9202062500 -1.0174876 137.43631 -9.1987629 -72.960098 -9.1970205 -73.704697 -0.0012186521 -103.49072
9202125000 -1.0150661 137.46341 -9.2212152 -72.956711 -9.2024651 -73.684502 -0.01619067 -103.53056
9202187500 -1.009966 137.425 -9.2043638 -72.96489 -9.2045908 -73.661804 -0.013645444 -103.44468
9202250000 -1.0111496 137.38806 -9.2104883 -72.863251 -9.1891012 -73.615227 -0.011599855 -103.42537
9202312500 -1.0063416 137.40005 -9.2020016 -72.946953 -9.193574 -73.707832 -0.011217015 -103.47713
9202375000 -1.0128751 137.33118 -9.2176561 -72.969749 -9.1978817 -73.702751 -0.019633027 -103.40139
9202437500 -1.0117151 137.38731 -9.2029028 -72.896919 -9.1944208 -73.596672 -0.010445905 -103.41022
9202500000 -1.0161703 137.37047 -9.2051468 -72.99781 -9.2026968 -73.690575 -0.014602133 -103.45358
9202562500 -1.008968 137.32298 -9.2024546 -72.861702 -9.2043037 -73.661865 -0.025363652 -103.40746
9202625000 -1.0163305 137.39977 -9.2075796 -72.979897 -9.1973476 -73.690933 -0.018461008 -103.36045
9202687500 -1.013014 137.32582 -9.2076387 -72.940826 -9.1851406 -73.663589 -0.0046023657 -103.33562
9202750000 -1.0070916 137.25531 -9.1983557 -72.967445 -9.1835461 -73.728996 -0.012245364 -103.34176
9202812500 -1.0135291 137.22597 -9.203414 -72.943672 -9.1782694 -73.735298 -0.0075698327 -103.30645
9202875000 -1.0074575 137.25369 -9.1908703 -72.916092 -9.1883421 -73.667587 -0.012714314 -103.25497
9202937500 -1.0089387 137.24237 -9.1952047 -72.967155 -9.1881323 -73.578461 -0.01368646 -103.25668
9203000000 -1.0130131 137.27086 -9.1970682 -72.904259 -9.191433 -73.726852 -0.009825632 -103.24057
9203062500 -1.009405 137.20531 -9.1934261 -72.911812 -9.1813288 -73.648399 -0.018028842 -103.26229
9203125000 -1.0095434 137.21034 -9.2038097 -72.962975 -9.1770449 -73.748924 -0.0098709743 -103.2734
9203187500 -1.0082387 137.20067 -9.1995897 -72.926132 -9.1812515 -73.660439 -0.014306378 -103.20156
9203250000 -1.0102429 137.16754 -9.1950626 -72.894821 -9.1924057 -73.673843 -0.01982508 -103.19327
9203312500 -1.0213975 137.20212 -9.2071495 -72.953239 -9.1822386 -73.640419 -0.01052368 -103.13073
9203375000 -1.0123916 137.14224 -9.1945038 -72.945587 -9.1845694 -73.674911 -0.011556777 -103.13209
9203437500 -1.0187345 137.17413 -9.2112846 -73.006241 -9.1898031 -73.635567 -0.01162905 -103.14693
9203500000 -1.0114844 137.13818 -9.1892958 -72.895554 -9.179122 -73.650848 -0.0087593701 -103.10938
9203562500 -1.0229594 137.1371 -9.2031336 -72.923912 -9.1956396 -73.697311 -0.027340269 -103.13799
9203625000 -1.0164382 137.13451 -9.1959257 -72.923279 -9.1858473 -73.616386 -0.01909468 -103.13299
9203687500 -1.0173309 137.09694 -9.1981964 -72.91851 -9.1939192 -73.614578 -0.023808466 -103.08687
9203750000 -1.0109742 137.0661 -9.1939869 -72.951485 -9.1736126 -73.637215 -0.007309258 -103.05226
9203812500 -1.0181409 137.09792 -9.1829453 -72.960365 -9.1854267 -73.670609 -0.017099081 -103.01415
9203875000 -1.0112652 137.05516 -9.1959772 -72.926949 -9.1897154 -73.651901 -0.030249618 -103.05328
9203937500 -1.0179334 137.021 -9.1795387 -73.012398 -9.1896248 -73.561333 -0.021478105 -103.01025
9204000000 -1.0165285 137.01482 -9.1820154 -72.893745 -9.1771603 -73.590683 -0.011340072 -102.95855
9204062500 -1.0039541 137.03299 -9.1693249 -72.903946 -9.1664534 -73.675545 -0.015851377 -102.95657
9204125000 -1.013768 137.02202 -9.1790743 -72.94445 -9.1728773 -73.586784 -0.010456327 -102.9311
9204187500 -1.0195268 136.95889 -9.1952705 -72.910255 -9.1861219 -73.639961 -0.023980025 -102.92761
9204250000 -1.009191 137.0025 -9.1815834 -72.875298 -9.1885271 -73.593697 -0.020992074 -102.91822
9204312500 -1.0168865 136.94164 -9.1961985 -72.85466 -9.1723537 -73.637329 -0.018855035 -102.81236
9204375000 -1.0034227 136.9715 -9.1881084 -72.865875 -9.1859894 -73.60556 -0.019974871 -102.92595
9204437500 -1.0195121 136.99274 -9.1858168 -72.914749 -9.1763411 -73.617393 -0.018686 -102.87419
9204500000 -1.0219682 136.93993 -9.1872387 -72.846146 -9.1928434 -73.629074 -0.027622243 -102.86265
9204562500 -1.0171342 136.87971 -9.1930866 -72.968918 -9.1794643 -73.657837 -0.017054811 -102.90718
9204625000 -1.0034177 136.90155 -9.1822605 -72.852905 -9.1750669 -73.688896 -0.016955364 -102.80277
9204687500 -1.0193526 136.89319 -9.1880817 -72.841965 -9.1685629 -73.608772 -0.012572954 -102.73848
9204750000 -1.0217948 136.88565 -9.1766777 -72.869392 -9.1854191 -73.630302 -0.029444922 -102.83039
9204812500 -1.0114927 136.83621 -9.1909981 -72.829475 -9.1707029 -73.558067 -0.016360404 -102.76457
9204875000 -1.0149615 136.87572 -9.177866 -72.900398 -9.1960125 -73.622345 -0.025206385 -102.77984
9204937500 -1.0143596 136.82487 -9.1770172 -72.886841 -9.1688719 -73.634979 -0.012729177 -102.76086
9205000000 -1.0003082 136.76324 -9.1803789 -72.838577 -9.1806002 -73.585831 -0.037239928 -102.71746
9205062500 -1.0095971 136.8 -9.1786089 -72.903244 -9.162056 -73.669853 -0.025827007 -102.71065
9205125000 -1.0129043 136.82588 -9.1739626 -72.804657 -9.1667166 -73.553246 -0.023870839 -102.5802
9205187500 -1.0206327 136.81635 -9.1811438 -72.85865 -9.1638317 -73.587204 -0.019093452 -102.64152
9205250000 -1.0106004 136.74939 -9.1787729 -72.86763 -9.1743069 -73.584282 -0.031918991 -102.65938
9205312500 -1.0084375 136.77019 -9.1703882 -72.834465 -9.1730204 -73.621758 -0.026980827 -102.67943
9205375000 -1.0138961 136.74167 -9.1680012 -72.772629 -9.1630278 -73.599953 -0.012493428 -102.56727
9205437500 -1.0099021 136.71532 -9.1699505 -72.81778 -9.1599331 -73.565285 -0.013743374 -102.57841
9205500000 -1.0201545 136.69327 -9.1727037 -72.814453 -9.1697054 -73.692726 -0.020303898 -102.53248
9205562500 -1.0176333 136.70158 -9.1715145 -72.829872 -9.1624918 -73.618225 -0.023221167 -102.56829
9205625000 -1.0231543 136.70062 -9.1750231 -72.804596 -9.1692801 -73.633873 -0.026181357 -102.52019
9205687500 -1.0117141 136.71432 -9.1680279 -72.828049 -9.1574326 -73.648285 -0.022303389 -102.50304
9205750000 -1.0154867 136.63489 -9.1728706 -72.817917 -9.1656551 -73.56205 -0.011935499 -102.47546
9205812500 -1.02009 136.59729 -9.1694489 -72.868484 -9.1706486 -73.567108 -0.024001006 -102.44919
9205875000 -1.008862 136.67 -9.1698389 -72.819969 -9.1715975 -73.596016 -0.028954877 -102.54598
9205937500 -1.007566 136.5975 -9.168334 -72.780167 -9.1518936 -73.595711 -0.025003847 -102.42876
9206000000 -1.0157386 136.60437 -9.1557398 -72.771637 -9.1588898 -73.555122 -0.020541299 -102.37582
9206062500 -1.0106738 136.62459 -9.1703405 -72.853432 -9.1608295 -73.570297 -0.024675127 -102.44206
9206125000 -1.0084774 136.57388 -9.1577396 -72.849075 -9.1624079 -73.540894 -0.027541278 -102.36282
9206187500 -1.0167782 136.58649 -9.164052 -72.830872 -9.1486731 -73.641769 -0.012587241 -102.39574
9206250000 -1.0163743 136.50145 -9.1716299 -72.823807 -9.1629076 -73.530113 -0.021492751 -102.34143
9206312500 -1.0128024 136.49062 -9.1580391 -72.849434 -9.1548443 -73.718796 -0.015738741 -102.4042
9206375000 -1.0135067 136.53081 -9.1596251 -72.835228 -9.156743 -73.533661 -0.018483773 -102.33807
9206437500 -1.0107332 136.4644 -9.1641493 -72.825455 -9.1534958 -73.621338 -0.022196542 -102.41526
9206500000 -1.0215075 136.49414 -9.17624 -72.891098 -9.1549358 -73.561317 -0.034923278 -102.35841
9206562500 -1.0165513 136.48106 -9.1711369 -72.924873 -9.1576157 -73.477287 -0.022766631 -102.33109
9206625000 -1.0176166 136.3727 -9.1570063 -72.879211 -9.1634493 -73.648254 -0.026222847 -102.32251
9206687500 -1.0235105 136.47325 -9.1646099 -72.869789 -9.1506653 -73.606308 -0.016631823 -102.34016
9206750000 -1.0149823 136.44528 -9.1549759 -72.844452 -9.1559286 -73.499344 -0.024371257 -102.24786
9206812500 -1.0091598 136.45834 -9.1640778 -72.871704 -9.1551151 -73.571831 -0.021762988 -102.2579
9206875000 -1.0175316 136.394 -9.1586609 -72.903397 -9.1544647 -73.504745 -0.022459725 -102.14874
9206937500 -1.0130875 136.40744 -9.1611671 -72.784927 -9.1565208 -73.582054 -0.025127018 -102.148
9207000000 -1.0114198 136.39894 -9.1683178 -72.828514 -9.1580868 -73.587753 -0.038454939 -102.16758
9207062500 -1.0111564 136.39774 -9.1533957 -72.745369 -9.1422443 -73.513954 -0.017129345 -102.03895
9207125000 -1.0248942 136.36798 -9.1575346 -72.83123 -9.1572094 -73.588188 -0.032571286 -102.11374
9207187500 -1.0206064 136.32719 -9.1590824 -72.856209 -9.1501455 -73.564873 -0.024758976 -102.1403
9207250000 -1.0126829 136.30223 -9.1597509 -72.851807 -9.1510763 -73.556282 -0.028153354 -102.13799
9207312500 -1.0073156 136.31126 -9.1546049 -72.896729 -9.1487942 -73.496422 -0.017180277 -102.06954
9207375000 -1.0206083 136.29373 -9.162612 -72.795753 -9.1412516 -73.542595 -0.026337111 -102.01603
9207437500 -1.0152299 136.33406 -9.1575775 -72.797455 -9.1644354 -73.544952 -0.031191867 -102.05361
9207500000 -1.0244097 136.30592 -9.1695776 -72.795021 -9.1379871 -73.546005 -0.03873881 -102.05137
9207562500 -1.0128661 136.30055 -9.153944 -72.803139 -9.1431646 -73.455833 -0.03026299 -102.02921
9207625000 -1.0139219 136.19804 -9.1435776 -72.772354 -9.1534996 -73.504959 -0.024947155 -101.88319
9207687500 -1.0180134 136.24947 -9.1487112 -72.832085 -9.144702 -73.554291 -0.028165264 -102.02787
9207750000 -1.0246096 136.23396 -9.1538353 -72.819969 -9.1470346 -73.532318 -0.027044931 -101.98602
9207812500 -1.0144171 136.21513 -9.1518993 -72.763519 -9.1410532 -73.468857 -0.032194979 -101.93744
9207875000 -1.013584 136.21606 -9.1500483 -72.723305 -9.1380339 -73.511978 -0.023715524 -101.93207
9207937500 -1.0207576 136.15247 -9.1639709 -72.83606 -9.1535635 -73.505295 -0.032883622 -101.93327
9208000000 -1.022422 136.16212 -9.1427221 -72.828568 -9.1451206 -73.478668 -0.028113548 -101.9096
9208062500 -1.0213696 136.17334 -9.1413794 -72.711617 -9.1421738 -73.508492 -0.029890945 -101.87153
9208125000 -1.0217836 136.13651 -9.1592894 -72.812805 -9.1471367 -73.531387 -0.038724624 -101.88625
9208187500 -1.0087438 136.13942 -9.1417723 -72.827881 -9.1413546 -73.473503 -0.030423911 -101.83888
9208250000 -1.0233159 136.14223 -9.1524324 -72.677498 -9.1375628 -73.494141 -0.026851475 -101.80801
9208312500 -1.0207319 136.1282 -9.1532393 -72.753494 -9.1283197 -73.443672 -0.026382748 -101.82257
9208375000 -1.0164098 136.10155 -9.1360178 -72.754532 -9.1429358 -73.469727 -0.03134286 -101.74897
9208437500 -1.0211529 136.04482 -9.1558676 -72.868233 -9.1478109 -73.512215 -0.040959824 -101.80565
9208500000 -1.0202227 136.00781 -9.1415377 -72.790871 -9.1403809 -73.543839 -0.029018074 -101.71796
9208562500 -1.0214406 136.12062 -9.1420164 -72.751076 -9.1398926 -73.476563 -0.034543429 -101.76069
9208625000 -1.0124916 136.03136 -9.1349401 -72.773102 -9.1409893 -73.455658 -0.04492883 -101.70626
9208687500 -1.0056752 136.00726 -9.1303053 -72.839203 -9.1422291 -73.491539 -0.034396395 -101.7141
9208750000 -1.0173947 136.05635 -9.1447248 -72.691826 -9.144371 -73.457939 -0.034419522 -101.66829
9208812500 -1.0238118 136.09761 -9.1463795 -72.726677 -9.1377935 -73.44989 -0.026942465 -101.63779
9208875000 -1.018824 135.95844 -9.1346512 -72.841698 -9.1370468 -73.470207 -0.031173699 -101.64796
9208937500 -1.0176396 136.02809 -9.1428442 -72.751862 -9.1341143 -73.526802 -0.03443183 -101.66356
9209000000 -1.0105957 135.95543 -9.1498623 -72.729927 -9.1298952 -73.505196 -0.040592797 -101.69011
9209062500 -1.0211008 135.96936 -9.1390343 -72.729736 -9.1405077 -73.481163 -0.035224997 -101.57899
9209125000 -1.0213964 135.95641 -9.1430254 -72.737831 -9.1273413 -73.450203 -0.025197154 -101.5462
9209187500 -1.02104 135.96185 -9.1356936 -72.733788 -9.131814 -73.446655 -0.034536306 -101.58331
9209250000 -1.0090671 135.92165 -9.1241369 -72.690498 -9.1339769 -73.530075 -0.034907952 -101.50098
9209312500 -1.0201312 135.83749 -9.138813 -72.769012 -9.1284418 -73.432945 -0.041240424 -101.54147
9209375000 -1.0102334 135.88814 -9.1389627 -72.765541 -9.1319818 -73.392311 -0.037717015 -101.51109
9209437500 -1.0215294 135.83646 -9.1384277 -72.732071 -9.1292877 -73.549294 -0.040556706 -101.48357
9209500000 -1.0131408 135.86417 -9.1319408 -72.82547 -9.1277666 -73.477608 -0.033724029 -101.41998
9209562500 -1.0241421 135.83469 -9.1373777 -72.695992 -9.1260338 -73.477028 -0.039634142 -101.44266
9209625000 -1.0215852 135.77953 -9.1291113 -72.831024 -9.1275444 -73.468498 -0.028844256 -101.4317
9209687500 -1.0230508 135.7359 -9.1301641 -72.799835 -9.1271191 -73.385399 -0.035136517 -101.40329
9209750000 -1.0159556 135.76543 -9.1272097 -72.810944 -9.1287451 -73.457077 -0.031661253 -101.485
9209812500 -1.0174581 135.76855 -9.129941 -72.706406 -9.1344576 -73.433411 -0.035547636 -101.3529
9209875000 -1.0132691 135.7735 -9.1202993 -72.744888 -9.1236115 -73.466858 -0.037636414 -101.37048
9209937500 -1.0191133 135.85464 -9.1385908 -72.679802 -9.1165962 -73.470512 -0.037800763 -101.41516
9210000000 -1.0106308 135.74426 -9.1232338 -72.752281 -9.1151237 -73.390945 -0.043377914 -101.29578
9210062500 -1.0203468 135.78104 -9.1325388 -72.638885 -9.1169424 -73.463326 -0.032168217 -101.32197
9210125000 -1.0187203 135.68861 -9.1344671 -72.752243 -9.1194143 -73.39933 -0.035806537 -101.30968
9210187500 -1.0207058 135.75287 -9.1372757 -72.672913 -9.118391 -73.455528 -0.037378028 -101.31573
9210250000 -1.0197008 135.7363 -9.1300631 -72.764717 -9.1221924 -73.415001 -0.044828232 -101.30227
9210312500 -1.0259556 135.6991 -9.1303444 -72.689804 -9.1314669 -73.518417 -0.048132706 -101.32674
9210375000 -1.0163002 135.70831 -9.1297684 -72.720848 -9.1274395 -73.403702 -0.037503 -101.17661
9210437500 -1.0143584 135.65466 -9.1406012 -72.697487 -9.1193571 -73.482574 -0.033425219 -101.23127
9210500000 -1.0134454 135.63737 -9.1248589 -72.685425 -9.1063042 -73.445885 -0.029814426 -101.23768
9210562500 -1.0248207 135.63364 -9.1315584 -72.665298 -9.1151199 -73.481178 -0.038346227 -101.18596
9210625000 -1.0168219 135.62668 -9.132555 -72.690903 -9.1241903 -73.395195 -0.041671611 -101.24355
9210687500 -1.0240898 135.64076 -9.1266823 -72.725601 -9.117569 -73.477333 -0.044517566 -101.14333
9210750000 -1.0192308 135.59602 -9.1239386 -72.730705 -9.1113815 -73.405327 -0.042051889 -101.14585
9210812500 -1.0245309 135.5929 -9.1367292 -72.692123 -9.1110764 -73.353355 -0.037503 -101.08279
9210875000 -1.0174973 135.60286 -9.1335936 -72.675598 -9.1065035 -73.358337 -0.041310176 -101.12553
9210937500 -1.0118853 135.57704 -9.1158161 -72.72979 -9.1169014 -73.338669 -0.047179315 -101.05409
9211000000 -1.0177767 135.51823 -9.1256256 -72.734566 -9.1191502 -73.43692 -0.037744146 -101.11897
9211062500 -1.0202882 135.52339 -9.1160946 -72.67067 -9.1274481 -73.396049 -0.04944123 -101.04324
9211125000 -1.010685 135.51509 -9.1083679 -72.697411 -9.1108799 -73.371674 -0.036284421 -101.06174
9211187500 -1.0254771 135.51112 -9.1203699 -72.651016 -9.1065359 -73.404716 -0.041526876 -101.01274
9211250000 -1.022698 135.48889 -9.1125889 -72.711906 -9.1125298 -73.31958 -0.03915301 -100.97974
9211312500 -1.0161128 135.51306 -9.115943 -72.691788 -9.1121006 -73.35762 -0.041557405 -100.99712
9211375000 -1.0164814 135.39938 -9.1138535 -72.725609 -9.1115618 -73.456184 -0.041685835 -100.96866
9211437500 -1.0141958 135.41672 -9.0985975 -72.669243 -9.1087227 -73.393623 -0.047498174 -100.95936
9211500000 -1.0234838 135.41948 -9.1185732 -72.713318 -9.1201468 -73.449158 -0.042232778 -100.98198
9211562500 -1.0275844 135.46159 -9.1213045 -72.677429 -9.0961428 -73.390137 -0.041889485 -100.94177
9211625000 -1.0163566 135.34059 -9.1117249 -72.780075 -9.0982361 -73.483925 -0.040772576 -100.98469
9211687500 -1.0273052 135.4467 -9.1128836 -72.677383 -9.1053629 -73.373192 -0.044603936 -100.90427
9211750000 -1.0191092 135.36536 -9.1103296 -72.689201 -9.1041737 -73.418243 -0.036431491 -100.84487
9211812500 -1.0256525 135.34674 -9.1180496 -72.734047 -9.1159096 -73.354881 -0.056588192 -100.85011
9211875000 -1.0208498 135.31569 -9.1111917 -72.7425 -9.102725 -73.337334 -0.044521566 -100.78
9211937500 -1.0159932 135.37363 -9.1100578 -72.682175 -9.1053467 -73.417412 -0.047996666 -100.83151
9212000000 -1.0187541 135.28378 -9.1054888 -72.678345 -9.0946207 -73.409592 -0.040739495 -100.77083
9212062500 -1.0187734 135.26567 -9.1070614 -72.629982 -9.0968628 -73.284393 -0.048045032 -100.76118
9212125000 -1.017776 135.22659 -9.1083794 -72.714561 -9.1118374 -73.362419 -0.047359403 -100.76962
9212187500 -1.0126047 135.24559 -9.1033697 -72.638153 -9.1024675 -73.394028 -0.054170318 -100.73771
