!Agilent Technologies,N5242A,MY51221714,A.09.90.19
!Agilent N5242A: A.09.90.19
!Date: Tuesday, March 26, 2024 16:52:00
!Correction: S11(Full 2 Port(1,2)) 
!S21(Full 2 Port(1,2)) 
!S12(Full 2 Port(1,2)) 
!S22(Full 2 Port(1,2)) 
!S2P File: Measurements: S11, S21, S12, S22:
# Hz S  dB   R 50
9200000000 -1.0050786 138.03618 -9.2482271 -73.044235 -9.2305489 -73.768867 -0.012516314 -104.2108
9200062500 -1.0113564 138.03004 -9.2465639 -73.09005 -9.2336473 -73.791611 0.0012743904 -104.21532
9200125000 -1.0082774 138.0491 -9.2435961 -73.055756 -9.2318335 -73.711151 -0.012691793 -104.12709
9200187500 -1.0125241 138.03696 -9.2458324 -73.027618 -9.2303152 -73.763779 -0.0010679768 -104.12453
9200250000 -1.0042964 137.9875 -9.229784 -73.001923 -9.2316551 -73.712982 -0.0013654868 -104.10871
9200312500 -1.0126115 137.95467 -9.2425041 -73.128708 -9.2362509 -73.728996 -0.0075920275 -104.13758
9200375000 -1.011676 137.98854 -9.2450361 -73 -9.2277346 -73.828819 0.0012540939 -104.11263
9200437500 -1.0062355 138.02373 -9.2446699 -73.026031 -9.2284899 -73.758209 -0.0085200043 -104.09057
9200500000 -1.0075815 137.93976 -9.2451744 -73.036064 -9.2184343 -73.677254 -0.0091012903 -104.08001
9200562500 -1.0059214 137.91182 -9.2307434 -73.059845 -9.2374325 -73.756264 -0.0048220027 -104.05383
9200625000 -1.0141792 137.90712 -9.2366886 -73.052513 -9.2199659 -73.650208 -0.0026122255 -104.03327
9200687500 -1.0032921 137.92181 -9.2410402 -72.9543 -9.2270679 -73.703636 0.00046706267 -103.97315
9200750000 -1.0071013 137.84541 -9.238203 -73.060936 -9.2336798 -73.718529 -0.008524362 -103.99769
9200812500 -1.0273484 137.92233 -9.2465544 -72.913292 -9.2345343 -73.743279 -0.020852288 -103.99823
9200875000 -1.000182 137.92012 -9.2227163 -73.023254 -9.2258568 -73.653488 -0.0066706263 -103.97609
9200937500 -1.0112395 137.85913 -9.2444077 -73.082962 -9.221694 -73.70002 -0.0035270583 -103.90141
9201000000 -1.0075624 137.81316 -9.23915 -73.100067 -9.2241688 -73.728745 -0.0074058557 -103.93299
9201062500 -1.0022339 137.82796 -9.2273884 -73.007118 -9.2292118 -73.764442 -0.014105858 -103.93784
9201125000 -1.0079533 137.80487 -9.2360153 -73.006264 -9.2272358 -73.754829 -0.010296979 -103.89512
9201187500 -1.0099975 137.78409 -9.240221 -72.979805 -9.2168255 -73.688675 -0.012898229 -103.78043
9201250000 -1.0160544 137.82561 -9.2348948 -72.93264 -9.2363081 -73.674019 -0.013003738 -103.8221
9201312500 -1.015501 137.74333 -9.2348289 -72.934532 -9.2224855 -73.731239 -0.0030348217 -103.84808
9201375000 -1.0245645 137.72581 -9.2448721 -72.951141 -9.2204266 -73.662514 -0.011392007 -103.78557
9201437500 -1.0020421 137.72058 -9.224514 -72.974602 -9.2242899 -73.68232 -0.0068044998 -103.87729
9201500000 -1.0087199 137.76569 -9.2216911 -72.973854 -9.2225294 -73.698746 -0.0023223828 -103.81556
9201562500 -1.0159024 137.7021 -9.2334414 -72.963058 -9.2356262 -73.664124 -0.022886051 -103.78876
9201625000 -1.0035008 137.72343 -9.2215252 -72.940704 -9.2160339 -73.705894 -0.012770743 -103.71871
9201687500 -1.0122399 137.69986 -9.2281036 -72.927528 -9.2317839 -73.662697 -0.01703625 -103.66298
9201750000 -1.0083678 137.67537 -9.2303419 -73.085182 -9.2118587 -73.630966 0.0017594566 -103.71326
9201812500 -1.0038265 137.70766 -9.2212696 -72.942589 -9.2145891 -73.686157 -0.014305143 -103.74461
9201875000 -1.0083126 137.62581 -9.2230768 -72.980209 -9.2267113 -73.739601 -0.012974152 -103.64862
9201937500 -1.0201536 137.59509 -9.2333736 -72.968277 -9.2177248 -73.699257 -0.015416834 -103.6747
9202000000 -1.015762 137.62776 -9.2228441 -72.941078 -9.2106972 -73.72216 -0.01188421 -103.65391
9202062500 -1.0168716 137.64011 -9.2192602 -72.893311 -9.2076473 -73.686745 -0.0057492107 -103.61625
9202125000 -1.0093566 137.62822 -9.2387409 -72.973793 -9.2305412 -73.61853 -0.023301775 -103.5946
9202187500 -1.0123689 137.59277 -9.2352705 -72.98571 -9.2219028 -73.690598 -0.0079515669 -103.57638
9202250000 -1.0146029 137.54538 -9.2357321 -72.970291 -9.2231369 -73.601105 -0.020791225 -103.51661
9202312500 -1.0117221 137.57574 -9.2221336 -72.929062 -9.2202225 -73.658798 -0.017287366 -103.55706
9202375000 -1.0108993 137.51672 -9.2342529 -72.972832 -9.1988611 -73.718742 -0.013243639 -103.53313
9202437500 -1.0086148 137.54488 -9.2178087 -72.912163 -9.2126522 -73.65329 -0.005911333 -103.54721
9202500000 -1.0163231 137.48662 -9.2272968 -73.070358 -9.2197361 -73.688568 -0.024353089 -103.56843
9202562500 -1.0075501 137.45547 -9.2228003 -72.973885 -9.2139692 -73.672592 -0.022090277 -103.5437
9202625000 -1.0112787 137.55841 -9.2278786 -72.877533 -9.2129583 -73.656746 -0.022078853 -103.46808
9202687500 -1.0126491 137.49016 -9.2185974 -72.981133 -9.2105198 -73.587204 -0.0067932629 -103.4333
9202750000 -1.0081228 137.44247 -9.2093706 -72.922005 -9.2078953 -73.679527 -0.012584142 -103.46362
9202812500 -1.0165964 137.46609 -9.2250814 -72.982292 -9.2020369 -73.661217 -0.013118763 -103.37711
9202875000 -1.0072625 137.4183 -9.2099562 -72.940224 -9.2152605 -73.655838 -0.016867455 -103.34396
9202937500 -1.0035334 137.44183 -9.201622 -73.01265 -9.2157593 -73.62397 -0.016396474 -103.36037
9203000000 -1.0132873 137.42679 -9.2183666 -72.927017 -9.2081442 -73.63237 -0.019141948 -103.30479
9203062500 -1.0090319 137.37372 -9.2167978 -72.977325 -9.2117491 -73.642296 -0.022907363 -103.39235
9203125000 -1.0031151 137.35611 -9.2144899 -72.995033 -9.1996775 -73.60157 -0.012350567 -103.3227
9203187500 -1.0072365 137.37714 -9.2296066 -72.965393 -9.1998987 -73.701843 -0.017438227 -103.31948
9203250000 -1.0104598 137.32272 -9.2072754 -72.937965 -9.2075462 -73.56459 -0.01411475 -103.25493
9203312500 -1.0180192 137.40245 -9.225317 -72.940529 -9.2027178 -73.690979 -0.014048933 -103.28666
9203375000 -1.0087847 137.37405 -9.2140341 -72.87645 -9.2008972 -73.671249 -0.01503928 -103.26239
9203437500 -1.0165566 137.39969 -9.2203579 -72.998047 -9.2066669 -73.63063 -0.020004615 -103.27335
9203500000 -1.0077057 137.30226 -9.211071 -72.88427 -9.1982718 -73.642662 -0.0090479814 -103.24114
9203562500 -1.0157987 137.29167 -9.2216902 -72.941574 -9.2146378 -73.617439 -0.028508445 -103.25209
9203625000 -1.0136116 137.32069 -9.2098856 -72.930244 -9.2111692 -73.619682 -0.016749488 -103.29623
9203687500 -1.0170803 137.25224 -9.2171898 -72.907501 -9.2059374 -73.561653 -0.016866524 -103.15696
9203750000 -1.0199127 137.23541 -9.2171907 -72.968239 -9.204936 -73.635742 -0.0090496046 -103.14035
9203812500 -1.0118732 137.24138 -9.2004051 -72.99646 -9.2009106 -73.634857 -0.023237752 -103.13868
9203875000 -1.0065458 137.25259 -9.2031603 -72.792564 -9.2022734 -73.666405 -0.031099008 -103.17136
9203937500 -1.01922 137.23759 -9.2070665 -72.889717 -9.1999063 -73.573837 -0.020550631 -103.12451
9204000000 -1.0141239 137.20628 -9.2053089 -72.921463 -9.198637 -73.591812 -0.022603346 -103.0703
9204062500 -1.0092416 137.21111 -9.2077703 -72.902931 -9.2003441 -73.621071 -0.021925068 -103.08131
9204125000 -1.0173585 137.19228 -9.2092237 -72.87249 -9.1930161 -73.581772 -0.014738673 -103.04084
9204187500 -1.0172986 137.1694 -9.208704 -72.915833 -9.2018509 -73.619629 -0.028074246 -103.07308
9204250000 -1.0136353 137.17732 -9.1927271 -72.942657 -9.2043257 -73.623932 -0.021058643 -103.04787
9204312500 -1.0185854 137.15985 -9.2010174 -72.832344 -9.1970387 -73.626961 -0.024813659 -102.9961
9204375000 -1.0028434 137.12683 -9.2008286 -72.931961 -9.193675 -73.63147 -0.016795626 -103.06184
9204437500 -1.0225283 137.1712 -9.2016325 -72.878342 -9.1908169 -73.546013 -0.012825786 -102.9884
9204500000 -1.0217704 137.13908 -9.2059383 -72.879425 -9.201869 -73.626648 -0.022835629 -103.03226
9204562500 -1.0049204 137.09497 -9.1960087 -72.942261 -9.1872082 -73.639351 -0.014307917 -103.01382
9204625000 -1.0007242 137.08186 -9.1982889 -72.856262 -9.1965914 -73.658058 -0.024304762 -102.90401
9204687500 -1.0156378 137.08156 -9.2034178 -72.868126 -9.201354 -73.589638 -0.025091436 -102.89394
9204750000 -1.0218444 137.04185 -9.2052031 -72.87587 -9.1946917 -73.604202 -0.033792485 -102.88428
9204812500 -1.0025777 137.06496 -9.2000856 -72.790421 -9.2008724 -73.618431 -0.017249478 -102.88583
9204875000 -1.0103307 137.09369 -9.199008 -72.871361 -9.2104645 -73.555115 -0.027253674 -102.88218
9204937500 -1.0159826 136.99973 -9.2019625 -72.899277 -9.1881371 -73.583511 -0.015220366 -102.82487
9205000000 -1.0030285 136.97353 -9.1991177 -72.840302 -9.1865902 -73.58358 -0.031333949 -102.81635
9205062500 -1.0179906 136.95258 -9.1984377 -72.887474 -9.1836271 -73.592316 -0.021654362 -102.7777
9205125000 -1.0140091 136.97127 -9.1899004 -72.836807 -9.1931601 -73.578659 -0.022018012 -102.74928
9205187500 -1.0152947 136.96985 -9.200284 -72.838982 -9.1906986 -73.526077 -0.025220679 -102.73952
9205250000 -1.0059854 136.9334 -9.1975183 -72.909271 -9.2041779 -73.552841 -0.037597314 -102.79342
9205312500 -1.0105634 136.98993 -9.1916914 -72.810692 -9.1861086 -73.552383 -0.026404021 -102.7743
9205375000 -1.0094371 136.91902 -9.1906872 -72.871452 -9.1972504 -73.583427 -0.020974424 -102.71116
9205437500 -1.0073388 136.9416 -9.1896505 -72.798546 -9.1785297 -73.560837 -0.016820434 -102.71526
9205500000 -1.0143368 136.81851 -9.1917772 -72.850281 -9.1911545 -73.672539 -0.024006316 -102.66261
9205562500 -1.0202923 136.87192 -9.1830339 -72.868843 -9.1987181 -73.601959 -0.021363601 -102.64986
9205625000 -1.0195649 136.90562 -9.1924124 -72.799301 -9.1815023 -73.572372 -0.027878027 -102.62265
9205687500 -1.0128672 136.89206 -9.1792707 -72.750641 -9.1840372 -73.591003 -0.027135449 -102.57372
9205750000 -1.0127085 136.81825 -9.1953373 -72.88839 -9.1797094 -73.616737 -0.017146504 -102.59519
9205812500 -1.0179812 136.79211 -9.1901894 -72.862938 -9.1864834 -73.624451 -0.026855899 -102.57704
9205875000 -1.0083305 136.85132 -9.2014675 -72.847435 -9.1883631 -73.541382 -0.02593725 -102.61269
9205937500 -1.0135467 136.78496 -9.1852331 -72.901749 -9.177825 -73.524887 -0.023027074 -102.55598
9206000000 -1.0141631 136.79848 -9.1701765 -72.817551 -9.1823349 -73.617401 -0.01888052 -102.55206
9206062500 -1.011035 136.78937 -9.1804266 -72.902397 -9.1814823 -73.60537 -0.021859592 -102.57727
9206125000 -1.0078244 136.75923 -9.1766453 -72.87072 -9.1782541 -73.555084 -0.028657148 -102.46977
9206187500 -1.0136154 136.77011 -9.1687174 -72.887871 -9.1750975 -73.576385 -0.015827205 -102.49712
9206250000 -1.0176101 136.69365 -9.1897717 -72.919403 -9.1755962 -73.512268 -0.028988959 -102.50035
9206312500 -1.0129063 136.64845 -9.1858978 -72.946548 -9.1800175 -73.64579 -0.027058 -102.47711
9206375000 -1.0092118 136.70924 -9.1801786 -72.847435 -9.1723804 -73.504677 -0.017045861 -102.44939
9206437500 -1.0127091 136.67422 -9.1788969 -72.831734 -9.1853189 -73.562035 -0.032023121 -102.50968
9206500000 -1.0204797 136.6532 -9.187809 -72.856682 -9.1679974 -73.514961 -0.031027503 -102.42513
9206562500 -1.0208185 136.62543 -9.1834211 -72.957207 -9.1865778 -73.492775 -0.028830798 -102.46333
9206625000 -1.0209457 136.59685 -9.1797819 -72.841599 -9.1698227 -73.588272 -0.020532042 -102.38434
9206687500 -1.018032 136.62622 -9.1858683 -72.877144 -9.1719255 -73.57386 -0.014762393 -102.4491
9206750000 -1.0135976 136.63437 -9.178483 -72.817688 -9.1839352 -73.52874 -0.028110545 -102.36034
9206812500 -1.0102391 136.60966 -9.1812611 -72.836205 -9.1845474 -73.580223 -0.025591144 -102.40079
9206875000 -1.016867 136.61047 -9.1760168 -72.809448 -9.1547565 -73.490677 -0.022019932 -102.28083
9206937500 -1.019843 136.59503 -9.1775007 -72.813072 -9.1860552 -73.51683 -0.037369236 -102.28612
9207000000 -1.015395 136.59558 -9.1705446 -72.822502 -9.1791716 -73.550438 -0.025960593 -102.30022
9207062500 -1.0140743 136.56424 -9.1686392 -72.80468 -9.1702127 -73.548241 -0.028558448 -102.20355
9207125000 -1.0247961 136.53403 -9.1675272 -72.904152 -9.1613626 -73.587135 -0.02387426 -102.21798
9207187500 -1.0144628 136.51578 -9.1606779 -72.888138 -9.1779604 -73.576256 -0.031693988 -102.28886
9207250000 -1.0093613 136.5031 -9.1657085 -72.815765 -9.1739922 -73.561562 -0.018846847 -102.29319
9207312500 -1.0101864 136.48842 -9.1755953 -72.877586 -9.1672344 -73.531013 -0.016951393 -102.21648
9207375000 -1.0249488 136.42995 -9.1918392 -72.882111 -9.163456 -73.559982 -0.024528068 -102.20137
9207437500 -1.0112375 136.52791 -9.1796598 -72.809212 -9.1795197 -73.480301 -0.030044677 -102.12565
9207500000 -1.0188367 136.48607 -9.1797667 -72.792801 -9.1572647 -73.470924 -0.037842095 -102.12956
9207562500 -1.0108143 136.49352 -9.1748009 -72.793083 -9.1611681 -73.539452 -0.032004353 -102.17825
9207625000 -1.0176945 136.41368 -9.1702833 -72.770119 -9.1690922 -73.545975 -0.030035304 -102.09966
9207687500 -1.0152086 136.45387 -9.1659784 -72.75412 -9.1627293 -73.470917 -0.025485527 -102.09494
9207750000 -1.0161778 136.40797 -9.1792669 -72.785477 -9.1624556 -73.518745 -0.028588979 -102.07189
9207812500 -1.0139378 136.39723 -9.1693602 -72.767082 -9.1673985 -73.467789 -0.036753386 -102.05699
9207875000 -1.0129683 136.40689 -9.1771917 -72.750748 -9.1650667 -73.550323 -0.026228178 -102.03024
9207937500 -1.0177405 136.30507 -9.1685495 -72.852898 -9.1697941 -73.511009 -0.034357019 -102.07477
9208000000 -1.0198156 136.37819 -9.1659584 -72.771492 -9.1592159 -73.464844 -0.024759406 -101.97614
9208062500 -1.0196195 136.35739 -9.1716137 -72.763588 -9.1595049 -73.527313 -0.033160124 -101.97609
9208125000 -1.0213058 136.32425 -9.1695137 -72.76368 -9.1569862 -73.550041 -0.02849604 -101.97272
9208187500 -1.0145007 136.33218 -9.1749954 -72.815216 -9.154809 -73.487381 -0.030007359 -101.98273
9208250000 -1.0221199 136.33006 -9.1820135 -72.765282 -9.1591425 -73.454811 -0.03237934 -101.93835
9208312500 -1.0156326 136.31406 -9.1628227 -72.788704 -9.1522388 -73.540802 -0.026191229 -101.93689
9208375000 -1.0209563 136.31229 -9.1664724 -72.730911 -9.1568222 -73.481903 -0.029736595 -101.83405
9208437500 -1.016952 136.20546 -9.1682243 -72.791016 -9.1580782 -73.402275 -0.03674335 -101.89827
9208500000 -1.0203331 136.2323 -9.1605358 -72.805267 -9.1578245 -73.46653 -0.032315489 -101.87532
9208562500 -1.0286688 136.30952 -9.1672592 -72.718079 -9.1500511 -73.520454 -0.026181815 -101.87759
9208625000 -1.0164168 136.22192 -9.1553698 -72.75351 -9.1435614 -73.377487 -0.03427453 -101.84641
9208687500 -1.0125493 136.17361 -9.1469002 -72.783119 -9.1480484 -73.496704 -0.026867259 -101.78735
9208750000 -1.0168657 136.25177 -9.1637192 -72.695267 -9.1481934 -73.412064 -0.029445797 -101.81879
9208812500 -1.0195569 136.24986 -9.1657495 -72.791878 -9.1586332 -73.481918 -0.027261628 -101.78778
9208875000 -1.0198596 136.16331 -9.1638327 -72.787849 -9.1594095 -73.460518 -0.027898269 -101.75752
9208937500 -1.0132467 136.20888 -9.1528893 -72.785034 -9.1565323 -73.449776 -0.037132822 -101.72998
9209000000 -1.0201344 136.16525 -9.170475 -72.742973 -9.142005 -73.431511 -0.034213498 -101.76802
9209062500 -1.0212933 136.13095 -9.1707869 -72.753868 -9.1661272 -73.484589 -0.040387522 -101.72999
9209125000 -1.0206746 136.11169 -9.164094 -72.752174 -9.1481409 -73.501106 -0.030638117 -101.7132
9209187500 -1.0218872 136.11322 -9.1566286 -72.802719 -9.1541033 -73.476341 -0.030699829 -101.73313
9209250000 -1.0091347 136.09212 -9.1573915 -72.772903 -9.15026 -73.468163 -0.038437456 -101.5791
9209312500 -1.0231972 136.01865 -9.1649895 -72.84256 -9.1509075 -73.489357 -0.04216684 -101.68113
9209375000 -1.0061144 136.1004 -9.1533556 -72.697388 -9.1573267 -73.367355 -0.044433553 -101.62205
9209437500 -1.0182364 136.01448 -9.160408 -72.729462 -9.1485014 -73.490425 -0.034840357 -101.54655
9209500000 -1.0157938 136.02438 -9.1518946 -72.759605 -9.1521463 -73.458382 -0.038563166 -101.56628
9209562500 -1.0216795 136.01294 -9.1685553 -72.716362 -9.1514978 -73.437134 -0.045150593 -101.53361
9209625000 -1.0177073 135.95457 -9.154521 -72.757034 -9.1451511 -73.420357 -0.033492208 -101.51863
9209687500 -1.0203657 135.95282 -9.1487055 -72.767693 -9.1506176 -73.428574 -0.038660821 -101.54969
9209750000 -1.0161604 135.94353 -9.1467152 -72.863014 -9.1479063 -73.437897 -0.028584884 -101.54146
9209812500 -1.0122839 135.93587 -9.1535473 -72.722984 -9.1389532 -73.453987 -0.039478358 -101.46185
9209875000 -1.0145904 135.95657 -9.1491232 -72.749016 -9.1429119 -73.409676 -0.04278956 -101.50455
9209937500 -1.0185262 136.02011 -9.1646986 -72.730896 -9.1565056 -73.420753 -0.047849748 -101.52263
9210000000 -1.0054414 135.93321 -9.1485176 -72.729607 -9.1360703 -73.436554 -0.04555925 -101.42879
9210062500 -1.0216624 135.93623 -9.1544752 -72.754227 -9.1439037 -73.420189 -0.042277537 -101.43418
9210125000 -1.0126383 135.88824 -9.1513729 -72.729317 -9.1410532 -73.395042 -0.041328315 -101.39537
9210187500 -1.0208304 135.94026 -9.1470318 -72.70977 -9.1417179 -73.402512 -0.040150959 -101.3924
9210250000 -1.0168635 135.90544 -9.139163 -72.750038 -9.1390181 -73.401955 -0.041301288 -101.4121
9210312500 -1.0226861 135.88237 -9.150404 -72.663963 -9.1410532 -73.506432 -0.035734162 -101.41839
9210375000 -1.0131842 135.89067 -9.1452971 -72.654259 -9.1399851 -73.455269 -0.033246584 -101.3042
9210437500 -1.0129391 135.83664 -9.1466532 -72.689537 -9.1450205 -73.461281 -0.03701603 -101.41844
9210500000 -1.0128655 135.81665 -9.1473761 -72.742851 -9.1300497 -73.439346 -0.027722722 -101.35167
9210562500 -1.0197209 135.79543 -9.1444731 -72.702942 -9.1328859 -73.468246 -0.032254796 -101.32171
9210625000 -1.0137678 135.82141 -9.1511889 -72.703987 -9.1443024 -73.336029 -0.041928969 -101.31281
9210687500 -1.0146766 135.83797 -9.1476955 -72.723183 -9.1393309 -73.489479 -0.044119202 -101.26659
9210750000 -1.0168171 135.77022 -9.1544781 -72.76754 -9.1228666 -73.371986 -0.035439517 -101.29551
9210812500 -1.0167711 135.73293 -9.1389294 -72.709351 -9.1314182 -73.325882 -0.047761969 -101.21929
9210875000 -1.0118511 135.74564 -9.1449003 -72.707535 -9.1313534 -73.418388 -0.046405774 -101.28642
9210937500 -1.0138108 135.75688 -9.1430235 -72.741882 -9.1411448 -73.367615 -0.048077803 -101.20951
9211000000 -1.0162758 135.74187 -9.144145 -72.719872 -9.1329288 -73.43882 -0.035726812 -101.2118
9211062500 -1.0196252 135.71216 -9.1333017 -72.672333 -9.1410418 -73.381302 -0.049762163 -101.2104
9211125000 -1.0123584 135.68829 -9.134594 -72.707695 -9.1255703 -73.335014 -0.032291032 -101.16869
9211187500 -1.0223931 135.6857 -9.1446314 -72.721832 -9.1287537 -73.390198 -0.042766575 -101.1749
9211250000 -1.0197079 135.67334 -9.130641 -72.670914 -9.1430235 -73.364487 -0.033652663 -101.09228
9211312500 -1.0161402 135.68367 -9.1348658 -72.656166 -9.1360807 -73.364075 -0.046203751 -101.10168
9211375000 -1.0201224 135.59117 -9.1477118 -72.717072 -9.1332817 -73.379166 -0.046757124 -101.00462
9211437500 -1.0114925 135.59007 -9.1227331 -72.703667 -9.1303549 -73.461975 -0.045534492 -101.08796
9211500000 -1.0208652 135.59093 -9.1431484 -72.701942 -9.1304598 -73.424408 -0.036664307 -101.10284
9211562500 -1.022084 135.64296 -9.1385584 -72.687813 -9.1250963 -73.363785 -0.044391427 -101.01902
9211625000 -1.0246249 135.54749 -9.1392336 -72.750092 -9.1189604 -73.460686 -0.042312872 -101.09828
9211687500 -1.0188776 135.61685 -9.1343441 -72.668716 -9.1284666 -73.372185 -0.044404801 -100.96844
9211750000 -1.0204587 135.56429 -9.1302977 -72.61824 -9.1251936 -73.370522 -0.03941495 -100.91758
9211812500 -1.026904 135.54323 -9.1484785 -72.698906 -9.1298389 -73.338715 -0.054012895 -101.00195
9211875000 -1.0228435 135.49174 -9.138917 -72.723633 -9.1161947 -73.398186 -0.037230641 -100.92083
9211937500 -1.0174115 135.54271 -9.1364479 -72.648285 -9.1166649 -73.38588 -0.04807036 -100.93874
9212000000 -1.0205156 135.4501 -9.129014 -72.697006 -9.1235504 -73.426712 -0.044394247 -100.93851
9212062500 -1.0158695 135.44989 -9.1240501 -72.671539 -9.1217413 -73.385544 -0.053651266 -100.90259
9212125000 -1.0179315 135.40701 -9.1234064 -72.736435 -9.1352606 -73.381767 -0.045188878 -100.90015
9212187500 -1.00893 135.46455 -9.115984 -72.601677 -9.1149559 -73.327507 -0.052452289 -100.82483
