!Agilent Technologies,N5242A,MY51221714,A.09.90.19
!Agilent N5242A: A.09.90.19
!Date: Tuesday, March 26, 2024 16:52:56
!Correction: S11(Full 2 Port(1,2)) 
!S21(Full 2 Port(1,2)) 
!S12(Full 2 Port(1,2)) 
!S22(Full 2 Port(1,2)) 
!S2P File: Measurements: S11, S21, S12, S22:
# Hz S  dB   R 50
9200000000 -1.0650589 137.72328 -9.1957273 -73.950119 -9.1759691 -74.689293 -0.049731314 -104.86872
9200062500 -1.0587623 137.71721 -9.1856594 -73.985428 -9.1907473 -74.690079 -0.046037838 -104.79212
9200125000 -1.0592172 137.66429 -9.1914396 -73.962212 -9.1903038 -74.651535 -0.059388384 -104.77767
9200187500 -1.0702039 137.70663 -9.1935291 -73.899719 -9.1898365 -74.750824 -0.045968346 -104.78565
9200250000 -1.0639324 137.67128 -9.1894722 -73.953812 -9.1912355 -74.625275 -0.048068151 -104.75044
9200312500 -1.0665547 137.63354 -9.1886692 -73.946671 -9.188755 -74.648865 -0.048839934 -104.72626
9200375000 -1.0692899 137.62787 -9.192708 -73.959679 -9.1947384 -74.765289 -0.048168015 -104.69537
9200437500 -1.0571852 137.64732 -9.1886272 -73.947525 -9.176672 -74.74176 -0.037384249 -104.74748
9200500000 -1.0594586 137.60033 -9.1963749 -73.908249 -9.1772804 -74.634079 -0.047602501 -104.70362
9200562500 -1.058454 137.58589 -9.1805334 -73.933525 -9.192215 -74.609505 -0.044464257 -104.68353
9200625000 -1.0678009 137.61143 -9.1890478 -73.935555 -9.1674795 -74.652527 -0.048224606 -104.6576
9200687500 -1.0594108 137.62685 -9.1938267 -73.905746 -9.1914368 -74.631927 -0.053278863 -104.62309
9200750000 -1.0655174 137.49812 -9.1843967 -73.937355 -9.1773319 -74.682381 -0.044737779 -104.64336
9200812500 -1.0807976 137.52724 -9.1967697 -73.987564 -9.1918621 -74.690826 -0.067185663 -104.67418
9200875000 -1.059261 137.57599 -9.1876144 -73.90406 -9.1887913 -74.661369 -0.055888738 -104.69305
9200937500 -1.0612547 137.5349 -9.195015 -73.963142 -9.1756506 -74.620087 -0.048799593 -104.57198
9201000000 -1.0617374 137.51541 -9.189683 -73.965836 -9.1830568 -74.674797 -0.051076271 -104.55705
9201062500 -1.0608109 137.49101 -9.1773233 -73.90313 -9.1626358 -74.645699 -0.04161064 -104.50761
9201125000 -1.0583664 137.47098 -9.1850538 -73.913231 -9.1879826 -74.630783 -0.055066962 -104.48859
9201187500 -1.0676202 137.39507 -9.177597 -73.943871 -9.1661739 -74.610123 -0.050748963 -104.4018
9201250000 -1.0716155 137.48492 -9.1727581 -73.89846 -9.1898165 -74.597916 -0.058162559 -104.43591
9201312500 -1.077527 137.41743 -9.1909122 -73.931747 -9.1873713 -74.623482 -0.05018466 -104.46571
9201375000 -1.0777688 137.44099 -9.1964283 -73.898689 -9.1819038 -74.644508 -0.062619969 -104.42789
9201437500 -1.0705487 137.42043 -9.198082 -73.855064 -9.1719713 -74.632256 -0.052727792 -104.51773
9201500000 -1.072433 137.40492 -9.1899681 -73.893257 -9.1727324 -74.633888 -0.050880797 -104.44942
9201562500 -1.0628151 137.39412 -9.1867332 -73.866455 -9.1816759 -74.627579 -0.065268926 -104.40881
9201625000 -1.065405 137.3658 -9.1872234 -73.94458 -9.1662617 -74.566833 -0.061254688 -104.36476
9201687500 -1.0702825 137.34453 -9.1808119 -73.837044 -9.1743803 -74.602615 -0.058810588 -104.32253
9201750000 -1.0680403 137.31992 -9.1892366 -73.908646 -9.1653366 -74.626289 -0.046887025 -104.34263
9201812500 -1.0604053 137.31288 -9.1834736 -73.886322 -9.1725807 -74.607452 -0.058510143 -104.38377
9201875000 -1.0672932 137.31216 -9.1794319 -73.859634 -9.1636982 -74.635063 -0.050472908 -104.24234
9201937500 -1.0761856 137.27702 -9.1817036 -73.905487 -9.1666155 -74.633492 -0.052278895 -104.3511
9202000000 -1.0692829 137.30231 -9.1664038 -73.852356 -9.1669159 -74.636932 -0.04740753 -104.28533
9202062500 -1.0765163 137.3246 -9.1804819 -73.884804 -9.172513 -74.647217 -0.051181342 -104.25574
9202125000 -1.0721318 137.31398 -9.1966209 -73.900604 -9.1763401 -74.628296 -0.065909497 -104.3267
9202187500 -1.0613321 137.27292 -9.1703072 -73.900589 -9.1667585 -74.622147 -0.053608973 -104.17525
9202250000 -1.0691807 137.25015 -9.1865854 -73.902946 -9.1626339 -74.526138 -0.062003773 -104.207
9202312500 -1.0629315 137.22388 -9.1827488 -73.904839 -9.1749992 -74.682449 -0.063101768 -104.25392
9202375000 -1.0649626 137.21654 -9.1879015 -73.889702 -9.166131 -74.63636 -0.064940706 -104.16957
9202437500 -1.063711 137.24734 -9.1695375 -73.882507 -9.1664286 -74.624985 -0.057130266 -104.1809
9202500000 -1.0762051 137.19691 -9.1700525 -73.937401 -9.1774139 -74.580147 -0.057993822 -104.17581
9202562500 -1.0673429 137.17352 -9.1606874 -73.857338 -9.1640081 -74.551758 -0.065852173 -104.14589
9202625000 -1.0719659 137.23026 -9.1720324 -73.845963 -9.1711998 -74.626839 -0.063163072 -104.13509
9202687500 -1.0758933 137.19597 -9.1769457 -73.840889 -9.1652956 -74.612328 -0.053337686 -104.0618
9202750000 -1.0604783 137.12093 -9.160099 -73.819557 -9.153738 -74.65992 -0.051840972 -104.07613
9202812500 -1.071496 137.11449 -9.171505 -73.865501 -9.1461763 -74.617859 -0.04925777 -104.02592
9202875000 -1.0590354 137.09619 -9.1536417 -73.813866 -9.1585922 -74.61116 -0.053028557 -104.00826
9202937500 -1.0636005 137.10413 -9.1678953 -73.940941 -9.1620617 -74.570198 -0.05699987 -104.02807
9203000000 -1.0682235 137.13246 -9.1695414 -73.841507 -9.1629438 -74.591858 -0.062812209 -103.96694
9203062500 -1.0678154 137.01163 -9.1638546 -73.890205 -9.1533804 -74.570152 -0.059941303 -104.0102
9203125000 -1.0682658 137.0392 -9.1704168 -73.857651 -9.1569796 -74.62587 -0.056433607 -103.9933
9203187500 -1.0682557 137.01903 -9.1676292 -73.875816 -9.1519108 -74.646072 -0.057579245 -103.9679
9203250000 -1.0702569 137.03143 -9.1671028 -73.870628 -9.1584835 -74.557808 -0.057799838 -103.94418
9203312500 -1.0785506 137.02101 -9.1662893 -73.905968 -9.1503868 -74.590607 -0.049100585 -103.90881
9203375000 -1.0687733 137.01015 -9.1662683 -73.81575 -9.1469231 -74.595764 -0.050948702 -103.92754
9203437500 -1.0720396 137.02611 -9.164691 -73.89743 -9.153059 -74.545784 -0.056563832 -103.93056
9203500000 -1.0682924 136.97495 -9.1575375 -73.849739 -9.1554298 -74.532516 -0.056473102 -103.88703
9203562500 -1.0770812 136.94357 -9.1768265 -73.891335 -9.1615629 -74.587547 -0.064092383 -103.8719
9203625000 -1.0709168 136.98106 -9.1747446 -73.834183 -9.1575336 -74.554245 -0.065102436 -103.89512
9203687500 -1.0744703 136.96504 -9.1745644 -73.80938 -9.1689053 -74.571983 -0.069432944 -103.82903
9203750000 -1.0719759 136.89017 -9.1627321 -73.806236 -9.1525927 -74.539886 -0.052546412 -103.76815
9203812500 -1.0760348 136.89809 -9.155859 -73.897049 -9.1528521 -74.581261 -0.061904497 -103.7971
9203875000 -1.0648081 136.89728 -9.1614847 -73.882126 -9.1578989 -74.567322 -0.076636545 -103.78542
9203937500 -1.0720134 136.88881 -9.1517467 -73.895805 -9.1537228 -74.539047 -0.060099017 -103.82847
9204000000 -1.0706545 136.91116 -9.1548634 -73.871559 -9.1536398 -74.482391 -0.05692064 -103.71372
9204062500 -1.0629276 136.892 -9.1567125 -73.83754 -9.1413641 -74.559975 -0.060637098 -103.71996
9204125000 -1.0739076 136.86078 -9.1597357 -73.81321 -9.1468678 -74.520164 -0.0578929 -103.66345
9204187500 -1.0731504 136.82466 -9.1579208 -73.852699 -9.1536913 -74.57235 -0.070965372 -103.69403
9204250000 -1.0720506 136.81114 -9.1486969 -73.847656 -9.1567764 -74.536377 -0.060227782 -103.70245
9204312500 -1.0721281 136.84972 -9.1563597 -73.797546 -9.1421766 -74.55706 -0.057876959 -103.58939
9204375000 -1.064461 136.79774 -9.1516895 -73.860474 -9.1478624 -74.59066 -0.060970906 -103.68327
9204437500 -1.0798956 136.85072 -9.1614666 -73.817741 -9.1445208 -74.495934 -0.062695295 -103.59396
9204500000 -1.0754981 136.767 -9.1490669 -73.85746 -9.1473236 -74.566971 -0.065776393 -103.61751
9204562500 -1.0703417 136.74701 -9.1572018 -73.943794 -9.1397314 -74.615982 -0.052957457 -103.70482
9204625000 -1.0618262 136.73982 -9.1513882 -73.745773 -9.1411991 -74.548111 -0.059615459 -103.53278
9204687500 -1.0717815 136.73396 -9.1520205 -73.803154 -9.1466722 -74.567963 -0.062755004 -103.5667
9204750000 -1.0761324 136.73532 -9.1468067 -73.766968 -9.1514626 -74.504562 -0.077653803 -103.53474
9204812500 -1.0617248 136.69127 -9.1579828 -73.729752 -9.1463537 -74.552887 -0.064445011 -103.54048
9204875000 -1.074893 136.75462 -9.160923 -73.735054 -9.1552267 -74.504158 -0.067415707 -103.54256
9204937500 -1.0680062 136.68687 -9.1373196 -73.831581 -9.1354084 -74.581146 -0.058318097 -103.51455
9205000000 -1.0612352 136.63005 -9.1464138 -73.799477 -9.1334877 -74.533249 -0.072402455 -103.46119
9205062500 -1.0644333 136.65323 -9.1405153 -73.804192 -9.1250801 -74.509758 -0.066561833 -103.39021
9205125000 -1.0732509 136.62529 -9.1508398 -73.80645 -9.1428509 -74.530022 -0.066516086 -103.37488
9205187500 -1.0787436 136.64984 -9.1588001 -73.747513 -9.148571 -74.554199 -0.070600398 -103.4021
9205250000 -1.0674132 136.59955 -9.1499491 -73.836235 -9.1512051 -74.479362 -0.074994728 -103.43836
9205312500 -1.0680348 136.65845 -9.136342 -73.750565 -9.1400404 -74.502991 -0.064988635 -103.3846
9205375000 -1.071775 136.60268 -9.1483278 -73.805855 -9.1436596 -74.532707 -0.060098194 -103.38155
9205437500 -1.066726 136.57298 -9.1341982 -73.809853 -9.1404409 -74.538506 -0.067630939 -103.3607
9205500000 -1.0797156 136.47862 -9.1421452 -73.726486 -9.1445398 -74.503448 -0.071106903 -103.25518
9205562500 -1.0731313 136.50549 -9.1345854 -73.832512 -9.1396322 -74.527504 -0.061599217 -103.2901
9205625000 -1.0827796 136.54564 -9.1478319 -73.76635 -9.1350193 -74.525589 -0.071793593 -103.27824
9205687500 -1.071574 136.53403 -9.1371479 -73.805809 -9.1283541 -74.517944 -0.062370826 -103.23201
9205750000 -1.0740656 136.48766 -9.1371536 -73.779022 -9.1438856 -74.503433 -0.065754518 -103.25204
9205812500 -1.0781208 136.43869 -9.1278362 -73.849922 -9.1376038 -74.486465 -0.066131189 -103.18298
9205875000 -1.0708604 136.51289 -9.1364527 -73.799782 -9.1375341 -74.526749 -0.067829937 -103.31413
9205937500 -1.0748012 136.4568 -9.1404772 -73.832108 -9.1169758 -74.428787 -0.062223855 -103.15911
9206000000 -1.0745875 136.45084 -9.1208677 -73.750443 -9.1293831 -74.459831 -0.057214048 -103.15044
9206062500 -1.0639539 136.42159 -9.1262531 -73.787567 -9.1306667 -74.531349 -0.070709206 -103.234
9206125000 -1.0655091 136.45227 -9.1332521 -73.766716 -9.1254635 -74.460114 -0.071498401 -103.10725
9206187500 -1.0741736 136.38681 -9.1341448 -73.791039 -9.1224194 -74.496857 -0.062556215 -103.14184
9206250000 -1.0748852 136.37077 -9.1404696 -73.794403 -9.1334457 -74.454254 -0.07107126 -103.10803
9206312500 -1.071717 136.31055 -9.1290855 -73.840248 -9.1255045 -74.582771 -0.065071523 -103.1432
9206375000 -1.0721679 136.35086 -9.1349983 -73.722054 -9.1323624 -74.450531 -0.064199857 -103.10036
9206437500 -1.067834 136.33121 -9.1333952 -73.815506 -9.1315928 -74.569275 -0.077272162 -103.14915
9206500000 -1.0721543 136.3499 -9.1284647 -73.848892 -9.1258631 -74.442299 -0.07493946 -103.05414
9206562500 -1.0750412 136.35023 -9.1334925 -73.852737 -9.1250887 -74.446983 -0.068917669 -103.05473
9206625000 -1.0772125 136.26117 -9.1316051 -73.835068 -9.1254854 -74.519417 -0.06761317 -103.03298
9206687500 -1.0762646 136.32578 -9.1388206 -73.790039 -9.1205406 -74.514488 -0.065188617 -103.0696
9206750000 -1.0765626 136.2934 -9.1296253 -73.767815 -9.1306295 -74.478004 -0.070099153 -103.0027
9206812500 -1.0670595 136.2903 -9.1220102 -73.819359 -9.1236868 -74.519516 -0.064421803 -103.02705
9206875000 -1.0737693 136.27966 -9.1271267 -73.787743 -9.1260281 -74.443573 -0.071961328 -102.88315
9206937500 -1.0750462 136.28448 -9.1366053 -73.748383 -9.1353722 -74.523766 -0.081107602 -102.94419
9207000000 -1.0703663 136.23792 -9.129283 -73.780022 -9.1232338 -74.45636 -0.07661397 -102.92267
9207062500 -1.0686995 136.23636 -9.1247683 -73.762276 -9.1236382 -74.481705 -0.072949715 -102.8232
9207125000 -1.0862342 136.20703 -9.127306 -73.774208 -9.1159754 -74.465759 -0.071378224 -102.80261
9207187500 -1.0707134 136.15199 -9.112772 -73.86554 -9.1223583 -74.518219 -0.071933627 -102.93067
9207250000 -1.0765055 136.14932 -9.1275244 -73.77092 -9.1229715 -74.46637 -0.066752769 -102.89866
9207312500 -1.066754 136.13826 -9.1142817 -73.770271 -9.1147242 -74.441628 -0.069612518 -102.83445
9207375000 -1.0792089 136.09784 -9.1300526 -73.830521 -9.1143503 -74.513344 -0.075482138 -102.82713
9207437500 -1.0702678 136.19296 -9.1262569 -73.692909 -9.1390419 -74.428505 -0.073166966 -102.80536
9207500000 -1.0777755 136.19678 -9.1306973 -73.681503 -9.110589 -74.47081 -0.083523832 -102.81865
9207562500 -1.069508 136.14334 -9.1349764 -73.784569 -9.1144695 -74.425285 -0.075169042 -102.78769
9207625000 -1.073776 136.0329 -9.1149712 -73.738892 -9.1141787 -74.493866 -0.070694327 -102.68242
9207687500 -1.0808249 136.08832 -9.1209545 -73.788635 -9.1120243 -74.482399 -0.067160338 -102.71508
9207750000 -1.0722319 136.0435 -9.105566 -73.74929 -9.1099491 -74.456856 -0.064125173 -102.71426
9207812500 -1.0745929 136.09949 -9.1264105 -73.757965 -9.1116695 -74.418884 -0.078114145 -102.67583
9207875000 -1.074599 136.08881 -9.1268444 -73.734703 -9.1109419 -74.544731 -0.073593311 -102.7261
9207937500 -1.0814315 136.00447 -9.1237688 -73.680847 -9.1176453 -74.501816 -0.081343301 -102.74708
9208000000 -1.0756828 135.99055 -9.1125689 -73.781013 -9.1142464 -74.449623 -0.076671012 -102.6766
9208062500 -1.0828967 136.00241 -9.1223383 -73.759995 -9.1054678 -74.428001 -0.073949568 -102.6515
9208125000 -1.0768381 135.98708 -9.1110468 -73.759132 -9.1128178 -74.530151 -0.071142443 -102.63371
9208187500 -1.0701159 135.99049 -9.1171503 -73.736298 -9.1089764 -74.410545 -0.07174015 -102.62198
9208250000 -1.0810324 135.96341 -9.1145515 -73.676453 -9.108963 -74.416847 -0.077409297 -102.56688
9208312500 -1.0746367 135.94414 -9.1259756 -73.723328 -9.1031885 -74.395599 -0.075600185 -102.53889
9208375000 -1.0741047 135.94585 -9.109478 -73.739922 -9.1117668 -74.429451 -0.077692717 -102.52991
9208437500 -1.0800021 135.87851 -9.1205807 -73.73027 -9.1134596 -74.384018 -0.082410693 -102.51569
9208500000 -1.0779254 135.83279 -9.1088467 -73.72554 -9.105443 -74.482071 -0.072067834 -102.51483
9208562500 -1.0829768 135.92432 -9.1139946 -73.701447 -9.1161566 -74.438339 -0.076397687 -102.49728
9208625000 -1.0724162 135.8614 -9.1000214 -73.653351 -9.0945377 -74.365936 -0.07743679 -102.48096
9208687500 -1.0700259 135.87207 -9.1023235 -73.715019 -9.0944548 -74.414436 -0.075837687 -102.42467
9208750000 -1.0746071 135.87607 -9.1108561 -73.676315 -9.1027861 -74.440689 -0.076473422 -102.49128
9208812500 -1.086192 135.89555 -9.1254282 -73.765335 -9.1129332 -74.444588 -0.079842918 -102.48669
9208875000 -1.0812194 135.79932 -9.1158524 -73.776161 -9.1050177 -74.377174 -0.069607101 -102.3552
9208937500 -1.0829648 135.79559 -9.117135 -73.749054 -9.0966825 -74.356323 -0.071776003 -102.35869
9209000000 -1.0734431 135.83913 -9.1177168 -73.714348 -9.104455 -74.421844 -0.082216352 -102.42938
9209062500 -1.0807755 135.8022 -9.112793 -73.728493 -9.1055441 -74.411087 -0.078421511 -102.34824
9209125000 -1.0834213 135.7653 -9.1073236 -73.746056 -9.0923729 -74.411842 -0.069584079 -102.30872
9209187500 -1.0750973 135.78201 -9.1011982 -73.710526 -9.1102057 -74.36985 -0.082950532 -102.3103
9209250000 -1.0713624 135.71042 -9.1044064 -73.744774 -9.106185 -74.498062 -0.078534842 -102.26753
9209312500 -1.075761 135.65242 -9.1098499 -73.753975 -9.1029482 -74.478073 -0.083646461 -102.33424
9209375000 -1.0642815 135.74283 -9.1066847 -73.630264 -9.1034412 -74.374893 -0.087297633 -102.26429
9209437500 -1.083923 135.66365 -9.1047926 -73.694275 -9.097929 -74.441444 -0.082649894 -102.2311
9209500000 -1.0772485 135.68399 -9.103899 -73.749489 -9.0919867 -74.437645 -0.078867547 -102.19659
9209562500 -1.0832553 135.67506 -9.1078405 -73.63884 -9.0951338 -74.437279 -0.084149621 -102.22274
9209625000 -1.0781257 135.61557 -9.1073799 -73.70359 -9.0962982 -74.420876 -0.07708703 -102.17083
9209687500 -1.0836854 135.59561 -9.1015768 -73.72052 -9.0924082 -74.370865 -0.078800716 -102.17928
9209750000 -1.0765933 135.60057 -9.0986652 -73.737236 -9.103014 -74.364517 -0.074645832 -102.15944
9209812500 -1.0770856 135.60188 -9.0914211 -73.671783 -9.0954142 -74.410118 -0.075113937 -102.1312
9209875000 -1.0771292 135.61919 -9.0948868 -73.686333 -9.0860138 -74.360352 -0.076860353 -102.14117
9209937500 -1.0771317 135.68752 -9.1125793 -73.679291 -9.0971546 -74.427361 -0.087797813 -102.20478
9210000000 -1.066705 135.60431 -9.0888252 -73.702911 -9.0921736 -74.39756 -0.094000086 -102.10912
9210062500 -1.0801574 135.63657 -9.0930042 -73.648537 -9.0929852 -74.431839 -0.08310166 -102.07519
9210125000 -1.0756772 135.54465 -9.0943956 -73.723549 -9.0821648 -74.358994 -0.081206597 -102.05347
9210187500 -1.0813313 135.56978 -9.0965118 -73.716721 -9.0874987 -74.355766 -0.086389348 -102.00386
9210250000 -1.0772758 135.58046 -9.0992136 -73.738693 -9.0875473 -74.362625 -0.087015852 -102.05592
9210312500 -1.0807928 135.54982 -9.091198 -73.605148 -9.0923147 -74.447037 -0.081072852 -102.06706
9210375000 -1.0738626 135.57344 -9.0975637 -73.65506 -9.0964766 -74.366302 -0.086808085 -101.93924
9210437500 -1.0748873 135.49001 -9.1021004 -73.69928 -9.0821447 -74.40136 -0.073841244 -102.02697
9210500000 -1.0763952 135.46536 -9.0860119 -73.661751 -9.085865 -74.429115 -0.077785715 -102.01369
9210562500 -1.0802629 135.46797 -9.0962448 -73.646111 -9.0884905 -74.371513 -0.088088065 -101.88705
9210625000 -1.0731406 135.46138 -9.0986233 -73.68206 -9.09939 -74.385841 -0.097222678 -101.98815
9210687500 -1.0817293 135.44989 -9.09237 -73.701996 -9.0931168 -74.459007 -0.092987962 -101.95177
9210750000 -1.0815324 135.42073 -9.0988646 -73.685135 -9.0846968 -74.331734 -0.087779835 -101.86497
9210812500 -1.0819986 135.38965 -9.0911322 -73.701584 -9.0832911 -74.268806 -0.088277034 -101.85043
9210875000 -1.0795224 135.41217 -9.0990667 -73.700066 -9.0759926 -74.322273 -0.088648304 -101.85989
9210937500 -1.0737216 135.41924 -9.0898161 -73.645615 -9.0843143 -74.315147 -0.086688921 -101.83674
9211000000 -1.0771719 135.45024 -9.091217 -73.608971 -9.0900269 -74.374397 -0.08506722 -101.88091
9211062500 -1.0725614 135.37131 -9.0834837 -73.63945 -9.0820265 -74.328445 -0.094598703 -101.83575
9211125000 -1.070452 135.31088 -9.0834312 -73.60688 -9.0803757 -74.26841 -0.082375333 -101.7386
9211187500 -1.0905474 135.36618 -9.0919447 -73.583855 -9.0729313 -74.284691 -0.092124559 -101.74498
9211250000 -1.0792167 135.31241 -9.0819845 -73.72644 -9.0793085 -74.279236 -0.075582676 -101.73502
9211312500 -1.0784959 135.32285 -9.0929117 -73.60054 -9.0761681 -74.325584 -0.09261103 -101.71996
9211375000 -1.078907 135.23721 -9.0840864 -73.642838 -9.0762234 -74.408615 -0.089858636 -101.70947
9211437500 -1.0715981 135.29245 -9.0755558 -73.650032 -9.0736742 -74.352646 -0.084907487 -101.68881
9211500000 -1.0790308 135.25224 -9.0816174 -73.686325 -9.0812664 -74.346375 -0.089669563 -101.76411
9211562500 -1.0876729 135.26035 -9.0918465 -73.702263 -9.0758104 -74.352638 -0.092763394 -101.69
9211625000 -1.0832812 135.23254 -9.0785456 -73.714333 -9.0735865 -74.346336 -0.084700048 -101.67993
9211687500 -1.0819606 135.28104 -9.0789156 -73.582527 -9.0750198 -74.327721 -0.095805369 -101.58421
9211750000 -1.0805818 135.19507 -9.0850296 -73.606926 -9.0669718 -74.310959 -0.080410242 -101.55818
9211812500 -1.0807149 135.2052 -9.0844078 -73.638725 -9.0742693 -74.382431 -0.093219928 -101.62525
9211875000 -1.0830346 135.16982 -9.0809927 -73.671242 -9.0698872 -74.322983 -0.08255022 -101.50681
9211937500 -1.0804006 135.20384 -9.0780611 -73.61541 -9.0719461 -74.341217 -0.088053867 -101.53772
9212000000 -1.0783315 135.07109 -9.0775843 -73.652176 -9.063199 -74.338844 -0.093796909 -101.55265
9212062500 -1.0773951 135.10381 -9.0716114 -73.64151 -9.067626 -74.276863 -0.091900922 -101.52906
9212125000 -1.082948 135.06387 -9.0752153 -73.712799 -9.0773001 -74.374084 -0.088787258 -101.56332
9212187500 -1.0687107 135.12669 -9.0573292 -73.559311 -9.0530777 -74.358536 -0.086431816 -101.4838
