!Agilent Technologies,N5242A,MY51221714,A.09.90.19
!Agilent N5242A: A.09.90.19
!Date: Tuesday, March 26, 2024 16:54:44
!Correction: S11(Full 2 Port(1,2)) 
!S21(Full 2 Port(1,2)) 
!S12(Full 2 Port(1,2)) 
!S22(Full 2 Port(1,2)) 
!S2P File: Measurements: S11, S21, S12, S22:
# Hz S  dB   R 50
9200000000 -1.0701194 137.33682 -9.1374655 -73.915123 -9.1246729 -74.664558 -0.070130289 -104.44819
9200062500 -1.0722592 137.37117 -9.1335964 -73.932793 -9.1283264 -74.631844 -0.055857033 -104.38593
9200125000 -1.0733216 137.34341 -9.1329126 -73.836708 -9.1202621 -74.601181 -0.064231381 -104.35069
9200187500 -1.0773156 137.39432 -9.136919 -73.818405 -9.1208248 -74.684845 -0.043351471 -104.36632
9200250000 -1.0668427 137.31171 -9.1305914 -73.897675 -9.1289225 -74.622658 -0.052769493 -104.3955
9200312500 -1.0745816 137.29677 -9.1389418 -73.868828 -9.1234913 -74.616386 -0.055619251 -104.32137
9200375000 -1.0685816 137.28549 -9.1298609 -73.863594 -9.1198378 -74.662949 -0.051947184 -104.33605
9200437500 -1.0701289 137.30431 -9.1324606 -73.859444 -9.1093378 -74.607307 -0.04558029 -104.29533
9200500000 -1.0691493 137.24234 -9.1352863 -73.913887 -9.1210451 -74.569504 -0.060564455 -104.28122
9200562500 -1.0674783 137.25493 -9.1160536 -73.83799 -9.1250868 -74.660362 -0.050748985 -104.31079
9200625000 -1.074491 137.25641 -9.130744 -73.83268 -9.1105347 -74.617058 -0.050559692 -104.25369
9200687500 -1.0648538 137.2356 -9.1376562 -73.835579 -9.1200514 -74.625328 -0.057050694 -104.21356
9200750000 -1.0705223 137.15298 -9.1151466 -73.911469 -9.1257153 -74.604385 -0.068044938 -104.22638
9200812500 -1.084739 137.19582 -9.1337185 -73.831596 -9.1228228 -74.610329 -0.075488709 -104.19131
9200875000 -1.0619711 137.25548 -9.1081991 -73.838135 -9.1246128 -74.539688 -0.060562454 -104.22448
9200937500 -1.0695813 137.1881 -9.1253405 -73.831749 -9.117959 -74.539024 -0.054942004 -104.14352
9201000000 -1.0673025 137.14275 -9.1258478 -73.913994 -9.1168776 -74.569107 -0.058847394 -104.1776
9201062500 -1.0705516 137.1265 -9.1219292 -73.852501 -9.0984325 -74.590393 -0.052028242 -104.10545
9201125000 -1.0694131 137.15569 -9.1109438 -73.802292 -9.1208601 -74.607971 -0.061733264 -104.08057
9201187500 -1.0767549 137.07027 -9.1239138 -73.78022 -9.1063814 -74.553192 -0.062243264 -103.99084
9201250000 -1.0786045 137.11809 -9.1156483 -73.775375 -9.1227083 -74.560104 -0.062396672 -104.01165
9201312500 -1.0842857 137.09779 -9.1253157 -73.840919 -9.1194696 -74.640022 -0.060591504 -104.11242
9201375000 -1.080236 137.09889 -9.1303625 -73.759598 -9.1230087 -74.516342 -0.072327502 -103.98142
9201437500 -1.0745586 137.09204 -9.1337309 -73.786339 -9.1202517 -74.594292 -0.061046612 -104.12051
9201500000 -1.0752997 137.09952 -9.122817 -73.769569 -9.1154757 -74.53672 -0.060245667 -103.98678
9201562500 -1.0708923 137.03517 -9.1272144 -73.759277 -9.1306028 -74.581024 -0.076182157 -104.03832
9201625000 -1.066101 137.01515 -9.1149387 -73.816681 -9.116951 -74.542549 -0.076436572 -103.9106
9201687500 -1.0803107 137.01221 -9.1182203 -73.767052 -9.1109781 -74.549576 -0.069232687 -103.9036
9201750000 -1.0758696 137.00995 -9.1190214 -73.82357 -9.106205 -74.603477 -0.058999918 -103.93808
9201812500 -1.0669128 136.99321 -9.1136494 -73.766808 -9.1087084 -74.489243 -0.070204809 -103.9519
9201875000 -1.0687474 136.94881 -9.1121931 -73.86824 -9.1102848 -74.610054 -0.060648836 -103.8744
9201937500 -1.0825375 136.89378 -9.1170235 -73.815575 -9.1052876 -74.619934 -0.057478778 -103.88286
9202000000 -1.0759896 136.94228 -9.1122303 -73.78125 -9.0993614 -74.550911 -0.059605341 -103.84742
9202062500 -1.0807635 136.9362 -9.1047449 -73.832253 -9.1087093 -74.584587 -0.062387381 -103.85828
9202125000 -1.0856694 136.95969 -9.136858 -73.787453 -9.1015787 -74.479088 -0.068346567 -103.83597
9202187500 -1.0719597 136.9111 -9.1142273 -73.842773 -9.1074419 -74.539406 -0.06238436 -103.75288
9202250000 -1.0810803 136.88893 -9.1216955 -73.825684 -9.0987148 -74.501503 -0.07018847 -103.80927
9202312500 -1.0769614 136.9136 -9.1175642 -73.762688 -9.0990076 -74.563766 -0.064403705 -103.80026
9202375000 -1.0741422 136.83159 -9.1147957 -73.816414 -9.1090841 -74.559921 -0.073228814 -103.71007
9202437500 -1.0684673 136.92923 -9.1041794 -73.751839 -9.1000319 -74.58429 -0.053635858 -103.76665
9202500000 -1.0830376 136.83182 -9.1151257 -73.875679 -9.1147394 -74.592247 -0.074394926 -103.77551
9202562500 -1.0661286 136.82069 -9.1031084 -73.741348 -9.1061783 -74.511093 -0.069078542 -103.72989
9202625000 -1.0744271 136.87892 -9.1003666 -73.778244 -9.0969038 -74.521309 -0.070756532 -103.68689
9202687500 -1.0779035 136.8311 -9.110919 -73.782608 -9.0986891 -74.479782 -0.060623836 -103.64165
9202750000 -1.0687923 136.71751 -9.1015444 -73.813866 -9.1057825 -74.553619 -0.070853263 -103.66628
9202812500 -1.0859171 136.75093 -9.111063 -73.825958 -9.0931559 -74.518463 -0.064216144 -103.60757
9202875000 -1.0728467 136.76595 -9.1063204 -73.758438 -9.0988703 -74.50383 -0.070690982 -103.57355
9202937500 -1.0701456 136.73192 -9.0977058 -73.877068 -9.0927725 -74.48027 -0.063606486 -103.59827
9203000000 -1.0790851 136.76131 -9.1072502 -73.796616 -9.0886021 -74.617729 -0.063643202 -103.5796
9203062500 -1.0739983 136.68735 -9.1088247 -73.771187 -9.0878935 -74.448601 -0.065095179 -103.54748
9203125000 -1.0731658 136.66331 -9.1023836 -73.807426 -9.095542 -74.514717 -0.068571582 -103.58387
9203187500 -1.0790709 136.70169 -9.1256723 -73.793953 -9.0955534 -74.596649 -0.070200287 -103.55506
9203250000 -1.0730754 136.66275 -9.0993042 -73.774864 -9.0960159 -74.4935 -0.062586583 -103.51933
9203312500 -1.0803543 136.69313 -9.0963783 -73.723694 -9.0940342 -74.628479 -0.064977966 -103.52457
9203375000 -1.0712202 136.66956 -9.0914049 -73.83564 -9.0883961 -74.546379 -0.065268837 -103.49882
9203437500 -1.0778753 136.67744 -9.1105413 -73.811569 -9.0946054 -74.463608 -0.067863569 -103.46829
9203500000 -1.0695236 136.61307 -9.0896206 -73.808212 -9.0959415 -74.468842 -0.069702417 -103.45585
9203562500 -1.0810854 136.59488 -9.1090412 -73.823242 -9.09869 -74.51519 -0.078377537 -103.4855
9203625000 -1.081679 136.63745 -9.1074562 -73.790619 -9.0969286 -74.512573 -0.072591387 -103.46347
9203687500 -1.0835005 136.56351 -9.1047182 -73.794899 -9.1025257 -74.504158 -0.078483358 -103.42735
9203750000 -1.0765078 136.59465 -9.0930767 -73.737076 -9.0940809 -74.516632 -0.065811723 -103.37812
9203812500 -1.0787416 136.55608 -9.0891342 -73.795052 -9.0935917 -74.510742 -0.069153577 -103.38641
9203875000 -1.075181 136.54129 -9.1075563 -73.744431 -9.0918837 -74.56813 -0.079808168 -103.38248
9203937500 -1.0796759 136.56306 -9.0961189 -73.740967 -9.0845566 -74.503319 -0.068950184 -103.37982
9204000000 -1.0778563 136.54295 -9.0868025 -73.743317 -9.0917759 -74.486305 -0.061822955 -103.30564
9204062500 -1.0723431 136.52916 -9.0898113 -73.706032 -9.0839033 -74.474152 -0.070779912 -103.24879
9204125000 -1.0826783 136.53589 -9.0961733 -73.740097 -9.0798874 -74.527985 -0.066724539 -103.27496
9204187500 -1.0876728 136.48528 -9.1026306 -73.733208 -9.0868931 -74.485535 -0.073519513 -103.2317
9204250000 -1.07348 136.47807 -9.0758457 -73.757843 -9.0833111 -74.491371 -0.068451785 -103.30534
9204312500 -1.0781423 136.50034 -9.0945807 -73.683479 -9.0829916 -74.508606 -0.08033555 -103.16962
9204375000 -1.067677 136.44322 -9.0957222 -73.762596 -9.0787659 -74.491287 -0.070378833 -103.25139
9204437500 -1.0891622 136.46698 -9.1000872 -73.782997 -9.083725 -74.449783 -0.064058878 -103.21008
9204500000 -1.0835915 136.42676 -9.0898333 -73.756912 -9.0843744 -74.52401 -0.072409406 -103.22931
9204562500 -1.0843301 136.40971 -9.0985737 -73.807411 -9.0756302 -74.516624 -0.065397494 -103.23137
9204625000 -1.0719 136.39763 -9.0803127 -73.723564 -9.0716057 -74.550316 -0.068424754 -103.14793
9204687500 -1.0750854 136.38812 -9.0964975 -73.722588 -9.0834761 -74.459633 -0.073554456 -103.0938
9204750000 -1.0863003 136.3766 -9.087348 -73.680962 -9.0833616 -74.53891 -0.07395044 -103.14103
9204812500 -1.0741754 136.3371 -9.0881872 -73.712524 -9.0818357 -74.466248 -0.067260414 -103.11818
9204875000 -1.0756304 136.40184 -9.0853043 -73.726563 -9.1031942 -74.487724 -0.081667341 -103.15273
9204937500 -1.0778207 136.2968 -9.0832853 -73.77813 -9.0689669 -74.492508 -0.057726257 -103.11069
9205000000 -1.0687008 136.28085 -9.0822783 -73.667664 -9.0766678 -74.464706 -0.085153572 -103.03844
9205062500 -1.0768013 136.26859 -9.0822477 -73.768379 -9.0647058 -74.430283 -0.070637129 -103.00828
9205125000 -1.0768296 136.29918 -9.0874081 -73.645538 -9.0795794 -74.456245 -0.074114941 -102.98554
9205187500 -1.0785856 136.31155 -9.0875769 -73.669083 -9.0804176 -74.468925 -0.08265546 -102.94584
9205250000 -1.0726147 136.23872 -9.0807552 -73.770256 -9.075635 -74.485184 -0.074033514 -103.06732
9205312500 -1.0787265 136.30951 -9.0737429 -73.687859 -9.0744724 -74.50959 -0.079763234 -102.9965
9205375000 -1.0823327 136.20801 -9.0822239 -73.778709 -9.0826454 -74.463776 -0.077613205 -102.94868
9205437500 -1.0687816 136.24538 -9.0713062 -73.692291 -9.067811 -74.498718 -0.073525921 -102.98735
9205500000 -1.0825517 136.1329 -9.0791283 -73.761337 -9.0733633 -74.533768 -0.069171533 -102.90634
9205562500 -1.0789577 136.21989 -9.0782804 -73.640457 -9.0735874 -74.494843 -0.073595807 -102.87918
9205625000 -1.0852473 136.17151 -9.0831518 -73.731186 -9.0785627 -74.53363 -0.076153301 -102.86876
9205687500 -1.0786166 136.15343 -9.0766344 -73.683937 -9.0656815 -74.523529 -0.072776467 -102.89648
9205750000 -1.0769708 136.09926 -9.079998 -73.707893 -9.0761471 -74.446495 -0.069228932 -102.82654
9205812500 -1.082257 136.10435 -9.0711193 -73.702499 -9.0749092 -74.493309 -0.07953082 -102.77928
9205875000 -1.0720488 136.17287 -9.0762482 -73.719795 -9.0740404 -74.451401 -0.073446713 -102.89049
9205937500 -1.0797801 136.10483 -9.0762777 -73.707787 -9.0686235 -74.384575 -0.083004571 -102.78142
9206000000 -1.0833578 136.09326 -9.071002 -73.702629 -9.0632849 -74.489128 -0.071409151 -102.75394
9206062500 -1.0793492 136.10858 -9.0808067 -73.800438 -9.0721979 -74.508438 -0.078572668 -102.83298
9206125000 -1.082993 136.03453 -9.0633936 -73.741203 -9.0642576 -74.435249 -0.077457398 -102.73717
9206187500 -1.0771314 136.07411 -9.0643768 -73.708481 -9.0587006 -74.48465 -0.068412893 -102.74932
9206250000 -1.0859547 136.01411 -9.0772123 -73.678833 -9.0705481 -74.359856 -0.081937969 -102.68552
9206312500 -1.0746582 135.96925 -9.0752583 -73.728737 -9.0764074 -74.546738 -0.082001403 -102.75774
9206375000 -1.0825661 136.03412 -9.0728235 -73.696266 -9.0597706 -74.415314 -0.07562726 -102.70061
9206437500 -1.0791802 135.97475 -9.0872087 -73.710831 -9.0648708 -74.458771 -0.082313605 -102.6556
9206500000 -1.0780132 135.97176 -9.0676527 -73.73848 -9.0566158 -74.365479 -0.080198579 -102.59207
9206562500 -1.0820694 135.97479 -9.0706282 -73.77227 -9.0667667 -74.356468 -0.081000067 -102.6412
9206625000 -1.085233 135.88083 -9.0659819 -73.752174 -9.0564899 -74.523575 -0.076074027 -102.6961
9206687500 -1.085295 135.94099 -9.0757933 -73.766914 -9.0560827 -74.403351 -0.067809187 -102.62601
9206750000 -1.0788095 135.93396 -9.0668306 -73.708237 -9.0705509 -74.406998 -0.087547809 -102.60808
9206812500 -1.0781361 135.95084 -9.0682096 -73.676033 -9.0678606 -74.439865 -0.076333791 -102.62938
9206875000 -1.0829794 135.91518 -9.0672779 -73.714355 -9.0561466 -74.41584 -0.075919911 -102.52185
9206937500 -1.0800436 135.91484 -9.0617714 -73.65451 -9.0641737 -74.434929 -0.079190247 -102.5153
9207000000 -1.078361 135.87216 -9.0633507 -73.700745 -9.0583553 -74.438416 -0.079160027 -102.50388
9207062500 -1.0734324 135.84465 -9.0603027 -73.676773 -9.0557203 -74.438148 -0.091252781 -102.42128
9207125000 -1.0886154 135.8378 -9.0485382 -73.723846 -9.0500717 -74.4608 -0.074420556 -102.48044
9207187500 -1.0806351 135.81853 -9.0550051 -73.69754 -9.0572443 -74.393585 -0.076439366 -102.5006
9207250000 -1.0770643 135.78574 -9.0560198 -73.68029 -9.069418 -74.403831 -0.078494333 -102.46636
9207312500 -1.0770656 135.77182 -9.0552511 -73.727928 -9.0547047 -74.455322 -0.074988574 -102.45235
9207375000 -1.0817753 135.77733 -9.062438 -73.692909 -9.0557365 -74.455284 -0.084509678 -102.40265
9207437500 -1.0747249 135.81221 -9.0658541 -73.636421 -9.0685043 -74.390244 -0.085550256 -102.40514
9207500000 -1.0830873 135.78383 -9.0570784 -73.712852 -9.0455818 -74.300629 -0.085958555 -102.32143
9207562500 -1.0725946 135.77173 -9.0597095 -73.699371 -9.0498466 -74.319595 -0.083861105 -102.36487
9207625000 -1.0820993 135.70558 -9.0556087 -73.653915 -9.05651 -74.370277 -0.087774247 -102.25141
9207687500 -1.0846293 135.74117 -9.0550508 -73.666122 -9.0505924 -74.465454 -0.082488179 -102.41482
9207750000 -1.0774468 135.73929 -9.0526333 -73.614456 -9.0523853 -74.388725 -0.080290876 -102.31612
9207812500 -1.0829031 135.69997 -9.0591068 -73.681602 -9.0467806 -74.384514 -0.086469658 -102.30644
9207875000 -1.079664 135.72108 -9.0621147 -73.586555 -9.049921 -74.410683 -0.079221278 -102.26399
9207937500 -1.0826029 135.63268 -9.0578918 -73.629097 -9.0590687 -74.427612 -0.087368883 -102.31796
9208000000 -1.0857133 135.67192 -9.0474558 -73.672905 -9.0566511 -74.399315 -0.084640756 -102.22371
9208062500 -1.0817438 135.65903 -9.0536022 -73.670929 -9.0453386 -74.389389 -0.081409566 -102.23737
9208125000 -1.0865303 135.64679 -9.0588665 -73.71637 -9.0474892 -74.458351 -0.082720026 -102.25397
9208187500 -1.0804533 135.62349 -9.0549364 -73.660576 -9.0439062 -74.351692 -0.083331957 -102.19711
9208250000 -1.0861421 135.61874 -9.0577784 -73.625092 -9.0353689 -74.31488 -0.077781819 -102.11411
9208312500 -1.0795552 135.59712 -9.0487766 -73.641296 -9.0358648 -74.419815 -0.085597381 -102.18773
9208375000 -1.0851563 135.58873 -9.0494127 -73.678246 -9.0435886 -74.359833 -0.084142424 -102.08365
9208437500 -1.0875043 135.52257 -9.0552988 -73.721893 -9.0436277 -74.331612 -0.094416194 -102.12917
9208500000 -1.0853037 135.52052 -9.0569744 -73.647598 -9.0450935 -74.421021 -0.082151979 -102.08818
9208562500 -1.09252 135.61481 -9.0532122 -73.551643 -9.0387306 -74.399422 -0.082647026 -102.11607
9208625000 -1.0844476 135.4852 -9.0370922 -73.670609 -9.0331507 -74.339874 -0.085471913 -102.09813
9208687500 -1.0737063 135.48729 -9.0370855 -73.632446 -9.0429115 -74.392258 -0.087846465 -102.06618
9208750000 -1.0784733 135.53654 -9.0436373 -73.541512 -9.0423059 -74.34465 -0.086249471 -102.01256
9208812500 -1.0799687 135.55763 -9.0526628 -73.667358 -9.0465355 -74.387794 -0.087337814 -102.00691
9208875000 -1.0825384 135.47098 -9.0408096 -73.668571 -9.0472679 -74.316994 -0.083551101 -101.9733
9208937500 -1.0784966 135.47357 -9.0412836 -73.667984 -9.0436344 -74.353188 -0.088462256 -101.9481
9209000000 -1.0763084 135.46783 -9.0500746 -73.657845 -9.0419426 -74.397591 -0.090602241 -102.03481
9209062500 -1.0870622 135.41074 -9.0441799 -73.607178 -9.0497646 -74.362679 -0.090372622 -101.95235
9209125000 -1.0860801 135.44104 -9.0339384 -73.588264 -9.0301723 -74.417953 -0.080420487 -101.91661
9209187500 -1.0833969 135.43022 -9.0441294 -73.638657 -9.0469322 -74.367363 -0.095701352 -101.90446
9209250000 -1.0766699 135.37556 -9.0437536 -73.604546 -9.0380001 -74.380821 -0.094338186 -101.87364
9209312500 -1.0863626 135.28082 -9.0519562 -73.70623 -9.0289936 -74.343819 -0.095603116 -101.87425
9209375000 -1.0746657 135.41521 -9.0351305 -73.569901 -9.0437355 -74.306229 -0.10163144 -101.8891
9209437500 -1.0890138 135.30399 -9.0440531 -73.621506 -9.0438595 -74.413742 -0.094380535 -101.8409
9209500000 -1.0815686 135.30536 -9.0325232 -73.638222 -9.0388145 -74.326714 -0.093759313 -101.8111
9209562500 -1.0881495 135.34769 -9.0392456 -73.574196 -9.0444412 -74.332878 -0.10646057 -101.76469
9209625000 -1.089141 135.25621 -9.0453339 -73.629776 -9.0374918 -74.297943 -0.095149554 -101.76076
9209687500 -1.0892458 135.20999 -9.0389318 -73.636459 -9.0327969 -74.341415 -0.09105733 -101.78046
9209750000 -1.0836363 135.27386 -9.0273743 -73.670029 -9.0288076 -74.288521 -0.082427129 -101.73132
9209812500 -1.0790193 135.2588 -9.0349169 -73.570068 -9.0332518 -74.363869 -0.089602217 -101.70666
9209875000 -1.0816022 135.25307 -9.0370798 -73.588287 -9.0301485 -74.313301 -0.094388135 -101.72875
9209937500 -1.0849695 135.32629 -9.052104 -73.614601 -9.0368853 -74.313644 -0.098641142 -101.78236
9210000000 -1.0733914 135.21921 -9.0327635 -73.56926 -9.0254822 -74.355904 -0.10502709 -101.68337
9210062500 -1.0891151 135.22014 -9.0354376 -73.644203 -9.0299931 -74.345657 -0.10157693 -101.6953
9210125000 -1.0713588 135.21001 -9.0308962 -73.611328 -9.0172939 -74.324844 -0.089752875 -101.64935
9210187500 -1.0827416 135.18773 -9.030592 -73.614449 -9.0235252 -74.331947 -0.090359412 -101.61151
9210250000 -1.0871977 135.20702 -9.0351191 -73.631279 -9.0316181 -74.231422 -0.09857291 -101.59692
9210312500 -1.0896709 135.14333 -9.033618 -73.580917 -9.03302 -74.389023 -0.098104537 -101.60807
9210375000 -1.0796914 135.19902 -9.0281258 -73.563736 -9.0229273 -74.271919 -0.09464097 -101.51464
9210437500 -1.0814598 135.13129 -9.041748 -73.588577 -9.0189476 -74.391624 -0.084842876 -101.59702
9210500000 -1.0808113 135.11603 -9.0230818 -73.635429 -9.012928 -74.314163 -0.08324156 -101.57064
9210562500 -1.0911704 135.10846 -9.0367508 -73.609703 -9.0294037 -74.371559 -0.097405836 -101.51123
9210625000 -1.0802592 135.11414 -9.0322704 -73.523186 -9.0287247 -74.297928 -0.096740216 -101.55437
9210687500 -1.0832672 135.11194 -9.0298557 -73.625824 -9.0177374 -74.383865 -0.092919022 -101.49064
9210750000 -1.0815417 135.10542 -9.0299511 -73.585411 -9.0164061 -74.337814 -0.092963316 -101.48528
9210812500 -1.085856 135.03865 -9.0315351 -73.623337 -9.0201597 -74.239357 -0.096047215 -101.42083
9210875000 -1.0868988 135.03882 -9.0355768 -73.60006 -9.0175285 -74.243385 -0.099754766 -101.48097
9210937500 -1.0799159 135.08446 -9.031332 -73.592537 -9.0179348 -74.318581 -0.10065289 -101.50581
9211000000 -1.0824244 135.05128 -9.0239363 -73.550896 -9.0294666 -74.29174 -0.099384829 -101.44875
9211062500 -1.0864429 135.02245 -9.0251799 -73.564705 -9.0238686 -74.266388 -0.10340405 -101.41855
9211125000 -1.0795588 134.97485 -9.019866 -73.544037 -9.0024157 -74.258476 -0.091326781 -101.35692
9211187500 -1.0890884 134.98492 -9.0201979 -73.592972 -9.0077353 -74.277161 -0.098725326 -101.3282
9211250000 -1.0869836 134.9705 -9.0140562 -73.678482 -9.0169926 -74.245842 -0.088046581 -101.3586
9211312500 -1.0862759 134.95512 -9.0259771 -73.570763 -9.0162973 -74.283165 -0.09906096 -101.34327
9211375000 -1.0847546 134.89096 -9.0157881 -73.544449 -9.0117054 -74.323502 -0.095985375 -101.27693
9211437500 -1.0858343 134.92712 -9.0086288 -73.587509 -9.0137672 -74.300064 -0.093120784 -101.30592
9211500000 -1.0856332 134.90863 -9.0197639 -73.623482 -9.0075016 -74.328224 -0.089319818 -101.35764
9211562500 -1.0940107 134.95027 -9.0218887 -73.561813 -9.0086231 -74.234695 -0.098790258 -101.29593
9211625000 -1.0894294 134.85913 -9.0196562 -73.585152 -9.0090904 -74.313255 -0.09613391 -101.29481
9211687500 -1.0860833 134.93671 -9.0181475 -73.528244 -9.0231285 -74.271286 -0.10494575 -101.20716
9211750000 -1.0852559 134.87318 -9.011446 -73.547394 -9.0046415 -74.323723 -0.085643321 -101.22546
9211812500 -1.0867227 134.86484 -9.0259418 -73.528862 -9.0096006 -74.268738 -0.09977255 -101.24306
9211875000 -1.0926268 134.8396 -9.0270634 -73.551315 -9.0009708 -74.25013 -0.091497242 -101.13564
9211937500 -1.085766 134.84303 -9.0171881 -73.531433 -9.0123892 -74.26384 -0.10810552 -101.15109
9212000000 -1.0831892 134.72905 -9.0073757 -73.537506 -9.0038977 -74.292564 -0.10077079 -101.1438
9212062500 -1.0833235 134.74805 -9.0186987 -73.549263 -9.0053873 -74.254944 -0.10092992 -101.14172
9212125000 -1.0844905 134.71315 -9.0059357 -73.5839 -9.0134554 -74.269264 -0.096950926 -101.07397
9212187500 -1.0737777 134.77899 -9.0007648 -73.535301 -9.0021152 -74.205147 -0.10307704 -101.01923
