!Agilent Technologies,N5242A,MY51221714,A.09.90.19
!Agilent N5242A: A.09.90.19
!Date: Tuesday, March 26, 2024 16:53:48
!Correction: S11(Full 2 Port(1,2)) 
!S21(Full 2 Port(1,2)) 
!S12(Full 2 Port(1,2)) 
!S22(Full 2 Port(1,2)) 
!S2P File: Measurements: S11, S21, S12, S22:
# Hz S  dB   R 50
9200000000 -1.0142875 138.27893 -9.2904453 -73.033195 -9.2627306 -73.690315 -0.011237135 -104.43245
9200062500 -1.0114605 138.27679 -9.2788067 -73.041847 -9.2760324 -73.779533 -0.0046514086 -104.37848
9200125000 -1.0081065 138.25838 -9.2711611 -72.919006 -9.258728 -73.69355 -0.012299868 -104.34915
9200187500 -1.0150396 138.30902 -9.2772045 -72.906113 -9.2603884 -73.764313 -0.00071191695 -104.32845
9200250000 -1.0059793 138.25958 -9.2718906 -72.922028 -9.2678919 -73.674004 -0.0017477988 -104.3253
9200312500 -1.0216904 138.27151 -9.2908039 -72.914444 -9.2663441 -73.769478 -0.0040732659 -104.32913
9200375000 -1.0121988 138.21793 -9.2784328 -73.029236 -9.2620649 -73.837578 0.00033991621 -104.30487
9200437500 -1.0035704 138.21208 -9.2692223 -72.943886 -9.2494545 -73.700706 0.011498611 -104.23071
9200500000 -1.0092872 138.16612 -9.2809439 -72.979355 -9.2590714 -73.699997 -0.00912912 -104.22991
9200562500 -1.0044507 138.17213 -9.2680311 -72.928139 -9.2751112 -73.711906 -0.0054997504 -104.30515
9200625000 -1.0179418 138.17854 -9.2819757 -72.97184 -9.2603512 -73.701187 -0.0051185992 -104.22339
9200687500 -1.0000746 138.14259 -9.271841 -72.955925 -9.2680769 -73.67205 -0.0038077207 -104.15587
9200750000 -1.0082256 138.07703 -9.2635345 -73.025253 -9.2656755 -73.693062 -0.014340447 -104.21043
9200812500 -1.0224955 138.12038 -9.2820864 -73.003197 -9.2659445 -73.762032 -0.020229286 -104.1924
9200875000 -1.0035219 138.19476 -9.2708902 -72.877831 -9.2646523 -73.656792 -0.010632732 -104.18096
9200937500 -1.0077192 138.15161 -9.2789927 -72.980293 -9.2639208 -73.708794 -0.003561513 -104.13426
9201000000 -1.0040075 138.08682 -9.2654028 -73.00135 -9.260603 -73.66185 -0.00017881484 -104.13274
9201062500 -1.0047653 138.07248 -9.2659731 -72.975449 -9.257967 -73.728752 -0.0093641067 -104.14667
9201125000 -1.0058708 138.10059 -9.2620926 -72.865494 -9.2548285 -73.718025 -0.0031454843 -104.08437
9201187500 -1.0064816 137.98686 -9.261075 -72.974663 -9.2583847 -73.653511 -0.015177297 -103.98817
9201250000 -1.0119166 138.05125 -9.2573338 -72.9543 -9.2662325 -73.614914 -0.012744188 -104.03233
9201312500 -1.0166713 138.017 -9.2652264 -72.925026 -9.2654305 -73.690475 -0.0013785553 -104.03129
9201375000 -1.0150216 138.03928 -9.2702246 -72.899231 -9.2597933 -73.641861 -0.01248248 -103.98861
9201437500 -1.0051626 137.99823 -9.2665834 -72.896637 -9.2627716 -73.659081 -0.0078594172 -104.06062
9201500000 -1.0113238 137.99048 -9.2705278 -72.867065 -9.2606163 -73.655861 -0.0062533813 -104.00612
9201562500 -1.0143663 137.94672 -9.2785177 -72.915413 -9.2647066 -73.701385 -0.018991603 -104.00788
9201625000 -1.0072678 137.96455 -9.263402 -72.928757 -9.2524395 -73.632172 -0.015353088 -103.85684
9201687500 -1.0120523 137.95801 -9.2630663 -72.888123 -9.2560835 -73.634659 -0.011431887 -103.84821
9201750000 -1.0100046 137.9552 -9.2585611 -72.890144 -9.2395668 -73.646431 0.00424582 -103.85506
9201812500 -1.0030875 137.92603 -9.2629595 -72.885887 -9.2646341 -73.699883 -0.023059094 -103.95486
9201875000 -1.0076822 137.84131 -9.2513161 -72.95742 -9.2465038 -73.666672 -0.0022069186 -103.83495
9201937500 -1.0119303 137.84262 -9.2689657 -72.953819 -9.2466888 -73.719971 -0.0033609227 -103.9517
9202000000 -1.0133628 137.88968 -9.2590218 -72.900528 -9.2500896 -73.67038 -0.009102528 -103.84608
9202062500 -1.0190334 137.84865 -9.2485876 -72.912308 -9.2557487 -73.65229 -0.010909855 -103.81446
9202125000 -1.0120109 137.89307 -9.2647038 -72.835701 -9.2443075 -73.666557 -0.017569574 -103.87135
9202187500 -1.0094603 137.80948 -9.2559204 -72.979622 -9.2485981 -73.631386 -0.0082145454 -103.7397
9202250000 -1.0147157 137.8257 -9.2639771 -72.908562 -9.2519398 -73.540535 -0.017996276 -103.7054
9202312500 -1.0089588 137.82681 -9.2586699 -72.869331 -9.2422876 -73.745316 -0.0093948161 -103.80624
9202375000 -1.0079663 137.75429 -9.2589025 -72.930344 -9.2477245 -73.621452 -0.014636849 -103.69833
9202437500 -1.0090663 137.85521 -9.2640848 -72.843941 -9.2503624 -73.641083 -0.015506682 -103.74498
9202500000 -1.0225893 137.78319 -9.2631483 -72.894714 -9.2513924 -73.627724 -0.011802603 -103.77546
9202562500 -1.0081366 137.71027 -9.254797 -72.85775 -9.247159 -73.59623 -0.013902378 -103.71884
9202625000 -1.0042386 137.81419 -9.2436008 -72.848549 -9.2333326 -73.664101 -0.0064553423 -103.69208
9202687500 -1.0142033 137.74251 -9.2599573 -72.892601 -9.241662 -73.647774 -0.0062586893 -103.6056
9202750000 -0.99974823 137.64001 -9.2421942 -72.967041 -9.2390261 -73.683205 -0.0082420269 -103.66426
9202812500 -1.009724 137.7041 -9.245779 -72.88604 -9.2294292 -73.648827 -0.010866968 -103.57143
9202875000 -1.0021887 137.69882 -9.2509365 -72.859184 -9.2444201 -73.655685 -0.011584624 -103.59933
9202937500 -1.0056295 137.68167 -9.2463398 -72.890755 -9.2305336 -73.560577 -0.0028879405 -103.56799
9203000000 -1.0151038 137.73135 -9.2515984 -72.905449 -9.2345972 -73.671509 -0.0084738703 -103.53324
9203062500 -1.0041298 137.59261 -9.2416048 -72.941139 -9.2428503 -73.599396 -0.025115799 -103.53285
9203125000 -1.0067778 137.65047 -9.2434521 -72.902687 -9.2360315 -73.664429 -0.019346241 -103.55019
9203187500 -1.0060635 137.63918 -9.2565308 -72.883766 -9.2339277 -73.684464 -0.015582633 -103.56853
9203250000 -1.0082413 137.59631 -9.2437124 -72.95182 -9.2418709 -73.605988 -0.011756776 -103.49458
9203312500 -1.0197073 137.60402 -9.2492237 -72.970566 -9.2371197 -73.664047 -0.0041980799 -103.51747
9203375000 -1.0105358 137.59987 -9.2463112 -72.894501 -9.2296085 -73.611153 -0.0109825 -103.4699
9203437500 -1.0197462 137.61508 -9.261982 -72.900993 -9.2384653 -73.606461 -0.0087289196 -103.47523
9203500000 -1.0092456 137.57626 -9.2410364 -72.842415 -9.234889 -73.668251 -0.0026128457 -103.45753
9203562500 -1.016916 137.53603 -9.2571106 -72.855888 -9.2548323 -73.555992 -0.03279854 -103.42061
9203625000 -1.0134623 137.53679 -9.2572136 -72.926064 -9.242734 -73.558975 -0.020386197 -103.42902
9203687500 -1.0198369 137.53615 -9.2633009 -72.880417 -9.2415142 -73.62204 -0.025732452 -103.4
9203750000 -1.0144233 137.49646 -9.243371 -72.866295 -9.230423 -73.583183 -0.0096911285 -103.33164
9203812500 -1.0135086 137.50966 -9.2331533 -72.852631 -9.2319412 -73.610176 -0.011811683 -103.34374
9203875000 -1.0103936 137.5108 -9.2489309 -72.823868 -9.2355289 -73.59655 -0.026897725 -103.32927
9203937500 -1.0167476 137.49982 -9.2433023 -72.878113 -9.2328157 -73.544449 -0.015912224 -103.30404
9204000000 -1.0112181 137.46097 -9.2366123 -72.881256 -9.2295961 -73.612335 -0.01353282 -103.27412
9204062500 -1.0071666 137.45674 -9.242712 -72.825165 -9.222415 -73.616493 -0.018255573 -103.3114
9204125000 -1.0147804 137.43718 -9.2409039 -72.879379 -9.2275743 -73.630486 -0.010399447 -103.26005
9204187500 -1.0190809 137.37758 -9.2480736 -72.835571 -9.2387619 -73.579689 -0.028233502 -103.27209
9204250000 -1.013406 137.44962 -9.2209959 -72.834656 -9.2311792 -73.623116 -0.016296715 -103.27254
9204312500 -1.0122035 137.42613 -9.2387905 -72.834496 -9.2316322 -73.560745 -0.014817935 -103.13878
9204375000 -1.0043011 137.3732 -9.2398701 -72.903656 -9.2269001 -73.581528 -0.021021465 -103.25055
9204437500 -1.0200349 137.4034 -9.2433119 -72.878151 -9.2310953 -73.540306 -0.017649779 -103.15862
9204500000 -1.0164491 137.37631 -9.2399902 -72.876144 -9.2400637 -73.560097 -0.018128246 -103.19739
9204562500 -1.0155129 137.32341 -9.2426624 -72.928749 -9.2244158 -73.591164 -0.0086142831 -103.15644
9204625000 -1.0084279 137.32765 -9.229516 -72.825531 -9.2247248 -73.626755 -0.012859253 -103.10239
9204687500 -1.009595 137.29085 -9.2292423 -72.80999 -9.2341928 -73.55777 -0.016565409 -103.07074
9204750000 -1.0181986 137.2908 -9.2349072 -72.750313 -9.2235537 -73.57251 -0.021359321 -103.12401
9204812500 -1.0083892 137.26598 -9.234231 -72.782097 -9.2292032 -73.579697 -0.015508269 -103.07377
9204875000 -1.0109768 137.33208 -9.235424 -72.799889 -9.239583 -73.58049 -0.026587185 -103.10388
9204937500 -1.0126905 137.25635 -9.2267265 -72.873688 -9.2215433 -73.651894 -0.01285591 -103.10113
9205000000 -1.0031937 137.23314 -9.237092 -72.789078 -9.2289515 -73.565704 -0.025629051 -103.01583
9205062500 -1.0131128 137.23909 -9.2317266 -72.853134 -9.2042646 -73.542908 -0.0078283045 -102.97365
9205125000 -1.0142034 137.22388 -9.2328939 -72.811478 -9.2214813 -73.558464 -0.016079381 -102.92826
9205187500 -1.0146325 137.27327 -9.2283077 -72.790138 -9.2245665 -73.56414 -0.021633143 -102.95353
9205250000 -1.0083606 137.1469 -9.2250395 -72.875603 -9.2283325 -73.538795 -0.02873918 -103.00793
9205312500 -1.012958 137.25906 -9.2244034 -72.763451 -9.2182999 -73.571579 -0.022167042 -102.95698
9205375000 -1.0060837 137.1252 -9.2215443 -72.827461 -9.2242889 -73.527954 -0.015389217 -102.88955
9205437500 -1.0046624 137.13429 -9.2220058 -72.799339 -9.2261343 -73.508842 -0.020034879 -102.90319
9205500000 -1.0222048 137.08693 -9.229085 -72.745476 -9.2127419 -73.526909 -0.018101877 -102.79884
9205562500 -1.0183316 137.13795 -9.2222414 -72.811676 -9.2253199 -73.527985 -0.021097802 -102.81863
9205625000 -1.0191647 137.14232 -9.2277441 -72.744095 -9.2201252 -73.53688 -0.025271546 -102.78855
9205687500 -1.0128158 137.13208 -9.2229137 -72.761421 -9.209219 -73.624657 -0.019037209 -102.81859
9205750000 -1.014891 137.06413 -9.2238245 -72.780182 -9.2048378 -73.507736 -0.017226167 -102.75282
9205812500 -1.0163206 137.04498 -9.2249603 -72.856323 -9.2213306 -73.578651 -0.018996954 -102.78541
9205875000 -1.00902 137.07707 -9.218709 -72.793732 -9.223815 -73.48764 -0.022675686 -102.79459
9205937500 -1.0117087 137.02718 -9.2222328 -72.830215 -9.2126598 -73.560028 -0.024805684 -102.79774
9206000000 -1.0162932 137.07118 -9.2147026 -72.699776 -9.2136202 -73.591042 -0.018426573 -102.78357
9206062500 -1.0104848 137.07266 -9.2216253 -72.776573 -9.2171202 -73.542427 -0.027329849 -102.75625
9206125000 -1.006978 137.01392 -9.2088099 -72.866562 -9.2081032 -73.477142 -0.024925116 -102.61674
9206187500 -1.0118721 136.98596 -9.2082777 -72.806152 -9.212225 -73.493912 -0.011508124 -102.69334
9206250000 -1.0125872 136.95074 -9.2198772 -72.786774 -9.2070293 -73.500717 -0.019061288 -102.67431
9206312500 -1.0197334 136.89806 -9.2179117 -72.855446 -9.2137165 -73.636314 -0.015193024 -102.73563
9206375000 -1.0123457 136.9807 -9.2088499 -72.799835 -9.2112293 -73.499809 -0.021815384 -102.64056
9206437500 -1.0078168 136.92212 -9.2179766 -72.800224 -9.2036095 -73.566475 -0.021549078 -102.70476
9206500000 -1.0173631 136.90936 -9.2236691 -72.82058 -9.2085438 -73.524353 -0.03252406 -102.62305
9206562500 -1.0158206 136.95908 -9.2182627 -72.867561 -9.1969919 -73.535645 -0.017325964 -102.67104
9206625000 -1.0125476 136.83035 -9.2086306 -72.796898 -9.2143497 -73.546631 -0.02042377 -102.62051
9206687500 -1.0159935 136.86655 -9.2138996 -72.876907 -9.1960955 -73.49633 -0.0095153125 -102.61613
9206750000 -1.0090986 136.90385 -9.2043629 -72.730995 -9.2074862 -73.484024 -0.021887412 -102.56363
9206812500 -1.0118773 136.90973 -9.2065296 -72.81282 -9.2058392 -73.563004 -0.016498102 -102.61181
9206875000 -1.0133355 136.84271 -9.2091646 -72.772285 -9.2032604 -73.47773 -0.016866684 -102.44171
9206937500 -1.0122834 136.8636 -9.2063723 -72.832993 -9.2115078 -73.566391 -0.021554317 -102.49281
9207000000 -1.0137136 136.82544 -9.2151117 -72.805489 -9.2114229 -73.554581 -0.028765108 -102.47021
9207062500 -1.0125022 136.80817 -9.2057838 -72.774902 -9.2100363 -73.43309 -0.029255494 -102.36346
9207125000 -1.0235004 136.75502 -9.1993437 -72.85865 -9.2080727 -73.552933 -0.028463516 -102.36215
9207187500 -1.0164483 136.74963 -9.2090883 -72.845001 -9.2048225 -73.534355 -0.021679737 -102.45719
9207250000 -1.0191998 136.79755 -9.2109709 -72.725822 -9.2130728 -73.498756 -0.027216386 -102.46989
9207312500 -1.0083209 136.74539 -9.1976395 -72.851448 -9.1977654 -73.513824 -0.016135117 -102.42069
9207375000 -1.0215219 136.69878 -9.2107172 -72.843086 -9.1960783 -73.55439 -0.024540704 -102.35093
9207437500 -1.0122207 136.786 -9.204155 -72.736053 -9.2134886 -73.441605 -0.026555302 -102.33566
9207500000 -1.016915 136.71983 -9.2147198 -72.799454 -9.2010794 -73.431366 -0.035684232 -102.33331
9207562500 -1.0096869 136.68771 -9.2160311 -72.807625 -9.1989336 -73.455223 -0.032242365 -102.31083
9207625000 -1.0175743 136.63741 -9.2068787 -72.722656 -9.1951685 -73.501717 -0.024194861 -102.3236
9207687500 -1.0188321 136.70084 -9.2062035 -72.763329 -9.1976299 -73.452309 -0.024661751 -102.28077
9207750000 -1.0133163 136.65759 -9.2139406 -72.773689 -9.1956406 -73.467438 -0.019775327 -102.26183
9207812500 -1.0119946 136.66896 -9.198143 -72.761986 -9.1994572 -73.407486 -0.035286453 -102.22015
9207875000 -1.0113405 136.65752 -9.20467 -72.733826 -9.1894064 -73.519127 -0.019197429 -102.20676
9207937500 -1.015294 136.57512 -9.2088289 -72.72551 -9.1940079 -73.542191 -0.029810986 -102.27222
9208000000 -1.0230172 136.61667 -9.1987963 -72.781914 -9.2014685 -73.454475 -0.027970487 -102.16221
9208062500 -1.0205218 136.6291 -9.2068796 -72.680725 -9.1992006 -73.553337 -0.036174461 -102.20498
9208125000 -1.0175816 136.55217 -9.2017193 -72.769249 -9.197299 -73.447617 -0.031006308 -102.14149
9208187500 -1.0113937 136.59819 -9.2070189 -72.81147 -9.2006216 -73.490784 -0.029475488 -102.15704
9208250000 -1.0178317 136.57639 -9.2141619 -72.677567 -9.1864567 -73.498657 -0.025929842 -102.1456
9208312500 -1.011393 136.52101 -9.1997709 -72.74781 -9.1911201 -73.461403 -0.033263598 -102.12333
9208375000 -1.0183485 136.57294 -9.1966391 -72.734001 -9.1868305 -73.460785 -0.024034301 -102.0759
9208437500 -1.017152 136.48357 -9.1994143 -72.755463 -9.1922598 -73.421196 -0.037027445 -102.09177
9208500000 -1.0154207 136.47604 -9.2051411 -72.771027 -9.1918135 -73.469826 -0.027832169 -102.05329
9208562500 -1.0152965 136.55556 -9.1862545 -72.657494 -9.1953783 -73.48893 -0.030358773 -102.02191
9208625000 -1.0112289 136.44165 -9.1765041 -72.732414 -9.1871576 -73.445717 -0.037273072 -102.0749
9208687500 -1.003939 136.45148 -9.18398 -72.6931 -9.1896677 -73.417992 -0.030051522 -102.00109
9208750000 -1.0089003 136.47899 -9.1937895 -72.723412 -9.1865273 -73.432236 -0.030220905 -101.96505
9208812500 -1.0174375 136.49687 -9.19907 -72.76532 -9.1845827 -73.408951 -0.023884758 -101.95345
9208875000 -1.013739 136.4007 -9.1811647 -72.779343 -9.1962328 -73.425163 -0.029674245 -101.93337
9208937500 -1.0209826 136.40572 -9.1788673 -72.740685 -9.1823425 -73.398499 -0.024200346 -101.89718
9209000000 -1.0142343 136.41608 -9.1944294 -72.757988 -9.1852922 -73.379715 -0.033785898 -101.94681
9209062500 -1.0207745 136.40388 -9.1930132 -72.691971 -9.1860466 -73.395401 -0.032871351 -101.85595
9209125000 -1.0219234 136.3576 -9.1897593 -72.782417 -9.1771069 -73.394264 -0.02415888 -101.85459
9209187500 -1.0144061 136.38214 -9.1889038 -72.71524 -9.1824312 -73.452019 -0.033028565 -101.92521
9209250000 -1.01166 136.33751 -9.1932888 -72.674255 -9.1784563 -73.489815 -0.031037483 -101.80903
9209312500 -1.0142126 136.27065 -9.1964579 -72.693817 -9.1809587 -73.408333 -0.038259808 -101.86931
9209375000 -1.009061 136.32971 -9.1954269 -72.637978 -9.1942759 -73.410431 -0.042604074 -101.852
9209437500 -1.0176365 136.24713 -9.188324 -72.65863 -9.1858959 -73.462273 -0.037368622 -101.74502
9209500000 -1.0135576 136.27161 -9.1865597 -72.762535 -9.1730824 -73.413002 -0.029987656 -101.72184
9209562500 -1.0225077 136.27014 -9.1977758 -72.769394 -9.1866055 -73.428238 -0.035496604 -101.7403
9209625000 -1.0198934 136.20673 -9.1889601 -72.74279 -9.1827803 -73.463684 -0.033445038 -101.71053
9209687500 -1.0183029 136.16833 -9.1783915 -72.737244 -9.1824064 -73.355614 -0.031252176 -101.71236
9209750000 -1.0155686 136.21153 -9.1782227 -72.72934 -9.1865101 -73.39135 -0.025683939 -101.7149
9209812500 -1.0157188 136.22075 -9.1781454 -72.612434 -9.1838579 -73.443527 -0.034595273 -101.6706
9209875000 -1.0152746 136.21016 -9.1753073 -72.6884 -9.1766052 -73.405487 -0.03876625 -101.67231
9209937500 -1.0211645 136.24788 -9.1981754 -72.694946 -9.1899147 -73.37973 -0.046869989 -101.72762
9210000000 -1.0075496 136.1758 -9.1767712 -72.69957 -9.1833067 -73.39241 -0.043731116 -101.62105
9210062500 -1.024236 136.18394 -9.1892118 -72.675476 -9.1703529 -73.405586 -0.040413417 -101.65039
9210125000 -1.0137974 136.136 -9.1801758 -72.667679 -9.1776466 -73.352005 -0.036596846 -101.61075
9210187500 -1.0171111 136.15442 -9.1805744 -72.681686 -9.1763477 -73.380234 -0.039428588 -101.57387
9210250000 -1.0152068 136.15851 -9.1814871 -72.677666 -9.1712751 -73.336472 -0.035481367 -101.56172
9210312500 -1.0223089 136.1378 -9.1817198 -72.644791 -9.170598 -73.434242 -0.035101432 -101.58174
9210375000 -1.0148157 136.13412 -9.1781139 -72.673569 -9.1747503 -73.35006 -0.037221156 -101.47374
9210437500 -1.0080761 136.09966 -9.1812668 -72.698845 -9.1693602 -73.471207 -0.031029629 -101.58703
9210500000 -1.0077028 136.02788 -9.1639233 -72.743889 -9.1746693 -73.432831 -0.038153011 -101.51077
9210562500 -1.0217197 136.06468 -9.1856871 -72.634163 -9.1681576 -73.409355 -0.036328036 -101.45217
9210625000 -1.0175515 136.04074 -9.1905251 -72.592705 -9.1774902 -73.313568 -0.045645319 -101.44411
9210687500 -1.0142645 136.05417 -9.1852617 -72.630959 -9.1756916 -73.410927 -0.046344366 -101.45171
9210750000 -1.0133604 136.02946 -9.1776781 -72.692169 -9.1578779 -73.367462 -0.030919267 -101.40504
9210812500 -1.0156668 135.98985 -9.1782303 -72.702431 -9.169384 -73.324982 -0.046127554 -101.38975
9210875000 -1.0211922 136.0197 -9.1909828 -72.651756 -9.1625729 -73.367584 -0.045545872 -101.41657
9210937500 -1.0180053 136.01347 -9.1718302 -72.70401 -9.1731167 -73.295181 -0.045558397 -101.29694
9211000000 -1.0200059 136.00273 -9.1787472 -72.67067 -9.1758003 -73.403961 -0.04021553 -101.3905
9211062500 -1.013965 135.98366 -9.1740551 -72.587013 -9.1669054 -73.315079 -0.042433891 -101.32227
9211125000 -1.0161557 135.95193 -9.1785412 -72.658798 -9.1646557 -73.339661 -0.036083419 -101.34065
9211187500 -1.0222214 135.97807 -9.1742411 -72.65255 -9.1579037 -73.343315 -0.034259085 -101.28362
9211250000 -1.0211943 135.92155 -9.1628666 -72.694725 -9.1697302 -73.3386 -0.02904647 -101.30507
9211312500 -1.0170082 135.94995 -9.174427 -72.599075 -9.1701374 -73.351357 -0.044708453 -101.31558
9211375000 -1.0209013 135.81308 -9.1725035 -72.668556 -9.1672688 -73.358162 -0.045907732 -101.23649
9211437500 -1.0192873 135.89207 -9.1688337 -72.628754 -9.1619434 -73.398338 -0.041271359 -101.23888
9211500000 -1.0244009 135.84631 -9.1772022 -72.639023 -9.1668243 -73.359802 -0.039057601 -101.27516
9211562500 -1.0184369 135.90176 -9.1701393 -72.615555 -9.1600714 -73.364914 -0.044411633 -101.2458
9211625000 -1.0191163 135.8257 -9.167408 -72.674995 -9.1664839 -73.390823 -0.039318126 -101.23618
9211687500 -1.0226709 135.89655 -9.1761942 -72.579147 -9.1529903 -73.372612 -0.045390427 -101.17844
9211750000 -1.019908 135.80377 -9.1626568 -72.604027 -9.1670666 -73.32135 -0.0438773 -101.1131
9211812500 -1.0230674 135.77962 -9.1766357 -72.63446 -9.1593771 -73.295219 -0.051327046 -101.14662
9211875000 -1.0233274 135.77415 -9.1693668 -72.657898 -9.14884 -73.284744 -0.032177676 -101.06554
9211937500 -1.01754 135.79443 -9.1630201 -72.641983 -9.1609793 -73.361702 -0.051280666 -101.11893
9212000000 -1.0112134 135.69763 -9.1628075 -72.580452 -9.1578827 -73.340691 -0.045049079 -101.1089
9212062500 -1.0160639 135.72697 -9.1601124 -72.590454 -9.165473 -73.35569 -0.043726027 -101.06774
9212125000 -1.019276 135.65172 -9.1619825 -72.674828 -9.1636076 -73.308876 -0.048532989 -101.0329
9212187500 -1.0139453 135.71156 -9.156642 -72.601089 -9.1465502 -73.28701 -0.047367256 -101.01962
