!Agilent Technologies,N5242A,MY51221714,A.09.90.19
!Agilent N5242A: A.09.90.19
!Date: Tuesday, March 26, 2024 16:56:34
!Correction: S11(Full 2 Port(1,2)) 
!S21(Full 2 Port(1,2)) 
!S12(Full 2 Port(1,2)) 
!S22(Full 2 Port(1,2)) 
!S2P File: Measurements: S11, S21, S12, S22:
# Hz S  dB   R 50
9200000000 -1.1114522 137.11952 -9.2477589 -74.443398 -9.2099972 -75.188217 -0.084411032 -104.81506
9200062500 -1.1150488 137.11182 -9.239152 -74.44767 -9.2294092 -75.200661 -0.078660995 -104.74118
9200125000 -1.1141353 137.0688 -9.2480078 -74.414665 -9.2287264 -75.150452 -0.089762062 -104.71339
9200187500 -1.1130259 137.12134 -9.2356834 -74.313423 -9.2270746 -75.217064 -0.074231073 -104.69379
9200250000 -1.1088716 137.06009 -9.2373877 -74.390381 -9.2287025 -75.125046 -0.082782716 -104.72187
9200312500 -1.1142529 137.06137 -9.2405558 -74.473389 -9.2326565 -75.248695 -0.08139126 -104.75075
9200375000 -1.1169518 137.02107 -9.2425776 -74.44709 -9.2332039 -75.249077 -0.080846682 -104.67783
9200437500 -1.1068298 137.03659 -9.2345781 -74.393417 -9.2206068 -75.156052 -0.08313857 -104.6416
9200500000 -1.114681 136.9892 -9.2405081 -74.465317 -9.2286043 -75.1007 -0.086826846 -104.60473
9200562500 -1.1044111 136.98732 -9.2267523 -74.361198 -9.2290936 -75.246735 -0.081385233 -104.69472
9200625000 -1.1130444 136.97873 -9.2351637 -74.46077 -9.2214308 -75.196754 -0.090452239 -104.61417
9200687500 -1.1058872 136.96536 -9.2255659 -74.435051 -9.2319002 -75.114349 -0.091210254 -104.51264
9200750000 -1.1122283 136.9014 -9.2261868 -74.455002 -9.224081 -75.150116 -0.083097897 -104.61314
9200812500 -1.1218691 136.97235 -9.2366352 -74.367523 -9.2164726 -75.133255 -0.092334427 -104.5464
9200875000 -1.1026582 136.98128 -9.2230501 -74.373466 -9.2283382 -75.121895 -0.095743425 -104.57557
9200937500 -1.1136092 136.91058 -9.2348604 -74.415298 -9.2230425 -75.189682 -0.078329436 -104.54279
9201000000 -1.1072568 136.8837 -9.235692 -74.488037 -9.2181768 -75.119415 -0.090695284 -104.48427
9201062500 -1.1065935 136.88087 -9.2166471 -74.400322 -9.2170963 -75.160133 -0.095250472 -104.5202
9201125000 -1.1105235 136.88054 -9.2291374 -74.412598 -9.2322989 -75.138016 -0.090409763 -104.40565
9201187500 -1.1136882 136.76605 -9.2276411 -74.385628 -9.2119808 -75.138451 -0.09568578 -104.37407
9201250000 -1.121622 136.87192 -9.2313166 -74.393303 -9.2403727 -75.055336 -0.093329281 -104.38414
9201312500 -1.1207807 136.81622 -9.2254915 -74.443893 -9.2284489 -75.135391 -0.085618444 -104.41608
9201375000 -1.1182753 136.80031 -9.2333336 -74.36248 -9.219738 -75.126678 -0.096969709 -104.39462
9201437500 -1.1091934 136.82353 -9.2312899 -74.333694 -9.2196598 -75.169724 -0.091152422 -104.44451
9201500000 -1.1207901 136.81088 -9.2350245 -74.358391 -9.2242165 -75.107895 -0.089607641 -104.38155
9201562500 -1.1139516 136.76407 -9.2347059 -74.387123 -9.2325611 -75.107903 -0.10748767 -104.37424
9201625000 -1.1139395 136.78578 -9.2245064 -74.367424 -9.2050562 -75.078476 -0.09518832 -104.26888
9201687500 -1.118934 136.75325 -9.2184629 -74.391975 -9.2253466 -75.116272 -0.09481778 -104.23273
9201750000 -1.1135784 136.73811 -9.2235699 -74.345627 -9.2028894 -75.085159 -0.082016483 -104.24235
9201812500 -1.1108234 136.76231 -9.2267818 -74.364883 -9.221302 -75.123413 -0.099512696 -104.33479
9201875000 -1.1111501 136.68988 -9.2153444 -74.37545 -9.2103205 -75.130119 -0.083690189 -104.23241
9201937500 -1.1211923 136.67679 -9.22328 -74.341873 -9.2136621 -75.18737 -0.08386641 -104.27967
9202000000 -1.1150501 136.6754 -9.2173281 -74.37899 -9.2105303 -75.149567 -0.083417363 -104.21595
9202062500 -1.1170418 136.66867 -9.2122097 -74.369843 -9.2028837 -75.129784 -0.0867365 -104.20415
9202125000 -1.1199274 136.70793 -9.2444229 -74.365509 -9.217103 -75.095108 -0.099801302 -104.20963
9202187500 -1.1140531 136.66232 -9.2177477 -74.405258 -9.2102041 -75.073486 -0.084877774 -104.10648
9202250000 -1.1164623 136.62727 -9.2300205 -74.412468 -9.207778 -75.090134 -0.10004036 -104.14807
9202312500 -1.1105083 136.64908 -9.2250252 -74.350708 -9.2080908 -75.079964 -0.093347453 -104.13039
9202375000 -1.1140317 136.55724 -9.2186928 -74.400421 -9.1990271 -75.157883 -0.095303081 -104.11923
9202437500 -1.1185716 136.5948 -9.2170916 -74.353767 -9.2099218 -75.108727 -0.089189582 -104.14895
9202500000 -1.1234729 136.56503 -9.2229462 -74.428665 -9.2108498 -75.079391 -0.095455199 -104.15224
9202562500 -1.1063739 136.55295 -9.2084274 -74.339378 -9.2123108 -74.989029 -0.099071153 -104.07394
9202625000 -1.1162952 136.5983 -9.2214003 -74.322472 -9.2030048 -75.120949 -0.099470377 -104.03796
9202687500 -1.113378 136.55429 -9.2090397 -74.300621 -9.2142124 -75.043121 -0.088521063 -103.98233
9202750000 -1.1088512 136.48897 -9.2084446 -74.356728 -9.2059269 -75.088974 -0.090034477 -104.03474
9202812500 -1.1170506 136.49536 -9.212575 -74.337585 -9.1888514 -75.215858 -0.0883044 -103.99605
9202875000 -1.10701 136.49167 -9.2073202 -74.366714 -9.2070494 -75.133659 -0.094926678 -103.97507
9202937500 -1.113896 136.46317 -9.2045755 -74.403397 -9.1864643 -75.073906 -0.081059963 -103.93722
9203000000 -1.1154294 136.5117 -9.2137403 -74.361916 -9.1991758 -75.100876 -0.093647517 -103.94218
9203062500 -1.1115886 136.44991 -9.2171545 -74.332619 -9.2002411 -75.011299 -0.10291648 -103.91764
9203125000 -1.1155595 136.42365 -9.2203169 -74.309669 -9.2002182 -75.077843 -0.10121018 -103.90353
9203187500 -1.1067569 136.43906 -9.2023582 -74.386398 -9.187191 -75.164337 -0.089481317 -103.92147
9203250000 -1.1152974 136.41269 -9.2079582 -74.403061 -9.200614 -75.098312 -0.094978511 -103.89297
9203312500 -1.1205114 136.40781 -9.2113285 -74.394547 -9.2021761 -75.129799 -0.092409454 -103.87439
9203375000 -1.1138515 136.39005 -9.2043142 -74.375778 -9.1916046 -75.092087 -0.090172328 -103.84466
9203437500 -1.1239152 136.38022 -9.2182693 -74.419548 -9.2014656 -75.09314 -0.088689432 -103.89417
9203500000 -1.1149744 136.36983 -9.1944036 -74.363655 -9.2013206 -75.07209 -0.090946645 -103.8185
9203562500 -1.1189939 136.34854 -9.2075024 -74.358109 -9.2129917 -75.100296 -0.10820146 -103.8588
9203625000 -1.1181134 136.35539 -9.2235394 -74.348335 -9.2017069 -75.067543 -0.10522108 -103.86317
9203687500 -1.123067 136.28853 -9.2174253 -74.371765 -9.204546 -75.073692 -0.10146035 -103.77455
9203750000 -1.1206988 136.33752 -9.2082224 -74.391472 -9.2014608 -75.100876 -0.090206988 -103.76798
9203812500 -1.116745 136.30161 -9.1948633 -74.295006 -9.1985807 -75.074791 -0.096370019 -103.76026
9203875000 -1.113676 136.289 -9.2018671 -74.307274 -9.1958323 -75.083946 -0.10654265 -103.74822
9203937500 -1.120985 136.32109 -9.1973648 -74.333946 -9.189887 -75.028671 -0.090092041 -103.71925
9204000000 -1.1180266 136.24936 -9.1952629 -74.339493 -9.1972122 -75.076775 -0.094558291 -103.65947
9204062500 -1.1078408 136.27399 -9.1960983 -74.344742 -9.1837025 -75.082878 -0.098627321 -103.6478
9204125000 -1.1143152 136.24754 -9.1828709 -74.277222 -9.1833515 -75.07711 -0.095043212 -103.64478
9204187500 -1.1217641 136.19205 -9.2012711 -74.248581 -9.1947021 -75.057854 -0.10302634 -103.60772
9204250000 -1.1158278 136.23431 -9.1826267 -74.37014 -9.1844063 -75.056847 -0.093077987 -103.63362
9204312500 -1.1218669 136.19208 -9.2017727 -74.262199 -9.1960449 -75.0541 -0.10530532 -103.58421
9204375000 -1.1082398 136.18883 -9.1894093 -74.307426 -9.1800098 -75.044594 -0.091055654 -103.60123
9204437500 -1.1231568 136.18909 -9.1988173 -74.373528 -9.1927395 -75.081688 -0.095570028 -103.61629
9204500000 -1.1248755 136.15068 -9.2010098 -74.312767 -9.202549 -75.100975 -0.10582799 -103.61179
9204562500 -1.1171952 136.11169 -9.1920471 -74.432632 -9.1851158 -75.069992 -0.084339119 -103.59923
9204625000 -1.111822 136.14026 -9.189642 -74.29586 -9.1802702 -75.118568 -0.099006854 -103.51812
9204687500 -1.1231918 136.1134 -9.1974058 -74.290146 -9.1896439 -75.083801 -0.10001205 -103.48865
9204750000 -1.1289705 136.12016 -9.1897945 -74.234947 -9.1905556 -75.040733 -0.108253 -103.4982
9204812500 -1.1117654 136.1024 -9.1893015 -74.248611 -9.1875563 -75.080612 -0.095786326 -103.48097
9204875000 -1.1183883 136.11678 -9.1897488 -74.273438 -9.1998768 -75.108253 -0.10562838 -103.53336
9204937500 -1.115586 136.04167 -9.180336 -74.321335 -9.1729717 -75.037888 -0.08690194 -103.42255
9205000000 -1.1073916 136.0435 -9.1895733 -74.269142 -9.1818581 -75.032867 -0.1115738 -103.42878
9205062500 -1.112982 136.03632 -9.1913919 -74.294945 -9.1649408 -75.0252 -0.10312523 -103.42727
9205125000 -1.1231071 136.03566 -9.1915493 -74.243729 -9.1829395 -75.012909 -0.10779385 -103.32623
9205187500 -1.1218092 136.05655 -9.1969919 -74.225037 -9.1851959 -75.066551 -0.10819702 -103.32553
9205250000 -1.1164085 136.00484 -9.1969061 -74.336449 -9.1922159 -75.021431 -0.10920813 -103.41509
9205312500 -1.1170435 136.04085 -9.1770105 -74.240074 -9.1799688 -75.003609 -0.10926377 -103.33774
9205375000 -1.1194361 135.94586 -9.1769218 -74.244072 -9.1883717 -75.014305 -0.10863697 -103.30093
9205437500 -1.1103443 135.97852 -9.1811619 -74.242035 -9.1690435 -75.036903 -0.09811417 -103.31641
9205500000 -1.1235539 135.8922 -9.1830845 -74.227966 -9.183136 -75.051926 -0.10021754 -103.19807
9205562500 -1.1267531 135.92624 -9.1810608 -74.306717 -9.1765146 -75.067947 -0.099355288 -103.28
9205625000 -1.1245991 135.92493 -9.1841297 -74.272865 -9.177536 -75.065659 -0.10653032 -103.20759
9205687500 -1.1164985 135.92068 -9.1791058 -74.313057 -9.1802254 -75.086899 -0.10872341 -103.20925
9205750000 -1.1188325 135.86 -9.1784945 -74.302017 -9.1832314 -75.084068 -0.10836899 -103.21069
9205812500 -1.1216085 135.84154 -9.1679268 -74.27079 -9.1791582 -75.042213 -0.10370194 -103.14553
9205875000 -1.1186669 135.8502 -9.192668 -74.316177 -9.1727848 -75.05452 -0.10261887 -103.24695
9205937500 -1.1189579 135.82903 -9.185688 -74.313248 -9.1679668 -74.992661 -0.10430389 -103.15627
9206000000 -1.1257929 135.83516 -9.1719303 -74.232391 -9.17206 -75.006271 -0.10432123 -103.12772
9206062500 -1.118814 135.83781 -9.1795511 -74.31636 -9.1759043 -75.028 -0.10200957 -103.15978
9206125000 -1.120209 135.79633 -9.1738386 -74.307869 -9.1675444 -75.003075 -0.11190198 -103.08559
9206187500 -1.1158669 135.79741 -9.1744213 -74.334442 -9.1670351 -75.016792 -0.096734174 -103.11472
9206250000 -1.124795 135.76582 -9.1852665 -74.340851 -9.1787996 -75.007584 -0.11012048 -103.07827
9206312500 -1.1166131 135.68246 -9.1891909 -74.278687 -9.1808805 -75.106049 -0.10448518 -103.05603
9206375000 -1.1180428 135.74597 -9.1738491 -74.277718 -9.1715794 -74.997673 -0.10730688 -103.0612
9206437500 -1.1150498 135.73834 -9.1747665 -74.212151 -9.1749382 -75.052933 -0.11137848 -103.10872
9206500000 -1.1246516 135.73474 -9.1894379 -74.276413 -9.1683741 -74.969513 -0.10984796 -103.0085
9206562500 -1.1181884 135.69591 -9.1795673 -74.388863 -9.1668863 -74.982162 -0.1047952 -103.03503
9206625000 -1.1203207 135.6682 -9.1654654 -74.275543 -9.1715984 -75.049606 -0.10475161 -102.99477
9206687500 -1.1247334 135.69157 -9.1748714 -74.362251 -9.15975 -75.025146 -0.10045143 -103.02441
9206750000 -1.1225926 135.67638 -9.1677666 -74.249023 -9.1697493 -74.957848 -0.1073091 -102.9935
9206812500 -1.1163968 135.70711 -9.1781387 -74.272369 -9.1662569 -75.049072 -0.10352226 -102.98444
9206875000 -1.1138796 135.64745 -9.1741419 -74.232506 -9.1536541 -74.921913 -0.10050225 -102.82962
9206937500 -1.1182033 135.65347 -9.1671457 -74.231461 -9.1658621 -75.045624 -0.11361104 -102.93293
9207000000 -1.122128 135.63538 -9.1745052 -74.299751 -9.1645212 -74.990166 -0.10934146 -102.91427
9207062500 -1.1174355 135.59657 -9.1540222 -74.262329 -9.1525249 -74.967606 -0.10344894 -102.76733
9207125000 -1.1325659 135.57516 -9.1629267 -74.33522 -9.1617594 -75.02034 -0.10751148 -102.76788
9207187500 -1.1169996 135.58534 -9.1624718 -74.306358 -9.1615381 -75.055038 -0.10497796 -102.85021
9207250000 -1.1205943 135.58321 -9.1603317 -74.238686 -9.1707726 -75.024254 -0.10558806 -102.87585
9207312500 -1.1076663 135.52522 -9.1538763 -74.242546 -9.154007 -74.994629 -0.10278098 -102.81554
9207375000 -1.1277149 135.50696 -9.1696634 -74.291031 -9.1522007 -75.019997 -0.11132208 -102.76922
9207437500 -1.1164982 135.571 -9.1672821 -74.159935 -9.1738157 -74.96608 -0.11572299 -102.72142
9207500000 -1.1222507 135.56383 -9.1715002 -74.189758 -9.1563931 -74.982132 -0.12046365 -102.76685
9207562500 -1.116778 135.52835 -9.159811 -74.324913 -9.1466208 -74.995193 -0.10740846 -102.77644
9207625000 -1.1207086 135.43993 -9.1664858 -74.205536 -9.1602173 -74.947083 -0.1120153 -102.63857
9207687500 -1.1213316 135.49205 -9.1568336 -74.273987 -9.1577177 -74.962097 -0.10641156 -102.70864
9207750000 -1.1248378 135.47195 -9.1598806 -74.213676 -9.1551027 -74.99971 -0.10444488 -102.69625
9207812500 -1.1209265 135.46564 -9.1661263 -74.267578 -9.1506491 -74.968826 -0.11653168 -102.6665
9207875000 -1.1192908 135.44781 -9.1613111 -74.241631 -9.1577597 -74.965019 -0.11489808 -102.64027
9207937500 -1.1232002 135.3712 -9.1566887 -74.229179 -9.1613483 -75.006493 -0.11455602 -102.62634
9208000000 -1.1277026 135.42157 -9.1649561 -74.242859 -9.1565866 -74.99044 -0.11983084 -102.60986
9208062500 -1.1226046 135.405 -9.155652 -74.220856 -9.1557379 -74.99469 -0.11456656 -102.62891
9208125000 -1.1264248 135.37437 -9.1678638 -74.271408 -9.1529341 -75.019547 -0.11635397 -102.59576
9208187500 -1.1192036 135.39932 -9.1648531 -74.248093 -9.1594429 -74.97139 -0.11542681 -102.56301
9208250000 -1.1237928 135.3815 -9.1594515 -74.141464 -9.1502304 -74.959145 -0.11690925 -102.51016
9208312500 -1.1189705 135.35973 -9.1680298 -74.204704 -9.1458092 -75.018715 -0.10940921 -102.55961
9208375000 -1.1216258 135.31425 -9.1424503 -74.289238 -9.145936 -74.917007 -0.10744154 -102.4703
9208437500 -1.1210716 135.27618 -9.1558723 -74.199394 -9.1508703 -74.978737 -0.12384528 -102.48223
9208500000 -1.1248238 135.287 -9.159399 -74.200058 -9.1532431 -74.987595 -0.12226935 -102.47253
9208562500 -1.127664 135.31192 -9.1568184 -74.180336 -9.1430845 -74.950539 -0.11245663 -102.43339
9208625000 -1.1220928 135.26767 -9.1448755 -74.200958 -9.1470032 -74.927383 -0.12349471 -102.47298
9208687500 -1.1150305 135.2188 -9.1362629 -74.25972 -9.1496782 -74.985748 -0.11216823 -102.43475
9208750000 -1.1185687 135.26083 -9.1448288 -74.221931 -9.1407804 -74.962021 -0.11625905 -102.39488
9208812500 -1.126264 135.30312 -9.1617622 -74.204063 -9.1462059 -74.960648 -0.11401027 -102.37216
9208875000 -1.1231049 135.18698 -9.1505642 -74.267708 -9.1533575 -74.924393 -0.11818755 -102.33273
9208937500 -1.1224674 135.21609 -9.1435747 -74.193138 -9.1447916 -74.915245 -0.11670244 -102.30175
9209000000 -1.1199337 135.20416 -9.1561193 -74.247063 -9.1460419 -74.909775 -0.11929934 -102.37389
9209062500 -1.1254547 135.15862 -9.1497965 -74.21978 -9.1448202 -74.961494 -0.11500807 -102.29561
9209125000 -1.1284463 135.18944 -9.1503124 -74.189796 -9.1429338 -74.905815 -0.11355797 -102.22842
9209187500 -1.1214284 135.18237 -9.1444674 -74.213158 -9.1478624 -74.882561 -0.11868831 -102.27239
9209250000 -1.1172805 135.10226 -9.1462822 -74.172432 -9.1429834 -74.923332 -0.12470436 -102.16489
9209312500 -1.1260782 135.03716 -9.1531754 -74.276672 -9.1365194 -74.964096 -0.11784834 -102.26588
9209375000 -1.1160671 135.1105 -9.1463938 -74.223305 -9.1427555 -74.870041 -0.1232984 -102.23455
9209437500 -1.1264983 135.06264 -9.1513777 -74.155769 -9.1408253 -74.982796 -0.11576934 -102.19334
9209500000 -1.1212782 135.06725 -9.1403399 -74.171997 -9.1418819 -74.937561 -0.11719409 -102.15501
9209562500 -1.1325115 135.07001 -9.1570444 -74.174866 -9.1420078 -74.935867 -0.12273708 -102.15545
9209625000 -1.1252352 135.0085 -9.1443558 -74.19648 -9.1312428 -74.875885 -0.11048415 -102.10689
9209687500 -1.1257079 134.99149 -9.1345615 -74.192719 -9.1347389 -74.93895 -0.11758012 -102.11604
9209750000 -1.1241615 134.99144 -9.1416254 -74.304375 -9.1422987 -74.896561 -0.11451077 -102.10883
9209812500 -1.127328 134.98485 -9.1466408 -74.158791 -9.1401215 -74.889862 -0.12338518 -102.07056
9209875000 -1.123654 134.99539 -9.1361351 -74.178421 -9.1339626 -74.906395 -0.11785103 -102.09862
9209937500 -1.1179003 135.05731 -9.1463776 -74.20002 -9.1454668 -74.940292 -0.13000315 -102.14911
9210000000 -1.1165967 134.98535 -9.1363373 -74.121048 -9.1350002 -74.921822 -0.1327405 -102.03678
9210062500 -1.1270483 135.00381 -9.1396847 -74.217743 -9.125267 -74.941864 -0.11987952 -102.03819
9210125000 -1.1223913 134.90306 -9.1453476 -74.196083 -9.1331244 -74.873436 -0.12052849 -102.03465
9210187500 -1.1265603 134.96149 -9.1466742 -74.147377 -9.1309147 -74.884766 -0.12359153 -101.94823
9210250000 -1.1265842 134.95895 -9.1325636 -74.199005 -9.1194782 -74.882828 -0.12008784 -101.97208
9210312500 -1.1265224 134.90671 -9.1278191 -74.167961 -9.1327028 -74.926025 -0.12007674 -102.00436
9210375000 -1.1234968 134.92351 -9.1408329 -74.201797 -9.1344318 -74.928093 -0.12747723 -101.89857
9210437500 -1.116794 134.86166 -9.1397648 -74.154716 -9.1287041 -74.961403 -0.11524805 -101.95869
9210500000 -1.1206715 134.8725 -9.1262407 -74.200836 -9.1203785 -74.952286 -0.10845032 -101.93073
9210562500 -1.1303868 134.84879 -9.1388922 -74.13298 -9.1221857 -74.89595 -0.11864705 -101.85222
9210625000 -1.1257201 134.86507 -9.1387367 -74.154686 -9.1294079 -74.854843 -0.12898466 -101.91613
9210687500 -1.1258743 134.83669 -9.1449795 -74.136505 -9.1301546 -74.977554 -0.13400024 -101.91444
9210750000 -1.1238014 134.81271 -9.1410933 -74.160606 -9.1251917 -74.903481 -0.11727356 -101.82846
9210812500 -1.1265508 134.802 -9.1352215 -74.218506 -9.115551 -74.835831 -0.1263742 -101.82556
9210875000 -1.1286269 134.80501 -9.1353502 -74.166916 -9.1227627 -74.809692 -0.12833829 -101.8265
9210937500 -1.1268907 134.80713 -9.1322441 -74.162369 -9.1300659 -74.852386 -0.1287425 -101.77121
9211000000 -1.1230396 134.78786 -9.1304722 -74.162354 -9.1203299 -74.863312 -0.11628336 -101.7909
9211062500 -1.1237808 134.79633 -9.128233 -74.110001 -9.123457 -74.894897 -0.12805133 -101.7878
9211125000 -1.1179518 134.7173 -9.1192369 -74.122055 -9.1137619 -74.860687 -0.11760509 -101.75988
9211187500 -1.1304841 134.72826 -9.13027 -74.167305 -9.1244335 -74.843536 -0.13307048 -101.72448
9211250000 -1.1290098 134.7153 -9.1170311 -74.207527 -9.1176634 -74.868011 -0.11512859 -101.73788
9211312500 -1.1217633 134.67361 -9.1270113 -74.177383 -9.1272049 -74.869492 -0.13599581 -101.74048
9211375000 -1.1207659 134.64333 -9.1263466 -74.131332 -9.1238012 -74.918411 -0.12784801 -101.69396
9211437500 -1.1258408 134.66411 -9.1220922 -74.156113 -9.1268196 -74.900352 -0.13210297 -101.63969
9211500000 -1.1258326 134.668 -9.1278553 -74.171227 -9.1266861 -74.932152 -0.12791575 -101.73099
9211562500 -1.131788 134.71848 -9.1321573 -74.178802 -9.1039753 -74.828819 -0.12230098 -101.62971
9211625000 -1.1256064 134.61295 -9.1217175 -74.228279 -9.1067085 -74.954422 -0.11015932 -101.70982
9211687500 -1.1313672 134.66566 -9.135541 -74.121025 -9.1206055 -74.870132 -0.12840699 -101.57853
9211750000 -1.12515 134.5668 -9.1195068 -74.110764 -9.1158323 -74.827957 -0.12500279 -101.48569
9211812500 -1.1334133 134.58531 -9.1368017 -74.168068 -9.1131134 -74.899033 -0.13386762 -101.58147
9211875000 -1.1352736 134.55392 -9.1219177 -74.189949 -9.1050558 -74.843254 -0.12299397 -101.47874
9211937500 -1.1256011 134.58969 -9.1205378 -74.160202 -9.1103506 -74.842079 -0.13337183 -101.49338
9212000000 -1.125082 134.50404 -9.1071606 -74.137527 -9.1131516 -74.849312 -0.12497933 -101.46451
9212062500 -1.1260165 134.48421 -9.1160755 -74.132835 -9.1075335 -74.862129 -0.12847458 -101.536
9212125000 -1.1253376 134.44675 -9.1109877 -74.205429 -9.1233253 -74.826767 -0.12962295 -101.44609
9212187500 -1.1197312 134.4958 -9.1050816 -74.059654 -9.1050577 -74.826324 -0.13372296 -101.45277
9212250000 -1.12368 134.46178 -9.110158 -74.179192 -9.1043987 -74.882858 -0.12544063 -101.47813
9212312500 -1.1311222 134.52626 -9.1225252 -74.114815 -9.1062155 -74.828926 -0.13029127 -101.4524
