!Agilent Technologies,N5242A,MY51221714,A.09.90.19
!Agilent N5242A: A.09.90.19
!Date: Tuesday, March 26, 2024 16:55:39
!Correction: S11(Full 2 Port(1,2)) 
!S21(Full 2 Port(1,2)) 
!S12(Full 2 Port(1,2)) 
!S22(Full 2 Port(1,2)) 
!S2P File: Measurements: S11, S21, S12, S22:
# Hz S  dB   R 50
9200000000 -1.0154592 138.01375 -9.276228 -72.990524 -9.2483759 -73.820793 -0.0022490392 -104.30547
9200062500 -1.0131699 138.03426 -9.2659626 -72.979492 -9.2458429 -73.756294 0.0086274622 -104.2316
9200125000 -1.0060809 137.98808 -9.2547245 -72.99057 -9.2549887 -73.690895 -0.0060865222 -104.14153
9200187500 -1.0229501 137.98991 -9.2598143 -73 -9.2447624 -73.763695 0.019531226 -104.18445
9200250000 -1.0070342 137.95714 -9.2514687 -72.988228 -9.2504244 -73.770836 0.0065110745 -104.22419
9200312500 -1.0160455 137.98143 -9.2536325 -72.938972 -9.2486238 -73.74543 0.00035050156 -104.17415
9200375000 -1.014629 137.94984 -9.2603703 -72.935074 -9.2554693 -73.887573 0.0059448676 -104.15834
9200437500 -1.009317 137.9924 -9.2568951 -72.941658 -9.2472467 -73.755966 0.011042989 -104.13274
9200500000 -1.017067 137.87846 -9.2783165 -73.041664 -9.2534885 -73.653725 -0.0059061102 -104.0782
9200562500 -1.0140612 137.90767 -9.2565937 -73.018021 -9.2547131 -73.712601 0.0023573961 -104.11758
9200625000 -1.0139148 137.88983 -9.2580023 -72.981049 -9.2514133 -73.730667 0.00037405815 -104.07784
9200687500 -1.0061989 137.88138 -9.2529564 -72.905533 -9.2404776 -73.720932 0.0093020275 -104.04106
9200750000 -1.014148 137.81648 -9.2576132 -73.035599 -9.243042 -73.672195 0.00055704062 -104.06349
9200812500 -1.0272905 137.86555 -9.261692 -72.91761 -9.2407846 -73.699028 -0.0073950202 -104.04988
9200875000 -1.0093408 137.92383 -9.2507496 -72.895668 -9.2509766 -73.671516 -0.0033054412 -104.05303
9200937500 -1.0166513 137.79553 -9.2598524 -73.061638 -9.2378569 -73.71769 0.0067381775 -104.0088
9201000000 -1.0092765 137.79691 -9.2591677 -73.031631 -9.2473745 -73.672264 -0.0001774078 -103.9835
9201062500 -1.0067694 137.80783 -9.2473421 -72.923569 -9.237359 -73.728226 0.0018210209 -103.96482
9201125000 -1.0139306 137.84402 -9.2566395 -72.869545 -9.2458429 -73.720329 0.0018626023 -103.91734
9201187500 -1.020298 137.72412 -9.2529392 -72.978226 -9.2348871 -73.68486 -0.003647422 -103.83189
9201250000 -1.0129607 137.79051 -9.244729 -72.973274 -9.2475224 -73.695686 -0.0021939217 -103.87867
9201312500 -1.0223529 137.75063 -9.257493 -72.985809 -9.2434168 -73.764313 0.0045078825 -103.9161
9201375000 -1.0228993 137.70132 -9.2625885 -72.928719 -9.2514229 -73.694656 -0.012045314 -103.84895
9201437500 -1.012767 137.73416 -9.2478237 -72.888596 -9.2518873 -73.706573 -0.0051054792 -103.88528
9201500000 -1.0217602 137.6978 -9.2648964 -73.035469 -9.2495508 -73.715347 -0.0084837507 -103.89677
9201562500 -1.0170486 137.66428 -9.2562218 -72.968979 -9.242363 -73.668457 -0.0019009045 -103.88094
9201625000 -1.0105623 137.68993 -9.2502499 -72.94783 -9.2354126 -73.685165 -0.0074453973 -103.77877
9201687500 -1.0183879 137.67906 -9.251133 -72.906868 -9.2372866 -73.64212 -0.002352793 -103.68719
9201750000 -1.0161073 137.66731 -9.256669 -72.915962 -9.2304802 -73.698219 0.010117283 -103.72993
9201812500 -1.0160832 137.65483 -9.2563276 -72.973846 -9.237896 -73.659142 -0.0059969178 -103.80751
9201875000 -1.0109708 137.62814 -9.2400703 -72.919304 -9.2375946 -73.758797 0.0070143323 -103.73792
9201937500 -1.0265613 137.57767 -9.2563686 -72.880363 -9.2439642 -73.711403 -0.0058092875 -103.76707
9202000000 -1.0176226 137.5838 -9.2417784 -73.001328 -9.2395067 -73.664261 -0.0022072936 -103.68408
9202062500 -1.018227 137.59019 -9.2343273 -72.904968 -9.2264919 -73.750412 0.0059855515 -103.69001
9202125000 -1.0217658 137.57718 -9.2574272 -73.015533 -9.2397413 -73.618378 -0.012799963 -103.661
9202187500 -1.0173286 137.55499 -9.2439003 -73.006714 -9.2320051 -73.684517 -0.0016899368 -103.62576
9202250000 -1.012092 137.54103 -9.2451239 -72.963974 -9.2355328 -73.601006 -0.0062431041 -103.59621
9202312500 -1.0142412 137.54308 -9.24018 -72.917786 -9.2263956 -73.713028 -0.00024396559 -103.62642
9202375000 -1.0117452 137.49402 -9.2431393 -72.961815 -9.2255335 -73.669899 -0.005086557 -103.57655
9202437500 -1.0204335 137.55171 -9.2457657 -72.948479 -9.2424316 -73.70842 0.00049112167 -103.67023
9202500000 -1.0237851 137.47601 -9.2402916 -72.961403 -9.2334051 -73.686981 -0.0019007073 -103.61177
9202562500 -1.0104114 137.43225 -9.2451477 -72.9347 -9.2309246 -73.648979 -0.011310075 -103.5752
9202625000 -1.0200396 137.56619 -9.2385988 -72.896271 -9.2137518 -73.629135 -0.0010138446 -103.51427
9202687500 -1.023484 137.46678 -9.2392817 -72.910957 -9.2279091 -73.59613 0.0062107644 -103.44684
9202750000 -1.0118108 137.38292 -9.2309656 -72.944336 -9.2301283 -73.659889 0.0020515171 -103.50634
9202812500 -1.0199237 137.39594 -9.2369032 -72.976349 -9.2118521 -73.739265 0.003401903 -103.48654
9202875000 -1.0127085 137.38184 -9.2337093 -72.927856 -9.2177992 -73.690666 -0.0028013301 -103.42685
9202937500 -1.010085 137.39604 -9.2304201 -72.945251 -9.2155523 -73.574471 0.0042659002 -103.40952
9203000000 -1.020439 137.42276 -9.2383032 -72.91333 -9.2214031 -73.6399 -0.0011735142 -103.37413
9203062500 -1.0137721 137.37299 -9.2416573 -72.958603 -9.2304974 -73.648155 -0.01185447 -103.43203
9203125000 -1.0124077 137.36017 -9.2342596 -72.872215 -9.2230234 -73.728493 -0.0021758196 -103.40865
9203187500 -1.0186187 137.33745 -9.2469273 -72.973366 -9.2212791 -73.691559 -0.0081505002 -103.37141
9203250000 -1.0185913 137.31673 -9.2335911 -72.963066 -9.2241058 -73.690727 -0.0027553414 -103.38681
9203312500 -1.0213069 137.33815 -9.238059 -72.875801 -9.2139635 -73.63916 0.00037358407 -103.29858
9203375000 -1.0182509 137.30055 -9.2389259 -72.885681 -9.2148561 -73.576897 0.00025900561 -103.26522
9203437500 -1.023481 137.35004 -9.2423925 -72.885521 -9.2209826 -73.597046 -0.0014736108 -103.30419
9203500000 -1.0192188 137.28801 -9.2358732 -72.946159 -9.2167625 -73.584129 0.0043916539 -103.32549
9203562500 -1.0235714 137.26108 -9.2383146 -72.934464 -9.2222719 -73.636177 -0.012656123 -103.32518
9203625000 -1.0170038 137.28337 -9.2416477 -72.89888 -9.2219563 -73.64653 -0.010827389 -103.31311
9203687500 -1.0245291 137.23048 -9.2441225 -72.89003 -9.222846 -73.642494 -0.012804818 -103.27003
9203750000 -1.0195495 137.21686 -9.2344036 -72.833389 -9.2191257 -73.673378 0.0046083857 -103.2006
9203812500 -1.0237795 137.19484 -9.2285643 -72.928314 -9.2183857 -73.635353 -0.0089395829 -103.17373
9203875000 -1.0162836 137.21085 -9.2285023 -72.886292 -9.213974 -73.604111 -0.015870186 -103.18092
9203937500 -1.0203733 137.22594 -9.2242689 -72.908173 -9.2273312 -73.617004 -0.0077799237 -103.17715
9204000000 -1.0228838 137.20992 -9.2218266 -72.846939 -9.2191401 -73.604698 -0.0029228819 -103.13413
9204062500 -1.0125743 137.16298 -9.2288418 -72.851181 -9.2126369 -73.651787 -0.009388566 -103.11166
9204125000 -1.0200247 137.15906 -9.2240705 -72.876595 -9.2104139 -73.560844 -0.0075798323 -103.08664
9204187500 -1.0266867 137.10892 -9.228034 -72.85434 -9.2234917 -73.580467 -0.014096659 -103.07253
9204250000 -1.0190328 137.12898 -9.2203856 -72.915421 -9.2216396 -73.66539 -0.0067767608 -103.11901
9204312500 -1.0192132 137.15919 -9.2222013 -72.869217 -9.208046 -73.653099 -0.010721602 -103.048
9204375000 -1.009112 137.10329 -9.2263689 -72.855705 -9.2137022 -73.65004 -0.012816177 -103.07881
9204437500 -1.0287675 137.10728 -9.2290096 -72.88105 -9.2092581 -73.578125 -0.0024444519 -103.03514
9204500000 -1.0272607 137.11217 -9.2317076 -72.899803 -9.2206631 -73.573326 -0.0092309853 -103.02305
9204562500 -1.0195165 137.04828 -9.225215 -72.97419 -9.2062769 -73.612885 -0.0039042518 -103.06506
9204625000 -1.0093101 137.02969 -9.2156 -72.843987 -9.2034111 -73.580383 -0.0031641643 -102.95164
9204687500 -1.0184374 137.02895 -9.2277575 -72.850693 -9.2073135 -73.587524 -0.0041902172 -102.95955
9204750000 -1.0219648 137.03886 -9.222641 -72.765976 -9.2150555 -73.563423 -0.018338861 -102.97515
9204812500 -1.0132709 137.01993 -9.2233381 -72.77301 -9.2094746 -73.574181 -0.0059642778 -102.89491
9204875000 -1.0168097 137.07408 -9.2148829 -72.81987 -9.2232761 -73.548218 -0.014557105 -102.95122
9204937500 -1.0191221 136.9726 -9.2098866 -72.933304 -9.193285 -73.602394 -0.0015369762 -102.90162
9205000000 -1.0066226 136.92355 -9.2166424 -72.801964 -9.2135687 -73.598434 -0.028325483 -102.89529
9205062500 -1.016975 136.93335 -9.2238245 -72.849228 -9.192955 -73.554382 -0.0089137023 -102.83486
9205125000 -1.0174074 136.96996 -9.220129 -72.775566 -9.207469 -73.616814 -0.012696418 -102.79427
9205187500 -1.0198597 136.96254 -9.2159281 -72.791191 -9.2115765 -73.555397 -0.016886149 -102.81586
9205250000 -1.0132928 136.87074 -9.2099419 -72.901772 -9.2032185 -73.602348 -0.019337343 -102.85697
9205312500 -1.0190921 136.94568 -9.2096157 -72.839996 -9.2132473 -73.575417 -0.015385552 -102.80608
9205375000 -1.0220201 136.88994 -9.2084789 -72.760361 -9.2098732 -73.5877 -0.0059906007 -102.75307
9205437500 -1.010002 136.88023 -9.2070494 -72.802902 -9.2033701 -73.547058 -0.011716948 -102.74411
9205500000 -1.0233135 136.84595 -9.2061806 -72.7435 -9.2004423 -73.588257 -0.002989626 -102.62681
9205562500 -1.0159738 136.85222 -9.2011662 -72.835205 -9.2059002 -73.567009 -0.013385173 -102.69685
9205625000 -1.0259949 136.87914 -9.2141638 -72.813461 -9.1958427 -73.639534 -0.010015698 -102.70215
9205687500 -1.0101331 136.87254 -9.1989384 -72.749336 -9.1962013 -73.647186 -0.0095681604 -102.68062
9205750000 -1.0194843 136.77649 -9.2091379 -72.891228 -9.1991453 -73.545464 -0.013382314 -102.62804
9205812500 -1.0217444 136.75282 -9.1987934 -72.840874 -9.2069302 -73.544594 -0.013155973 -102.59997
9205875000 -1.0123711 136.80116 -9.2122393 -72.851341 -9.2005396 -73.547401 -0.0066413311 -102.65968
9205937500 -1.0174308 136.73273 -9.2036133 -72.873543 -9.1997013 -73.535484 -0.017677277 -102.61594
9206000000 -1.0213044 136.74899 -9.1847486 -72.778839 -9.1987877 -73.552597 -0.011555421 -102.54748
9206062500 -1.0174301 136.739 -9.2032061 -72.880959 -9.2005053 -73.561707 -0.01275953 -102.60007
9206125000 -1.0169708 136.73204 -9.2057772 -72.7966 -9.1874161 -73.55909 -0.017337654 -102.52286
9206187500 -1.0125351 136.75891 -9.1995668 -72.792976 -9.191555 -73.515327 -0.0086019225 -102.53084
9206250000 -1.0181527 136.60889 -9.2069511 -72.886299 -9.1868935 -73.49057 -0.012433527 -102.54941
9206312500 -1.0129565 136.60779 -9.2067127 -72.810204 -9.193697 -73.613235 -0.0081240404 -102.57422
9206375000 -1.0157464 136.68542 -9.201314 -72.793571 -9.1945963 -73.514275 -0.01593937 -102.54314
9206437500 -1.0082086 136.64056 -9.2004585 -72.810654 -9.2003107 -73.588898 -0.019791547 -102.55885
9206500000 -1.0197388 136.63007 -9.2063446 -72.840385 -9.1939087 -73.523254 -0.020738911 -102.4884
9206562500 -1.0190248 136.63972 -9.1985569 -72.887222 -9.1901846 -73.500481 -0.012214639 -102.46365
9206625000 -1.0211309 136.55682 -9.2048626 -72.795387 -9.1996078 -73.634598 -0.0199716 -102.47574
9206687500 -1.0237347 136.60696 -9.2065935 -72.827293 -9.1853704 -73.554237 -0.005085831 -102.46568
9206750000 -1.0178838 136.61382 -9.2006645 -72.795006 -9.1959267 -73.511688 -0.019523703 -102.47004
9206812500 -1.0166382 136.61249 -9.1994333 -72.779686 -9.2006407 -73.534676 -0.014222559 -102.44335
9206875000 -1.0208064 136.59705 -9.2003613 -72.779236 -9.1894798 -73.492599 -0.0083246101 -102.31178
9206937500 -1.0239339 136.59154 -9.2000666 -72.781708 -9.1921244 -73.568001 -0.017592091 -102.36197
9207000000 -1.0147353 136.53282 -9.191474 -72.835655 -9.1898842 -73.53997 -0.017493539 -102.31962
9207062500 -1.013383 136.5322 -9.1838894 -72.766975 -9.1828756 -73.476959 -0.014444792 -102.21877
9207125000 -1.0273291 136.48805 -9.1904421 -72.798149 -9.1945391 -73.55661 -0.015805403 -102.27899
9207187500 -1.013402 136.4641 -9.1876688 -72.876656 -9.1896515 -73.491806 -0.019710923 -102.29065
9207250000 -1.0120804 136.48439 -9.1950846 -72.726028 -9.2021551 -73.55307 -0.020504761 -102.32371
9207312500 -1.0138777 136.44719 -9.1890278 -72.839462 -9.1784334 -73.480728 -0.0068255384 -102.2449
9207375000 -1.0267715 136.46246 -9.2057056 -72.878242 -9.1831503 -73.512657 -0.016556529 -102.19988
9207437500 -1.0114068 136.49507 -9.1927166 -72.779541 -9.1952353 -73.517273 -0.017022483 -102.26077
9207500000 -1.0192161 136.50375 -9.1952105 -72.776344 -9.1778545 -73.496124 -0.020158404 -102.19819
9207562500 -1.0128635 136.43106 -9.1934347 -72.79361 -9.1745043 -73.45755 -0.018884774 -102.16481
9207625000 -1.0200932 136.36909 -9.1908112 -72.756531 -9.1818247 -73.523582 -0.021777228 -102.11345
9207687500 -1.0210971 136.40154 -9.1794357 -72.751076 -9.1757755 -73.481461 -0.0096964389 -102.15086
9207750000 -1.0253459 136.40848 -9.1911793 -72.763046 -9.1657248 -73.517311 -0.0048848572 -102.14576
9207812500 -1.0169671 136.38034 -9.1849279 -72.761391 -9.181324 -73.479408 -0.016683049 -102.12584
9207875000 -1.0117109 136.40623 -9.1947279 -72.700424 -9.1770334 -73.569862 -0.01712013 -102.11555
9207937500 -1.0222305 136.30838 -9.1983089 -72.731567 -9.1873026 -73.5289 -0.022520265 -102.13045
9208000000 -1.0257692 136.32761 -9.192523 -72.818565 -9.171525 -73.452156 -0.0189225 -102.01958
9208062500 -1.0183539 136.36362 -9.1886568 -72.711823 -9.1800327 -73.500046 -0.019706102 -102.04126
9208125000 -1.0246793 136.28278 -9.1882153 -72.816689 -9.1766586 -73.538841 -0.019595332 -102.06847
9208187500 -1.0121597 136.31517 -9.1756659 -72.773201 -9.1757746 -73.566795 -0.018718828 -102.08163
9208250000 -1.0250815 136.30023 -9.1858406 -72.720795 -9.168581 -73.503853 -0.015520519 -102.02477
9208312500 -1.017395 136.29817 -9.1927824 -72.739845 -9.1649809 -73.54071 -0.023438066 -102.04268
9208375000 -1.0175101 136.2731 -9.1772223 -72.691795 -9.1760969 -73.427803 -0.01820129 -101.87512
9208437500 -1.0250921 136.21085 -9.187665 -72.795135 -9.1841364 -73.465843 -0.032975387 -101.93339
9208500000 -1.0282831 136.21022 -9.1884117 -72.759064 -9.1658449 -73.506294 -0.015081008 -101.9539
9208562500 -1.0210758 136.21837 -9.1825705 -72.759048 -9.172471 -73.427864 -0.022694739 -101.86465
9208625000 -1.0181669 136.16345 -9.1700239 -72.695313 -9.1786728 -73.391312 -0.028157109 -101.85979
9208687500 -1.0157055 136.13852 -9.1665707 -72.792152 -9.1715155 -73.487915 -0.024618598 -101.85485
9208750000 -1.0176322 136.19519 -9.1824474 -72.71286 -9.1673708 -73.417381 -0.025503898 -101.86281
9208812500 -1.027371 136.21291 -9.1816931 -72.777306 -9.16679 -73.452721 -0.013348029 -101.84198
9208875000 -1.0194358 136.16092 -9.1766796 -72.795334 -9.1622896 -73.43988 -0.017636165 -101.80342
9208937500 -1.0226353 136.11595 -9.172864 -72.786011 -9.1584187 -73.500168 -0.010969743 -101.84484
9209000000 -1.0121964 136.14597 -9.1769285 -72.695297 -9.1663008 -73.450005 -0.022060806 -101.82536
9209062500 -1.0198115 136.10002 -9.1755762 -72.708473 -9.176199 -73.468513 -0.028431879 -101.79521
9209125000 -1.0228804 136.13831 -9.174798 -72.687889 -9.1638317 -73.431908 -0.017783517 -101.70574
9209187500 -1.0200543 136.11455 -9.1715231 -72.71418 -9.1721878 -73.37928 -0.023761323 -101.73507
9209250000 -1.0184243 136.06543 -9.1818724 -72.684235 -9.1611538 -73.546288 -0.01925071 -101.69237
9209312500 -1.0166032 135.98007 -9.1737366 -72.744751 -9.1617012 -73.469437 -0.028727742 -101.76113
9209375000 -1.0117897 136.07523 -9.1656027 -72.731522 -9.1737471 -73.435905 -0.035935909 -101.70386
9209437500 -1.0262901 135.98679 -9.1791229 -72.740234 -9.1573143 -73.460236 -0.020872334 -101.60862
9209500000 -1.018182 135.98869 -9.1701498 -72.756233 -9.1726542 -73.457695 -0.026479783 -101.6172
9209562500 -1.0266733 135.99353 -9.1791277 -72.697601 -9.1761398 -73.415092 -0.035983007 -101.56555
9209625000 -1.018245 135.95392 -9.1756706 -72.720222 -9.1653109 -73.485367 -0.0233027 -101.58623
9209687500 -1.0238308 135.8866 -9.1720734 -72.736603 -9.1665382 -73.346169 -0.028275847 -101.52184
9209750000 -1.0209976 135.92921 -9.1638784 -72.734253 -9.1637735 -73.404869 -0.017943375 -101.58195
9209812500 -1.0197617 135.92981 -9.1714897 -72.69603 -9.1761827 -73.466087 -0.027961997 -101.52348
9209875000 -1.0177504 135.92805 -9.1659184 -72.686821 -9.1570988 -73.426895 -0.029382575 -101.52753
9209937500 -1.0263206 135.97774 -9.1843252 -72.754128 -9.1717119 -73.40303 -0.034662019 -101.5788
9210000000 -1.0103908 135.92438 -9.1661901 -72.635925 -9.1563673 -73.425377 -0.042989235 -101.47428
9210062500 -1.0286049 135.87468 -9.1706333 -72.782478 -9.1630039 -73.417831 -0.03387519 -101.47284
9210125000 -1.0173588 135.86206 -9.1744833 -72.737709 -9.1611843 -73.412598 -0.0335485 -101.50104
9210187500 -1.022413 135.87367 -9.1660881 -72.693214 -9.154582 -73.432648 -0.024629168 -101.4371
9210250000 -1.0213341 135.88586 -9.1593714 -72.685837 -9.1544304 -73.346695 -0.03286805 -101.4434
9210312500 -1.0306104 135.86165 -9.1767435 -72.658455 -9.1534634 -73.429886 -0.03056878 -101.45081
9210375000 -1.0161499 135.86571 -9.1708746 -72.652008 -9.1636362 -73.374893 -0.028528661 -101.27501
9210437500 -1.016627 135.76675 -9.168457 -72.712044 -9.1598978 -73.434555 -0.029734893 -101.44984
9210500000 -1.0186014 135.75186 -9.1623354 -72.791992 -9.156436 -73.420135 -0.020254599 -101.40494
9210562500 -1.0238826 135.77031 -9.1639872 -72.668343 -9.1543016 -73.445854 -0.026396936 -101.36726
9210625000 -1.0217807 135.75711 -9.166256 -72.668312 -9.1455956 -73.317711 -0.022819482 -101.3167
9210687500 -1.0189326 135.78217 -9.1651182 -72.693748 -9.1625729 -73.448471 -0.03973341 -101.3103
9210750000 -1.0234356 135.74965 -9.160615 -72.743668 -9.1547184 -73.364815 -0.033000022 -101.31238
9210812500 -1.0213498 135.72614 -9.1601534 -72.715843 -9.1551638 -73.360863 -0.032828134 -101.28101
9210875000 -1.0248467 135.75555 -9.174427 -72.6381 -9.1382189 -73.415947 -0.028221549 -101.30596
9210937500 -1.0198978 135.73872 -9.1564512 -72.704216 -9.1462517 -73.349083 -0.031659938 -101.26897
9211000000 -1.0191238 135.70642 -9.1520529 -72.674164 -9.1625185 -73.377075 -0.031806212 -101.23922
9211062500 -1.0192122 135.70316 -9.155138 -72.629364 -9.1497717 -73.361252 -0.039206635 -101.21902
9211125000 -1.011584 135.65791 -9.1531563 -72.680992 -9.145586 -73.403191 -0.028677261 -101.23833
9211187500 -1.0249451 135.68393 -9.1503763 -72.690689 -9.1437883 -73.338737 -0.031543303 -101.17839
9211250000 -1.023854 135.63675 -9.1581287 -72.725883 -9.1478338 -73.322693 -0.020034121 -101.17786
9211312500 -1.0205119 135.65588 -9.1541252 -72.693886 -9.1551085 -73.341568 -0.031912792 -101.17143
9211375000 -1.0215843 135.54338 -9.1455736 -72.695061 -9.1436834 -73.35144 -0.029562179 -101.08643
9211437500 -1.0156896 135.59929 -9.1484156 -72.645111 -9.1545544 -73.413925 -0.037950266 -101.13459
9211500000 -1.0206673 135.58847 -9.1618977 -72.609032 -9.1459436 -73.365959 -0.029818729 -101.13223
9211562500 -1.0315005 135.56866 -9.1515207 -72.768166 -9.1357851 -73.266594 -0.029741853 -101.05935
9211625000 -1.0214214 135.49051 -9.1414375 -72.755806 -9.1421204 -73.401649 -0.030687142 -101.10114
9211687500 -1.0221303 135.59485 -9.1529741 -72.611694 -9.1370649 -73.373405 -0.030561239 -101.01791
9211750000 -1.023442 135.5265 -9.1455603 -72.618896 -9.1467772 -73.350365 -0.030253801 -101.02763
9211812500 -1.0217756 135.55254 -9.1500282 -72.601692 -9.1404142 -73.347023 -0.039986618 -101.04305
9211875000 -1.0234578 135.48135 -9.1435118 -72.666649 -9.1357994 -73.321419 -0.028399121 -100.92224
9211937500 -1.0197276 135.5134 -9.1464481 -72.635895 -9.1363297 -73.28904 -0.032758512 -100.95413
9212000000 -1.0177776 135.43506 -9.1393194 -72.606056 -9.1453199 -73.370384 -0.037847266 -100.97169
9212062500 -1.0214556 135.44496 -9.1458139 -72.607483 -9.1398678 -73.361893 -0.042824782 -100.99026
9212125000 -1.0155948 135.39984 -9.1415644 -72.717651 -9.1498699 -73.346992 -0.041456942 -100.91203
9212187500 -1.0154868 135.43793 -9.1389885 -72.574348 -9.1287165 -73.293015 -0.044561394 -100.86888
