!Agilent Technologies,N5242A,MY51221714,A.09.90.19
!Agilent N5242A: A.09.90.19
!Date: Tuesday, March 26, 2024 16:57:23
!Correction: S11(Full 2 Port(1,2)) 
!S21(Full 2 Port(1,2)) 
!S12(Full 2 Port(1,2)) 
!S22(Full 2 Port(1,2)) 
!S2P File: Measurements: S11, S21, S12, S22:
# Hz S  dB   R 50
9200000000 -1.004445 138.11961 -9.2893152 -72.975975 -9.2675343 -73.670929 -0.0081059579 -104.21606
9200062500 -1.0049441 138.12854 -9.2808456 -72.93219 -9.265274 -73.680542 0.0023732302 -104.18952
9200125000 -1.004397 138.11026 -9.2685995 -72.889236 -9.2611914 -73.701645 -0.0090891207 -104.19205
9200187500 -1.0091498 138.11511 -9.2681799 -72.830399 -9.2613535 -73.80323 0.0075111054 -104.13853
9200250000 -1.001049 138.02583 -9.2705841 -72.974487 -9.2620487 -73.667892 0.0088242097 -104.1674
9200312500 -1.010489 138.06226 -9.2663164 -72.894646 -9.2646084 -73.687935 0.0021350235 -104.14636
9200375000 -1.0023898 138.0157 -9.2732697 -72.883385 -9.2679586 -73.777092 0.0044441572 -104.06039
9200437500 -1.004606 138.03584 -9.2671547 -72.922211 -9.258213 -73.691612 0.0080847498 -104.08973
9200500000 -0.99985504 138.00877 -9.2710276 -72.915001 -9.26124 -73.640594 -0.0055709765 -104.0937
9200562500 -1.0061815 137.95769 -9.2617683 -72.944832 -9.2689896 -73.676201 0.0057461876 -104.09372
9200625000 -1.0069789 137.98941 -9.2639217 -72.920143 -9.2576571 -73.636955 0.0020289612 -104.02036
9200687500 -0.99965286 137.99394 -9.2649689 -72.920082 -9.2666187 -73.656136 0.0014178524 -104.00203
9200750000 -1.0094887 137.92535 -9.2622385 -72.872429 -9.2597847 -73.642159 -0.0063198633 -103.99853
9200812500 -1.0118275 137.93922 -9.2720566 -72.88134 -9.2635765 -73.652039 -0.014158857 -103.99297
9200875000 -1.0026414 138.03374 -9.2636547 -72.81366 -9.2662973 -73.613564 -0.0032406251 -103.997
9200937500 -1.0033199 137.91237 -9.268774 -72.972748 -9.2551613 -73.659065 0.0036956759 -103.95163
9201000000 -0.99871147 137.9166 -9.2594461 -72.962318 -9.255765 -73.697021 0.0039795013 -103.97937
9201062500 -0.99761409 137.86438 -9.25352 -72.859993 -9.2475939 -73.713898 0.0042514107 -103.933
9201125000 -1.0050931 137.8656 -9.260273 -72.937737 -9.2552881 -73.650246 0.00096371793 -103.8716
9201187500 -1.0048391 137.81253 -9.2569771 -72.840714 -9.2514944 -73.612938 -0.0080490895 -103.79115
9201250000 -1.0148375 137.86394 -9.2593966 -72.883308 -9.2658968 -73.648033 -0.012623029 -103.86636
9201312500 -1.0143739 137.84689 -9.2661057 -72.837936 -9.2595921 -73.636986 -0.00070007017 -103.86421
9201375000 -1.0135715 137.85739 -9.2617922 -72.856979 -9.2557669 -73.591812 -0.0091203665 -103.80473
9201437500 -1.005935 137.83716 -9.26863 -72.87265 -9.2553043 -73.641914 -0.0093000149 -103.88145
9201500000 -1.0044378 137.83038 -9.2572985 -72.83403 -9.2596693 -73.633919 -0.0045355847 -103.82638
9201562500 -1.0120208 137.79124 -9.2713318 -72.862366 -9.2637568 -73.621895 -0.018355725 -103.80158
9201625000 -1.0080366 137.81836 -9.2538538 -72.883942 -9.2544537 -73.57122 -0.012748237 -103.73733
9201687500 -1.0164404 137.79022 -9.2582083 -72.77813 -9.2454128 -73.634621 -0.0065689376 -103.65446
9201750000 -1.0100609 137.71016 -9.2643204 -72.903023 -9.2357521 -73.605988 0.0098033417 -103.6797
9201812500 -1.0024128 137.73555 -9.2588749 -72.870544 -9.2552252 -73.6026 -0.012024338 -103.73452
9201875000 -1.0047954 137.70837 -9.240077 -72.866463 -9.2572947 -73.651314 -0.0039077247 -103.68562
9201937500 -1.0169333 137.66988 -9.2573824 -72.824837 -9.247242 -73.612381 -0.00010429575 -103.71503
9202000000 -1.0101995 137.69205 -9.2523832 -72.889275 -9.2519445 -73.596542 -0.0023500035 -103.62836
9202062500 -1.0144311 137.7052 -9.2574911 -72.851929 -9.2400856 -73.653572 -0.0013462161 -103.64618
9202125000 -1.0105771 137.68747 -9.2704325 -72.874084 -9.2580719 -73.604424 -0.01903921 -103.66702
9202187500 -1.0054069 137.67101 -9.2526331 -72.85614 -9.2498598 -73.603401 -0.0044156988 -103.59675
9202250000 -1.0081173 137.6523 -9.2593679 -72.849716 -9.2463188 -73.61573 -0.013711565 -103.5714
9202312500 -1.0054892 137.64227 -9.2582855 -72.809135 -9.2424231 -73.644989 -0.01248812 -103.57927
9202375000 -1.0095145 137.63409 -9.2618389 -72.815224 -9.2399845 -73.66246 -0.010305011 -103.55172
9202437500 -1.0076001 137.66898 -9.2547178 -72.763313 -9.2457094 -73.579689 -0.0042833122 -103.56858
9202500000 -1.0151604 137.60728 -9.2583981 -72.933823 -9.2571754 -73.56916 -0.01367788 -103.53092
9202562500 -1.0012209 137.56499 -9.2376461 -72.824806 -9.2506542 -73.548347 -0.01976298 -103.51512
9202625000 -1.008841 137.62375 -9.2499237 -72.886932 -9.2330427 -73.5709 -0.0035112039 -103.50987
9202687500 -1.0064182 137.58063 -9.24366 -72.805359 -9.2397909 -73.567711 -0.00047532839 -103.45409
9202750000 -0.99541199 137.50967 -9.2293472 -72.882645 -9.2449198 -73.599411 -0.0077038417 -103.43133
9202812500 -1.0100214 137.51207 -9.2563486 -72.841415 -9.2379637 -73.636841 -0.002664356 -103.40086
9202875000 -1.001316 137.52119 -9.2407007 -72.79435 -9.2430487 -73.608543 -0.0096259853 -103.3918
9202937500 -0.99816442 137.5135 -9.2377596 -72.881317 -9.2339067 -73.568069 -0.0046945754 -103.40189
9203000000 -1.0074735 137.53178 -9.2462587 -72.891022 -9.2377081 -73.632538 -0.0040327269 -103.35302
9203062500 -1.0075616 137.46036 -9.2448788 -72.905853 -9.245986 -73.587654 -0.015768565 -103.42193
9203125000 -1.0053219 137.4258 -9.2473602 -72.81813 -9.2266569 -73.563538 -0.0074119275 -103.31974
9203187500 -1.0016668 137.42149 -9.2498875 -72.899864 -9.2399511 -73.631165 -0.0085112331 -103.34556
9203250000 -1.0091602 137.40569 -9.2414827 -72.856277 -9.243679 -73.603462 -0.012786893 -103.3104
9203312500 -1.016575 137.41864 -9.2483311 -72.859497 -9.2385864 -73.548698 0.0018493481 -103.25376
9203375000 -1.0108948 137.39635 -9.2451143 -72.785583 -9.2362833 -73.566818 -0.0075552445 -103.29075
9203437500 -1.0180219 137.40594 -9.2504406 -72.873039 -9.2429934 -73.539581 -0.010199583 -103.28236
9203500000 -1.0082338 137.38278 -9.2332554 -72.80648 -9.2346096 -73.570114 -0.0039069019 -103.25759
9203562500 -1.0113263 137.36418 -9.2447195 -72.816719 -9.2555542 -73.588135 -0.021058371 -103.25059
9203625000 -1.0116118 137.37798 -9.247921 -72.847565 -9.2398424 -73.517403 -0.012362371 -103.26435
9203687500 -1.0154706 137.30746 -9.2494917 -72.916183 -9.2397089 -73.504097 -0.0096362354 -103.20068
9203750000 -1.0098852 137.3461 -9.2440548 -72.790939 -9.230195 -73.54966 -4.3364675e-005 -103.14535
9203812500 -1.0098326 137.3302 -9.2308083 -72.828377 -9.2371368 -73.575348 -0.016684009 -103.1795
9203875000 -1.0113152 137.29834 -9.2476301 -72.782036 -9.2275438 -73.592957 -0.015684476 -103.17345
9203937500 -1.0156143 137.2966 -9.2331238 -72.836105 -9.2279816 -73.466606 -0.0070821708 -103.11229
9204000000 -1.0087674 137.28958 -9.2304935 -72.741829 -9.2368641 -73.582497 -0.011320087 -103.11738
9204062500 -0.99912536 137.26405 -9.2317677 -72.800674 -9.2218618 -73.540787 -0.018006634 -103.10889
9204125000 -1.0100203 137.27333 -9.23915 -72.829544 -9.2236156 -73.525108 -0.0031681496 -103.03425
9204187500 -1.0183506 137.22073 -9.2479134 -72.760376 -9.236496 -73.541122 -0.018791363 -103.02531
9204250000 -1.0079787 137.24272 -9.225194 -72.866013 -9.2230587 -73.594772 -0.0094669312 -103.08642
9204312500 -1.0013634 137.22411 -9.221056 -72.773834 -9.2202425 -73.544556 -0.0079234224 -102.95888
9204375000 -0.99915534 137.20175 -9.2289515 -72.786133 -9.2235632 -73.570068 -0.012019652 -103.03988
9204437500 -1.0161524 137.1967 -9.2290649 -72.817177 -9.233407 -73.461563 -0.0047807586 -102.92995
9204500000 -1.0172594 137.17101 -9.237093 -72.784874 -9.2324305 -73.570549 -0.010812946 -103.01025
9204562500 -1.0115553 137.12978 -9.2378893 -72.896591 -9.2205467 -73.547829 -0.0045230314 -103.0735
9204625000 -1.002665 137.1013 -9.2242632 -72.829613 -9.2283125 -73.581413 -0.014976049 -102.90411
9204687500 -1.0112846 137.13377 -9.2382956 -72.694633 -9.2259512 -73.585556 -0.01245312 -102.93066
9204750000 -1.0128273 137.10524 -9.2301378 -72.782578 -9.2337618 -73.513382 -0.026582118 -102.91144
9204812500 -1.0011346 137.10799 -9.2308455 -72.689056 -9.2309818 -73.582458 -0.013308293 -102.94698
9204875000 -1.0063046 137.16704 -9.2214603 -72.701004 -9.2429361 -73.507057 -0.02291031 -102.90944
9204937500 -1.0074483 137.10408 -9.222744 -72.82769 -9.2233658 -73.573326 -0.013837381 -102.89609
9205000000 -1.0071403 137.0764 -9.2377625 -72.732315 -9.2144203 -73.554031 -0.025020521 -102.83813
9205062500 -1.0070834 137.00856 -9.2271395 -72.828598 -9.2050009 -73.533218 -0.016108014 -102.80383
9205125000 -1.0119259 136.99518 -9.2263451 -72.759201 -9.2155771 -73.494095 -0.016992675 -102.77069
9205187500 -1.0169457 137.02965 -9.2298584 -72.728516 -9.2177954 -73.518295 -0.016300332 -102.76737
9205250000 -1.0072851 136.98846 -9.2420082 -72.826088 -9.2270365 -73.478569 -0.027378945 -102.78114
9205312500 -1.0086594 137.06247 -9.2279081 -72.733101 -9.2126589 -73.533035 -0.011883605 -102.80609
9205375000 -1.0088644 136.94037 -9.2149992 -72.806 -9.213295 -73.456741 -0.014876152 -102.72433
9205437500 -1.0072584 137.00015 -9.2165051 -72.6847 -9.2186241 -73.527542 -0.014783821 -102.73859
9205500000 -1.0171046 136.90517 -9.2160425 -72.744751 -9.2125044 -73.551399 -0.0093903905 -102.64662
9205562500 -1.0145864 136.95863 -9.2076359 -72.798981 -9.2163973 -73.499443 -0.009421668 -102.63841
9205625000 -1.0178598 136.95004 -9.2262449 -72.769295 -9.2150278 -73.539131 -0.017433159 -102.62263
9205687500 -1.0132502 136.96158 -9.229332 -72.708298 -9.2155199 -73.494568 -0.017658552 -102.6183
9205750000 -1.0101519 136.87134 -9.2133045 -72.846382 -9.2115326 -73.524475 -0.0072594299 -102.61314
9205812500 -1.016058 136.86823 -9.2135439 -72.73587 -9.2151852 -73.521935 -0.018316647 -102.54044
9205875000 -1.0070046 136.90096 -9.2187605 -72.748581 -9.2201853 -73.508896 -0.019426655 -102.6355
9205937500 -1.0163286 136.85475 -9.2166109 -72.754356 -9.2027884 -73.446579 -0.019925209 -102.54659
9206000000 -1.0078197 136.83299 -9.2029257 -72.777054 -9.2100677 -73.51812 -0.013815721 -102.58139
9206062500 -1.0102344 136.87535 -9.2147875 -72.737236 -9.2134752 -73.474152 -0.020847661 -102.54934
9206125000 -1.0126992 136.82028 -9.2172728 -72.761559 -9.2087975 -73.457413 -0.022790512 -102.48113
9206187500 -1.01133 136.80836 -9.2082796 -72.752838 -9.2031527 -73.529053 -0.0035446808 -102.53532
9206250000 -1.0173233 136.76202 -9.22262 -72.753975 -9.205862 -73.371857 -0.017751547 -102.47618
9206312500 -1.0063466 136.68895 -9.2152395 -72.735733 -9.2073994 -73.581718 -0.022098156 -102.50612
9206375000 -1.0159475 136.77676 -9.2171612 -72.733719 -9.2016907 -73.481758 -0.016648501 -102.48542
9206437500 -1.0065697 136.71565 -9.2131052 -72.779816 -9.2118921 -73.501701 -0.029049849 -102.48393
9206500000 -1.0140471 136.73419 -9.2210817 -72.770706 -9.196682 -73.520142 -0.021620469 -102.47942
9206562500 -1.0096138 136.70074 -9.2154608 -72.881943 -9.2060852 -73.459908 -0.018509552 -102.48146
9206625000 -1.0127534 136.64476 -9.2088404 -72.747559 -9.2052546 -73.527008 -0.017094467 -102.42265
9206687500 -1.0124408 136.70242 -9.2157135 -72.760223 -9.2033796 -73.51667 -0.013893288 -102.41943
9206750000 -1.0075027 136.72282 -9.2037077 -72.716621 -9.2104464 -73.460365 -0.017997056 -102.39269
9206812500 -1.0079678 136.68996 -9.2072773 -72.7304 -9.2036877 -73.477898 -0.0083901547 -102.42792
9206875000 -1.0133866 136.67763 -9.2125206 -72.770821 -9.2041168 -73.414871 -0.015622212 -102.29587
9206937500 -1.0087813 136.65149 -9.2103653 -72.739944 -9.2075806 -73.435944 -0.02048637 -102.26054
9207000000 -1.0089422 136.65587 -9.2107096 -72.746429 -9.2118807 -73.530289 -0.026978452 -102.35513
9207062500 -1.0051249 136.62271 -9.2002258 -72.747581 -9.1960545 -73.415901 -0.022057494 -102.20268
9207125000 -1.0190971 136.56729 -9.202054 -72.765785 -9.2000914 -73.467606 -0.016076043 -102.24386
9207187500 -1.0067984 136.56213 -9.1960258 -72.777687 -9.2058229 -73.4646 -0.018470928 -102.29046
9207250000 -1.0117855 136.57048 -9.2157459 -72.715858 -9.2009363 -73.459251 -0.014767462 -102.29085
9207312500 -1.0092063 136.53195 -9.2027054 -72.844521 -9.2016497 -73.451927 -0.013461404 -102.20067
9207375000 -1.0194761 136.51465 -9.2105713 -72.776329 -9.1911631 -73.484734 -0.017324913 -102.16777
9207437500 -1.0095242 136.58235 -9.203248 -72.690964 -9.2031546 -73.430458 -0.019097816 -102.1656
9207500000 -1.0109988 136.55246 -9.202734 -72.691437 -9.2001038 -73.402893 -0.035028551 -102.17892
9207562500 -1.0079352 136.53178 -9.1922016 -72.793381 -9.1862879 -73.384537 -0.023499567 -102.16562
9207625000 -1.0107294 136.4305 -9.2012806 -72.66655 -9.1932726 -73.433601 -0.021838844 -102.07701
9207687500 -1.0144459 136.5085 -9.1897583 -72.72448 -9.1969662 -73.423515 -0.017453015 -102.10384
9207750000 -1.0149711 136.46561 -9.2103424 -72.699959 -9.1912928 -73.427582 -0.013326691 -102.06871
9207812500 -1.0141023 136.45151 -9.202014 -72.760597 -9.1984129 -73.414291 -0.028468853 -102.12347
9207875000 -1.0130049 136.47485 -9.2100115 -72.704895 -9.1960392 -73.458603 -0.020639181 -102.03867
9207937500 -1.0142238 136.38394 -9.2048655 -72.654938 -9.1968489 -73.484581 -0.029394241 -102.08331
9208000000 -1.0216674 136.38885 -9.2013893 -72.78508 -9.1879711 -73.400673 -0.022093628 -102.01496
9208062500 -1.0127956 136.40596 -9.2030401 -72.685387 -9.1931028 -73.433769 -0.021647997 -101.99704
9208125000 -1.0162246 136.3875 -9.2072239 -72.74157 -9.2054338 -73.420967 -0.029240491 -101.97282
9208187500 -1.0042624 136.38959 -9.1901989 -72.721138 -9.1949377 -73.37056 -0.026778148 -101.93414
9208250000 -1.0183678 136.37207 -9.1979008 -72.706619 -9.1881514 -73.462074 -0.025510347 -101.92934
9208312500 -1.013836 136.35721 -9.2026978 -72.64444 -9.1775198 -73.383194 -0.022723814 -101.93788
9208375000 -1.0163219 136.38611 -9.1960287 -72.636345 -9.186759 -73.382416 -0.022827083 -101.87756
9208437500 -1.0109832 136.28848 -9.1952562 -72.703728 -9.1908579 -73.328987 -0.032847486 -101.87724
9208500000 -1.020605 136.28748 -9.1978264 -72.673645 -9.193821 -73.458107 -0.027510185 -101.89256
9208562500 -1.0150458 136.31357 -9.193922 -72.664139 -9.1906824 -73.404686 -0.025222033 -101.84455
9208625000 -1.0069627 136.29686 -9.183156 -72.678322 -9.1879816 -73.363152 -0.037617166 -101.87116
9208687500 -1.0038693 136.29005 -9.1768837 -72.655029 -9.1841965 -73.402809 -0.019083455 -101.77946
9208750000 -1.0084988 136.28296 -9.1917143 -72.690544 -9.1785727 -73.356827 -0.023474561 -101.79557
9208812500 -1.0155317 136.31929 -9.1940279 -72.62027 -9.1899281 -73.397537 -0.024139944 -101.78857
9208875000 -1.0139226 136.17419 -9.186367 -72.749756 -9.188612 -73.352524 -0.017535131 -101.75601
9208937500 -1.0121819 136.22037 -9.1812344 -72.66851 -9.1808186 -73.407349 -0.015877293 -101.76469
9209000000 -1.0122235 136.20947 -9.1967936 -72.708321 -9.1846018 -73.405083 -0.032808114 -101.77982
9209062500 -1.0147761 136.2018 -9.1912584 -72.6539 -9.1859636 -73.376129 -0.034210917 -101.73404
9209125000 -1.00638 136.16138 -9.1773834 -72.721298 -9.1652308 -73.398125 -0.015692819 -101.68674
9209187500 -1.0177562 136.2005 -9.1881294 -72.692528 -9.1788492 -73.354576 -0.027167236 -101.67847
9209250000 -1.0076258 136.16846 -9.1860018 -72.694351 -9.1859779 -73.467445 -0.034992352 -101.63122
9209312500 -1.0161759 136.05635 -9.1984224 -72.679947 -9.1724987 -73.439125 -0.031127587 -101.69178
9209375000 -1.0067792 136.16699 -9.1803684 -72.656868 -9.1861753 -73.359261 -0.034211222 -101.64574
9209437500 -1.0184231 136.06642 -9.1852665 -72.682343 -9.178586 -73.465431 -0.023966594 -101.58809
9209500000 -1.0140427 136.05093 -9.1806459 -72.690315 -9.1791811 -73.408211 -0.033332437 -101.56784
9209562500 -1.0225905 136.08031 -9.1891899 -72.670029 -9.1835442 -73.356316 -0.034287494 -101.54659
9209625000 -1.0170374 136.06177 -9.1902027 -72.64563 -9.1730309 -73.412865 -0.025555357 -101.56947
9209687500 -1.015447 136.0141 -9.1866808 -72.628365 -9.1911364 -73.316658 -0.029039713 -101.51538
9209750000 -1.0090908 136.01768 -9.1721411 -72.709045 -9.1804161 -73.332268 -0.018883377 -101.56383
9209812500 -1.0079911 136.05844 -9.1766863 -72.538155 -9.1836576 -73.38195 -0.028787324 -101.48276
9209875000 -1.0113536 136.00699 -9.1748924 -72.642525 -9.1772165 -73.319641 -0.025805043 -101.46755
9209937500 -1.0152705 136.06441 -9.1857576 -72.64254 -9.1803083 -73.389656 -0.026147598 -101.5726
9210000000 -1.0039858 135.98672 -9.1733217 -72.600983 -9.172019 -73.327507 -0.043147203 -101.39295
9210062500 -1.0184822 136.00627 -9.1847067 -72.654266 -9.1721506 -73.425133 -0.034946769 -101.48165
9210125000 -1.0077878 135.95735 -9.1880865 -72.62851 -9.1701794 -73.341629 -0.026721785 -101.40665
9210187500 -1.0142927 135.99661 -9.177803 -72.646957 -9.1647425 -73.370674 -0.027700407 -101.39599
9210250000 -1.013898 135.95863 -9.1749611 -72.636505 -9.1701765 -73.301994 -0.032382604 -101.40834
9210312500 -1.0246522 135.91983 -9.172801 -72.61779 -9.1752825 -73.390732 -0.032739114 -101.42532
9210375000 -1.009979 135.94122 -9.1746197 -72.640434 -9.1754913 -73.389244 -0.034999099 -101.32097
9210437500 -1.0038266 135.83852 -9.1720095 -72.707428 -9.1674747 -73.407166 -0.020782938 -101.40203
9210500000 -1.0082892 135.85414 -9.1758509 -72.666786 -9.1658974 -73.314606 -0.021067888 -101.32861
9210562500 -1.0134057 135.87213 -9.1747408 -72.611397 -9.1727648 -73.426888 -0.041898079 -101.3379
9210625000 -1.0113394 135.87399 -9.183074 -72.594574 -9.1724215 -73.276711 -0.038641308 -101.33134
9210687500 -1.0119759 135.87308 -9.167325 -72.643677 -9.1649876 -73.393532 -0.031425804 -101.30048
9210750000 -1.0194345 135.8299 -9.1812515 -72.628548 -9.1634436 -73.335251 -0.028109664 -101.26963
9210812500 -1.0176158 135.81049 -9.1832619 -72.680191 -9.1711349 -73.330002 -0.038086992 -101.23258
9210875000 -1.0164807 135.81311 -9.1757717 -72.637543 -9.1591625 -73.332085 -0.036795478 -101.25234
9210937500 -1.0121191 135.82433 -9.1704798 -72.649216 -9.1634989 -73.248047 -0.036085207 -101.17107
9211000000 -1.0114174 135.81194 -9.1671171 -72.548782 -9.1702843 -73.338379 -0.028952353 -101.22298
9211062500 -1.0108182 135.79799 -9.1624546 -72.535568 -9.1676016 -73.311852 -0.036755819 -101.19439
9211125000 -1.0073235 135.76811 -9.1668968 -72.608566 -9.1621456 -73.334999 -0.026825963 -101.15393
9211187500 -1.0211593 135.77321 -9.1694269 -72.559944 -9.1580658 -73.304436 -0.036135353 -101.1351
9211250000 -1.0186603 135.72809 -9.1687288 -72.645592 -9.1733027 -73.285873 -0.031587005 -101.1176
9211312500 -1.0132 135.73822 -9.1655903 -72.637024 -9.1649084 -73.378815 -0.039349031 -101.16129
9211375000 -1.0120509 135.64456 -9.1662426 -72.593163 -9.1609774 -73.363663 -0.040314056 -101.09015
9211437500 -1.0074431 135.69283 -9.1487694 -72.555237 -9.1572924 -73.292831 -0.036364999 -101.06895
9211500000 -1.0156579 135.66548 -9.1653147 -72.596428 -9.1674109 -73.328087 -0.034726787 -101.10518
9211562500 -1.0203382 135.71898 -9.1709356 -72.611641 -9.1561842 -73.332253 -0.042607278 -101.04441
9211625000 -1.0141017 135.63434 -9.155385 -72.619064 -9.1556177 -73.376877 -0.031508896 -101.06707
9211687500 -1.0174825 135.68341 -9.1778488 -72.526207 -9.1565304 -73.367699 -0.03996126 -101.00249
9211750000 -1.0138689 135.60286 -9.1642818 -72.543976 -9.1563749 -73.273438 -0.032773606 -100.93961
9211812500 -1.017357 135.58717 -9.1751614 -72.600182 -9.1604977 -73.274681 -0.047780268 -100.98122
9211875000 -1.0225694 135.57368 -9.1668119 -72.586388 -9.1496239 -73.221771 -0.03567639 -100.86982
9211937500 -1.0169045 135.62029 -9.1634188 -72.597908 -9.1508818 -73.30114 -0.044318415 -100.94975
9212000000 -1.0145355 135.52594 -9.1569843 -72.581444 -9.1468878 -73.341576 -0.03879587 -100.91833
9212062500 -1.0141567 135.52823 -9.1601353 -72.601715 -9.1537533 -73.275879 -0.040491167 -100.88819
9212125000 -1.0162332 135.47578 -9.1531706 -72.589996 -9.1622934 -73.305092 -0.043127034 -100.85895
9212187500 -1.0099651 135.52 -9.1535091 -72.499153 -9.1420565 -73.315033 -0.041128967 -100.8508
