!Agilent Technologies,N5242A,MY51221714,A.09.90.19
!Agilent N5242A: A.09.90.19
!Date: Tuesday, March 26, 2024 16:58:14
!Correction: S11(Full 2 Port(1,2)) 
!S21(Full 2 Port(1,2)) 
!S12(Full 2 Port(1,2)) 
!S22(Full 2 Port(1,2)) 
!S2P File: Measurements: S11, S21, S12, S22:
# Hz S  dB   R 50
9200000000 -1.0072441 138.23528 -9.2710295 -72.987877 -9.2486258 -73.706703 0.0084142126 -104.54198
9200062500 -1.0096265 138.24069 -9.2641649 -73.072868 -9.2650633 -73.668434 0.015734058 -104.49143
9200125000 -1.0091213 138.20895 -9.259676 -72.965408 -9.2590942 -73.652061 0.0094278669 -104.44386
9200187500 -1.0069505 138.25186 -9.2625751 -72.88266 -9.2545757 -73.759735 0.018788731 -104.47279
9200250000 -1.0031518 138.16199 -9.2593994 -73.007729 -9.2521429 -73.636848 0.012457345 -104.43054
9200312500 -1.0084422 138.22496 -9.2652369 -72.979126 -9.2531271 -73.738716 0.013460221 -104.43741
9200375000 -1.0060986 138.1778 -9.2601662 -72.970924 -9.2537632 -73.817825 0.012356228 -104.44076
9200437500 -1.0079771 138.17786 -9.2620907 -72.966759 -9.2532864 -73.705833 0.020271221 -104.43147
9200500000 -1.0080456 138.14491 -9.2694807 -73.031181 -9.2581444 -73.601692 0.013857934 -104.34734
9200562500 -1.0038208 138.13847 -9.2534485 -72.939888 -9.2624197 -73.772461 0.015061454 -104.43806
9200625000 -1.0147293 138.14984 -9.2665195 -72.947708 -9.2417717 -73.677658 0.012519389 -104.34391
9200687500 -1.0015936 138.1042 -9.2573156 -72.97348 -9.2552471 -73.701202 0.018043606 -104.31296
9200750000 -1.0141156 138.07124 -9.2676497 -72.998657 -9.2538652 -73.692307 0.011557445 -104.33553
9200812500 -1.0252876 138.06781 -9.2635679 -72.951134 -9.2524252 -73.718643 0.0027816792 -104.29423
9200875000 -1.0019712 138.18849 -9.2597971 -72.965767 -9.2558727 -73.644501 0.002335547 -104.3317
9200937500 -1.0068707 138.0639 -9.2623825 -72.972466 -9.2435894 -73.73793 0.017230477 -104.27869
9201000000 -1.0069561 138.03943 -9.2639151 -72.97641 -9.2406254 -73.696243 0.01336889 -104.25255
9201062500 -1.0065827 138.02806 -9.2582045 -72.91819 -9.2447844 -73.653252 0.011579946 -104.23068
9201125000 -1.0096765 138.02919 -9.2561731 -72.922607 -9.2478304 -73.659393 0.015210801 -104.17889
9201187500 -1.0095818 137.98491 -9.256485 -72.905907 -9.2396746 -73.690605 0.0088646123 -104.1408
9201250000 -1.0127901 138.0229 -9.2530031 -72.905922 -9.243948 -73.607056 0.01048871 -104.12613
9201312500 -1.0153571 138.01807 -9.2512264 -72.86541 -9.2458992 -73.700111 0.013176536 -104.19884
9201375000 -1.0188305 137.96439 -9.2559938 -72.866676 -9.2463894 -73.625549 0.0051363702 -104.09321
9201437500 -1.0107141 137.98108 -9.2513924 -72.905914 -9.2500887 -73.658417 0.004823071 -104.20922
9201500000 -1.0123101 137.96918 -9.2577953 -72.926125 -9.2478209 -73.704109 0.0077448115 -104.16569
9201562500 -1.01114 137.90063 -9.2545004 -72.977425 -9.2578859 -73.622108 -0.0072430903 -104.09839
9201625000 -1.0047197 137.93907 -9.2474766 -72.895859 -9.2246017 -73.63102 0.0063074911 -104.06445
9201687500 -1.0208031 137.92451 -9.2606897 -72.866829 -9.2379723 -73.654839 0.011104303 -103.96992
9201750000 -1.0082616 137.87657 -9.2475185 -72.896324 -9.2290945 -73.668594 0.016705016 -104.04354
9201812500 -1.0080181 137.95738 -9.2475367 -72.868164 -9.2426682 -73.677414 -0.000493097 -104.10884
9201875000 -1.0042053 137.85117 -9.2407131 -72.950317 -9.245327 -73.6577 0.011550896 -103.93533
9201937500 -1.0254413 137.81548 -9.2554884 -72.917984 -9.2311201 -73.703247 0.011596628 -104.0183
9202000000 -1.0123558 137.83621 -9.2442369 -72.904243 -9.2356176 -73.727791 0.010737979 -103.97838
9202062500 -1.0173657 137.84514 -9.2460575 -72.873688 -9.2298765 -73.644295 0.015126024 -103.94316
9202125000 -1.0203941 137.85857 -9.2672462 -72.863968 -9.2391148 -73.624939 -0.0032370146 -103.89666
9202187500 -1.0115159 137.84357 -9.2451591 -72.928337 -9.24751 -73.673973 0.0061382921 -103.91415
9202250000 -1.0137838 137.79622 -9.2495413 -72.946999 -9.2406416 -73.640556 0.0027454868 -103.90863
9202312500 -1.0042437 137.80731 -9.2390814 -72.872314 -9.2299309 -73.628212 0.0076124347 -103.87779
9202375000 -1.0059559 137.72346 -9.2473469 -72.900986 -9.2370005 -73.598091 -0.0002220692 -103.81161
9202437500 -1.0122061 137.79309 -9.2406511 -72.827835 -9.2349787 -73.634094 0.011512958 -103.91429
9202500000 -1.0225493 137.78142 -9.2495909 -72.938202 -9.2464714 -73.683205 0.0057825227 -103.8854
9202562500 -1.0036733 137.70094 -9.2402964 -72.89959 -9.2304497 -73.582344 0.0031334423 -103.85141
9202625000 -1.0115614 137.7684 -9.2383537 -72.897545 -9.2296076 -73.650757 0.0071504815 -103.83993
9202687500 -1.0148562 137.71587 -9.2436256 -72.906342 -9.2326469 -73.658821 0.014040167 -103.76785
9202750000 -1.0047603 137.62782 -9.2393675 -72.922661 -9.2274828 -73.630028 0.012014445 -103.75965
9202812500 -1.0109816 137.66182 -9.2476454 -72.884529 -9.2311487 -73.649139 0.0079832803 -103.74528
9202875000 -1.0068233 137.61732 -9.2335081 -72.869911 -9.2383652 -73.638924 -0.0014160197 -103.75785
9202937500 -1.008798 137.63708 -9.2350321 -72.980774 -9.2237644 -73.51683 0.015109184 -103.69725
9203000000 -1.0120754 137.66609 -9.2446976 -72.846451 -9.226819 -73.648994 0.005459738 -103.65703
9203062500 -1.0071316 137.59573 -9.2318535 -72.850342 -9.2276869 -73.539864 0.00092919864 -103.68245
9203125000 -1.0123404 137.57793 -9.2347469 -72.905937 -9.2256975 -73.660378 0.0053038383 -103.6734
9203187500 -1.0043304 137.56218 -9.2452774 -72.979477 -9.2185984 -73.661354 0.0063771028 -103.60941
9203250000 -1.0102741 137.56773 -9.2330942 -72.928429 -9.2225885 -73.645508 0.0087739164 -103.66824
9203312500 -1.0154053 137.5632 -9.2384596 -72.888832 -9.226016 -73.671799 0.010690317 -103.64716
9203375000 -1.0107945 137.5471 -9.2286167 -72.901512 -9.2196226 -73.656723 0.011613922 -103.60373
9203437500 -1.0163338 137.57188 -9.243041 -72.938019 -9.2353363 -73.60894 0.0025178604 -103.62427
9203500000 -1.0050449 137.51105 -9.2258978 -72.87912 -9.2281389 -73.619255 0.0095079755 -103.64034
9203562500 -1.0186427 137.49808 -9.232811 -72.908928 -9.2312984 -73.702789 -0.0098088123 -103.61585
9203625000 -1.0175577 137.51059 -9.2422915 -72.943314 -9.2289953 -73.584633 -0.0016057729 -103.56788
9203687500 -1.01904 137.47433 -9.2389393 -72.909065 -9.2278461 -73.595955 -0.0035754356 -103.51532
9203750000 -1.0123777 137.48708 -9.2235994 -72.890602 -9.2255487 -73.54953 0.013642102 -103.46564
9203812500 -1.010708 137.47006 -9.2251282 -72.927856 -9.2310286 -73.606506 -0.0052001122 -103.46771
9203875000 -1.0091176 137.46696 -9.2289219 -72.86512 -9.2219162 -73.641243 -0.011233571 -103.49164
9203937500 -1.0193212 137.43723 -9.2214413 -72.853996 -9.2205477 -73.574615 0.0086589102 -103.47134
9204000000 -1.0120865 137.44695 -9.2224274 -72.844124 -9.2220984 -73.562714 0.0089691626 -103.41432
9204062500 -1.0034568 137.44304 -9.2183008 -72.852112 -9.2115564 -73.626404 0.0012491141 -103.41973
9204125000 -1.0223906 137.39151 -9.2374392 -72.844627 -9.216301 -73.654953 0.0042638886 -103.42907
9204187500 -1.021875 137.34311 -9.232172 -72.908485 -9.228303 -73.550766 -0.0091398349 -103.37579
9204250000 -1.0153129 137.38484 -9.2293987 -72.823418 -9.2154408 -73.607811 0.0015948807 -103.38947
9204312500 -1.0084636 137.40697 -9.222846 -72.806419 -9.2093153 -73.58696 0.0021628584 -103.28831
9204375000 -1.0049182 137.30447 -9.2286158 -72.898712 -9.2115917 -73.553352 -0.00043899831 -103.37211
9204437500 -1.0168895 137.37912 -9.2194605 -72.863495 -9.214921 -73.548019 0.0049496093 -103.28364
9204500000 -1.0215858 137.36978 -9.2308044 -72.842323 -9.2190409 -73.602348 -0.0017374593 -103.34901
9204562500 -1.0153346 137.28365 -9.2292061 -72.89933 -9.2124615 -73.64621 0.0060606524 -103.38787
9204625000 -1.0106777 137.31021 -9.2224064 -72.766594 -9.2093782 -73.57962 0.0031463231 -103.20256
9204687500 -1.0131962 137.30258 -9.2279463 -72.779121 -9.2151537 -73.566864 -0.000593459 -103.23699
9204750000 -1.0191072 137.25557 -9.2192478 -72.815933 -9.2160845 -73.598434 -0.0052478602 -103.27539
9204812500 -1.0081879 137.2458 -9.2209187 -72.753365 -9.2127905 -73.586006 0.0092405956 -103.2017
9204875000 -1.0151842 137.29413 -9.2175865 -72.834457 -9.2238083 -73.496414 0.00090390421 -103.1739
9204937500 -1.0075514 137.21655 -9.2122793 -72.917976 -9.2033272 -73.602432 0.010431902 -103.21088
9205000000 -1.0022993 137.18407 -9.2175798 -72.826668 -9.2130527 -73.503204 -0.015021862 -103.12703
9205062500 -1.0136815 137.18042 -9.2188883 -72.887459 -9.1903753 -73.537994 0.0075838151 -103.1141
9205125000 -1.0157486 137.18872 -9.21486 -72.811569 -9.2058544 -73.567467 0.00033226013 -103.09215
9205187500 -1.0183814 137.24654 -9.2328005 -72.720993 -9.2102194 -73.541519 -0.00067360984 -103.05571
9205250000 -1.0112654 137.14175 -9.221797 -72.88121 -9.2131462 -73.543846 -0.0033942494 -103.15044
9205312500 -1.0108935 137.20483 -9.2132292 -72.763893 -9.2047815 -73.576874 0.0010671382 -103.13833
9205375000 -1.0127848 137.12321 -9.2100325 -72.759277 -9.2087002 -73.573174 0.0054880637 -103.069
9205437500 -1.0074037 137.15475 -9.211338 -72.716324 -9.2089682 -73.553589 -0.0012169983 -103.0223
9205500000 -1.0257382 137.02254 -9.2185411 -72.789467 -9.1975403 -73.545982 0.0062348992 -102.93463
9205562500 -1.0120068 137.09595 -9.2094822 -72.823654 -9.2035503 -73.564255 -0.0012502483 -102.96667
9205625000 -1.0218234 137.1109 -9.2149153 -72.795113 -9.1967564 -73.511063 0.0038866545 -102.97923
9205687500 -1.0128038 137.06662 -9.2014141 -72.806816 -9.1916447 -73.589775 0.00068366277 -102.93958
9205750000 -1.0123202 137.02711 -9.2047606 -72.870399 -9.1954603 -73.579201 0.004276657 -102.93707
9205812500 -1.0164473 137.02658 -9.199049 -72.815811 -9.2042704 -73.545212 9.7533695e-005 -102.89642
9205875000 -1.0081136 137.05655 -9.2161989 -72.761467 -9.20257 -73.557648 -0.00049405836 -102.96004
9205937500 -1.0163445 136.96838 -9.2124443 -72.810211 -9.1887426 -73.512856 0.0029829377 -102.90236
9206000000 -1.0202975 137.00436 -9.2055311 -72.777481 -9.207881 -73.593948 0.0010118835 -102.87639
9206062500 -1.0102 137.03329 -9.2006254 -72.801033 -9.2081728 -73.551521 -0.0061724591 -102.91388
9206125000 -1.0130047 137.00731 -9.2010269 -72.777466 -9.190649 -73.437706 0.0016545044 -102.85159
9206187500 -1.0156596 136.95892 -9.1956701 -72.785576 -9.1996565 -73.504257 0.0037027386 -102.82746
9206250000 -1.0221243 136.90622 -9.2186394 -72.847321 -9.2010736 -73.581322 -0.0043431614 -102.8769
9206312500 -1.0107052 136.87035 -9.2079611 -72.815727 -9.1980381 -73.640274 -0.0019779939 -102.82859
9206375000 -1.0175364 136.91548 -9.2067614 -72.803024 -9.2013063 -73.479965 -0.0097279837 -102.78419
9206437500 -1.0111421 136.88461 -9.206912 -72.836334 -9.1954918 -73.559143 -0.0052248943 -102.86517
9206500000 -1.0164483 136.90001 -9.2090731 -72.811844 -9.2003841 -73.41832 -0.010258991 -102.746
9206562500 -1.0154357 136.85555 -9.2080431 -72.86454 -9.2013617 -73.452515 -0.007739427 -102.77129
9206625000 -1.0242165 136.80023 -9.1995792 -72.748009 -9.1909208 -73.564575 -0.0063083828 -102.73711
9206687500 -1.0141884 136.82214 -9.2081213 -72.839104 -9.1960649 -73.475945 -0.0028318882 -102.75871
9206750000 -1.0155613 136.86491 -9.2030973 -72.762833 -9.1952467 -73.501007 -0.0049443375 -102.68462
9206812500 -1.0130117 136.83131 -9.1983967 -72.759216 -9.198452 -73.466217 0.00011113127 -102.68241
9206875000 -1.0178419 136.79567 -9.200489 -72.813324 -9.186758 -73.450905 -0.0018735389 -102.54654
9206937500 -1.0117644 136.77762 -9.1953783 -72.795448 -9.1979465 -73.533806 -0.0089492323 -102.66444
9207000000 -1.0184748 136.76703 -9.1955137 -72.847412 -9.1905851 -73.530624 -0.0043496517 -102.6399
9207062500 -1.0081009 136.76988 -9.1884108 -72.754158 -9.1851473 -73.470245 -0.0014243234 -102.52078
9207125000 -1.0192612 136.73865 -9.1895914 -72.757614 -9.1910772 -73.544853 -0.0077538118 -102.53016
9207187500 -1.0111067 136.70012 -9.1794491 -72.871582 -9.2013979 -73.534248 -0.0068534585 -102.60649
9207250000 -1.0100765 136.73265 -9.1980648 -72.733917 -9.1895666 -73.486755 0.00021802011 -102.59536
9207312500 -1.0106578 136.71126 -9.1957245 -72.726738 -9.1842823 -73.439796 -0.0020562836 -102.53472
9207375000 -1.0147637 136.67059 -9.1954031 -72.828979 -9.1901941 -73.486504 -0.0094613666 -102.46169
9207437500 -1.0127897 136.74686 -9.1963272 -72.694153 -9.2042799 -73.415619 -0.01095112 -102.46439
9207500000 -1.018644 136.70056 -9.2099504 -72.690697 -9.1822872 -73.423233 -0.013966556 -102.4784
9207562500 -1.0110209 136.69341 -9.2017107 -72.760399 -9.1846418 -73.433121 -0.010309254 -102.4428
9207625000 -1.0107678 136.60143 -9.1818953 -72.67099 -9.1866856 -73.450783 -0.0061728624 -102.39318
9207687500 -1.0182776 136.66528 -9.1858454 -72.732292 -9.1918249 -73.449913 -0.0056075808 -102.41893
9207750000 -1.0186915 136.59969 -9.1914539 -72.803093 -9.1819382 -73.495026 -0.0023778095 -102.437
9207812500 -1.0174519 136.62254 -9.1997175 -72.767166 -9.189311 -73.463745 -0.016690256 -102.39426
9207875000 -1.0112457 136.62209 -9.1912394 -72.681038 -9.1864042 -73.488213 -0.0087241484 -102.37696
9207937500 -1.0140712 136.54045 -9.1960926 -72.772667 -9.1879797 -73.514343 -0.013452165 -102.39847
9208000000 -1.0175836 136.57693 -9.1786003 -72.835762 -9.1854744 -73.441147 -0.0063069384 -102.34718
9208062500 -1.0218555 136.5524 -9.1935196 -72.726097 -9.1827164 -73.528015 -0.013072609 -102.35595
9208125000 -1.0186242 136.53879 -9.190999 -72.738358 -9.1797476 -73.514259 -0.011080072 -102.31956
9208187500 -1.0140371 136.55321 -9.1833878 -72.754189 -9.17418 -73.468758 -0.0092154536 -102.28029
9208250000 -1.024773 136.54747 -9.1905136 -72.668159 -9.1710148 -73.508026 -0.010082043 -102.30703
9208312500 -1.0168633 136.53741 -9.1988764 -72.67543 -9.1665134 -73.475433 -0.0075015603 -102.28226
9208375000 -1.0289599 136.49222 -9.1944304 -72.777008 -9.178524 -73.483452 -0.0059486874 -102.2674
9208437500 -1.0124927 136.44534 -9.1805086 -72.753525 -9.1940937 -73.432518 -0.024265571 -102.19773
9208500000 -1.0207747 136.40858 -9.1927462 -72.747383 -9.1773901 -73.461311 -0.012865077 -102.20743
9208562500 -1.0166798 136.47766 -9.1826782 -72.751854 -9.1775761 -73.501472 -0.01962088 -102.21648
9208625000 -1.0137883 136.43068 -9.180625 -72.66597 -9.1704159 -73.390617 -0.012839149 -102.19427
9208687500 -1.0121337 136.38876 -9.1738834 -72.754517 -9.1693983 -73.46669 -0.0055711893 -102.13009
9208750000 -1.017139 136.4519 -9.1813698 -72.662712 -9.1751328 -73.378395 -0.014256257 -102.14087
9208812500 -1.0173324 136.48801 -9.1888294 -72.68013 -9.1827955 -73.461678 -0.013929287 -102.14054
9208875000 -1.018852 136.35944 -9.1877775 -72.742676 -9.1803799 -73.427437 -0.011376786 -102.09808
9208937500 -1.0247747 136.42685 -9.186738 -72.752869 -9.1692171 -73.456772 -0.0071263551 -102.06185
9209000000 -1.0130997 136.38455 -9.1818066 -72.734421 -9.1732435 -73.437782 -0.013636691 -102.09896
9209062500 -1.0186555 136.35762 -9.1878099 -72.663712 -9.1731892 -73.380714 -0.011285856 -102.04132
9209125000 -1.0176945 136.30948 -9.1752014 -72.785767 -9.1663532 -73.434273 -0.0052123521 -102.03128
9209187500 -1.0216309 136.34706 -9.1717014 -72.705795 -9.1833229 -73.382629 -0.018944222 -101.99345
9209250000 -1.0148563 136.27675 -9.1768503 -72.725021 -9.1693935 -73.455635 -0.017183308 -101.93238
9209312500 -1.0155057 136.22758 -9.1797075 -72.726578 -9.1654558 -73.440979 -0.016657144 -101.99409
9209375000 -1.005124 136.29124 -9.1664562 -72.660881 -9.1746683 -73.410583 -0.026080364 -102.03222
9209437500 -1.0232108 136.23825 -9.1823387 -72.717621 -9.169261 -73.481079 -0.018036235 -101.91499
9209500000 -1.0169264 136.21924 -9.1640005 -72.760872 -9.168539 -73.414207 -0.016058737 -101.90344
9209562500 -1.0245025 136.2486 -9.1717167 -72.700256 -9.1761274 -73.414375 -0.021518467 -101.88205
9209625000 -1.0215887 136.15514 -9.1739979 -72.761002 -9.1657848 -73.387573 -0.013716038 -101.83118
9209687500 -1.0140238 136.12524 -9.1690111 -72.738419 -9.160243 -73.445282 -0.014638467 -101.88333
9209750000 -1.022045 136.17055 -9.1730022 -72.742065 -9.1608887 -73.3965 -0.0079786098 -101.86578
9209812500 -1.0169457 136.17691 -9.1659784 -72.704163 -9.1689453 -73.407837 -0.013239771 -101.75838
9209875000 -1.0201966 136.15315 -9.1688318 -72.689476 -9.1601267 -73.386795 -0.012119204 -101.7868
9209937500 -1.0199715 136.24327 -9.1836634 -72.644669 -9.1749134 -73.412598 -0.024491671 -101.86991
9210000000 -1.0078847 136.12431 -9.1608543 -72.666313 -9.156889 -73.338646 -0.029123768 -101.74412
9210062500 -1.0216832 136.1321 -9.1678953 -72.725761 -9.1646624 -73.431671 -0.023190262 -101.80389
9210125000 -1.0180644 136.09952 -9.1813116 -72.65966 -9.1632795 -73.380714 -0.021326479 -101.80729
9210187500 -1.0147423 136.1312 -9.1661911 -72.647224 -9.1615009 -73.410919 -0.022079414 -101.7366
9210250000 -1.0187091 136.10941 -9.1705065 -72.711159 -9.1568775 -73.352974 -0.023131492 -101.72101
9210312500 -1.0253696 136.10327 -9.1715536 -72.663086 -9.1637163 -73.480545 -0.016223438 -101.76305
9210375000 -1.0118029 136.15871 -9.1716909 -72.600189 -9.1608162 -73.363708 -0.017403303 -101.62389
9210437500 -1.0134164 136.02457 -9.1658459 -72.708221 -9.153245 -73.448868 -0.009691298 -101.71674
9210500000 -1.0115166 136.01544 -9.1582909 -72.670036 -9.1550837 -73.363091 -0.014719918 -101.68623
9210562500 -1.0228653 136.03917 -9.1727438 -72.664658 -9.160531 -73.362106 -0.020636715 -101.61919
9210625000 -1.0123683 136.00703 -9.1761217 -72.638313 -9.1638842 -73.401512 -0.020252801 -101.69386
9210687500 -1.0223043 136.03499 -9.1731243 -72.69136 -9.1552296 -73.396484 -0.020595977 -101.56641
9210750000 -1.025322 136.00005 -9.1654663 -72.685974 -9.1490164 -73.343483 -0.017377056 -101.57986
9210812500 -1.0243055 135.95648 -9.165473 -72.738075 -9.1574755 -73.328056 -0.021922676 -101.53219
9210875000 -1.0194641 135.97806 -9.166255 -72.669693 -9.1460676 -73.347328 -0.020695625 -101.57969
9210937500 -1.0166315 135.97166 -9.1642494 -72.733719 -9.1575193 -73.266258 -0.027786754 -101.52696
9211000000 -1.0168403 135.98717 -9.1637821 -72.592972 -9.1646214 -73.392052 -0.019560914 -101.55188
9211062500 -1.0128883 135.91957 -9.1575184 -72.627525 -9.1499004 -73.291046 -0.028574543 -101.51246
9211125000 -1.012614 135.89799 -9.155551 -72.654434 -9.1527605 -73.344383 -0.011370307 -101.48988
9211187500 -1.0247893 135.89587 -9.16045 -72.614182 -9.1474314 -73.333527 -0.019497419 -101.46454
9211250000 -1.0272841 135.9021 -9.1573505 -72.628151 -9.1490068 -73.2575 -0.010323253 -101.38323
9211312500 -1.0183411 135.89651 -9.1669712 -72.637062 -9.1526079 -73.388275 -0.027841574 -101.46338
9211375000 -1.0195019 135.83571 -9.1532993 -72.653259 -9.1462517 -73.374985 -0.019249216 -101.38123
9211437500 -1.013606 135.79568 -9.1469612 -72.579979 -9.1528997 -73.360825 -0.021792302 -101.40332
9211500000 -1.0260231 135.81873 -9.1700268 -72.630821 -9.1460104 -73.334724 -0.017268769 -101.40907
9211562500 -1.0235168 135.85971 -9.1674042 -72.66259 -9.1394806 -73.302734 -0.02419812 -101.40971
9211625000 -1.0180804 135.78464 -9.1459122 -72.665504 -9.1397095 -73.388046 -0.011485888 -101.39638
9211687500 -1.0195601 135.8208 -9.1582861 -72.606224 -9.1496458 -73.35289 -0.02574485 -101.34619
9211750000 -1.023584 135.76663 -9.1522331 -72.610466 -9.1450796 -73.322784 -0.018190488 -101.26452
9211812500 -1.0254581 135.7878 -9.1671782 -72.581238 -9.1417189 -73.356018 -0.028634543 -101.26884
9211875000 -1.0216788 135.73868 -9.1594419 -72.652946 -9.1427259 -73.27932 -0.014430236 -101.16222
9211937500 -1.0142367 135.72882 -9.142808 -72.61055 -9.1455498 -73.345673 -0.033434622 -101.23983
9212000000 -1.0205649 135.67435 -9.1465416 -72.601303 -9.1394806 -73.292038 -0.032660045 -101.16702
9212062500 -1.0201348 135.65956 -9.1528683 -72.61113 -9.1386614 -73.284424 -0.028206501 -101.21898
9212125000 -1.0254979 135.63097 -9.1494503 -72.680237 -9.1499138 -73.315758 -0.021380318 -101.20986
9212187500 -1.0113149 135.65614 -9.1403151 -72.627151 -9.1377001 -73.30455 -0.033045154 -101.17303
