!Agilent Technologies,N5242A,MY51221714,A.09.90.19
!Agilent N5242A: A.09.90.19
!Date: Tuesday, March 26, 2024 16:59:11
!Correction: S11(Full 2 Port(1,2)) 
!S21(Full 2 Port(1,2)) 
!S12(Full 2 Port(1,2)) 
!S22(Full 2 Port(1,2)) 
!S2P File: Measurements: S11, S21, S12, S22:
# Hz S  dB   R 50
9200000000 -1.0258261 137.90764 -9.1449728 -73.184608 -9.1234922 -73.909485 0.0016909672 -104.53304
9200062500 -1.0297884 137.92441 -9.1420765 -73.211472 -9.1353731 -73.922073 0.011702036 -104.4622
9200125000 -1.0316775 137.8546 -9.1382713 -73.17292 -9.1294994 -73.898857 0.0013512817 -104.4248
9200187500 -1.0350819 137.93968 -9.1376486 -73.04586 -9.1232166 -73.936577 0.022322388 -104.4339
9200250000 -1.0257649 137.85286 -9.1431141 -73.169838 -9.1271734 -73.864799 0.012460717 -104.51002
9200312500 -1.0324397 137.85478 -9.1434097 -73.191681 -9.1361837 -73.853607 0.0043446687 -104.39812
9200375000 -1.0238314 137.78676 -9.1334295 -73.169411 -9.1251945 -73.980583 0.01781456 -104.41861
9200437500 -1.0248334 137.84265 -9.1308136 -73.129501 -9.11901 -73.889725 0.0218719 -104.40235
9200500000 -1.0286011 137.77155 -9.1516447 -73.169975 -9.1297588 -73.832596 0.0024124389 -104.37177
9200562500 -1.0238309 137.78403 -9.1313496 -73.154869 -9.132267 -73.941986 0.0089248512 -104.418
9200625000 -1.0378489 137.7664 -9.1455622 -73.16169 -9.1157866 -73.86338 0.0084921857 -104.35183
9200687500 -1.021405 137.80392 -9.1409416 -73.066093 -9.1313133 -73.895599 0.0069485921 -104.29941
9200750000 -1.0295762 137.72675 -9.129468 -73.138771 -9.1298475 -73.863991 0.0016096988 -104.32382
9200812500 -1.0386684 137.71017 -9.1371117 -73.115906 -9.129261 -73.860588 -0.0074802637 -104.27773
9200875000 -1.0217726 137.79826 -9.1235237 -73.102592 -9.1401939 -73.847237 -0.0015458205 -104.28381
9200937500 -1.0257235 137.73093 -9.1430597 -73.1082 -9.1192904 -73.86264 0.013708943 -104.25312
9201000000 -1.0286396 137.70398 -9.1386499 -73.201637 -9.1189241 -73.873062 0.012933763 -104.25644
9201062500 -1.0257393 137.7 -9.1342402 -73.099556 -9.1226015 -73.899872 0.004540449 -104.22961
9201125000 -1.0296043 137.6628 -9.1275158 -73.08271 -9.125988 -73.884079 0.0051859943 -104.18352
9201187500 -1.0324104 137.62683 -9.1377544 -73.104492 -9.1201153 -73.863678 0.00042145708 -104.12405
9201250000 -1.0330026 137.64876 -9.1279888 -73.106812 -9.1214247 -73.827026 0.0068670167 -104.13677
9201312500 -1.0343416 137.58661 -9.1275988 -73.18055 -9.1225395 -73.892426 0.0075146123 -104.17084
9201375000 -1.0351636 137.60957 -9.1384621 -73.144165 -9.1243105 -73.845161 -0.0041019255 -104.15469
9201437500 -1.0325216 137.62509 -9.1399889 -73.064163 -9.1290359 -73.786812 -0.00066498166 -104.12172
9201500000 -1.034613 137.57788 -9.1332893 -73.095131 -9.1244478 -73.823189 0.0027202731 -104.15415
9201562500 -1.0287297 137.55746 -9.1343546 -73.09687 -9.130064 -73.778397 -0.0060538589 -104.08134
9201625000 -1.0225617 137.58485 -9.1272469 -73.094307 -9.1141672 -73.783501 -0.0047909203 -104.04012
9201687500 -1.0367143 137.56 -9.1240015 -72.997589 -9.1140938 -73.785828 0.0081398971 -103.94258
9201750000 -1.0316559 137.52748 -9.125926 -73.069038 -9.110981 -73.838104 0.011771415 -104.02331
9201812500 -1.0307115 137.53368 -9.1358967 -73.091316 -9.1220837 -73.844467 -0.0004621495 -104.06151
9201875000 -1.0301907 137.48477 -9.1249304 -73.135406 -9.1110954 -73.841766 0.011702433 -103.948
9201937500 -1.0397156 137.42874 -9.1269665 -73.15844 -9.1175299 -73.842026 0.0085688587 -104.03094
9202000000 -1.0359297 137.509 -9.1297903 -73.0522 -9.1117716 -73.807686 0.0056831171 -103.91768
9202062500 -1.0368727 137.46669 -9.120285 -73.116585 -9.1155643 -73.837921 0.0097455839 -103.93077
9202125000 -1.0351319 137.47348 -9.1460733 -73.105598 -9.11586 -73.801559 -0.0050630565 -103.94835
9202187500 -1.0275561 137.47554 -9.1243992 -73.125496 -9.1139011 -73.824089 0.0060520368 -103.88295
9202250000 -1.0344074 137.41127 -9.1217794 -73.098938 -9.1144123 -73.767921 -0.0056513315 -103.8438
9202312500 -1.032789 137.44673 -9.1337538 -73.062531 -9.1122322 -73.830734 -0.0039179167 -103.84306
9202375000 -1.0247246 137.35985 -9.1213999 -73.126122 -9.10989 -73.892464 -0.010140235 -103.81525
9202437500 -1.0295374 137.42648 -9.11411 -73.012001 -9.1131315 -73.765572 0.0038908506 -103.85468
9202500000 -1.0435115 137.36203 -9.1314096 -73.127151 -9.1181803 -73.790291 -0.00098664442 -103.80568
9202562500 -1.0228544 137.35455 -9.1152945 -73.029068 -9.1108484 -73.75042 -0.0057306737 -103.82609
9202625000 -1.0360203 137.41229 -9.1280546 -73.076752 -9.1083889 -73.74437 0.00083689304 -103.74779
9202687500 -1.0306188 137.34966 -9.1155405 -73.048401 -9.1055822 -73.789124 0.0078966115 -103.76078
9202750000 -1.022277 137.27759 -9.1117849 -73.086174 -9.1084223 -73.803894 0.0059874975 -103.75522
9202812500 -1.0302062 137.30914 -9.1185741 -73.040756 -9.0976362 -73.806282 0.0073855189 -103.71885
9202875000 -1.0329489 137.29439 -9.1103439 -72.976051 -9.110013 -73.877045 -0.0024428787 -103.7034
9202937500 -1.0270367 137.27438 -9.1056929 -73.130699 -9.093379 -73.75222 0.0060883742 -103.72186
9203000000 -1.0311188 137.3385 -9.1031685 -73.008682 -9.101285 -73.795441 0.0053847656 -103.61221
9203062500 -1.0312686 137.21051 -9.1140757 -73.149025 -9.101614 -73.798866 -0.0077545256 -103.69576
9203125000 -1.0291933 137.21727 -9.1085548 -73.032433 -9.0934229 -73.75695 0.003826282 -103.67641
9203187500 -1.0284203 137.22345 -9.1201363 -73.084572 -9.102272 -73.803619 -0.00027931813 -103.58165
9203250000 -1.0311837 137.18788 -9.1111488 -73.090637 -9.1010361 -73.75441 0.0041523799 -103.6226
9203312500 -1.0375626 137.22707 -9.1138706 -73.084373 -9.098938 -73.876938 -0.00044205564 -103.61285
9203375000 -1.0272304 137.17032 -9.0984735 -73.13015 -9.0980263 -73.701042 0.003294491 -103.5113
9203437500 -1.034881 137.17175 -9.1100311 -73.089935 -9.1023397 -73.766739 8.1117621e-005 -103.56475
9203500000 -1.0317521 137.14647 -9.1120949 -73.06752 -9.0995369 -73.754265 0.001037612 -103.55457
9203562500 -1.0392103 137.15128 -9.1199865 -73.088402 -9.1149263 -73.792778 -0.015420879 -103.56992
9203625000 -1.036961 137.14252 -9.1149054 -73.06311 -9.0953484 -73.744804 0.0011992616 -103.56793
9203687500 -1.036711 137.11885 -9.1138821 -73.065536 -9.1068411 -73.794563 -0.010141873 -103.49697
9203750000 -1.0289282 137.10878 -9.1005392 -73.002602 -9.0996933 -73.80143 0.0068949154 -103.45423
9203812500 -1.0318832 137.13483 -9.0975294 -73.061722 -9.0981998 -73.817802 -0.0050116484 -103.47502
9203875000 -1.0283945 137.08905 -9.1080399 -73.005844 -9.1097059 -73.776108 -0.022006895 -103.47643
9203937500 -1.0335367 137.08328 -9.0962696 -73.045868 -9.0938787 -73.746063 0.0021334859 -103.45383
9204000000 -1.0336212 137.07047 -9.0979948 -73.01638 -9.0977039 -73.723495 0.0054156003 -103.36685
9204062500 -1.0254108 137.06993 -9.1054659 -72.999779 -9.0917139 -73.794823 -0.0044344454 -103.37675
9204125000 -1.0369223 137.07053 -9.1070042 -73.010803 -9.091795 -73.77047 0.0023321449 -103.33912
9204187500 -1.036972 136.99985 -9.102046 -73.066978 -9.1008263 -73.839439 -0.011575506 -103.38459
9204250000 -1.0382725 137.01915 -9.0959673 -73.0476 -9.0984812 -73.745934 -0.0045358874 -103.37666
9204312500 -1.035064 137.03528 -9.1106377 -72.936195 -9.0798721 -73.783691 -0.0071734111 -103.28443
9204375000 -1.022928 136.98959 -9.0934925 -73.031075 -9.095355 -73.725662 -0.0062030097 -103.27881
9204437500 -1.0406932 137.00902 -9.0999489 -73.049652 -9.0934305 -73.724823 -0.001436648 -103.28139
9204500000 -1.0379256 137.0036 -9.1049366 -73.03289 -9.101531 -73.772865 -0.0051338719 -103.2821
9204562500 -1.0311283 136.94789 -9.0958529 -73.077805 -9.0849266 -73.739563 0.0034359077 -103.3242
9204625000 -1.0246727 136.91978 -9.098938 -72.969765 -9.0866833 -73.816338 -0.0061683538 -103.25732
9204687500 -1.0344419 136.92282 -9.0966082 -73.035759 -9.0839701 -73.732773 0.0010947421 -103.17058
9204750000 -1.0393258 136.90439 -9.1046152 -72.910179 -9.0940161 -73.725029 -0.011888099 -103.21033
9204812500 -1.023261 136.91187 -9.0921335 -72.947449 -9.0827065 -73.783119 0.0010932062 -103.23044
9204875000 -1.0317155 136.96597 -9.1026077 -73.005257 -9.1013203 -73.733711 -0.0078384681 -103.21252
9204937500 -1.0314345 136.88672 -9.0933285 -73.009872 -9.0851679 -73.790268 0.00084433396 -103.17335
9205000000 -1.0257058 136.83046 -9.0834074 -72.958443 -9.0845213 -73.641609 -0.01861769 -103.10688
9205062500 -1.0289823 136.84711 -9.0913658 -73.000763 -9.072649 -73.719002 -0.0054515395 -103.10975
9205125000 -1.0363926 136.83969 -9.0952635 -72.957207 -9.0774584 -73.747574 -0.0068091401 -103.07149
9205187500 -1.03284 136.83995 -9.0940723 -72.98925 -9.0900917 -73.756615 -0.011919202 -103.11352
9205250000 -1.0319309 136.78499 -9.0986996 -73.002548 -9.0935707 -73.714035 -0.017011369 -103.11647
9205312500 -1.0341561 136.84882 -9.0866108 -72.99369 -9.087575 -73.716774 -0.013621122 -103.07029
9205375000 -1.03362 136.76729 -9.0920095 -72.927277 -9.087656 -73.700165 -0.0029563529 -103.01266
9205437500 -1.0252874 136.75171 -9.0827417 -72.955017 -9.0925312 -73.695839 -0.012662888 -103.01139
9205500000 -1.0380685 136.69389 -9.0813074 -72.899963 -9.0795803 -73.712326 -0.005334843 -102.92905
9205562500 -1.0355628 136.75572 -9.0944586 -72.999718 -9.0785131 -73.759361 -0.0035396409 -102.97578
9205625000 -1.0409304 136.72015 -9.0961475 -72.951942 -9.0754318 -73.731384 -0.0083853323 -102.93459
9205687500 -1.0271277 136.79694 -9.0815935 -72.90612 -9.0735521 -73.707092 -0.0083202096 -102.89374
9205750000 -1.0369312 136.67444 -9.0787783 -72.974236 -9.0806131 -73.701637 -0.0049843327 -102.92716
9205812500 -1.0306023 136.63457 -9.0786476 -72.987991 -9.0759993 -73.697151 -0.0060598482 -102.85089
9205875000 -1.0301512 136.66476 -9.0853043 -73.009178 -9.0827045 -73.675957 -0.010650101 -102.95268
9205937500 -1.039417 136.65005 -9.0953522 -72.960403 -9.0674677 -73.692848 -0.0072503812 -102.89079
9206000000 -1.0336747 136.62595 -9.0760031 -72.972763 -9.0810909 -73.696777 -0.0072132759 -102.85468
9206062500 -1.0293094 136.65236 -9.0790663 -72.960503 -9.087369 -73.700623 -0.015426145 -102.87975
9206125000 -1.0355839 136.61789 -9.0818319 -72.910484 -9.0785093 -73.697342 -0.01781188 -102.82243
9206187500 -1.0348791 136.62187 -9.0795622 -72.965691 -9.0603771 -73.748726 0.0045125508 -102.79179
9206250000 -1.0324664 136.57693 -9.0875196 -72.957489 -9.0723228 -73.678497 -0.0094785402 -102.78358
9206312500 -1.0305889 136.49815 -9.0724945 -72.966293 -9.0684347 -73.811554 -0.0017508299 -102.80437
9206375000 -1.0362149 136.56813 -9.0741062 -72.979996 -9.0667448 -73.684906 -0.0041170316 -102.79932
9206437500 -1.0316021 136.49783 -9.0803328 -72.978546 -9.0777502 -73.658516 -0.0068712039 -102.78709
9206500000 -1.0356227 136.51241 -9.0893784 -72.998512 -9.0698233 -73.667671 -0.015990362 -102.76738
9206562500 -1.0367942 136.51147 -9.0802193 -73.06871 -9.0718899 -73.622169 -0.014726536 -102.78084
9206625000 -1.0369254 136.44705 -9.0711966 -73.000458 -9.0596666 -73.750595 -0.0030457799 -102.69424
9206687500 -1.0358839 136.49582 -9.0720949 -73.028198 -9.0625334 -73.655258 0.0024971557 -102.70079
9206750000 -1.0370346 136.52074 -9.0731955 -72.913284 -9.073844 -73.670006 -0.012382593 -102.68416
9206812500 -1.0294832 136.48569 -9.0793982 -72.940262 -9.0751438 -73.720093 -0.0067807902 -102.72511
9206875000 -1.0352327 136.48016 -9.0810223 -72.950584 -9.0589342 -73.663712 -0.0081350971 -102.56257
9206937500 -1.0324587 136.41083 -9.0757904 -72.978874 -9.071908 -73.688156 -0.013216745 -102.62541
9207000000 -1.0291398 136.4481 -9.0694218 -72.965981 -9.0731897 -73.708466 -0.016257014 -102.60046
9207062500 -1.0307711 136.39307 -9.0623302 -72.896072 -9.0528164 -73.686699 -0.0092026526 -102.48168
9207125000 -1.0502738 136.36115 -9.0634089 -73.046371 -9.0575819 -73.684685 -0.01048915 -102.49603
9207187500 -1.033551 136.34981 -9.0668678 -73.019699 -9.0712299 -73.624229 -0.01720896 -102.55455
9207250000 -1.0311446 136.35994 -9.0649586 -72.955536 -9.0728455 -73.725647 -0.0088028545 -102.62087
9207312500 -1.0325893 136.35999 -9.0729589 -72.926956 -9.0600233 -73.651512 -0.0092809713 -102.47215
9207375000 -1.0388314 136.31914 -9.0638809 -72.947815 -9.052762 -73.692673 -0.0069795661 -102.5052
9207437500 -1.0317191 136.36005 -9.0682411 -72.902779 -9.0737591 -73.668076 -0.010542314 -102.51326
9207500000 -1.0403697 136.34358 -9.0811958 -72.888924 -9.051053 -73.627281 -0.018637409 -102.49844
9207562500 -1.0278456 136.32948 -9.0660162 -72.928284 -9.0531569 -73.584846 -0.021904457 -102.46158
9207625000 -1.0360099 136.24741 -9.068325 -72.939789 -9.0571976 -73.674965 -0.0077265399 -102.35818
9207687500 -1.0356641 136.27792 -9.0670462 -73.003571 -9.0535936 -73.63076 -0.0080810944 -102.4249
9207750000 -1.038154 136.26462 -9.0686359 -72.890099 -9.0648546 -73.626335 -0.016067762 -102.42293
9207812500 -1.04251 136.24104 -9.0781126 -72.946342 -9.0628891 -73.639137 -0.021845236 -102.38067
9207875000 -1.0346844 136.25119 -9.0748606 -72.891373 -9.0578041 -73.703583 -0.014555627 -102.38937
9207937500 -1.0377462 136.18797 -9.06847 -72.952477 -9.0682955 -73.676224 -0.0188508 -102.38387
9208000000 -1.0404717 136.21341 -9.0607796 -73.035072 -9.0540304 -73.627251 -0.0078479191 -102.34709
9208062500 -1.0386873 136.1956 -9.0720053 -72.810394 -9.0509672 -73.623192 -0.013473899 -102.28834
9208125000 -1.0377467 136.1848 -9.0651503 -72.947975 -9.0547237 -73.622299 -0.014990145 -102.30609
9208187500 -1.0287185 136.18808 -9.0607119 -72.905495 -9.0557423 -73.633301 -0.011368443 -102.32718
9208250000 -1.0459096 136.17334 -9.0745001 -72.865883 -9.0540581 -73.628868 -0.014454243 -102.27465
9208312500 -1.0314647 136.15456 -9.0718279 -72.904053 -9.0454388 -73.65815 -0.0094027696 -102.26175
9208375000 -1.040656 136.17004 -9.0576353 -72.899399 -9.0505028 -73.575806 -0.010610111 -102.16858
9208437500 -1.036055 136.05585 -9.0597401 -72.945526 -9.0522528 -73.589905 -0.023446932 -102.25007
9208500000 -1.0402125 136.04829 -9.0631008 -72.936813 -9.0547514 -73.671638 -0.019651376 -102.20107
9208562500 -1.0393282 136.12422 -9.0613165 -72.900398 -9.0529089 -73.665001 -0.018290764 -102.22348
9208625000 -1.030098 136.05141 -9.0452633 -72.852753 -9.0412884 -73.599083 -0.019768884 -102.19671
9208687500 -1.0253541 136.06633 -9.0463648 -72.853302 -9.0504274 -73.650398 -0.0078389496 -102.13036
9208750000 -1.0310531 136.07838 -9.0466118 -72.877792 -9.0483379 -73.565445 -0.016076744 -102.11769
9208812500 -1.0389256 136.10159 -9.0599461 -72.891724 -9.0541344 -73.537697 -0.015286529 -102.09003
9208875000 -1.0364146 135.97174 -9.051343 -72.910538 -9.0481949 -73.597092 -0.0075566056 -102.01677
9208937500 -1.03317 136.01422 -9.0468979 -72.896072 -9.0429583 -73.552597 -0.014351378 -102.03281
9209000000 -1.027499 136.0107 -9.0578384 -72.876839 -9.0459929 -73.579468 -0.022577642 -102.08137
9209062500 -1.0363187 135.96251 -9.0486469 -72.881798 -9.0484428 -73.582001 -0.014587622 -101.99499
9209125000 -1.040585 135.9836 -9.0532017 -72.84639 -9.0410051 -73.619232 -0.013886885 -102.00465
9209187500 -1.0352924 135.967 -9.049469 -72.887749 -9.0464907 -73.569008 -0.02219346 -101.98886
9209250000 -1.0350227 135.93631 -9.0429688 -72.872139 -9.0397577 -73.694412 -0.016826294 -101.93745
9209312500 -1.0337906 135.84894 -9.0460596 -72.94886 -9.0429783 -73.621117 -0.026653176 -101.99486
9209375000 -1.0234737 135.93025 -9.0472422 -72.85553 -9.0530024 -73.579506 -0.027643029 -101.96246
9209437500 -1.0390184 135.85463 -9.0542192 -72.855125 -9.0353603 -73.662529 -0.014743819 -101.8964
9209500000 -1.0329204 135.87433 -9.0395947 -72.899696 -9.0382204 -73.640274 -0.016171573 -101.9322
9209562500 -1.0412992 135.91568 -9.0496035 -72.874725 -9.0475712 -73.642967 -0.029512875 -101.86892
9209625000 -1.0343759 135.85439 -9.0406199 -72.829353 -9.0437889 -73.61232 -0.016381932 -101.84547
9209687500 -1.0326202 135.78307 -9.0335197 -72.892181 -9.0406904 -73.503906 -0.018085985 -101.82964
9209750000 -1.0363601 135.79295 -9.0420904 -72.956558 -9.0368023 -73.537384 -0.0091471327 -101.84049
9209812500 -1.0337873 135.81564 -9.0513592 -72.824059 -9.0484781 -73.633911 -0.025167575 -101.83256
9209875000 -1.0340453 135.79555 -9.0401831 -72.860146 -9.0283518 -73.607872 -0.021500232 -101.83484
9209937500 -1.0345625 135.88974 -9.0501299 -72.866707 -9.0447598 -73.593208 -0.026377924 -101.8651
9210000000 -1.0259392 135.79649 -9.0442982 -72.827248 -9.032937 -73.542526 -0.03303694 -101.74187
9210062500 -1.041813 135.81326 -9.0433779 -72.899323 -9.043911 -73.598045 -0.029090254 -101.75272
9210125000 -1.0303798 135.74208 -9.0441675 -72.865807 -9.0296755 -73.538864 -0.022070425 -101.75385
9210187500 -1.0384036 135.77199 -9.039216 -72.831856 -9.0342627 -73.554375 -0.023749158 -101.73284
9210250000 -1.0359052 135.78439 -9.0373774 -72.858299 -9.0351725 -73.596962 -0.027693037 -101.7522
9210312500 -1.0442827 135.73627 -9.0400209 -72.800507 -9.0409803 -73.641731 -0.025046555 -101.73571
9210375000 -1.0370411 135.74641 -9.0446634 -72.824005 -9.0413799 -73.586792 -0.028177498 -101.67026
9210437500 -1.0326163 135.65155 -9.0403757 -72.830086 -9.0365133 -73.602753 -0.02215814 -101.67757
9210500000 -1.0368477 135.64941 -9.0286503 -72.896538 -9.021019 -73.622498 -0.013872037 -101.68055
9210562500 -1.0384798 135.63831 -9.041419 -72.813133 -9.0283985 -73.581192 -0.029617356 -101.60799
9210625000 -1.028913 135.63567 -9.0416956 -72.854599 -9.0283318 -73.521118 -0.023819502 -101.64987
9210687500 -1.0353613 135.67519 -9.0376987 -72.808578 -9.0366163 -73.571136 -0.033067323 -101.58372
9210750000 -1.0378016 135.61307 -9.0383797 -72.86338 -9.0250359 -73.55143 -0.02704848 -101.58924
9210812500 -1.0361223 135.61504 -9.0314379 -72.895058 -9.0252762 -73.51461 -0.026078751 -101.53367
9210875000 -1.0419797 135.61212 -9.044467 -72.826721 -9.0214081 -73.539581 -0.031595334 -101.56015
9210937500 -1.0348296 135.63132 -9.0332184 -72.809189 -9.0240202 -73.451271 -0.024347348 -101.51575
9211000000 -1.0331517 135.58162 -9.0340128 -72.785591 -9.0301914 -73.533447 -0.02558814 -101.54408
9211062500 -1.0353482 135.57864 -9.0318832 -72.80024 -9.0305109 -73.534462 -0.031236876 -101.46699
9211125000 -1.0339034 135.52034 -9.0280437 -72.858124 -9.019743 -73.47892 -0.01694053 -101.47719
9211187500 -1.0449165 135.53079 -9.0314837 -72.827415 -9.0278769 -73.514198 -0.032833301 -101.44061
9211250000 -1.0385299 135.53304 -9.0289316 -72.866173 -9.0252161 -73.533669 -0.021440757 -101.40575
9211312500 -1.0341426 135.51997 -9.0274563 -72.774574 -9.014781 -73.537399 -0.020901885 -101.48432
9211375000 -1.0383255 135.40392 -9.0398607 -72.865128 -9.0210056 -73.56987 -0.027839709 -101.37949
9211437500 -1.0355102 135.49701 -9.0253582 -72.749023 -9.0210247 -73.540421 -0.030201089 -101.39339
9211500000 -1.0427694 135.48172 -9.0352907 -72.771469 -9.0250187 -73.561295 -0.024305671 -101.45502
9211562500 -1.0413105 135.50836 -9.033391 -72.879601 -9.0175838 -73.51564 -0.03634391 -101.38008
9211625000 -1.0346888 135.39441 -9.0215864 -72.889343 -9.0106335 -73.574341 -0.020573059 -101.35261
9211687500 -1.0395859 135.44415 -9.022398 -72.801186 -9.0170202 -73.553902 -0.035331618 -101.2972
9211750000 -1.0334251 135.39928 -9.0215788 -72.762215 -9.0144873 -73.533051 -0.021768192 -101.27686
9211812500 -1.0447934 135.40828 -9.0416365 -72.848625 -9.0156498 -73.528732 -0.034692768 -101.32404
9211875000 -1.0409447 135.36012 -9.0200443 -72.81337 -9.0078821 -73.465691 -0.01676172 -101.19637
9211937500 -1.0382845 135.40405 -9.0186968 -72.749504 -9.017108 -73.467232 -0.037227921 -101.21589
9212000000 -1.0384535 135.28328 -9.0130062 -72.847923 -9.0065851 -73.515289 -0.024530517 -101.20726
9212062500 -1.0381995 135.27457 -9.0132713 -72.766045 -9.0171614 -73.470772 -0.034465659 -101.2046
9212125000 -1.0402516 135.27098 -9.0152807 -72.855461 -9.0200958 -73.506256 -0.027551373 -101.20083
9212187500 -1.0283024 135.31511 -9.015276 -72.776558 -9.0105667 -73.518227 -0.035206415 -101.17594
