!Agilent Technologies,N5242A,MY51221714,A.09.90.19
!Agilent N5242A: A.09.90.19
!Date: Tuesday, March 26, 2024 17:00:07
!Correction: S11(Full 2 Port(1,2)) 
!S21(Full 2 Port(1,2)) 
!S12(Full 2 Port(1,2)) 
!S22(Full 2 Port(1,2)) 
!S2P File: Measurements: S11, S21, S12, S22:
# Hz S  dB   R 50
9200000000 -1.0291816 137.96585 -9.1758223 -73.375511 -9.1623478 -74.117386 -0.032581102 -104.7396
9200062500 -1.0261154 137.94885 -9.1667509 -73.408829 -9.1642656 -74.070908 -0.019509133 -104.66881
9200125000 -1.0304707 137.91414 -9.1693926 -73.335762 -9.15734 -74.088951 -0.022487339 -104.64381
9200187500 -1.0356892 137.98453 -9.1753979 -73.27137 -9.1549292 -74.183716 -0.013842539 -104.66665
9200250000 -1.0233741 137.908 -9.1677542 -73.357544 -9.1623497 -74.010124 -0.023999173 -104.64734
9200312500 -1.0308193 137.92415 -9.1651182 -73.310936 -9.1594667 -74.044891 -0.018804729 -104.60236
9200375000 -1.0325025 137.88385 -9.1713953 -73.346558 -9.1493263 -74.172638 -0.011073608 -104.59075
9200437500 -1.0254411 137.88275 -9.1612034 -73.352623 -9.1484928 -74.090324 -0.010344367 -104.62061
9200500000 -1.0275149 137.86594 -9.1767368 -73.348969 -9.1596184 -74.035202 -0.033584844 -104.5536
9200562500 -1.0228287 137.82211 -9.1598034 -73.279205 -9.1722412 -74.041245 -0.022313565 -104.54789
9200625000 -1.0292159 137.8246 -9.1641006 -73.336105 -9.1507483 -74.098961 -0.025258051 -104.55264
9200687500 -1.0183177 137.85577 -9.1722822 -73.3358 -9.1653423 -74.065643 -0.02588209 -104.48199
9200750000 -1.0308077 137.7187 -9.1619101 -73.384506 -9.1496019 -73.998245 -0.018128537 -104.51162
9200812500 -1.0427942 137.78587 -9.168663 -73.341774 -9.1538887 -74.030273 -0.031302888 -104.44312
9200875000 -1.0246594 137.87019 -9.1673231 -73.329521 -9.1597919 -74.005623 -0.027986862 -104.48835
9200937500 -1.0268288 137.77116 -9.1629601 -73.316223 -9.1416721 -74.072922 -0.012772257 -104.48456
9201000000 -1.0299382 137.72804 -9.1687527 -73.386604 -9.1512175 -74.014816 -0.022083143 -104.4062
9201062500 -1.0216655 137.74585 -9.1530313 -73.269684 -9.1445684 -74.102364 -0.019412495 -104.40669
9201125000 -1.0255905 137.75548 -9.1556683 -73.320587 -9.1553326 -74.06424 -0.028582212 -104.38631
9201187500 -1.0315036 137.68124 -9.1591215 -73.247169 -9.1511021 -74.080284 -0.02910245 -104.30135
9201250000 -1.0307575 137.74562 -9.1553497 -73.240738 -9.1603165 -74.077988 -0.02820573 -104.32837
9201312500 -1.0375038 137.70352 -9.1638594 -73.292908 -9.1497841 -74.073273 -0.018918788 -104.32314
9201375000 -1.035271 137.67204 -9.1683683 -73.294922 -9.156415 -73.955269 -0.031684458 -104.29677
9201437500 -1.026517 137.68469 -9.15868 -73.317924 -9.1578064 -74.105629 -0.027942641 -104.41135
9201500000 -1.0386962 137.67279 -9.1653728 -73.29348 -9.1476917 -74.049179 -0.022771336 -104.29213
9201562500 -1.0335646 137.61844 -9.164691 -73.213264 -9.1597595 -74.048149 -0.042429417 -104.2937
9201625000 -1.0304214 137.62172 -9.1600924 -73.259186 -9.1422901 -73.994606 -0.034871198 -104.1619
9201687500 -1.0365175 137.6317 -9.1526957 -73.226402 -9.1391478 -74.031677 -0.022784911 -104.19435
9201750000 -1.0317898 137.59915 -9.1667414 -73.263229 -9.1359434 -73.981529 -0.017131552 -104.21004
9201812500 -1.0242934 137.60405 -9.1579237 -73.266357 -9.1446085 -73.995316 -0.034687672 -104.25237
9201875000 -1.0297989 137.56807 -9.1524487 -73.229553 -9.1457911 -74.004494 -0.01980366 -104.15556
9201937500 -1.0387417 137.51894 -9.1596355 -73.247665 -9.1461992 -74.093636 -0.026528722 -104.17992
9202000000 -1.0258793 137.50703 -9.1418896 -73.322105 -9.1465073 -74.004128 -0.029926617 -104.11927
9202062500 -1.0344135 137.54749 -9.1441689 -73.276695 -9.1365566 -74.078232 -0.018676966 -104.11987
9202125000 -1.0354031 137.57076 -9.162838 -73.288269 -9.1397438 -73.985214 -0.03512406 -104.13887
9202187500 -1.02891 137.52528 -9.1449442 -73.2911 -9.1415815 -74.002167 -0.024872832 -104.0691
9202250000 -1.0350139 137.53198 -9.1524944 -73.23455 -9.1399927 -73.95874 -0.036850426 -104.03954
9202312500 -1.0281205 137.51619 -9.154954 -73.177681 -9.1391449 -74.035728 -0.035974272 -104.09219
9202375000 -1.0291196 137.44717 -9.1513109 -73.290489 -9.1405973 -73.943092 -0.035951633 -103.95566
9202437500 -1.0300267 137.49881 -9.1438112 -73.220123 -9.1339264 -73.960228 -0.018833105 -104.07336
9202500000 -1.0424579 137.4606 -9.1613169 -73.252686 -9.1438055 -73.98555 -0.031367116 -104.05895
9202562500 -1.0272589 137.42654 -9.1498032 -73.288872 -9.1439629 -74.020294 -0.037154127 -104.06628
9202625000 -1.0299405 137.45068 -9.1368771 -73.270401 -9.1352205 -73.976883 -0.03185223 -103.98434
9202687500 -1.0315478 137.429 -9.1388035 -73.269691 -9.1386318 -73.974129 -0.023605237 -103.90562
9202750000 -1.0229391 137.34744 -9.1420212 -73.29557 -9.1396828 -74.066185 -0.029179418 -103.97389
9202812500 -1.0348814 137.37416 -9.1564245 -73.287849 -9.1211433 -74.013023 -0.021535441 -103.92564
9202875000 -1.0224763 137.36433 -9.1366701 -73.161987 -9.1406584 -74.004189 -0.029326271 -103.88834
9202937500 -1.0232162 137.3557 -9.1342688 -73.2911 -9.1292086 -73.920006 -0.023086578 -103.87549
9203000000 -1.0336002 137.3783 -9.1463318 -73.179901 -9.1386919 -74.005844 -0.031737644 -103.84946
9203062500 -1.0319451 137.32199 -9.149127 -73.211555 -9.1273689 -73.915901 -0.033393949 -103.88876
9203125000 -1.0300573 137.26656 -9.1483707 -73.251945 -9.1264629 -73.95237 -0.025982119 -103.84779
9203187500 -1.0294945 137.30569 -9.1411762 -73.29847 -9.1334667 -73.981949 -0.027891897 -103.82146
9203250000 -1.0354974 137.30626 -9.145422 -73.242477 -9.1275358 -73.930443 -0.032701079 -103.83493
9203312500 -1.0347769 137.29402 -9.1471424 -73.244453 -9.132412 -74.030205 -0.024333052 -103.79568
9203375000 -1.0355263 137.24887 -9.1450491 -73.259216 -9.1216421 -73.971695 -0.027318118 -103.72017
9203437500 -1.0380337 137.23608 -9.1531887 -73.293877 -9.1314039 -73.927483 -0.026502347 -103.7697
9203500000 -1.0292705 137.25459 -9.1324034 -73.24585 -9.1320219 -73.995537 -0.026425969 -103.76132
9203562500 -1.0415009 137.21539 -9.1494007 -73.255737 -9.1458578 -74.021942 -0.051246934 -103.75754
9203625000 -1.0334156 137.22766 -9.1450653 -73.280098 -9.1294708 -73.963959 -0.030177396 -103.77156
9203687500 -1.0365696 137.16943 -9.1496525 -73.284874 -9.1345568 -73.913956 -0.033702619 -103.67738
9203750000 -1.028417 137.19766 -9.1282129 -73.186203 -9.1364813 -73.920425 -0.028176706 -103.62223
9203812500 -1.0329028 137.17603 -9.1362686 -73.239655 -9.1269598 -73.984795 -0.030470824 -103.64708
9203875000 -1.0277783 137.16637 -9.1386633 -73.154335 -9.1322098 -73.94323 -0.049516529 -103.6604
9203937500 -1.0328223 137.12714 -9.1263771 -73.22892 -9.123539 -73.932671 -0.031372335 -103.64805
9204000000 -1.036375 137.14233 -9.133955 -73.200386 -9.1242933 -73.941986 -0.035831876 -103.61298
9204062500 -1.0248317 137.16055 -9.135807 -73.211784 -9.1189442 -73.965996 -0.034543063 -103.59487
9204125000 -1.0375868 137.12079 -9.1348333 -73.231079 -9.1205606 -73.993073 -0.027712535 -103.57567
9204187500 -1.0373544 137.03539 -9.1361828 -73.269936 -9.1364288 -73.970871 -0.041869096 -103.57452
9204250000 -1.0344312 137.08755 -9.1208153 -73.189102 -9.1320763 -73.979546 -0.035356686 -103.54578
9204312500 -1.0378814 137.05814 -9.132412 -73.293793 -9.1269197 -73.967033 -0.038653154 -103.43587
9204375000 -1.025442 137.02991 -9.1299648 -73.223434 -9.1186209 -73.882187 -0.030897034 -103.5053
9204437500 -1.0409081 137.06284 -9.1345253 -73.273354 -9.1282349 -73.876671 -0.035320144 -103.47185
9204500000 -1.0395755 137.02562 -9.1321001 -73.219673 -9.1340151 -73.991081 -0.042822018 -103.47071
9204562500 -1.0330278 136.99268 -9.1314583 -73.295998 -9.1238794 -74.009705 -0.026567873 -103.53781
9204625000 -1.031462 137.00824 -9.1292877 -73.142609 -9.1189404 -73.947525 -0.028852435 -103.38746
9204687500 -1.0325533 136.97398 -9.1238127 -73.164314 -9.1186924 -73.92437 -0.028118432 -103.37936
9204750000 -1.0381912 136.95238 -9.1343107 -73.133263 -9.1284227 -73.94809 -0.047630027 -103.43564
9204812500 -1.0246991 136.92972 -9.1213799 -73.179672 -9.1246691 -73.922554 -0.031193081 -103.38284
9204875000 -1.0342633 136.99031 -9.1307459 -73.25135 -9.13552 -73.911179 -0.041879267 -103.40668
9204937500 -1.0304055 136.93941 -9.1173515 -73.204208 -9.1138277 -73.889267 -0.028644444 -103.30348
9205000000 -1.0197152 136.90799 -9.127573 -73.138596 -9.1205711 -73.90313 -0.051651306 -103.28672
9205062500 -1.0307436 136.88417 -9.1252985 -73.245277 -9.1074162 -73.959221 -0.035963371 -103.31464
9205125000 -1.0352174 136.86409 -9.125515 -73.19268 -9.1093769 -73.95517 -0.030737082 -103.25961
9205187500 -1.0335892 136.8952 -9.1212234 -73.164497 -9.1142035 -73.865547 -0.03713179 -103.23512
9205250000 -1.0330964 136.856 -9.1332378 -73.206932 -9.1310349 -73.872162 -0.048029426 -103.30106
9205312500 -1.0346642 136.91528 -9.1176434 -73.133354 -9.1137447 -73.944992 -0.039739739 -103.28234
9205375000 -1.0354972 136.81871 -9.1179581 -73.188049 -9.1106653 -73.894325 -0.03738752 -103.16291
9205437500 -1.0280449 136.83926 -9.1159792 -73.084175 -9.1056595 -73.889435 -0.030224247 -103.20345
9205500000 -1.0354046 136.72774 -9.1166954 -73.190895 -9.1155529 -73.952248 -0.03291947 -103.12631
9205562500 -1.0336252 136.80872 -9.1120596 -73.157143 -9.1126919 -73.944206 -0.031290174 -103.14435
9205625000 -1.0393589 136.81143 -9.1206398 -73.178841 -9.1088943 -73.92347 -0.036037344 -103.10837
9205687500 -1.0331311 136.82289 -9.1149387 -73.110527 -9.102212 -73.905518 -0.03430796 -103.10217
9205750000 -1.0341343 136.75006 -9.1180086 -73.19619 -9.1231976 -73.88961 -0.040046036 -103.10526
9205812500 -1.0361602 136.69594 -9.1067352 -73.237701 -9.1088676 -73.88176 -0.040292449 -103.04444
9205875000 -1.0289092 136.7437 -9.118331 -73.179184 -9.119606 -73.900368 -0.03879068 -103.12968
9205937500 -1.0290065 136.68361 -9.1071234 -73.179543 -9.0972795 -73.807884 -0.039229773 -103.0248
9206000000 -1.0334237 136.72878 -9.1035233 -73.149986 -9.1083384 -73.891701 -0.039603185 -103.02744
9206062500 -1.0310261 136.73386 -9.1031551 -73.187317 -9.1059771 -73.909233 -0.044050615 -103.06873
9206125000 -1.0323325 136.64708 -9.1008654 -73.220276 -9.1104794 -73.831596 -0.046616174 -103.01674
9206187500 -1.0328711 136.65634 -9.1147976 -73.132004 -9.108655 -73.930275 -0.03813481 -102.99604
9206250000 -1.0362228 136.6165 -9.1204824 -73.186401 -9.1029139 -73.858986 -0.040938895 -103.06236
9206312500 -1.0280217 136.56305 -9.108942 -73.225693 -9.0963621 -73.99736 -0.041367486 -103.00808
9206375000 -1.0360044 136.61952 -9.1101036 -73.157494 -9.0987005 -73.80835 -0.032592293 -102.92834
9206437500 -1.0308101 136.59033 -9.1057968 -73.19725 -9.109045 -73.952835 -0.047736499 -102.98006
9206500000 -1.0413187 136.59346 -9.1190186 -73.174034 -9.0942745 -73.859009 -0.044838935 -102.91694
9206562500 -1.0349979 136.59843 -9.1166229 -73.192299 -9.103343 -73.821411 -0.039238021 -102.90921
9206625000 -1.0320044 136.52174 -9.0937939 -73.178528 -9.0995646 -73.936958 -0.042157184 -102.89928
9206687500 -1.0318447 136.54922 -9.1105471 -73.2323 -9.0959702 -73.914314 -0.034870438 -102.91777
9206750000 -1.0303299 136.57095 -9.0907316 -73.104225 -9.0971632 -73.895416 -0.040853139 -102.86742
9206812500 -1.0313413 136.57426 -9.1052675 -73.144966 -9.1041479 -73.952118 -0.038756639 -102.94786
9206875000 -1.038133 136.53529 -9.1065693 -73.187546 -9.098443 -73.810112 -0.035224989 -102.7534
9206937500 -1.0339478 136.51404 -9.1044664 -73.123062 -9.1041574 -73.885834 -0.047759067 -102.74226
9207000000 -1.0368474 136.53369 -9.112915 -73.082916 -9.1044292 -73.930717 -0.045389399 -102.8266
9207062500 -1.0289745 136.51175 -9.0932322 -73.088455 -9.0927334 -73.860542 -0.045273006 -102.68777
9207125000 -1.0397204 136.42989 -9.0953865 -73.143669 -9.1014881 -73.894501 -0.045176774 -102.70644
9207187500 -1.0349125 136.43024 -9.1027451 -73.216415 -9.1030025 -73.855446 -0.046957463 -102.71511
9207250000 -1.0274861 136.42134 -9.0979881 -73.137856 -9.1034832 -73.88623 -0.039637513 -102.80579
9207312500 -1.0287815 136.38339 -9.1008272 -73.147995 -9.088254 -73.882034 -0.032916222 -102.73534
9207375000 -1.0389514 136.39143 -9.1046286 -73.139175 -9.092021 -73.851288 -0.042462934 -102.66679
9207437500 -1.0335593 136.45406 -9.1018114 -73.082451 -9.1051359 -73.779045 -0.046717688 -102.6628
9207500000 -1.0433681 136.44707 -9.1104012 -73.088898 -9.0883846 -73.801392 -0.052413698 -102.61169
9207562500 -1.0266075 136.38863 -9.0937033 -73.107544 -9.0892372 -73.840302 -0.044203307 -102.64845
9207625000 -1.0360577 136.31723 -9.10532 -73.088562 -9.0900984 -73.874695 -0.041757695 -102.58044
9207687500 -1.0402108 136.3571 -9.0985498 -73.165062 -9.0852346 -73.85144 -0.039471831 -102.6442
9207750000 -1.0395203 136.31627 -9.0881109 -73.129761 -9.0843496 -73.870728 -0.040024143 -102.60776
9207812500 -1.036599 136.33215 -9.1019411 -73.12011 -9.090683 -73.845802 -0.053259902 -102.5746
9207875000 -1.0388324 136.32355 -9.106307 -73.04071 -9.0880547 -73.8629 -0.042643342 -102.51678
9207937500 -1.0358316 136.24585 -9.1054792 -73.160866 -9.0886822 -73.871956 -0.052365262 -102.55894
9208000000 -1.042908 136.26115 -9.095891 -73.180672 -9.0864553 -73.819168 -0.043073427 -102.5182
9208062500 -1.0399106 136.25928 -9.0988312 -73.133934 -9.093914 -73.816734 -0.053535745 -102.50312
9208125000 -1.0379915 136.2532 -9.0999355 -73.122086 -9.0919867 -73.828323 -0.05050002 -102.45893
9208187500 -1.0301663 136.2717 -9.0900593 -73.03524 -9.0953169 -73.882332 -0.051021721 -102.52222
9208250000 -1.0451419 136.24219 -9.1062164 -73.029343 -9.0804443 -73.854172 -0.043023612 -102.42474
9208312500 -1.0356586 136.22466 -9.104681 -73.122192 -9.0825834 -73.821648 -0.050338667 -102.44409
9208375000 -1.040298 136.23277 -9.0941181 -73.108528 -9.0860462 -73.780167 -0.050016608 -102.34788
9208437500 -1.0382208 136.12955 -9.0929098 -73.104134 -9.0869884 -73.755852 -0.059017621 -102.34102
9208500000 -1.0365431 136.1144 -9.0859451 -73.095337 -9.087822 -73.848778 -0.043963112 -102.35702
9208562500 -1.0398775 136.18199 -9.0881424 -73.037888 -9.0863657 -73.820503 -0.043252774 -102.32919
9208625000 -1.0371813 136.10364 -9.0837221 -73.072403 -9.0753727 -73.800301 -0.053060871 -102.3847
9208687500 -1.0256193 136.11256 -9.0750685 -73.126389 -9.0784502 -73.835411 -0.04183057 -102.35552
9208750000 -1.0370986 136.14867 -9.0854931 -73.131973 -9.0752649 -73.808777 -0.053827342 -102.31402
9208812500 -1.0362637 136.17958 -9.0917273 -73.015533 -9.0892506 -73.815491 -0.052427988 -102.27225
9208875000 -1.0374022 136.06415 -9.0796537 -73.107262 -9.0821514 -73.81604 -0.053608734 -102.25249
9208937500 -1.0320055 136.07722 -9.0769434 -73.123756 -9.0729361 -73.765396 -0.046888866 -102.23726
9209000000 -1.032427 136.07417 -9.0971909 -73.071144 -9.0730448 -73.797668 -0.05054545 -102.28638
9209062500 -1.0398376 136.01802 -9.0852737 -73.134796 -9.0817032 -73.841743 -0.049661104 -102.24551
9209125000 -1.0400673 136.05775 -9.0834198 -73.086388 -9.0672455 -73.877563 -0.04064744 -102.22044
9209187500 -1.0395613 136.05141 -9.0869379 -72.98661 -9.0799484 -73.774223 -0.042880002 -102.20417
9209250000 -1.0334885 135.99272 -9.0873518 -73.102852 -9.0812578 -73.852211 -0.051988028 -102.10892
9209312500 -1.0314947 135.89502 -9.0761929 -73.109741 -9.0861206 -73.839424 -0.064476326 -102.18618
9209375000 -1.0274351 135.9977 -9.0732079 -73.075043 -9.0890999 -73.738579 -0.060248256 -102.14812
9209437500 -1.0415567 135.951 -9.0846109 -73.018669 -9.0731115 -73.845741 -0.047796119 -102.07955
9209500000 -1.037091 135.89883 -9.0729933 -73.172348 -9.0676765 -73.808266 -0.04688365 -102.0771
9209562500 -1.0494999 135.97334 -9.087225 -72.997002 -9.0741167 -73.743095 -0.057765324 -101.99727
9209625000 -1.0400203 135.90468 -9.0819969 -73.027359 -9.0686274 -73.859039 -0.053114787 -102.07762
9209687500 -1.0386759 135.82457 -9.0729971 -73.098274 -9.0814648 -73.750862 -0.061389428 -102.04981
9209750000 -1.0393066 135.86472 -9.0701952 -73.114182 -9.0707188 -73.77037 -0.0454727 -102.015
9209812500 -1.0378406 135.83012 -9.0852032 -73.022781 -9.0739651 -73.81839 -0.056415293 -101.96885
9209875000 -1.0355397 135.85918 -9.0725231 -73.076683 -9.0691137 -73.744514 -0.050460067 -101.97829
9209937500 -1.0355443 135.94189 -9.0771284 -73.061882 -9.07131 -73.756416 -0.062038142 -102.04469
9210000000 -1.0360024 135.87396 -9.0726223 -73.021065 -9.0690985 -73.733406 -0.062462155 -101.92202
9210062500 -1.0395979 135.87233 -9.0775194 -73.039452 -9.0701828 -73.819519 -0.056386363 -101.97679
9210125000 -1.0359443 135.82036 -9.0791473 -73.037338 -9.0620146 -73.713646 -0.05115236 -101.88833
9210187500 -1.0331942 135.80972 -9.0653934 -73.063942 -9.0717096 -73.798782 -0.060472932 -101.90081
9210250000 -1.0368843 135.7879 -9.062068 -73.08802 -9.061182 -73.711311 -0.06228083 -101.87037
9210312500 -1.0380223 135.7847 -9.0815353 -72.987633 -9.0789528 -73.775002 -0.058599189 -101.90821
9210375000 -1.0365192 135.80377 -9.0729284 -73.004242 -9.0657377 -73.753395 -0.058427393 -101.76418
9210437500 -1.032694 135.71138 -9.0778017 -73.032608 -9.0617876 -73.743782 -0.046730947 -101.86928
9210500000 -1.0325865 135.7211 -9.058876 -73.064545 -9.0571976 -73.79277 -0.046721973 -101.87
9210562500 -1.041068 135.72244 -9.0753336 -73.017235 -9.052412 -73.799171 -0.052511226 -101.8409
9210625000 -1.0345968 135.71198 -9.0774364 -73.034698 -9.0652008 -73.673744 -0.060504332 -101.80924
9210687500 -1.0369123 135.7072 -9.0647783 -73.069939 -9.0605507 -73.778038 -0.06193921 -101.75985
9210750000 -1.0393467 135.70227 -9.0664072 -73.046623 -9.0595388 -73.791824 -0.059889205 -101.78137
9210812500 -1.0432351 135.67398 -9.0698071 -73.094826 -9.0655022 -73.675186 -0.064586647 -101.69402
9210875000 -1.0397677 135.64163 -9.0746469 -73.072464 -9.0508337 -73.707748 -0.062147323 -101.76463
9210937500 -1.0396953 135.69052 -9.0672474 -73.010666 -9.0643711 -73.654549 -0.068620533 -101.73129
9211000000 -1.033488 135.68871 -9.0662098 -72.95842 -9.0698853 -73.736992 -0.054928314 -101.70235
9211062500 -1.0370892 135.64206 -9.060729 -72.988571 -9.0558538 -73.691185 -0.059592091 -101.64928
9211125000 -1.0361295 135.58397 -9.0592299 -73.037407 -9.0519524 -73.725105 -0.045266494 -101.64085
9211187500 -1.0439751 135.60143 -9.0643024 -72.963608 -9.0557909 -73.686958 -0.061899204 -101.63898
9211250000 -1.0415171 135.60101 -9.0678673 -73.056885 -9.059267 -73.63002 -0.04675867 -101.58027
9211312500 -1.0358564 135.61928 -9.058979 -72.98703 -9.0592365 -73.716377 -0.060832098 -101.62885
9211375000 -1.0361677 135.49879 -9.0594568 -73.051109 -9.0514336 -73.732712 -0.058455013 -101.54018
9211437500 -1.0283055 135.55817 -9.0524206 -72.969337 -9.0540371 -73.712082 -0.060517922 -101.55939
9211500000 -1.0433762 135.50267 -9.0618143 -73.029518 -9.0540266 -73.710846 -0.057153072 -101.58004
9211562500 -1.0404798 135.56003 -9.064291 -73.000595 -9.0497084 -73.731972 -0.056330241 -101.57046
9211625000 -1.0378317 135.49492 -9.0534077 -73.023155 -9.0505295 -73.733467 -0.060108557 -101.53122
9211687500 -1.0453333 135.53983 -9.065012 -72.995117 -9.057909 -73.74128 -0.067270257 -101.48781
9211750000 -1.0404618 135.4782 -9.0534801 -72.955582 -9.0555372 -73.69017 -0.05575449 -101.44638
9211812500 -1.0443196 135.47157 -9.0731993 -72.9496 -9.0559368 -73.694214 -0.067945808 -101.44973
9211875000 -1.0465424 135.4471 -9.0672512 -72.998703 -9.0440359 -73.65596 -0.057535294 -101.36964
9211937500 -1.0370793 135.46652 -9.0578499 -72.955238 -9.0560312 -73.694313 -0.069629274 -101.45507
9212000000 -1.0411416 135.38113 -9.0536242 -73.011917 -9.0398102 -73.730064 -0.061248887 -101.39583
9212062500 -1.0401392 135.37079 -9.0635996 -72.931343 -9.0449457 -73.672585 -0.069697678 -101.36552
9212125000 -1.0354235 135.36034 -9.056386 -73.013359 -9.0448236 -73.699898 -0.052492421 -101.31664
9212187500 -1.0354817 135.35017 -9.0415936 -73.003845 -9.0426569 -73.674095 -0.064633653 -101.35463
9212250000 -1.0345737 135.35005 -9.0506268 -73.041222 -9.0357304 -73.709396 -0.054319672 -101.38135
