!Agilent Technologies,N5242A,MY51221714,A.09.90.19
!Agilent N5242A: A.09.90.19
!Date: Tuesday, March 26, 2024 17:01:00
!Correction: S11(Full 2 Port(1,2)) 
!S21(Full 2 Port(1,2)) 
!S12(Full 2 Port(1,2)) 
!S22(Full 2 Port(1,2)) 
!S2P File: Measurements: S11, S21, S12, S22:
# Hz S  dB   R 50
9200000000 -1.0272398 138.07657 -9.1485529 -73.177101 -9.136014 -73.919655 -0.01713695 -104.57746
9200062500 -1.0321907 138.08168 -9.1480799 -73.130135 -9.1427498 -73.889999 -0.0098533127 -104.5146
9200125000 -1.034043 138.04424 -9.1409407 -73.173134 -9.1221075 -73.906509 -0.008590145 -104.51219
9200187500 -1.0333686 138.05353 -9.1451359 -73.141388 -9.1337357 -73.885307 -0.001171836 -104.42735
9200250000 -1.0243359 138.00908 -9.1394129 -73.197006 -9.133666 -73.856827 -0.0086761583 -104.47786
9200312500 -1.0335257 137.99744 -9.1437759 -73.163536 -9.1330147 -73.87159 -0.0063820644 -104.47362
9200375000 -1.0264043 137.99933 -9.1371393 -73.124489 -9.1405888 -73.926918 -0.0090454966 -104.41112
9200437500 -1.034209 138.00354 -9.1570673 -73.123619 -9.1275139 -73.869484 0.00025740042 -104.43061
9200500000 -1.0263828 137.9536 -9.1468611 -73.194893 -9.1232891 -73.798882 -0.012305365 -104.34403
9200562500 -1.0308744 137.98363 -9.1454353 -73.111801 -9.1399508 -73.846367 -0.0057473234 -104.42341
9200625000 -1.0325676 137.92728 -9.140974 -73.202606 -9.1274128 -73.8255 -0.010393004 -104.36784
9200687500 -1.0188907 137.94737 -9.1314507 -73.124626 -9.1375084 -73.852585 -0.0060027288 -104.31337
9200750000 -1.0300288 137.88074 -9.1377106 -73.121155 -9.1343803 -73.838829 -0.014515241 -104.34267
9200812500 -1.0387721 137.88936 -9.1414843 -73.118958 -9.1380939 -73.806999 -0.026215972 -104.31692
9200875000 -1.0243313 138.00166 -9.1298962 -73.090637 -9.1430016 -73.84243 -0.026084887 -104.33313
9200937500 -1.0307764 137.88232 -9.1503706 -73.090492 -9.1335783 -73.868309 -0.011829713 -104.3119
9201000000 -1.0285852 137.88513 -9.1433048 -73.124832 -9.1260176 -73.833054 -0.0096120406 -104.26849
9201062500 -1.0337421 137.84529 -9.1303825 -73.045464 -9.1222725 -73.876259 -0.0096453456 -104.25729
9201125000 -1.0285231 137.87677 -9.132163 -73.064102 -9.132513 -73.821335 -0.015569268 -104.22169
9201187500 -1.0325936 137.75984 -9.1336422 -73.136269 -9.1331768 -73.797295 -0.021967214 -104.13834
9201250000 -1.0331417 137.85896 -9.127512 -73.040802 -9.1347275 -73.805511 -0.012344337 -104.17454
9201312500 -1.0389954 137.81123 -9.1299601 -73.056427 -9.1285763 -73.845482 -0.0088154478 -104.2
9201375000 -1.0319883 137.79584 -9.1419039 -73.052879 -9.1324072 -73.759758 -0.023393445 -104.10055
9201437500 -1.0261756 137.76787 -9.1400042 -73.074577 -9.1343498 -73.813293 -0.015788097 -104.17503
9201500000 -1.0314099 137.79352 -9.1364069 -73.02195 -9.1279001 -73.803391 -0.013043657 -104.16411
9201562500 -1.0351306 137.72241 -9.1327868 -73.030777 -9.138814 -73.813988 -0.031766094 -104.15131
9201625000 -1.0243485 137.73024 -9.1220417 -73.046806 -9.1234732 -73.787941 -0.025435209 -104.03765
9201687500 -1.036301 137.72803 -9.1344242 -72.998268 -9.1236439 -73.796692 -0.01617563 -104.01881
9201750000 -1.0267891 137.69807 -9.1371269 -73.053711 -9.1139736 -73.774643 -0.0064648972 -104.04613
9201812500 -1.0231998 137.70244 -9.1232643 -73.054855 -9.1294098 -73.787125 -0.026832674 -104.04948
9201875000 -1.0269551 137.68665 -9.1186323 -73.10453 -9.1183882 -73.849663 -0.012257955 -104.04272
9201937500 -1.0407857 137.6385 -9.1285124 -73.07032 -9.1185141 -73.889763 -0.0094062127 -104.08385
9202000000 -1.0329987 137.68405 -9.1282902 -73.022827 -9.1180563 -73.831284 -0.016935911 -103.96842
9202062500 -1.0331677 137.66502 -9.1193628 -73.087868 -9.1194324 -73.847015 -0.0093426937 -103.98096
9202125000 -1.0372807 137.68648 -9.1458025 -73.059471 -9.1223965 -73.789291 -0.0234049 -103.99292
9202187500 -1.0297499 137.62056 -9.1255054 -73.126274 -9.118166 -73.718224 -0.0077130059 -103.8503
9202250000 -1.0325384 137.58078 -9.1271915 -73.126648 -9.1232519 -73.727005 -0.029516632 -103.94743
9202312500 -1.0354759 137.62915 -9.1279869 -73.001503 -9.1104193 -73.793373 -0.017526632 -103.89486
9202375000 -1.0312294 137.55537 -9.1251497 -73.021675 -9.112237 -73.777802 -0.021478755 -103.8482
9202437500 -1.028532 137.59372 -9.1246967 -73.03553 -9.1155834 -73.767952 -0.015163809 -103.90387
9202500000 -1.0463065 137.57457 -9.1282845 -73.094116 -9.1291151 -73.809212 -0.022090318 -103.90733
9202562500 -1.0289342 137.55345 -9.1248045 -73.102913 -9.1245584 -73.718498 -0.024353893 -103.83109
9202625000 -1.0346352 137.62263 -9.1189451 -73.011841 -9.1201963 -73.776291 -0.024022471 -103.81554
9202687500 -1.0327628 137.54095 -9.1103182 -73.038559 -9.1143751 -73.804085 -0.010357074 -103.78642
9202750000 -1.023919 137.46449 -9.1027288 -73.068367 -9.111865 -73.847542 -0.015868677 -103.80176
9202812500 -1.0313252 137.48065 -9.1166706 -73.084358 -9.1026173 -73.891785 -0.01647459 -103.76138
9202875000 -1.0276095 137.43346 -9.1157389 -73.072464 -9.1114893 -73.743347 -0.021595426 -103.71169
9202937500 -1.0307202 137.48109 -9.1173048 -73.1175 -9.1065168 -73.766525 -0.020702122 -103.74306
9203000000 -1.0336117 137.49057 -9.11549 -73.062462 -9.1057692 -73.834587 -0.02003267 -103.70373
9203062500 -1.0268284 137.42371 -9.1168623 -73.028374 -9.111331 -73.756653 -0.020452565 -103.70597
9203125000 -1.0290549 137.38522 -9.1189327 -73.076355 -9.1016788 -73.778732 -0.02212525 -103.72122
9203187500 -1.034898 137.41876 -9.1303368 -73.044342 -9.1098366 -73.879585 -0.021398757 -103.71164
9203250000 -1.0309142 137.35991 -9.1068525 -73.055313 -9.1068811 -73.700378 -0.013834472 -103.61987
9203312500 -1.0380123 137.43028 -9.1128702 -73.000229 -9.106286 -73.801628 -0.012770712 -103.60876
9203375000 -1.032037 137.35188 -9.1147175 -73.050087 -9.1121693 -73.728523 -0.020034617 -103.574
9203437500 -1.0310752 137.38022 -9.1103058 -73.067245 -9.1116371 -73.736069 -0.012712839 -103.62218
9203500000 -1.0313716 137.34836 -9.1103582 -72.981155 -9.1027613 -73.744423 -0.013710611 -103.55751
9203562500 -1.0409491 137.35103 -9.1239233 -73.045067 -9.1142006 -73.777664 -0.028544972 -103.61618
9203625000 -1.0369214 137.32735 -9.1161633 -73.060287 -9.1024227 -73.760361 -0.01826434 -103.59711
9203687500 -1.0365531 137.28821 -9.1215 -73.035736 -9.116518 -73.7724 -0.029977527 -103.56932
9203750000 -1.0306572 137.25365 -9.1061354 -73.014175 -9.1055756 -73.718559 -0.017397223 -103.52966
9203812500 -1.0405141 137.31573 -9.1020756 -72.988594 -9.1084108 -73.667122 -0.021924591 -103.46884
9203875000 -1.0272609 137.28239 -9.1068783 -72.951324 -9.1076002 -73.785568 -0.031653635 -103.50027
9203937500 -1.0443311 137.23013 -9.1162357 -73.042305 -9.104167 -73.691185 -0.021982364 -103.49868
9204000000 -1.0328852 137.25148 -9.0969267 -72.922424 -9.1077843 -73.736351 -0.020094777 -103.43277
9204062500 -1.0287508 137.26358 -9.1061087 -72.934677 -9.0946159 -73.725426 -0.024362819 -103.37245
9204125000 -1.0393046 137.25075 -9.1081305 -72.922722 -9.0941734 -73.74939 -0.012142818 -103.3876
9204187500 -1.0409195 137.16739 -9.1169367 -73.007027 -9.1054506 -73.807083 -0.031834982 -103.39787
9204250000 -1.0295944 137.21919 -9.0918913 -72.979691 -9.1030531 -73.752754 -0.023983452 -103.38282
9204312500 -1.0355337 137.20308 -9.1092701 -72.969086 -9.0941811 -73.745384 -0.027067222 -103.34148
9204375000 -1.0240738 137.16957 -9.1094294 -72.990158 -9.1019459 -73.772873 -0.030906446 -103.39088
9204437500 -1.0369099 137.19356 -9.095418 -73.051804 -9.0982761 -73.686836 -0.02450007 -103.29986
9204500000 -1.0381105 137.15242 -9.1084185 -72.994179 -9.1040707 -73.784958 -0.02859889 -103.34988
9204562500 -1.0331644 137.1275 -9.1010504 -73.003265 -9.1017351 -73.742348 -0.017647153 -103.36079
9204625000 -1.0302229 137.12752 -9.1040506 -72.921631 -9.0929623 -73.755341 -0.028804647 -103.24165
9204687500 -1.0316906 137.10602 -9.1033545 -72.926064 -9.1019878 -73.713318 -0.026588988 -103.20029
9204750000 -1.0449423 137.05057 -9.1100645 -73.020416 -9.096158 -73.716484 -0.038324021 -103.29707
9204812500 -1.0293286 137.04996 -9.1047869 -73.020668 -9.0864296 -73.702629 -0.016345512 -103.23273
9204875000 -1.0363106 137.1115 -9.0951719 -72.957291 -9.107151 -73.669502 -0.03048104 -103.19582
9204937500 -1.0300384 137.00337 -9.0941553 -72.998604 -9.0861864 -73.762871 -0.017270057 -103.21576
9205000000 -1.024666 136.97578 -9.0878525 -72.938362 -9.0941248 -73.651306 -0.036223274 -103.16042
9205062500 -1.0376476 137.00743 -9.1047068 -72.992783 -9.0841579 -73.739891 -0.028753435 -103.15585
9205125000 -1.034516 137.00975 -9.0924082 -72.987587 -9.0829563 -73.702766 -0.022660082 -103.10953
9205187500 -1.0365912 137.02046 -9.1051798 -72.954094 -9.0939846 -73.701271 -0.026850799 -103.10807
9205250000 -1.0299324 136.98212 -9.095006 -73.010696 -9.1013956 -73.730995 -0.038142841 -103.16843
9205312500 -1.038957 137.04921 -9.0968008 -72.87043 -9.0854034 -73.680443 -0.025985828 -103.12585
9205375000 -1.0407306 136.90794 -9.0970373 -72.953712 -9.0974016 -73.733849 -0.033544969 -103.08191
9205437500 -1.0304441 136.92136 -9.0927687 -72.932777 -9.0862322 -73.668373 -0.023153512 -103.05117
9205500000 -1.0389766 136.87225 -9.082592 -72.866463 -9.0891228 -73.71328 -0.023684537 -102.95782
9205562500 -1.0369754 136.9012 -9.0789671 -72.948563 -9.0835619 -73.773605 -0.026612435 -103.04588
9205625000 -1.0427146 136.91821 -9.0943956 -72.919807 -9.0895882 -73.707649 -0.036494162 -102.99792
9205687500 -1.0326328 136.90073 -9.0938196 -72.958473 -9.0775337 -73.698578 -0.032334764 -102.95872
9205750000 -1.0362722 136.8483 -9.0881062 -72.969673 -9.081399 -73.629189 -0.022628497 -102.91514
9205812500 -1.0396738 136.77316 -9.082612 -72.965843 -9.0966187 -73.669502 -0.027256137 -102.8834
9205875000 -1.0320206 136.86548 -9.0960178 -72.919273 -9.0913115 -73.676224 -0.026330944 -102.94907
9205937500 -1.030605 136.80756 -9.0819874 -73.024773 -9.0795422 -73.692154 -0.030108362 -102.95677
9206000000 -1.03395 136.82971 -9.0831852 -72.923965 -9.086195 -73.66346 -0.024159219 -102.86312
9206062500 -1.0387019 136.83118 -9.0915565 -72.991592 -9.0723324 -73.724098 -0.025271306 -102.93362
9206125000 -1.0280279 136.77167 -9.0812626 -72.949509 -9.0823689 -73.68042 -0.035331558 -102.81131
9206187500 -1.0394433 136.80435 -9.0814953 -72.948997 -9.0727768 -73.699432 -0.018793358 -102.8063
9206250000 -1.0370421 136.74182 -9.0886993 -72.958122 -9.0845203 -73.629333 -0.033603981 -102.85927
9206312500 -1.0315074 136.68762 -9.0827932 -72.974815 -9.0804882 -73.742905 -0.025488568 -102.86871
9206375000 -1.0364249 136.76094 -9.0799837 -72.944168 -9.0766954 -73.603996 -0.020766409 -102.78799
9206437500 -1.0321418 136.6955 -9.0755835 -73.031502 -9.0830812 -73.672951 -0.030974969 -102.85233
9206500000 -1.0426447 136.6895 -9.0940304 -73.035805 -9.076251 -73.668472 -0.035748657 -102.80721
9206562500 -1.0355718 136.68283 -9.0916042 -72.973236 -9.0769463 -73.647469 -0.028537104 -102.80383
9206625000 -1.0390052 136.61227 -9.0691462 -72.925377 -9.0785933 -73.682617 -0.02881043 -102.75738
9206687500 -1.0347278 136.62799 -9.0843182 -72.977791 -9.0767822 -73.713493 -0.024596004 -102.7939
9206750000 -1.0357238 136.65814 -9.0748014 -72.928085 -9.0774784 -73.619392 -0.032825086 -102.70952
9206812500 -1.0312495 136.64508 -9.0845785 -72.932991 -9.0780668 -73.662506 -0.031981125 -102.72196
9206875000 -1.0390116 136.60144 -9.0917845 -72.975327 -9.0684052 -73.608063 -0.029640434 -102.60703
9206937500 -1.0334946 136.59464 -9.084568 -72.962296 -9.081666 -73.632828 -0.039762143 -102.65568
9207000000 -1.0352997 136.59517 -9.0875473 -72.998894 -9.0757065 -73.684685 -0.034087986 -102.65767
9207062500 -1.0322859 136.59721 -9.0727215 -72.916557 -9.0679045 -73.567978 -0.028963245 -102.50878
9207125000 -1.0451531 136.56856 -9.0694408 -72.919724 -9.0627022 -73.722466 -0.03093062 -102.54412
9207187500 -1.0334876 136.51793 -9.068059 -72.98394 -9.0814018 -73.617538 -0.031460561 -102.61507
9207250000 -1.0342146 136.50592 -9.072341 -72.961899 -9.0784798 -73.600586 -0.027583294 -102.59901
9207312500 -1.0283431 136.47775 -9.07757 -72.95182 -9.0691166 -73.639122 -0.028586213 -102.55756
9207375000 -1.0452079 136.45486 -9.0780602 -72.940384 -9.0646772 -73.661423 -0.028286098 -102.49693
9207437500 -1.0385212 136.58943 -9.0786896 -72.84185 -9.0781126 -73.615852 -0.033026561 -102.52612
9207500000 -1.0430162 136.57553 -9.0876102 -72.857559 -9.0604782 -73.600548 -0.044030391 -102.50503
9207562500 -1.0353576 136.50743 -9.0717316 -72.932701 -9.0665855 -73.617378 -0.035855867 -102.51002
9207625000 -1.0416837 136.40012 -9.0695486 -72.939255 -9.0707731 -73.611374 -0.0315888 -102.41441
9207687500 -1.0415725 136.4558 -9.0730162 -72.920151 -9.0598249 -73.586357 -0.025806572 -102.46069
9207750000 -1.0411721 136.4597 -9.0732975 -72.914581 -9.0571899 -73.607056 -0.019758936 -102.46552
9207812500 -1.0354517 136.4283 -9.0746193 -72.913025 -9.0624676 -73.624863 -0.031875689 -102.39796
9207875000 -1.0386622 136.42384 -9.0850677 -72.8675 -9.0629625 -73.712677 -0.03031317 -102.43393
9207937500 -1.0394598 136.34398 -9.081356 -72.868912 -9.0691681 -73.617943 -0.03775328 -102.42882
9208000000 -1.0406098 136.34804 -9.0735474 -72.913597 -9.0639076 -73.585403 -0.033564884 -102.34495
9208062500 -1.047469 136.37578 -9.0846596 -72.896118 -9.0614433 -73.59449 -0.028767237 -102.31954
9208125000 -1.0390091 136.35614 -9.0700874 -72.922371 -9.0672474 -73.640274 -0.034536339 -102.34075
9208187500 -1.0325028 136.36182 -9.061903 -72.919853 -9.0525532 -73.559677 -0.031132229 -102.30955
9208250000 -1.0415215 136.3367 -9.0620861 -72.805328 -9.0610294 -73.653236 -0.03080773 -102.29153
9208312500 -1.0389766 136.33817 -9.0635443 -72.887009 -9.0529394 -73.642021 -0.038542483 -102.29731
9208375000 -1.0480247 136.304 -9.0687952 -72.89431 -9.0610313 -73.598434 -0.030703155 -102.23988
9208437500 -1.0453876 136.2531 -9.0758533 -72.966103 -9.0587654 -73.591751 -0.042764548 -102.27201
9208500000 -1.0405219 136.23276 -9.0731325 -72.884254 -9.058835 -73.612244 -0.032413471 -102.20708
9208562500 -1.0421191 136.30763 -9.0601053 -72.853561 -9.0556927 -73.593147 -0.032839697 -102.23017
9208625000 -1.0382141 136.24767 -9.0583611 -72.871567 -9.0527782 -73.574966 -0.043358408 -102.23141
9208687500 -1.0331097 136.19434 -9.0532713 -72.936615 -9.0527563 -73.591118 -0.033886731 -102.16042
9208750000 -1.0363791 136.2355 -9.0611353 -72.864662 -9.0545521 -73.588264 -0.041535091 -102.15128
9208812500 -1.0400702 136.2747 -9.069767 -72.847046 -9.0636692 -73.649841 -0.03695387 -102.15067
9208875000 -1.0394944 136.16551 -9.05828 -72.962814 -9.0568686 -73.598312 -0.03436204 -102.13336
9208937500 -1.0432085 136.1942 -9.0559454 -72.917671 -9.0386839 -73.505432 -0.025735201 -102.05354
9209000000 -1.0315517 136.17288 -9.0659285 -72.901161 -9.0467701 -73.583794 -0.04189191 -102.15347
9209062500 -1.0439152 136.17729 -9.072855 -72.822098 -9.0580568 -73.582802 -0.04321599 -102.05305
9209125000 -1.0431058 136.15724 -9.0566664 -72.870422 -9.0470858 -73.607452 -0.035082042 -102.05272
9209187500 -1.0411394 136.14101 -9.0582981 -72.846085 -9.055274 -73.508125 -0.040576279 -102.03867
9209250000 -1.0329114 136.11296 -9.0563707 -72.88224 -9.0477819 -73.63295 -0.035248917 -101.98984
9209312500 -1.0421841 136.02081 -9.0639954 -72.886887 -9.050621 -73.599281 -0.046826977 -102.04442
9209375000 -1.0252023 136.07645 -9.0555716 -72.852577 -9.0633402 -73.492188 -0.048276678 -101.99527
9209437500 -1.0435779 136.05534 -9.0551529 -72.8424 -9.0447416 -73.681335 -0.035799064 -101.97335
9209500000 -1.0400043 136.02887 -9.042738 -72.907547 -9.0463057 -73.604546 -0.035047099 -101.91301
9209562500 -1.0414481 136.05034 -9.0567551 -72.866928 -9.0541706 -73.587875 -0.046464503 -101.91013
9209625000 -1.0377429 136.00577 -9.0529709 -72.898293 -9.0404444 -73.622948 -0.034028005 -101.91431
9209687500 -1.039953 135.983 -9.04778 -72.869514 -9.0384674 -73.504044 -0.033872899 -101.86404
9209750000 -1.037811 135.96844 -9.0444498 -72.99073 -9.0464487 -73.552383 -0.032339435 -101.88226
9209812500 -1.032737 135.97424 -9.0543327 -72.854668 -9.0472298 -73.610237 -0.039552465 -101.83687
9209875000 -1.039674 135.98047 -9.0488453 -72.803055 -9.0388117 -73.510399 -0.042844359 -101.84168
9209937500 -1.0383501 136.08401 -9.0640221 -72.816246 -9.0491104 -73.532227 -0.038917664 -101.87793
9210000000 -1.0338023 135.96117 -9.0423164 -72.851929 -9.0415573 -73.552849 -0.057092778 -101.81728
9210062500 -1.0462524 135.95401 -9.0603504 -72.873154 -9.0341377 -73.592361 -0.039483201 -101.78941
9210125000 -1.0384933 135.95178 -9.0519934 -72.83387 -9.0367899 -73.558304 -0.042262804 -101.80692
9210187500 -1.0429072 135.95285 -9.0550337 -72.831299 -9.0379906 -73.549271 -0.045398857 -101.73763
9210250000 -1.0423608 135.94508 -9.0460625 -72.815018 -9.0384436 -73.497795 -0.047388352 -101.74262
9210312500 -1.0386709 135.89551 -9.041172 -72.77034 -9.0446844 -73.627335 -0.044017952 -101.73635
9210375000 -1.0374203 135.91357 -9.0477161 -72.818871 -9.0438509 -73.510826 -0.045570783 -101.64906
9210437500 -1.0361294 135.85089 -9.0451832 -72.830963 -9.040987 -73.593483 -0.042521745 -101.73618
9210500000 -1.0344706 135.82913 -9.045187 -72.872231 -9.0294447 -73.586945 -0.03566565 -101.67629
9210562500 -1.0467335 135.83144 -9.0510759 -72.765625 -9.0391617 -73.597412 -0.04724792 -101.63614
9210625000 -1.0373312 135.8362 -9.0525513 -72.823479 -9.0360384 -73.470505 -0.044369817 -101.65828
9210687500 -1.0376053 135.84583 -9.0446177 -72.77623 -9.0357037 -73.580055 -0.048643969 -101.63963
9210750000 -1.042629 135.8046 -9.0439196 -72.864571 -9.0221739 -73.565178 -0.038657017 -101.63265
9210812500 -1.0382471 135.7543 -9.0404844 -72.839935 -9.0361128 -73.499695 -0.048513874 -101.57277
9210875000 -1.0393096 135.79178 -9.0456562 -72.827484 -9.0356121 -73.543236 -0.052353662 -101.63187
9210937500 -1.0363845 135.79076 -9.0395384 -72.83046 -9.0342522 -73.444847 -0.050723054 -101.55885
9211000000 -1.0376465 135.77298 -9.0385084 -72.804504 -9.0415039 -73.530479 -0.043661296 -101.58421
9211062500 -1.0352809 135.75787 -9.0421066 -72.795868 -9.0440197 -73.530098 -0.053521704 -101.53
9211125000 -1.0348852 135.69489 -9.0356398 -72.818771 -9.0220566 -73.502792 -0.0417335 -101.49911
9211187500 -1.0435522 135.71024 -9.0341034 -72.805374 -9.0332594 -73.524651 -0.045526993 -101.47133
9211250000 -1.0443234 135.71242 -9.0283127 -72.82589 -9.0345516 -73.464287 -0.044441361 -101.47437
9211312500 -1.0322728 135.68079 -9.0332251 -72.803879 -9.0361385 -73.511261 -0.054890085 -101.47211
9211375000 -1.0403397 135.59969 -9.033349 -72.821419 -9.0345812 -73.576477 -0.046521459 -101.41307
9211437500 -1.0408908 135.64975 -9.0312271 -72.839737 -9.0321541 -73.565758 -0.047671974 -101.43292
9211500000 -1.0467436 135.61867 -9.0305252 -72.774269 -9.0311947 -73.485245 -0.043955795 -101.41518
9211562500 -1.0490077 135.66483 -9.0386562 -72.80883 -9.029851 -73.530815 -0.053574875 -101.39497
9211625000 -1.0408739 135.58351 -9.0301037 -72.854805 -9.0206404 -73.528725 -0.038484044 -101.39893
9211687500 -1.042783 135.63411 -9.0296106 -72.75856 -9.025382 -73.540833 -0.047429174 -101.35601
9211750000 -1.0411829 135.62064 -9.0274763 -72.784966 -9.0267963 -73.487511 -0.046337441 -101.28609
9211812500 -1.0423241 135.5717 -9.0426884 -72.78244 -9.0300932 -73.484596 -0.057558257 -101.3251
9211875000 -1.0465127 135.52565 -9.0376749 -72.846001 -9.0277863 -73.421089 -0.045391597 -101.24251
9211937500 -1.0426265 135.6096 -9.0271101 -72.739807 -9.0322018 -73.548119 -0.060499497 -101.33725
9212000000 -1.0458485 135.47299 -9.0269012 -72.762283 -9.016799 -73.530304 -0.0446565 -101.26995
9212062500 -1.0386698 135.49538 -9.0204353 -72.713249 -9.021265 -73.460922 -0.049976781 -101.25691
9212125000 -1.0390815 135.42868 -9.0167189 -72.792671 -9.0358171 -73.565315 -0.051620174 -101.25401
9212187500 -1.034903 135.47556 -9.0178375 -72.709099 -9.0159807 -73.496536 -0.052538689 -101.19805
