!Agilent Technologies,N5242A,MY51221714,A.09.90.19
!Agilent N5242A: A.09.90.19
!Date: Tuesday, March 26, 2024 17:01:52
!Correction: S11(Full 2 Port(1,2)) 
!S21(Full 2 Port(1,2)) 
!S12(Full 2 Port(1,2)) 
!S22(Full 2 Port(1,2)) 
!S2P File: Measurements: S11, S21, S12, S22:
# Hz S  dB   R 50
9200000000 -1.0528072 137.76311 -9.1269541 -73.69709 -9.1002798 -74.471535 -0.034559287 -104.91276
9200062500 -1.0527198 137.74287 -9.1161823 -73.74633 -9.1069012 -74.428627 -0.026073435 -104.86977
9200125000 -1.054953 137.73053 -9.1159945 -73.695381 -9.1093845 -74.409492 -0.03903072 -104.80219
9200187500 -1.0640988 137.79958 -9.1192055 -73.55574 -9.1084528 -74.472488 -0.024569226 -104.81823
9200250000 -1.048385 137.7048 -9.1144991 -73.664261 -9.0980759 -74.345421 -0.02851679 -104.7953
9200312500 -1.0557792 137.70232 -9.1139946 -73.646278 -9.1055803 -74.434769 -0.030758256 -104.80463
9200375000 -1.053118 137.65332 -9.1101952 -73.689018 -9.1031799 -74.521767 -0.016341135 -104.81372
9200437500 -1.0562712 137.68945 -9.1126852 -73.705086 -9.0978756 -74.460922 -0.020125126 -104.81081
9200500000 -1.0526605 137.66043 -9.1096296 -73.652817 -9.1001453 -74.304558 -0.032138798 -104.69535
9200562500 -1.053462 137.61926 -9.1125813 -73.652946 -9.1099062 -74.443764 -0.027276183 -104.77045
9200625000 -1.0574648 137.65543 -9.1109095 -73.668564 -9.0957232 -74.38549 -0.029570695 -104.69887
9200687500 -1.050452 137.64961 -9.1128912 -73.573608 -9.1144876 -74.384567 -0.033094298 -104.65013
9200750000 -1.0535725 137.59341 -9.1084986 -73.674538 -9.1056604 -74.327423 -0.029232154 -104.64902
9200812500 -1.0681314 137.59511 -9.1204996 -73.653725 -9.1006451 -74.438904 -0.039842676 -104.67292
9200875000 -1.0527613 137.66644 -9.1099653 -73.578445 -9.1055841 -74.358299 -0.033148646 -104.67309
9200937500 -1.0508405 137.57629 -9.119894 -73.619576 -9.0910015 -74.364967 -0.022149809 -104.6558
9201000000 -1.0510789 137.56175 -9.1130104 -73.66658 -9.0998344 -74.410843 -0.024508582 -104.63833
9201062500 -1.0562587 137.54231 -9.1039991 -73.59919 -9.0957603 -74.374748 -0.032496218 -104.5793
9201125000 -1.057106 137.57878 -9.1005917 -73.56675 -9.0983572 -74.355698 -0.029627042 -104.53938
9201187500 -1.0587108 137.45753 -9.1026363 -73.631149 -9.0963411 -74.382874 -0.037474666 -104.51505
9201250000 -1.0573844 137.51038 -9.099473 -73.596893 -9.106802 -74.375404 -0.039877471 -104.50645
9201312500 -1.0639904 137.47154 -9.1064749 -73.685806 -9.092968 -74.417877 -0.023725564 -104.56868
9201375000 -1.0651712 137.48535 -9.1117048 -73.519279 -9.1008835 -74.310387 -0.043168426 -104.47769
9201437500 -1.0543982 137.45305 -9.1045313 -73.64325 -9.0986633 -74.371574 -0.03466244 -104.52729
9201500000 -1.0614827 137.47327 -9.1105766 -73.62043 -9.1110401 -74.381775 -0.040513519 -104.47638
9201562500 -1.0583398 137.40923 -9.1064043 -73.585823 -9.1012936 -74.393776 -0.04259266 -104.50431
9201625000 -1.0549748 137.44073 -9.0997086 -73.584267 -9.0826712 -74.34391 -0.037855107 -104.38989
9201687500 -1.0608838 137.43443 -9.1018763 -73.573853 -9.0910254 -74.368835 -0.035586756 -104.34234
9201750000 -1.0571512 137.39191 -9.1107025 -73.648056 -9.0917988 -74.390808 -0.024432939 -104.39635
9201812500 -1.0533199 137.41747 -9.1029501 -73.574997 -9.0953121 -74.393593 -0.047570083 -104.45499
9201875000 -1.0557822 137.32434 -9.0938797 -73.703781 -9.0879078 -74.383797 -0.027493237 -104.31354
9201937500 -1.0649507 137.25697 -9.0987043 -73.628998 -9.0913229 -74.38842 -0.034116499 -104.38651
9202000000 -1.0634297 137.36214 -9.1004114 -73.571907 -9.0909433 -74.420433 -0.033530213 -104.35285
9202062500 -1.0608001 137.35631 -9.0937834 -73.605179 -9.091197 -74.378716 -0.033808202 -104.30803
9202125000 -1.0596609 137.36185 -9.1056175 -73.605125 -9.0841293 -74.292892 -0.038760062 -104.32911
9202187500 -1.0586827 137.29855 -9.1009216 -73.677429 -9.0838585 -74.295364 -0.033924975 -104.2332
9202250000 -1.0570537 137.27788 -9.1030178 -73.591644 -9.0929871 -74.321053 -0.052293595 -104.26275
9202312500 -1.0529932 137.29323 -9.0891657 -73.539642 -9.089982 -74.33297 -0.037686534 -104.22287
9202375000 -1.0581707 137.2625 -9.0995331 -73.545593 -9.0844097 -74.392731 -0.044089533 -104.19909
9202437500 -1.0646335 137.29886 -9.0986996 -73.497154 -9.0941305 -74.349457 -0.036642183 -104.25755
9202500000 -1.0702683 137.26364 -9.1023779 -73.610367 -9.096283 -74.322701 -0.043143291 -104.25262
9202562500 -1.0478336 137.2195 -9.0861216 -73.591942 -9.0924578 -74.307693 -0.047162183 -104.15863
9202625000 -1.0591102 137.2533 -9.0935183 -73.623192 -9.0782766 -74.378883 -0.040937897 -104.18134
9202687500 -1.0636761 137.23122 -9.0978622 -73.572144 -9.0784283 -74.296661 -0.032226369 -104.06135
9202750000 -1.0487736 137.12407 -9.0944061 -73.648468 -9.0824327 -74.360046 -0.032360952 -104.14668
9202812500 -1.0641677 137.16914 -9.1017599 -73.594872 -9.0689926 -74.40152 -0.028233295 -104.1055
9202875000 -1.0571486 137.11798 -9.0890369 -73.55658 -9.0849466 -74.277878 -0.036618728 -104.02512
9202937500 -1.0542829 137.16319 -9.0950165 -73.621742 -9.0823803 -74.334702 -0.03782941 -104.09122
9203000000 -1.0576011 137.16357 -9.0879688 -73.570267 -9.0859909 -74.355629 -0.043451954 -104.02467
9203062500 -1.0589681 137.11346 -9.0913134 -73.562958 -9.0786972 -74.327255 -0.04155191 -104.05505
9203125000 -1.0526488 137.07993 -9.0886421 -73.575157 -9.0707207 -74.430893 -0.040380061 -104.08639
9203187500 -1.0566075 137.0867 -9.0972939 -73.627243 -9.0746374 -74.331848 -0.043626748 -104.04508
9203250000 -1.0618505 137.08252 -9.0922194 -73.61792 -9.0753479 -74.318535 -0.03496803 -103.98588
9203312500 -1.0664226 137.08383 -9.0874367 -73.593132 -9.0724039 -74.370209 -0.033111062 -103.99327
9203375000 -1.0537645 137.02359 -9.0825109 -73.602371 -9.0743914 -74.370323 -0.035849381 -103.92661
9203437500 -1.0657926 137.03145 -9.0908365 -73.624504 -9.0719442 -74.301582 -0.039006341 -103.97055
9203500000 -1.0558969 137.02731 -9.0774527 -73.554733 -9.0712662 -74.31395 -0.033325598 -103.93896
9203562500 -1.061913 137.0062 -9.0881891 -73.58831 -9.0850515 -74.320953 -0.053504534 -103.95451
9203625000 -1.0603495 137.00114 -9.0873423 -73.642052 -9.0687437 -74.312401 -0.036793441 -103.94388
9203687500 -1.0656747 136.97449 -9.094615 -73.637733 -9.0796165 -74.312958 -0.048471805 -103.88211
9203750000 -1.0588566 136.96278 -9.0893421 -73.586205 -9.0748196 -74.295074 -0.035286326 -103.8266
9203812500 -1.0600742 136.9846 -9.0708866 -73.580414 -9.0808353 -74.431892 -0.046577413 -103.91954
9203875000 -1.0534928 136.96234 -9.0813017 -73.577034 -9.068305 -74.296295 -0.047647573 -103.82858
9203937500 -1.0648878 136.94675 -9.0770741 -73.556892 -9.0732489 -74.293884 -0.045860462 -103.84875
9204000000 -1.0615026 136.93158 -9.0740108 -73.495743 -9.0806131 -74.277496 -0.04585012 -103.76751
9204062500 -1.0514284 136.92877 -9.0688162 -73.533958 -9.0611897 -74.304802 -0.045938626 -103.77043
9204125000 -1.0636535 136.90146 -9.0735836 -73.49395 -9.0567198 -74.307785 -0.035016023 -103.7716
9204187500 -1.0656253 136.84125 -9.081624 -73.565506 -9.0739756 -74.360626 -0.052105699 -103.7698
9204250000 -1.0658275 136.87114 -9.0868521 -73.627525 -9.0691042 -74.327362 -0.042166762 -103.77057
9204312500 -1.0603888 136.8573 -9.0680952 -73.509689 -9.071208 -74.302597 -0.048205126 -103.64478
9204375000 -1.0493751 136.80354 -9.0722036 -73.57077 -9.0679293 -74.301216 -0.051494706 -103.70935
9204437500 -1.0727423 136.88339 -9.0786943 -73.527596 -9.0600281 -74.256561 -0.03706656 -103.66091
9204500000 -1.0634054 136.85501 -9.0715694 -73.51947 -9.0809183 -74.323586 -0.050602805 -103.70219
9204562500 -1.0604213 136.80049 -9.0757141 -73.596649 -9.0641098 -74.339111 -0.039777067 -103.72461
9204625000 -1.0542966 136.79759 -9.0677795 -73.514771 -9.0542336 -74.386383 -0.041911606 -103.63837
9204687500 -1.05767 136.75243 -9.0738678 -73.513268 -9.0648966 -74.281296 -0.043357905 -103.55965
9204750000 -1.0689844 136.77736 -9.0676041 -73.521858 -9.068471 -74.278755 -0.059570577 -103.58591
9204812500 -1.0569775 136.73935 -9.0695076 -73.543106 -9.0616798 -74.366989 -0.03867903 -103.62721
9204875000 -1.0615845 136.80312 -9.0716963 -73.518906 -9.0742922 -74.273148 -0.0475283 -103.60974
9204937500 -1.0542868 136.71307 -9.0638781 -73.602531 -9.0610018 -74.33889 -0.04014403 -103.57253
9205000000 -1.0505486 136.659 -9.066783 -73.50415 -9.0613184 -74.203674 -0.055457164 -103.52682
9205062500 -1.0563416 136.71284 -9.0696287 -73.566124 -9.0576305 -74.296463 -0.051820748 -103.51367
9205125000 -1.0573696 136.71373 -9.0630159 -73.483383 -9.0580702 -74.259621 -0.046580505 -103.47472
9205187500 -1.0652174 136.70255 -9.0645304 -73.514 -9.0571842 -74.225433 -0.047833569 -103.50246
9205250000 -1.0571088 136.62215 -9.0713091 -73.56517 -9.0686541 -74.205063 -0.055252802 -103.48561
9205312500 -1.060104 136.7117 -9.0557852 -73.474052 -9.0539522 -74.246773 -0.043905124 -103.43565
9205375000 -1.0648065 136.58983 -9.0582781 -73.550804 -9.0596542 -74.277679 -0.037083406 -103.4051
9205437500 -1.0550784 136.606 -9.0619202 -73.447723 -9.0449753 -74.239578 -0.041019809 -103.3951
9205500000 -1.0605357 136.53819 -9.0630579 -73.505074 -9.0429316 -74.272789 -0.040731519 -103.32182
9205562500 -1.0612688 136.60156 -9.050993 -73.509697 -9.0569706 -74.318329 -0.047242347 -103.38926
9205625000 -1.0694571 136.58817 -9.0666742 -73.505943 -9.0436401 -74.306145 -0.044938087 -103.32599
9205687500 -1.0629872 136.5827 -9.0605717 -73.518158 -9.0476379 -74.284264 -0.04603393 -103.36567
9205750000 -1.0595138 136.50966 -9.0508814 -73.582108 -9.0567684 -74.28965 -0.046736218 -103.29964
9205812500 -1.0636077 136.50531 -9.0533571 -73.512672 -9.0597363 -74.26371 -0.050177705 -103.25019
9205875000 -1.0540177 136.50522 -9.0637827 -73.552338 -9.0623446 -74.284012 -0.052258927 -103.33782
9205937500 -1.0624238 136.49126 -9.064188 -73.542419 -9.0396175 -74.227409 -0.046178732 -103.23708
9206000000 -1.0661345 136.47913 -9.0484781 -73.473068 -9.0520287 -74.216713 -0.049728494 -103.25262
9206062500 -1.0617111 136.51357 -9.054677 -73.5578 -9.0470495 -74.254753 -0.050905168 -103.28556
9206125000 -1.0612879 136.50346 -9.0495644 -73.477295 -9.046236 -74.171371 -0.048115749 -103.16371
9206187500 -1.0626945 136.45815 -9.0490837 -73.495636 -9.0412493 -74.220116 -0.037222233 -103.1668
9206250000 -1.067588 136.44745 -9.0532694 -73.480728 -9.0452805 -74.23909 -0.046780482 -103.19379
9206312500 -1.056682 136.37703 -9.0469275 -73.561127 -9.0533161 -74.343437 -0.049954645 -103.21757
9206375000 -1.0639701 136.43666 -9.054019 -73.496696 -9.0417891 -74.227707 -0.044940181 -103.17561
9206437500 -1.0541468 136.38539 -9.0500174 -73.5457 -9.0515509 -74.26709 -0.053513333 -103.16412
9206500000 -1.0670222 136.38832 -9.0588236 -73.51944 -9.0469351 -74.13501 -0.052226808 -103.09312
9206562500 -1.0594652 136.3597 -9.0548363 -73.601173 -9.0460777 -74.195236 -0.050162856 -103.12191
9206625000 -1.067095 136.2914 -9.0486078 -73.53894 -9.0486679 -74.285904 -0.055942751 -103.13078
9206687500 -1.0660632 136.33517 -9.051569 -73.541153 -9.0406008 -74.306168 -0.043751955 -103.13363
9206750000 -1.0592264 136.33171 -9.0461845 -73.473877 -9.0517044 -74.206558 -0.053084079 -103.06552
9206812500 -1.0525445 136.3891 -9.0448275 -73.392517 -9.0451746 -74.30806 -0.04684769 -103.11035
9206875000 -1.0592084 136.30975 -9.0527496 -73.515518 -9.0330849 -74.195122 -0.04810258 -102.95657
9206937500 -1.0603354 136.33292 -9.0444622 -73.447884 -9.0463018 -74.267113 -0.048712891 -103.0366
9207000000 -1.0660738 136.29453 -9.0518084 -73.471474 -9.0427313 -74.265968 -0.04648954 -102.97742
9207062500 -1.0660436 136.26889 -9.0490675 -73.504623 -9.0387506 -74.18383 -0.04955364 -102.87292
9207125000 -1.0716058 136.23723 -9.0488749 -73.524445 -9.0321541 -74.267609 -0.048387092 -102.88069
9207187500 -1.0649488 136.19507 -9.0335941 -73.593628 -9.0528221 -74.167679 -0.057514086 -102.94518
9207250000 -1.0569304 136.20581 -9.0332937 -73.495117 -9.0435438 -74.209854 -0.042806685 -102.95348
9207312500 -1.0608385 136.20607 -9.0404291 -73.553459 -9.0314598 -74.179634 -0.040823482 -102.8839
9207375000 -1.0718169 136.15346 -9.0532513 -73.462509 -9.0299854 -74.216721 -0.051066104 -102.82677
9207437500 -1.0610414 136.2448 -9.0483637 -73.426735 -9.0498447 -74.168999 -0.052315596 -102.8631
9207500000 -1.0642424 136.22325 -9.0571365 -73.4832 -9.025691 -74.226242 -0.058730107 -102.85751
9207562500 -1.0602655 136.22137 -9.0439539 -73.454094 -9.0285387 -74.255386 -0.054137394 -102.87993
9207625000 -1.0596004 136.10754 -9.0367842 -73.471008 -9.0305271 -74.214073 -0.052903924 -102.76038
9207687500 -1.0691664 136.13367 -9.0343075 -73.484085 -9.0238104 -74.234001 -0.041755814 -102.82639
9207750000 -1.0648044 136.12061 -9.0458527 -73.506393 -9.0300083 -74.205582 -0.050018452 -102.78924
9207812500 -1.0642722 136.11711 -9.0457077 -73.437111 -9.0347557 -74.175583 -0.052281491 -102.74322
9207875000 -1.0571418 136.1312 -9.0434198 -73.405945 -9.034215 -74.232071 -0.048192628 -102.75513
9207937500 -1.0681193 136.03886 -9.0427971 -73.495918 -9.0368595 -74.212776 -0.058207702 -102.76714
9208000000 -1.0700802 136.08134 -9.0380478 -73.503944 -9.0297756 -74.168327 -0.047238655 -102.69752
9208062500 -1.0625477 136.0509 -9.0380068 -73.431396 -9.0275745 -74.218063 -0.05241549 -102.74586
9208125000 -1.0679182 136.02271 -9.0454006 -73.538048 -9.043932 -74.193298 -0.060290445 -102.66748
9208187500 -1.0542945 136.06244 -9.0328703 -73.431786 -9.0279055 -74.179779 -0.054397754 -102.68123
9208250000 -1.0762049 136.00827 -9.0505991 -73.429344 -9.0316172 -74.216667 -0.05643589 -102.66405
9208312500 -1.060183 136.01157 -9.0390329 -73.391922 -9.0212317 -74.230606 -0.052116584 -102.64286
9208375000 -1.065722 135.97092 -9.0281849 -73.491692 -9.0235548 -74.177956 -0.056691062 -102.59546
9208437500 -1.0667342 135.897 -9.0413952 -73.527077 -9.0358715 -74.093826 -0.068596669 -102.58373
9208500000 -1.0673432 135.89101 -9.0291471 -73.481033 -9.0315533 -74.193092 -0.053050656 -102.5702
9208562500 -1.0708776 135.97391 -9.0347147 -73.404259 -9.0281639 -74.234901 -0.057388861 -102.61095
9208625000 -1.0648582 135.90297 -9.0227938 -73.41066 -9.0167208 -74.085892 -0.05952673 -102.52048
9208687500 -1.0601213 135.90228 -9.024683 -73.486351 -9.0197515 -74.213814 -0.060964331 -102.53975
9208750000 -1.0594673 135.91228 -9.0288067 -73.439079 -9.0155029 -74.151131 -0.056360096 -102.53382
9208812500 -1.0700277 135.95819 -9.0390749 -73.430901 -9.0276279 -74.154144 -0.056656469 -102.4958
9208875000 -1.067826 135.84982 -9.0191984 -73.443245 -9.0214605 -74.134239 -0.052434929 -102.42819
9208937500 -1.0654981 135.8828 -9.0258102 -73.438301 -9.0247726 -74.159607 -0.055285223 -102.44566
9209000000 -1.0601696 135.87277 -9.0334377 -73.392357 -9.0186262 -74.14727 -0.057012733 -102.53014
9209062500 -1.067783 135.83984 -9.0325031 -73.437439 -9.0220079 -74.133949 -0.062145226 -102.39756
9209125000 -1.073643 135.8396 -9.0233202 -73.464172 -9.0157957 -74.222809 -0.05042854 -102.4193
9209187500 -1.0664195 135.86058 -9.0185795 -73.361794 -9.0237875 -74.116402 -0.065275192 -102.40736
9209250000 -1.0591072 135.77592 -9.0111494 -73.436386 -9.0144396 -74.207817 -0.06082179 -102.3021
9209312500 -1.0655912 135.70268 -9.0294685 -73.466629 -9.0152512 -74.237862 -0.064815931 -102.40297
9209375000 -1.0608209 135.79955 -9.0203381 -73.442665 -9.0277081 -74.069427 -0.069529884 -102.34647
9209437500 -1.0719192 135.7374 -9.0320072 -73.365944 -9.0219183 -74.176338 -0.062424082 -102.24436
9209500000 -1.0617899 135.7343 -9.0181847 -73.399284 -9.0201044 -74.176437 -0.060528044 -102.24921
9209562500 -1.0725038 135.73904 -9.0299168 -73.342651 -9.0194254 -74.167198 -0.067680396 -102.22776
9209625000 -1.0652455 135.66945 -9.020957 -73.457108 -9.0153227 -74.219376 -0.054964229 -102.273
9209687500 -1.0671506 135.6288 -9.0126028 -73.487183 -9.0110159 -74.061684 -0.059544064 -102.20364
9209750000 -1.0637331 135.64552 -9.0084705 -73.504402 -9.013463 -74.134598 -0.056581914 -102.26646
9209812500 -1.0641215 135.67177 -9.0151443 -73.335274 -9.0105267 -74.200302 -0.062971294 -102.20772
9209875000 -1.0611433 135.63887 -9.0072708 -73.413574 -9.0033245 -74.085411 -0.059070088 -102.18544
9209937500 -1.0678731 135.73711 -9.0281029 -73.361336 -9.0253334 -74.163002 -0.074340351 -102.27597
9210000000 -1.0643811 135.63136 -9.0165024 -73.33017 -8.9964132 -74.086304 -0.067483082 -102.09778
9210062500 -1.0722618 135.65051 -9.0205898 -73.380913 -9.0171881 -74.12265 -0.075386509 -102.13145
9210125000 -1.0662428 135.57936 -9.0166235 -73.414589 -9.0107355 -74.166344 -0.064969644 -102.15687
9210187500 -1.0706079 135.60052 -9.0277815 -73.412613 -9.0021915 -74.10849 -0.061562378 -102.05807
9210250000 -1.0647066 135.60056 -9.0132294 -73.418358 -9.0039215 -74.103554 -0.065571681 -102.11034
9210312500 -1.0687056 135.5932 -9.0151644 -73.341293 -9.0111685 -74.24839 -0.064752243 -102.15871
9210375000 -1.0594625 135.56601 -9.0113039 -73.354034 -9.0144434 -74.078636 -0.066692181 -102.00047
9210437500 -1.0614629 135.49434 -9.0176487 -73.423653 -9.0086298 -74.188248 -0.057224825 -102.05442
9210500000 -1.0601807 135.51752 -9.0184793 -73.41301 -8.9998178 -74.127548 -0.057451442 -102.04652
9210562500 -1.072033 135.50755 -9.0145025 -73.414589 -9.0041103 -74.126534 -0.058739133 -101.99768
9210625000 -1.0645605 135.51254 -9.023241 -73.375183 -9.0200062 -74.014008 -0.073913835 -101.96989
9210687500 -1.0594792 135.47453 -9.0164633 -73.410835 -9.0112076 -74.193413 -0.072009385 -102.00356
9210750000 -1.0667117 135.47107 -9.0134277 -73.44223 -8.9978933 -74.141388 -0.066042498 -101.97518
9210812500 -1.0720268 135.43521 -9.0081072 -73.450661 -8.9990492 -74.05304 -0.065051474 -101.91185
9210875000 -1.0690243 135.41963 -9.0123339 -73.447159 -9.0051947 -74.110512 -0.069701493 -101.98429
9210937500 -1.0684596 135.47218 -9.0054541 -73.420471 -9.0045881 -74.055138 -0.074808829 -101.9572
9211000000 -1.0697056 135.45938 -9.0180387 -73.349899 -9.015523 -74.122322 -0.064199641 -101.91523
9211062500 -1.0647293 135.45566 -9.0049133 -73.306702 -8.9895821 -74.134468 -0.062757723 -101.90518
9211125000 -1.0618625 135.36574 -9.0111904 -73.40094 -8.9872389 -74.084511 -0.060184628 -101.82401
9211187500 -1.0732635 135.40704 -9.0103254 -73.308167 -8.9967461 -74.097389 -0.068590127 -101.84352
9211250000 -1.0686454 135.40263 -9.0035553 -73.353432 -9.0038652 -73.979019 -0.062384307 -101.77652
9211312500 -1.0625776 135.39067 -9.0056248 -73.378494 -8.9989014 -74.118813 -0.070765994 -101.84787
9211375000 -1.0648955 135.28139 -8.9999752 -73.372215 -8.9967575 -74.201752 -0.070506275 -101.78885
9211437500 -1.0668191 135.29996 -9.0045547 -73.387535 -8.9973364 -74.088181 -0.072306424 -101.78851
9211500000 -1.074513 135.26083 -9.0046196 -73.432365 -8.9879932 -74.091064 -0.064171225 -101.76974
9211562500 -1.0750413 135.32719 -9.0120764 -73.394073 -8.9881926 -74.097992 -0.070579551 -101.75005
9211625000 -1.0670922 135.25375 -8.990202 -73.407181 -8.9826326 -74.126175 -0.061032996 -101.7523
9211687500 -1.0684069 135.32845 -8.9964809 -73.35096 -8.9945316 -74.096535 -0.069704615 -101.67667
9211750000 -1.0686179 135.26494 -9.0008945 -73.249939 -8.9834785 -74.08551 -0.063770212 -101.65276
9211812500 -1.0698808 135.23666 -9.00809 -73.377823 -8.994916 -74.11393 -0.080890357 -101.66796
9211875000 -1.0711653 135.21895 -9.0002956 -73.393517 -8.9770393 -74.064316 -0.067131385 -101.61433
9211937500 -1.0676746 135.23853 -8.9956808 -73.365013 -8.9876566 -74.010323 -0.077798747 -101.63077
9212000000 -1.0676392 135.14517 -8.992979 -73.396744 -8.9836836 -74.062668 -0.068877429 -101.63359
9212062500 -1.0699987 135.13737 -8.9975452 -73.334435 -8.9878607 -74.097153 -0.070420109 -101.61734
9212125000 -1.0664368 135.08691 -8.9944439 -73.368591 -9.0086489 -74.082809 -0.078250319 -101.58574
9212187500 -1.0594293 135.15446 -8.9856882 -73.330452 -8.981636 -74.047829 -0.07450261 -101.55017
