!Agilent Technologies,N5242A,MY51221714,A.09.90.19
!Agilent N5242A: A.09.90.19
!Date: Tuesday, March 26, 2024 17:03:01
!Correction: S11(Full 2 Port(1,2)) 
!S21(Full 2 Port(1,2)) 
!S12(Full 2 Port(1,2)) 
!S22(Full 2 Port(1,2)) 
!S2P File: Measurements: S11, S21, S12, S22:
# Hz S  dB   R 50
9200000000 -0.9417249 140.7216 -9.3769407 -69.77005 -9.3583069 -70.513802 0.085329309 -101.71206
9200062500 -0.94502503 140.69762 -9.3641901 -69.852692 -9.3768702 -70.623032 0.084338322 -101.77206
9200125000 -0.94686019 140.65208 -9.3827038 -69.810753 -9.3685989 -70.492188 0.078809582 -101.64346
9200187500 -0.9510411 140.72668 -9.3704376 -69.68486 -9.3688784 -70.604454 0.090017051 -101.71713
9200250000 -0.93934733 140.63937 -9.3708391 -69.808701 -9.3692713 -70.530563 0.090000115 -101.68123
9200312500 -0.94861174 140.64737 -9.379344 -69.772499 -9.3637505 -70.53862 0.085171469 -101.67624
9200375000 -0.94575232 140.62915 -9.3709116 -69.798149 -9.3607016 -70.618057 0.095023416 -101.66529
9200437500 -0.93902522 140.63312 -9.3704586 -69.766777 -9.3679323 -70.559013 0.091751523 -101.63171
9200500000 -0.94206357 140.61272 -9.3744669 -69.77713 -9.3651876 -70.480186 0.081557408 -101.54999
9200562500 -0.94106644 140.60936 -9.3712406 -69.786957 -9.3681993 -70.491356 0.088927224 -101.64471
9200625000 -0.95071983 140.60425 -9.3798361 -69.757019 -9.3545122 -70.555092 0.084883921 -101.60531
9200687500 -0.93571943 140.63693 -9.3697443 -69.692764 -9.3584042 -70.504845 0.088403985 -101.54023
9200750000 -0.94846463 140.53964 -9.3716021 -69.841759 -9.361517 -70.500702 0.082918473 -101.59468
9200812500 -0.95810062 140.55992 -9.3767452 -69.710526 -9.3609028 -70.556343 0.078414991 -101.53542
9200875000 -0.93794137 140.60638 -9.3625078 -69.759605 -9.3645611 -70.516212 0.08912088 -101.55885
9200937500 -0.94453037 140.54155 -9.3826094 -69.709648 -9.370635 -70.489456 0.085025631 -101.4344
9201000000 -0.93300325 140.50461 -9.362546 -69.840385 -9.360528 -70.551094 0.085546687 -101.47235
9201062500 -0.9387337 140.4774 -9.3562241 -69.765854 -9.3508425 -70.513206 0.082903363 -101.46598
9201125000 -0.94095916 140.50696 -9.3619347 -69.717308 -9.3634911 -70.492119 0.076390088 -101.44418
9201187500 -0.94761664 140.44188 -9.3731318 -69.724571 -9.3608751 -70.478951 0.076297157 -101.30966
9201250000 -0.95078921 140.49315 -9.3632936 -69.709183 -9.3721886 -70.438972 0.082819946 -101.35489
9201312500 -0.95360774 140.46124 -9.3632317 -69.685432 -9.3592625 -70.467957 0.095020555 -101.40584
9201375000 -0.95207834 140.4259 -9.3734093 -69.705704 -9.3679171 -70.415504 0.073837221 -101.31213
9201437500 -0.93989736 140.40723 -9.3673382 -69.726715 -9.3584585 -70.467392 0.081865013 -101.40327
9201500000 -0.94369859 140.41293 -9.3654985 -69.702805 -9.3634062 -70.376778 0.082728565 -101.3003
9201562500 -0.94377571 140.36771 -9.3614655 -69.727119 -9.362833 -70.451012 0.074798197 -101.30902
9201625000 -0.94725209 140.4057 -9.3635426 -69.678223 -9.3563337 -70.438652 0.075113177 -101.24215
9201687500 -0.95436305 140.38713 -9.3654966 -69.65567 -9.3556604 -70.478516 0.083038814 -101.23311
9201750000 -0.94550216 140.36101 -9.3734827 -69.658287 -9.3482761 -70.474052 0.083499968 -101.23035
9201812500 -0.94229388 140.35791 -9.3773727 -69.708046 -9.361764 -70.426758 0.07624203 -101.24673
9201875000 -0.94494146 140.32744 -9.3646746 -69.747002 -9.3593245 -70.462578 0.082726762 -101.21049
9201937500 -0.95337653 140.27605 -9.3773203 -69.742996 -9.3513145 -70.521591 0.087294191 -101.25957
9202000000 -0.94456512 140.3004 -9.354846 -69.693924 -9.3496532 -70.514183 0.0837982 -101.17989
9202062500 -0.95464206 140.32033 -9.3651447 -69.695274 -9.3437357 -70.425728 0.086486988 -101.12811
9202125000 -0.9543038 140.28952 -9.3909893 -69.735695 -9.3542233 -70.38591 0.076043673 -101.15257
9202187500 -0.94219798 140.24773 -9.3564053 -69.754509 -9.3542728 -70.446365 0.077543519 -101.07383
9202250000 -0.94477481 140.26337 -9.3658381 -69.653313 -9.3476391 -70.411774 0.074032106 -101.10829
9202312500 -0.94280374 140.28709 -9.3619938 -69.680153 -9.3497429 -70.551651 0.074022852 -101.14051
9202375000 -0.9507814 140.19934 -9.3661013 -69.690002 -9.3489265 -70.419792 0.073055319 -101.00935
9202437500 -0.94613391 140.25424 -9.3578987 -69.692467 -9.3414297 -70.400467 0.086456746 -101.07434
9202500000 -0.95220369 140.20607 -9.359787 -69.743362 -9.3578272 -70.446274 0.077140026 -101.1011
9202562500 -0.94125682 140.16769 -9.3538752 -69.669731 -9.354558 -70.398094 0.072197296 -101.02104
9202625000 -0.94463223 140.2406 -9.3587084 -69.669273 -9.3454132 -70.386276 0.078281485 -101.00964
9202687500 -0.94953179 140.17746 -9.3607311 -69.710884 -9.3452587 -70.436279 0.086832665 -100.96378
9202750000 -0.93727857 140.14905 -9.3505135 -69.628197 -9.3441429 -70.488983 0.079320237 -101.00759
9202812500 -0.94186664 140.1582 -9.3532963 -69.659676 -9.3403549 -70.449104 0.085805602 -100.9087
9202875000 -0.93852848 140.13986 -9.3480511 -69.645607 -9.3483515 -70.472427 0.080389269 -100.92023
9202937500 -0.94107676 140.09706 -9.3560038 -69.744507 -9.3429966 -70.361786 0.080853149 -100.89482
9203000000 -0.9423421 140.15259 -9.3515377 -69.690239 -9.3475161 -70.411011 0.078996874 -100.81918
9203062500 -0.94180697 140.09879 -9.3557835 -69.648026 -9.3455734 -70.441917 0.071895882 -100.91477
9203125000 -0.94210958 140.04396 -9.3561106 -69.702988 -9.3384533 -70.43856 0.080673315 -100.88361
9203187500 -0.94269347 140.0451 -9.3529987 -69.719246 -9.3417912 -70.493301 0.077748753 -100.87105
9203250000 -0.94532603 140.01775 -9.3464136 -69.67128 -9.3345823 -70.386909 0.085540809 -100.83836
9203312500 -0.95438957 139.99394 -9.349658 -69.745232 -9.3434706 -70.457573 0.079895005 -100.84594
9203375000 -0.9432224 140.00494 -9.3477058 -69.617767 -9.3420916 -70.326714 0.084206469 -100.72226
9203437500 -0.94791859 140.04782 -9.3556433 -69.683762 -9.3418646 -70.416527 0.077061526 -100.82961
9203500000 -0.94298708 139.99544 -9.3428211 -69.52948 -9.3371897 -70.371628 0.08847215 -100.76653
9203562500 -0.95242852 139.99313 -9.3587236 -69.626419 -9.3585052 -70.414368 0.067285761 -100.78239
9203625000 -0.95063418 139.94705 -9.3650541 -69.689697 -9.3529444 -70.380486 0.071033202 -100.79826
9203687500 -0.95742887 139.94368 -9.3700714 -69.667892 -9.3461018 -70.424835 0.070637189 -100.73617
9203750000 -0.94822949 139.93527 -9.3471327 -69.597084 -9.3312082 -70.36628 0.088213392 -100.7121
9203812500 -0.94976938 139.91592 -9.3391333 -69.682251 -9.3453531 -70.328568 0.079782873 -100.64958
9203875000 -0.94652152 139.95181 -9.3515759 -69.626228 -9.3467903 -70.399727 0.063396089 -100.67127
9203937500 -0.95588249 139.90033 -9.3456793 -69.696312 -9.3402672 -70.399483 0.07769379 -100.70552
9204000000 -0.94610471 139.92062 -9.3352652 -69.653091 -9.3446283 -70.331863 0.07835187 -100.58337
9204062500 -0.94518924 139.90031 -9.3454924 -69.660065 -9.3365011 -70.40303 0.068725258 -100.64828
9204125000 -0.95274866 139.88179 -9.3489914 -69.632629 -9.3368826 -70.393501 0.08370655 -100.58968
9204187500 -0.9563024 139.82173 -9.3490686 -69.627869 -9.3412495 -70.412308 0.068171442 -100.59972
9204250000 -0.94659948 139.85457 -9.3350248 -69.569252 -9.3442688 -70.374161 0.072800085 -100.63547
9204312500 -0.94716287 139.83653 -9.3475933 -69.60556 -9.3340263 -70.416542 0.069214195 -100.49001
9204375000 -0.94054312 139.80829 -9.3471193 -69.640938 -9.3347673 -70.349686 0.071443945 -100.5605
9204437500 -0.9566384 139.83725 -9.3510628 -69.652802 -9.3341389 -70.317268 0.077987753 -100.51311
9204500000 -0.95679945 139.80496 -9.3458176 -69.672974 -9.3390789 -70.382362 0.073558472 -100.49957
9204562500 -0.94464201 139.77309 -9.3470182 -69.716675 -9.3323393 -70.367317 0.083679892 -100.52547
9204625000 -0.93804079 139.74309 -9.3403263 -69.546799 -9.3272314 -70.385666 0.078031234 -100.41896
9204687500 -0.9477368 139.75127 -9.3496904 -69.602821 -9.3344564 -70.402885 0.075602695 -100.39691
9204750000 -0.95379865 139.74709 -9.3382816 -69.558456 -9.3299303 -70.37307 0.06839595 -100.4183
9204812500 -0.94142801 139.74155 -9.3398972 -69.573959 -9.3335142 -70.354904 0.080138989 -100.39387
9204875000 -0.94545281 139.76825 -9.3360291 -69.631302 -9.3498077 -70.32251 0.064896904 -100.42791
9204937500 -0.94629425 139.68425 -9.3408289 -69.667534 -9.329175 -70.319588 0.077229857 -100.34457
9205000000 -0.93492955 139.64349 -9.3295221 -69.588661 -9.3240814 -70.312645 0.067515314 -100.37191
9205062500 -0.95007426 139.66014 -9.3446789 -69.62468 -9.3194637 -70.322464 0.076340131 -100.31393
9205125000 -0.94960839 139.66849 -9.3383322 -69.62674 -9.3285732 -70.364449 0.067530856 -100.29978
9205187500 -0.94946587 139.70093 -9.3430281 -69.514961 -9.3410397 -70.278976 0.066607803 -100.22981
9205250000 -0.94132829 139.61696 -9.3386383 -69.674347 -9.3334227 -70.329056 0.062727459 -100.34479
9205312500 -0.94751316 139.70673 -9.3329973 -69.537239 -9.3319168 -70.287384 0.066949949 -100.28066
9205375000 -0.95010966 139.59009 -9.3285694 -69.535011 -9.327343 -70.283249 0.079260133 -100.20679
9205437500 -0.93911731 139.62073 -9.3308868 -69.542419 -9.3364105 -70.369102 0.066788398 -100.28303
9205500000 -0.95871133 139.54521 -9.3421555 -69.529335 -9.3269157 -70.322334 0.078241579 -100.14053
9205562500 -0.94593185 139.60477 -9.3191814 -69.533875 -9.3279848 -70.358177 0.074266419 -100.19049
9205625000 -0.94945127 139.53958 -9.3324404 -69.592392 -9.3296242 -70.335365 0.068360038 -100.14438
9205687500 -0.94592619 139.61208 -9.3270111 -69.50766 -9.3246651 -70.389832 0.07063704 -100.1587
9205750000 -0.95136982 139.50017 -9.3301048 -69.588348 -9.332078 -70.337448 0.071290836 -100.14947
9205812500 -0.94627631 139.46918 -9.3189173 -69.59436 -9.3284578 -70.339127 0.070889726 -100.05614
9205875000 -0.94048458 139.55281 -9.338728 -69.512939 -9.3276358 -70.304138 0.071068801 -100.11842
9205937500 -0.95119125 139.4973 -9.3378649 -69.585808 -9.3194542 -70.291519 0.071070932 -100.0878
9206000000 -0.95254922 139.51079 -9.3228884 -69.551964 -9.3247795 -70.332115 0.069381543 -100.0787
9206062500 -0.95063192 139.48878 -9.335597 -69.586205 -9.327548 -70.256905 0.064266987 -100.05782
9206125000 -0.9434194 139.46332 -9.3227596 -69.51474 -9.3180447 -70.302277 0.069652915 -100.01351
9206187500 -0.95079005 139.48672 -9.3300705 -69.506882 -9.3189602 -70.307083 0.075357623 -99.98349
9206250000 -0.95300359 139.40733 -9.3368378 -69.643608 -9.3240118 -70.296883 0.06820333 -100.02525
9206312500 -0.94489604 139.35658 -9.3293276 -69.554115 -9.3274632 -70.400635 0.07310424 -100.0089
9206375000 -0.94500011 139.4174 -9.3177013 -69.563805 -9.3261099 -70.266647 0.065834828 -99.999344
9206437500 -0.94095057 139.37881 -9.3210726 -69.503387 -9.3295298 -70.301308 0.059645541 -99.96386
9206500000 -0.94856733 139.36873 -9.3277493 -69.527229 -9.3226929 -70.253838 0.059326611 -99.982384
9206562500 -0.95503235 139.34386 -9.3393993 -69.637108 -9.3176441 -70.231491 0.073265113 -99.955788
9206625000 -0.94890249 139.30003 -9.325778 -69.505142 -9.3198185 -70.352737 0.065600075 -99.922028
9206687500 -0.954072 139.32018 -9.3253479 -69.583542 -9.313283 -70.358948 0.081066623 -99.978127
9206750000 -0.94806319 139.32719 -9.3287954 -69.507172 -9.3196211 -70.247086 0.067477331 -99.861809
9206812500 -0.9430837 139.3353 -9.3327646 -69.518799 -9.3283663 -70.309776 0.074670136 -99.896843
9206875000 -0.94928217 139.33574 -9.3249092 -69.563835 -9.3129244 -70.287178 0.075633951 -99.785362
9206937500 -0.95239323 139.31801 -9.3273239 -69.551758 -9.3286381 -70.294083 0.06144961 -99.814133
9207000000 -0.94402975 139.30211 -9.3282375 -69.541412 -9.3240538 -70.279633 0.061830796 -99.814926
9207062500 -0.94509858 139.27902 -9.3132763 -69.512756 -9.3073168 -70.222519 0.070808366 -99.698036
9207125000 -0.95311344 139.22227 -9.3151741 -69.568985 -9.3113785 -70.33931 0.06975463 -99.726662
9207187500 -0.94186413 139.20044 -9.3134022 -69.628448 -9.3232679 -70.274925 0.060128596 -99.786438
9207250000 -0.9441427 139.17857 -9.3182726 -69.548927 -9.3237886 -70.258095 0.069006078 -99.766022
9207312500 -0.93982291 139.18134 -9.3140907 -69.554001 -9.3096676 -70.259193 0.070836842 -99.735367
9207375000 -0.95059067 139.15517 -9.330698 -69.520447 -9.3119755 -70.268005 0.063887708 -99.695786
9207437500 -0.94149971 139.23634 -9.3155718 -69.536049 -9.3247385 -70.277168 0.062013991 -99.723183
9207500000 -0.95073611 139.2144 -9.3284388 -69.524414 -9.3069715 -70.271088 0.057503443 -99.706161
9207562500 -0.94211775 139.18576 -9.3094692 -69.554543 -9.3098564 -70.255791 0.055249453 -99.731644
9207625000 -0.94589227 139.10358 -9.311471 -69.464493 -9.3061419 -70.239685 0.074163824 -99.593163
9207687500 -0.94735765 139.14854 -9.3140984 -69.5327 -9.3109179 -70.194908 0.068157941 -99.616135
9207750000 -0.95043826 139.09377 -9.3177052 -69.520332 -9.3061781 -70.249771 0.072099447 -99.619278
9207812500 -0.94640213 139.08023 -9.3118353 -69.551338 -9.3092871 -70.21273 0.058970094 -99.607124
9207875000 -0.95234758 139.09677 -9.3279562 -69.4319 -9.3048859 -70.234116 0.073073126 -99.566483
9207937500 -0.95251977 139.02533 -9.3249207 -69.43956 -9.3171787 -70.259789 0.057333283 -99.531464
9208000000 -0.95247668 139.04938 -9.3147449 -69.498276 -9.3021145 -70.261833 0.076912083 -99.534569
9208062500 -0.94988197 139.05513 -9.3240681 -69.433067 -9.3109426 -70.2528 0.062686235 -99.502617
9208125000 -0.95104766 139.01649 -9.3146696 -69.483604 -9.306798 -70.199509 0.065570436 -99.466156
9208187500 -0.94340879 139.03825 -9.3190527 -69.446426 -9.3125229 -70.196037 0.067853786 -99.504189
9208250000 -0.95414758 139.02919 -9.3113842 -69.436485 -9.3043375 -70.244942 0.070152462 -99.433662
9208312500 -0.94559878 138.98663 -9.3182468 -69.495827 -9.2978525 -70.238701 0.066126771 -99.455666
9208375000 -0.9522934 139.01584 -9.3075256 -69.469757 -9.304616 -70.232513 0.061404116 -99.416824
9208437500 -0.95501363 138.91302 -9.3160849 -69.539139 -9.301734 -70.16275 0.063837558 -99.384903
9208500000 -0.94999862 138.8889 -9.3119249 -69.600296 -9.3060637 -70.309807 0.061650701 -99.465225
9208562500 -0.95157754 138.94386 -9.3151007 -69.542099 -9.3127728 -70.249962 0.057209939 -99.409904
9208625000 -0.94780844 138.90405 -9.2966537 -69.45266 -9.3032904 -70.13044 0.056722023 -99.364105
9208687500 -0.94322908 138.90033 -9.2925425 -69.520744 -9.2943134 -70.205009 0.071316741 -99.344711
9208750000 -0.94828039 138.92531 -9.3066492 -69.436295 -9.2994528 -70.202812 0.068140626 -99.349113
9208812500 -0.95415258 138.9435 -9.3254719 -69.414207 -9.3058205 -70.223785 0.064698711 -99.286079
9208875000 -0.95398688 138.85719 -9.3090706 -69.519058 -9.3000383 -70.24012 0.063197471 -99.263329
9208937500 -0.94953501 138.83562 -9.3035917 -69.487068 -9.3003759 -70.141464 0.064738385 -99.255287
9209000000 -0.94447279 138.85725 -9.3204079 -69.477402 -9.2984447 -70.162537 0.06103579 -99.283646
9209062500 -0.94930595 138.83533 -9.3047829 -69.452698 -9.3079596 -70.214943 0.063384697 -99.230591
9209125000 -0.95093113 138.79774 -9.3019781 -69.513847 -9.2983332 -70.203201 0.065067321 -99.195679
9209187500 -0.95330167 138.85374 -9.2979879 -69.470642 -9.3001308 -70.174126 0.060320187 -99.225937
9209250000 -0.94344693 138.78128 -9.3008738 -69.477264 -9.2910051 -70.238159 0.065472268 -99.12854
9209312500 -0.94938076 138.7292 -9.3085423 -69.444771 -9.2937555 -70.225639 0.049988989 -99.197472
9209375000 -0.94064707 138.79025 -9.3065701 -69.427437 -9.3086805 -70.14637 0.052793089 -99.149239
9209437500 -0.95958793 138.73097 -9.3120193 -69.417519 -9.2987604 -70.231895 0.060935408 -99.103661
9209500000 -0.94242477 138.71318 -9.3012514 -69.53067 -9.2886791 -70.145958 0.064937323 -99.073189
9209562500 -0.95407009 138.72731 -9.3068695 -69.445007 -9.2960005 -70.179169 0.049048737 -99.070686
9209625000 -0.94785684 138.71194 -9.2969875 -69.42334 -9.2942047 -70.193192 0.057526272 -99.013077
9209687500 -0.947878 138.64465 -9.2893124 -69.448448 -9.2921314 -70.121384 0.06275937 -99.002419
9209750000 -0.94970739 138.63565 -9.2889147 -69.569633 -9.2970839 -70.14772 0.067525283 -99.062698
9209812500 -0.94457698 138.702 -9.2984924 -69.366531 -9.3061295 -70.18634 0.059182867 -98.959938
9209875000 -0.95237917 138.65303 -9.3034039 -69.417442 -9.2891445 -70.177032 0.061389778 -98.99395
9209937500 -0.95009649 138.72813 -9.3064833 -69.379852 -9.3013544 -70.154961 0.054519888 -99.064896
9210000000 -0.94100237 138.65454 -9.2910309 -69.334236 -9.2867222 -70.139465 0.044338875 -98.946327
9210062500 -0.95267111 138.62833 -9.3073874 -69.479874 -9.2925634 -70.128098 0.062252868 -98.907089
9210125000 -0.94508046 138.60136 -9.3032408 -69.405426 -9.2808619 -70.140091 0.060568761 -98.921921
9210187500 -0.95059502 138.63512 -9.308754 -69.432411 -9.2748594 -70.146751 0.062841691 -98.913826
9210250000 -0.95278972 138.61563 -9.2983875 -69.446709 -9.2842827 -70.110794 0.055524785 -98.907013
9210312500 -0.95566297 138.5972 -9.3026667 -69.417923 -9.2986126 -70.138069 0.053743735 -98.909081
9210375000 -0.94592702 138.60382 -9.3057432 -69.399239 -9.2925348 -70.138618 0.050870024 -98.794479
9210437500 -0.94622511 138.55409 -9.30373 -69.416771 -9.2957602 -70.227905 0.059785649 -98.91288
9210500000 -0.94519407 138.52611 -9.290535 -69.466385 -9.2855234 -70.133507 0.057227906 -98.840424
9210562500 -0.95371926 138.48885 -9.3023901 -69.367966 -9.2890482 -70.129913 0.050494734 -98.759109
9210625000 -0.94755191 138.50873 -9.30797 -69.393723 -9.3007803 -70.086342 0.048643485 -98.84185
9210687500 -0.94967216 138.50044 -9.3014317 -69.397842 -9.2935143 -70.188782 0.050004251 -98.774597
9210750000 -0.95442075 138.46263 -9.2965708 -69.466492 -9.286087 -70.112495 0.058031239 -98.7519
9210812500 -0.9532479 138.46664 -9.2978363 -69.417801 -9.2790966 -70.071785 0.053347412 -98.750175
9210875000 -0.95155227 138.41711 -9.2990198 -69.420975 -9.2832022 -70.118172 0.054390874 -98.806755
9210937500 -0.9442066 138.50946 -9.2949991 -69.388748 -9.2806196 -70.054237 0.049618907 -98.707253
9211000000 -0.94644338 138.46521 -9.2997351 -69.421898 -9.2888203 -70.088242 0.061053965 -98.724823
9211062500 -0.94692314 138.41945 -9.2891388 -69.346008 -9.2880182 -70.100723 0.046811894 -98.684265
9211125000 -0.94493139 138.34912 -9.283618 -69.428299 -9.2730007 -70.106445 0.065002449 -98.659592
9211187500 -0.95544702 138.3893 -9.2900734 -69.444839 -9.282259 -70.093147 0.049082413 -98.637901
9211250000 -0.95658022 138.37119 -9.2901707 -69.382919 -9.2948074 -70.033653 0.058866285 -98.61953
9211312500 -0.94715321 138.40536 -9.2903938 -69.347237 -9.2841482 -70.074745 0.056994073 -98.639374
9211375000 -0.94856018 138.30443 -9.2798958 -69.417892 -9.2782507 -70.154236 0.052161135 -98.574974
9211437500 -0.94414091 138.32243 -9.274272 -69.344772 -9.2827387 -70.149353 0.054508228 -98.585381
9211500000 -0.95641857 138.2932 -9.3021727 -69.402168 -9.2862673 -70.107735 0.050841272 -98.628296
9211562500 -0.95415944 138.36934 -9.2910347 -69.366432 -9.2807732 -70.137978 0.047335584 -98.589684
9211625000 -0.95064914 138.3015 -9.2742815 -69.369743 -9.2757616 -70.200142 0.059141427 -98.57431
9211687500 -0.95207822 138.31551 -9.2952204 -69.322617 -9.2811947 -70.025185 0.046011772 -98.447945
9211750000 -0.95270735 138.2634 -9.2822094 -69.368095 -9.280798 -70.121658 0.056903105 -98.46759
9211812500 -0.95496267 138.24615 -9.3017635 -69.435013 -9.2879715 -70.06498 0.040341061 -98.512825
9211875000 -0.9556995 138.20143 -9.2883282 -69.415459 -9.2796755 -70.034195 0.051257994 -98.386284
9211937500 -0.95256799 138.23766 -9.2908869 -69.376938 -9.2793331 -70.058037 0.044812363 -98.406525
9212000000 -0.94831812 138.17513 -9.2835188 -69.388481 -9.2806072 -70.11602 0.048019458 -98.433167
9212062500 -0.95305306 138.18336 -9.2970514 -69.356041 -9.2706041 -70.078453 0.040633034 -98.414703
9212125000 -0.94729573 138.12746 -9.2755556 -69.388596 -9.2888918 -70.071419 0.050598003 -98.359436
9212187500 -0.943183 138.16742 -9.2770033 -69.297256 -9.2668743 -70.052475 0.044634093 -98.339836
